"Freq [GHz]","re(St(P1,P1)) []","im(St(P1,P1)) []","re(St(P1,P2)) []","im(St(P1,P2)) []","re(St(P2,P1)) []","im(St(P2,P1)) []","re(St(P2,P2)) []","im(St(P2,P2)) []"
0,0.00425991850090668,0,0.995752699978766,0,0.99575269962952,0,0.00425991895497191,0
0.5,0.00462343176342017,0.00109162898526805,0.995356015793909,-0.0042954041704597,0.99535601589735,-0.00429540414775431,0.00462332197882631,0.00109205843539684
1,0.00498173721774009,0.00172552151805405,0.994932387603395,-0.00812753643546671,0.994932387509927,-0.00812753643633002,0.00498145663194904,0.00172650582884515
1.5,0.00520310794087564,0.00223095293282327,0.994607758021777,-0.0120118647548111,0.994607757948044,-0.012011864760975,0.00520253470269694,0.00223242365367682
2,0.00533035226236755,0.00272868146625171,0.994269375045354,-0.0157760471368071,0.994269374992063,-0.0157760471494512,0.00532951171491369,0.00273079786817476
2.5,0.00541557951904892,0.00324147935381092,0.993948496585753,-0.019453323515588,0.993948496551466,-0.0194533235336536,0.00541451561041661,0.00324429311056562
3,0.00548289713279981,0.00376885376234526,0.993651850886011,-0.0230745802800509,0.993651850868289,-0.0230745803012571,0.0054816318782045,0.00377237913087924
3.5,0.00554337463153498,0.00430737416026972,0.99337432825483,-0.0266614418820712,0.993374328250752,-0.0266614419038049,0.00554191314789154,0.00431161496636889
4,0.00560244741030358,0.00485411417512616,0.993107189886065,-0.0302272449267491,0.993107189892493,-0.0302272449466852,0.00560078466864145,0.00485907242350514
4.5,0.00566298815677202,0.00540696350623726,0.992841811231242,-0.03377973755663,0.992841811245016,-0.0337797375730151,0.00566111320850782,0.00541264202886893
5,0.00572662083191133,0.00596444768318527,0.99257094895548,-0.0373233092517804,0.992570948973561,-0.0373233092635097,0.00572451922113837,0.00597085088463345
5.5,0.00579432021477455,0.00652553340102635,0.992288936143501,-0.0408604291368242,0.992288936163091,-0.040860429143418,0.00579197535965825,0.00653266739482916
6,0.00586670403770539,0.00708948670595433,0.991991499214759,-0.0443924848186352,0.991991499233386,-0.0443924848201203,0.00586409804436849,0.00709735926594313
6.5,0.00594418407519659,0.00765577778011739,0.991675485318233,-0.0479202496151618,0.991675485333785,-0.0479202496119555,0.00594129823473666,0.00766439824795739
7,0.00602704848734392,0.00822401798735672,0.99133860463164,-0.0514441381751807,0.991338604642371,-0.0514441381679784,0.00602386359101104,0.00823339718203631
7.5,0.00611550879452838,0.00879391798534712,0.990979217174796,-0.05496434649372,0.990979217179309,-0.0549643464833851,0.00611200534143297,0.00880406812752366
8,0.00620972776576023,0.00936525945298783,0.990596166217781,-0.0584809300238316,0.990596166214994,-0.0584809300113172,0.00620588610519102,0.00937619410586166
8.5,0.0063098365654809,0.0099378756778199,0.990188651717987,-0.0619938488430929,0.990188651707094,-0.0619938488293785,0.00630563699840769,0.00994960970270942
9,0.00641594562710246,0.010511637988075,0.989756135620738,-0.0655029951718076,0.989756135601169,-0.0655029951578534,0.00641136848164559,0.01052418751215
9.5,0.00652815174078825,0.0110864461024676,0.989298271624917,-0.069008211234407,0.989298271596288,-0.0690082112211261,0.00652317743075048,0.0110998284962509
10,0.00664654278892673,0.011662221150269,0.988814853379575,-0.0725093016258613,0.988814853341661,-0.072509301614101,0.00664115186120517,0.0116764550128812
10.5,0.00678603301309649,0.0122233345077385,0.988364345952832,-0.076008982390892,0.988364345915246,-0.0760089823777435,0.00678023822119855,0.0122383373394612
11,0.00693144498372894,0.0127814518645071,0.987902104056058,-0.0794968740239836,0.987902104018924,-0.0794968740094655,0.00692522847988536,0.01279723156886
11.5,0.00708266837302501,0.013336479395357,0.987428730835285,-0.0829734052377482,0.987428730798719,-0.0829734052218916,0.00707601253741369,0.0133530441494987
12,0.00723959097641425,0.0138883288087177,0.986944758274525,-0.0864390238373334,0.986944758238638,-0.086439023820188,0.00723247842038111,0.0139056870523779
12.5,0.00740209903957989,0.0144369173506096,0.986450650468947,-0.0898941885327087,0.986450650433843,-0.0898941885143261,0.00739451260818047,0.0144550777751498
13,0.00757007757913197,0.0149821677873492,0.985946807530662,-0.0933393618208038,0.985946807496433,-0.0933393618012541,0.00756200035301188,0.0150011393249434
13.5,0.00774341069546269,0.015524008367918,0.985433569927788,-0.0967750039093458,0.98543356989452,-0.096775003888693,0.00773482599211384,0.015543800180966
14,0.00792198187647891,0.0160623727671716,0.984911223084684,-0.100201567629465,0.984911223052452,-0.100201567607792,0.00791287325088924,0.0160829942379115
14.5,0.00810567429099665,0.0165972000109615,0.984380002098555,-0.103619494266965,0.984380002067423,-0.103619494244352,0.00809602553574448,0.0166186607313845
15,0.00829437107076329,0.017128434384492,0.983840096454001,-0.107029210231087,0.983840096424025,-0.10702921020762,0.00828416621557569,0.0171507441465382
15.5,0.00848795558016877,0.017656025325111,0.983291654641462,-0.110431124474109,0.983291654612688,-0.110431124449875,0.00847717889098856,0.0176791941112118
16,0.00868631167286102,0.0181799273009489,0.982734788607475,-0.113825626573507,0.982734788579941,-0.113825626548595,0.00867494765045791,0.01820396527491
16.5,0.00888932393461665,0.0187000996766353,0.982169577983883,-0.117213085390222,0.982169577957617,-0.117213085364716,0.00887735731278078,0.0187250171749049
17,0.00909687791193567,0.0192165065675503,0.981596074059574,-0.120593848220492,0.981596074034595,-0.120593848194484,0.00908429365529381,0.0192423140908766
17.5,0.00930886032597196,0.0197291166838918,0.981014303472064,-0.123968240364446,0.981014303448387,-0.12396824033802,0.00929564362746417,0.0197558248893843
18,0.00952515927151866,0.0202379031659099,0.980424271607452,-0.127336565041109,0.980424271585082,-0.127336565014348,0.00951129554957128,0.0202655228595208
18.5,0.00974566440089245,0.0207428434116346,0.97982596570617,-0.130699103586609,0.979825965685107,-0.130699103559595,0.00973113929633006,0.0207713855410474
19,0.00997026709266306,0.0212439188983438,0.979219357678899,-0.134056115879489,0.979219357659136,-0.134056115852299,0.00995506646539489,0.0212733945463057
19.5,0.0101988606052876,0.0217411149990214,0.978604406642178,-0.137407840944089,0.978604406623703,-0.137407840916798,0.0101829705307973,0.0217715353770842
20,0.0104313402157798,0.0222344207949976,0.977981061186968,-0.140754497689595,0.977981061169764,-0.140754497662276,0.0104147469814651,0.0222657972376878
20.5,0.0106676033436576,0.0227238288858733,0.977349261395941,-0.144096285748595,0.977349261379988,-0.144096285721314,0.010650293445044,0.0227561728452783
21,0.0109075496604708,0.0232093351978357,0.976708940626822,-0.147433386384551,0.976708940612096,-0.147433386357374,0.0108895097973342,0.0232426582385972
21.5,0.011151081185284,0.0236909387913244,0.976060027079849,-0.150765963442805,0.976060027066321,-0.150765963415789,0.0111322982577081,0.0237252525860363
22,0.0113981023665528,0.0241686416690312,0.975402445167623,-0.154094164324085,0.975402445155262,-0.154094164297289,0.011378563470956,0.024203957994025
22.5,0.0116485201508733,0.024642448585054,0.974736116705287,-0.157418120963577,0.97473611669406,-0.15741812093705,0.0116282125760252,0.0246787793165626
23,0.011902244039157,0.025112366856074,0.974060961938407,-0.160737950801857,0.97406096192828,-0.160737950775651,0.0118811552622105,0.0251497239667562
23.5,0.0121591861307755,0.0255784061751854,0.973376900425021,-0.164053757737134,0.973376900415957,-0.164053757711291,0.0121373038133344,0.0256168017310046
24,0.0124192611562884,0.0260405784291429,0.972683851787372,-0.167365633050475,0.972683851779333,-0.167365633025035,0.0123965731405364,0.0260800245865709
24.5,0.012682386499366,0.0264988975195233,0.971981736347716,-0.170673656298021,0.971981736340664,-0.170673656273022,0.0126588808042699,0.0265394065230646
25,0.0129484822085512,0.0269533791883831,0.971270475661492,-0.173977896165753,0.971270475655386,-0.17397789614123,0.0129241470261536,0.0269949633683977
25.5,0.0132174709994906,0.0274040408488379,0.970549992959978,-0.177278411283917,0.970549992954777,-0.1772784112599,0.0131922946913132,0.0274467126196392
26,0.0134892782482991,0.0278509014209556,0.969820213513489,-0.180575250999324,0.969820213509155,-0.180575250975841,0.0134632493418621,0.0278946732791856
26.5,0.0137638319766937,0.0282939811733116,0.969081064925085,-0.183868456104721,0.969081064921576,-0.183868456081794,0.0137369391621672,0.0283388656965431
27,0.0140410628295443,0.0287333015704547,0.968332477363727,-0.187158059525155,0.968332477361003,-0.187158059502805,0.0140132949565372,0.0287793114160371
27.5,0.014320904045473,0.0291688851265199,0.967574383744951,-0.190444086961861,0.96757438374297,-0.190444086940107,0.0142922501199707,0.0292160330306235
28,0.0146032914211173,0.0296007552651449,0.966806719866159,-0.19372655749464,0.966806719864884,-0.193726557473498,0.0145737406025722,0.0296490540420047
28.5,0.0148881632696676,0.0300289361858139,0.966029424502923,-0.197005484144047,0.966029424502313,-0.197005484123528,0.014857704868246,0.0300783987271447
29,0.0151754603742497,0.0304534527367055,0.965242439471868,-0.200280874394924,0.965242439471886,-0.200280874375041,0.0151440838482444,0.0305040920112796
29.5,0.0154651259367324,0.0308743302940755,0.964445709665131,-0.203552730683034,0.964445709665738,-0.203552730663795,0.0154328208901344,0.0309261593474401
30,0.0157571055224827,0.0312915946481707,0.963639183060717,-0.206821050846613,0.963639183061876,-0.206821050828024,0.0157238617027227,0.0313446266024957
30.5,0.0160513470015929,0.0317052718956456,0.96282281071258,-0.210085828544727,0.962822810714256,-0.210085828526792,0.0160171542974471,0.0317595199496818
31,0.0163478004870715,0.0321153883384178,0.961996546723764,-0.213347053644348,0.96199654672592,-0.213347053627069,0.0163126489267318,0.0321708657675508
31.5,0.0166464182704543,0.0325219703888531,0.961160348205488,-0.216604712578045,0.961160348208091,-0.216604712561425,0.0166102980197617,0.0325786905452488
32,0.0169471547552738,0.0329250444811771,0.960314175224732,-0.219858788674171,0.96031417522775,-0.219858788658207,0.0169100561161176,0.0329830207939936
32.5,0.0172499663888059,0.0333246369889821,0.959457990742474,-0.223109262461303,0.959457990745872,-0.223109262445994,0.0172118797976743,0.033383882964644
33,0.0175548115924612,0.0337207741486636,0.958591760544478,-0.226356111948735,0.958591760548227,-0.226356111934076,0.0175157276191548,0.0337813033711809
33.5,0.0178616506911953,0.0341134819886149,0.95771545316627,-0.229599312884651,0.957715453170339,-0.229599312870638,0.0178215600376871,0.0341753081199432
34,0.0181704458422522,0.0345027862640102,0.956829039813671,-0.232838838993578,0.956829039818033,-0.232838838980205,0.0181293393416954,0.0345659230444384
34.5,0.0184811609635538,0.0348887123969697,0.955932494280098,-0.236074662194618,0.955932494284724,-0.236074662181877,0.0184390295794352,0.0349531736455233
35,0.0187937616620186,0.0352712854219206,0.955025792861631,-0.239306752801868,0.955025792866494,-0.239306752789751,0.0187505964874443,0.0353370850367751
35.5,0.0191082151620521,0.0356505299359302,0.954108914270719,-0.242535079708368,0.954108914275795,-0.242535079696866,0.0190640074191696,0.0357176818948275
36,0.0194244902344554,0.0360264700538122,0.95318183954924,-0.245759610554807,0.953181839554503,-0.245759610543911,0.0193792312740001,0.0360949884144703
36.5,0.0197425571259531,0.0363991293677897,0.952244551981527,-0.248980311884168,0.952244551986956,-0.248980311873865,0.0196962384269174,0.036469028268302
37,0.0200623874895315,0.0367685309115042,0.951297037007871,-0.252197149283366,0.951297037013442,-0.252197149273647,0.0200150006589473,0.0368398245707142
37.5,0.020383954315755,0.0371346971281312,0.950339282138901,-0.255410087512935,0.950339282144594,-0.255410087503786,0.0203354910885883,0.0372073998459912
38,0.0207072318652114,0.0374976498424313,0.949371276871215,-0.258619090625644,0.94937127687701,-0.258619090617055,0.0206576841043592,0.0375717760003251
38.5,0.0210321956022175,0.0378574102364939,0.948393012604507,-0.261824122074947,0.948393012610385,-0.261824122066902,0.0209815552986031,0.037932974297531
39,0.0213588221298919,0.0382139988289623,0.947404482560439,-0.265025144814061,0.947404482566383,-0.265025144806549,0.0213070814026541,0.0382910153382308
39.5,0.0216870891267075,0.0385674354575634,0.946405681703411,-0.268222121386409,0.946405681709403,-0.268222121379415,0.021634240223474,0.0386459190423447
40,0.0220169752845936,0.0389177392647253,0.945396606663374,-0.271415014008119,0.945396606669399,-0.271415014001629,0.0219630105818369,0.0389977046346621
40.5,0.0223484602486634,0.0392649286860771,0.944377255660783,-0.274603784643208,0.944377255666826,-0.274603784637208,0.0222933722521334,0.0393463906332987
41,0.0226815245586245,0.0396090214416778,0.943347628433754,-0.277788395072042,0.943347628439802,-0.277788395066517,0.0226253059038503,0.0396919948408709
41.5,0.0230161495919167,0.0399500345297532,0.942307726167471,-0.280968806953601,0.942307726173511,-0.280968806948537,0.0229587930447729,0.0400345343381852
42,0.0233523175086114,0.0402879842227932,0.941257551425862,-0.284144981882053,0.941257551431881,-0.284144981877434,0.0232938159659444,0.0403740254802862
42.5,0.023690011198094,0.0406228860658298,0.940197108085557,-0.287316881438084,0.940197108091545,-0.287316881433896,0.0236303576884072,0.0407104838946721
43,0.0240292142275538,0.0409547548767295,0.939126401272115,-0.290484467235417,0.939126401278061,-0.290484467231644,0.0239684019117365,0.0410439244815415
43.5,0.0243699107922833,0.0412836047483627,0.938045437298488,-0.293647700962885,0.938045437304382,-0.293647700959514,0.0243079329643893,0.0413743614159008
44,0.0247120856677789,0.0416094490524748,0.936954223605709,-0.296806544422447,0.936954223611544,-0.296806544419462,0.0246489357558478,0.0417018081513851
44.5,0.025055724163657,0.0419323004451448,0.935852768705756,-0.299960959563432,0.935852768711524,-0.299960959560817,0.0249913957305676,0.0420262774256557
45,0.0254008120793532,0.0422521708736852,0.934741082126537,-0.303110908513347,0.934741082132231,-0.303110908511088,0.0253352988237139,0.0423477812672433
45.5,0.025747335661598,0.0425690715848461,0.933619174358966,-0.306256353605504,0.93361917436458,-0.306256353603587,0.0256806314186637,0.0426663310037045
46,0.0260952815636426,0.042883013134231,0.932487056806062,-0.309397257403723,0.932487056811589,-0.309397257402132,0.0260273803062578,0.0429819372709697
46.5,0.026444636806212,0.0431940053967756,0.931344741734014,-0.312533582724361,0.931344741739451,-0.312533582723083,0.026375532645775,0.0432946100237781
47,0.026795388740148,0.0435020575782124,0.930192242225164,-0.315665292655856,0.930192242230506,-0.315665292654876,0.0267250759275964,0.0436043585470769
47.5,0.0271475250107242,0.0438071782273997,0.929029572132838,-0.318792350575992,0.92902957213808,-0.318792350575295,0.0270759979375264,0.043911191468305
48,0.0275010335235742,0.0441093752494353,0.927856746037967,-0.321914720167081,0.927856746043108,-0.321914720166655,0.0274282867227449,0.0442151167704472
48.5,0.0278559024122238,0.0444086559194492,0.926673779207447,-0.325032365429211,0.926673779212485,-0.325032365429042,0.0277819305593381,0.0445161418057798
49,0.0282121200071601,0.0447050268970075,0.925480687554167,-0.328145250691716,0.925480687559098,-0.32814525069179,0.0281369179213793,0.0448142733102184
49.5,0.028569674806417,0.0449984942410437,0.924277487598645,-0.331253340623013,0.924277487603468,-0.331253340623316,0.0284932374515173,0.0451095174182006
50,0.0289285554476245,0.0452890634252368,0.923064196432227,-0.334356600238937,0.923064196436943,-0.334356600239457,0.0288508779330247,0.0454018796780156
50.5,0.0292887506814831,0.0455767393537823,0.921840831681785,-0.33745499490969,0.921840831686392,-0.337454994910414,0.0292098282632725,0.0456913650675268
51,0.0296502493466163,0.0458615263774891,0.920607411475844,-0.340548490365508,0.920607411480344,-0.340548490366425,0.0295700774285804,0.0459779780102196
51.5,0.0300130403457639,0.0461434283101287,0.919363954412119,-0.343637052701165,0.91936395441651,-0.343637052702262,0.0299316144804002,0.0462617223915092
52,0.0303771126232609,0.0464224484450111,0.918110479526364,-0.346720648379382,0.918110479530649,-0.346720648380647,0.0302944285127944,0.0465426015752661
52.5,0.030742455143773,0.0466985895717114,0.916847006262526,-0.349799244233247,0.916847006266706,-0.34979924423467,0.0306585086411548,0.0468206184205042
53,0.0311090568722319,0.0469718539929131,0.915573554444128,-0.352872807467723,0.915573554448204,-0.352872807469292,0.0310238439821316,0.0470957752981822
53.5,0.0314769067549325,0.0472422435413282,0.914290144246833,-0.355941305660302,0.914290144250807,-0.355941305662006,0.0313904236347184,0.0473680741080795
54,0.031845993701753,0.0475097595966485,0.912996796172164,-0.35900470676088,0.912996796176038,-0.35900470676271,0.0317582366624546,0.047637516295711
54.5,0.0322163065694464,0.0477744031024934,0.911693531022313,-0.362062979090934,0.911693531026091,-0.36206297909288,0.0321272720767051,0.047904102869236
55,0.0325878341459689,0.0480361745833249,0.910380369876014,-0.365116091342026,0.910380369879698,-0.365116091344077,0.0324975188209721,0.0481678344163374
55.5,0.0329605651358074,0.0482950741613004,0.909057334065423,-0.368164012573702,0.909057334069017,-0.36816401257585,0.0328689657562007,0.0484287111210384
56,0.0333344881462544,0.0485511015730351,0.907724445153988,-0.371206712210844,0.907724445157493,-0.371206712213079,0.0332416016470399,0.0486867327804299
56.5,0.033709591674602,0.0488042561862425,0.906381724915241,-0.374244160040502,0.906381724918664,-0.374244160042816,0.0336154151490144,0.0489418988212817
57,0.0340858640962154,0.0490545370162492,0.905029195312517,-0.377276326208263,0.905029195315859,-0.377276326210647,0.0339903947965774,0.0491942083165198
57.5,0.0344632936534435,0.0493019427423411,0.903666878479518,-0.380303181214188,0.903666878482784,-0.380303181216635,0.034366528991999,0.0494436600015487
58,0.0348418684453383,0.0495464717239464,0.902294796701734,-0.383324695908345,0.902294796704928,-0.383324695910847,0.0347438059950649,0.0496902522904017
58.5,0.0352215764181409,0.0497881220166168,0.90091297239866,-0.386340841485996,0.900912972401786,-0.386340841488547,0.035122213913537,0.0499339832916952
59,0.0356024053565063,0.0500268913878137,0.899521428106786,-0.389351589482445,0.899521428109849,-0.389351589485037,0.0355017406943552,0.0501748508243896
59.5,0.0359843428754292,0.0502627773324739,0.898120186463345,-0.392356911767575,0.898120186466349,-0.392356911770203,0.0358823741155401,0.0504128524333269
60,0.0363673764128462,0.0504957770883494,0.896709270190766,-0.395356780540124,0.896709270193716,-0.39535678054278,0.0362641017787679,0.0506479854045491
60.5,0.0367514932228746,0.0507258876511104,0.895288702081834,-0.398351168321698,0.895288702084734,-0.398351168324377,0.0366469111025856,0.0508802467803761
61,0.0371366803696666,0.0509531057891998,0.893858504985509,-0.401340047950561,0.893858504988363,-0.401340047953258,0.0370307893162385,0.0511096333742392
61.5,0.0375229247218468,0.0511774280584426,0.892418701793388,-0.404323392575216,0.892418701796201,-0.404323392577925,0.0374157234540801,0.0513361417852714
62,0.0379102129475041,0.0513988508163947,0.890969315426799,-0.407301175647797,0.890969315429577,-0.407301175650513,0.0378017003505401,0.0515597684126325
62.5,0.0382985315097171,0.0516173702364308,0.889510368824482,-0.410273370917289,0.889510368827229,-0.410273370920009,0.0381887066356196,0.0517805094695805
63,0.0386878666625827,0.0518329823215633,0.888041884930855,-0.413239952422605,0.888041884933574,-0.413239952425324,0.0385767287308945,0.0519983609972757
63.5,0.0390782044477225,0.052045682918,0.886563886684833,-0.416200894485515,0.88656388668753,-0.41620089448823,0.0389657528459954,0.0522133188783149
