"Freq [GHz]","re(St(P1,P1)) []","im(St(P1,P1)) []","re(St(P1,P2)) []","im(St(P1,P2)) []","re(St(P2,P1)) []","im(St(P2,P1)) []","re(St(P2,P2)) []","im(St(P2,P2)) []"
0,0.00437980727991771,0,0.995634293518378,0,0.995634281134699,0,0.00437979680697254,0
0.5,0.0049034574469502,-0.000140761744688689,0.995084091511458,-0.00459927691193229,0.995084091541855,-0.00459927873085419,0.00490340668536504,-0.00014070993441706
1,0.00539501922600039,-0.000938871586313894,0.994544390877639,-0.00854438532085311,0.994544390349784,-0.00854438495881737,0.00539484596226814,-0.000938722778826673
1.5,0.00573383208910272,-0.00183850942248398,0.994122211555567,-0.0124503088977406,0.994122211203081,-0.012450308568944,0.00573342168775781,-0.00183842164588555
2,0.00594378889269365,-0.00281129691138915,0.993776643612431,-0.01623800711182,0.993776643368196,-0.0162380068509869,0.00594306484964591,-0.00281109538790858
2.5,0.00607056247421234,-0.00379270520691222,0.993495711267892,-0.0199828767360053,0.993495711090025,-0.019982876541075,0.00606954051010078,-0.00379228951579336
3,0.00614839752596907,-0.00476605072791969,0.993252971035044,-0.0237168315254372,0.9932529709011,-0.0237168313857801,0.00614710005031682,-0.00476537432072988
3.5,0.00619698373970579,-0.00572938850268301,0.993027571913599,-0.0274506416155909,0.993027571811615,-0.027450641520403,0.00619542162698217,-0.00572842901484094
4,0.00622728453934585,-0.0066845643388902,0.992805609868049,-0.0311866783728991,0.992805609791221,-0.031186678312876,0.00622545730625834,-0.00668330839372011
4.5,0.00624554359454965,-0.00763404920806643,0.992578091920607,-0.0349243177583194,0.992578091864634,-0.0349243177256717,0.00624344242201857,-0.00763248576850373
5,0.00625544587903892,-0.00858011385072288,0.992339117285548,-0.0386620356010479,0.992339117247308,-0.0386620355892511,0.00625305618414629,-0.00857823140638914
5.5,0.00625924626994134,-0.0095246779925322,0.992084690132686,-0.0423981831641544,0.992084690109571,-0.042398183167677,0.00625654947356225,-0.00952246337751639
6,0.00625836974711813,-0.0104693404121168,0.991812001463196,-0.0461312531644911,0.991812001452752,-0.0461312531785651,0.00625534442184872,-0.0104667783108425
6.5,0.00625374113772947,-0.0114154451368815,0.991519001035733,-0.0498599519685428,0.991519001035528,-0.049859951989113,0.00625036374297316,-0.0114125178782416
7,0.00624597281626249,-0.0123641438262698,0.99120414026253,-0.0535832003875445,0.991204140270064,-0.0535832004111469,0.00624221816824333,-0.0123608312939094
7.5,0.00623547528055246,-0.0133164458062112,0.9908662151956,-0.0573001105751612,0.990866215208281,-0.0573001105988755,0.00623131685266642,-0.0133127253901186
8,0.0062225243931473,-0.0142732561320944,0.990504268585343,-0.0610099572438045,0.990504268600506,-0.061009957265199,0.00621793450651609,-0.0142691026885515
8.5,0.00620730345893961,-0.0152354040737919,0.990117527274734,-0.0647121498730474,0.990117527289661,-0.0647121498901573,0.00620225340061564,-0.0152307898794195
9,0.00618993023436931,-0.0162036644252623,0.989705361045856,-0.0684062080475965,0.989705361057808,-0.068406208058887,0.00618439032695806,-0.016198559119065
9.5,0.00617047465337595,-0.017178773572061,0.98926725468417,-0.0720917403237777,0.989267254690417,-0.0720917403280907,0.00616441429126846,-0.0171731440831753
10,0.00614897068201525,-0.0181614417620075,0.988802788307529,-0.0757684264052765,0.98880278830539,-0.0757684264018206,0.00614235834416244,-0.0181552522222983
10.5,0.00611418992119428,-0.0191123984448343,0.988353381006755,-0.0794673970107063,0.988353381004861,-0.0794673970073649,0.00610725359571296,-0.0191058655676883
11,0.00607417069705241,-0.0200679677403501,0.987888571434019,-0.0831570164558864,0.987888571432348,-0.0831570164526738,0.00606689234498092,-0.0200610838851203
11.5,0.00602858964627639,-0.0210280619522036,0.987408827520235,-0.0868374476577269,0.987408827518768,-0.0868374476546547,0.00602095133545766,-0.0210208187741792
12,0.0059771378141279,-0.0219925727667745,0.986914577680224,-0.0905088761046127,0.986914577678942,-0.0905088761016923,0.00596912177099485,-0.0219849612336294
12.5,0.0059195217401169,-0.022961373318708,0.986406211199295,-0.0941715048030893,0.98640621119818,-0.0941715048003298,0.00591111039812242,-0.0229533837328413
13,0.00585546428467665,-0.0239343202518958,0.985884079136242,-0.0978255496419678,0.985884079135274,-0.0978255496393743,0.00584664032878668,-0.0239259422778844
13.5,0.00578470521383656,-0.0249112557471616,0.985348495646354,-0.101471235200539,0.985348495645514,-0.101471235198118,0.00577545162062398,-0.0249024784435399
14,0.00570700156115989,-0.0258920094924449,0.984799739634013,-0.105108791011825,0.984799739633282,-0.105108791009578,0.00569730163422266,-0.0258828213469888
14.5,0.00562212778782445,-0.0268764005752402,0.984238056652375,-0.108738448278584,0.984238056651737,-0.108738448276511,0.00561196518834617,-0.0268667895429555
15,0.00552987576251585,-0.0278642392812225,0.98366366097635,-0.112360437029247,0.983663660975787,-0.112360437027348,0.00551923453492242,-0.0278541928242868
15.5,0.00543005458302037,-0.0288553287867952,0.98307673778439,-0.115974983693119,0.983076737783887,-0.115974983691394,0.00541891917579646,-0.0288448339157421
16,0.00532249026117615,-0.0298494667367146,0.982477445393936,-0.119582309068143,0.982477445393477,-0.119582309066587,0.00531084554297234,-0.029838510052179
16.5,0.00520702529203182,-0.0308464467012541,0.981865917504256,-0.123182626651007,0.981865917503829,-0.123182626649614,0.00519485656329455,-0.0308350144357101
17,0.00508351812713026,-0.0318460595099186,0.981242265408957,-0.126776141296796,0.981242265408547,-0.126776141295565,0.0050708111275114,-0.0318341375689011
17.5,0.00495184257044012,-0.0328480944613716,0.980606580148023,-0.130363048174849,0.980606580147619,-0.130363048173772,0.00493858348231735,-0.032835668463691
18,0.00481188711407438,-0.0338523404111282,0.97995893457623,-0.133943531987532,0.979958934575821,-0.133943531986598,0.0047980625625117,-0.0338393957277452
18.5,0.00466355422930409,-0.0348585867401772,0.979299385330788,-0.137517766419617,0.979299385330365,-0.137517766418829,0.00464915127883894,-0.034845108531421
19,0.00450675962684144,-0.0358666242091887,0.978627974686282,-0.141085913787681,0.978627974685836,-0.141085913787025,0.00449176577544094,-0.035852597460031
19.5,0.00434143149865659,-0.0368762457038461,0.977944732289387,-0.144648124860852,0.97794473228891,-0.144648124860319,0.00432583466923961,-0.0368616552571215
20,0.00416750975210892,-0.0378872468776477,0.97724967676949,-0.148204538826577,0.977249676768974,-0.148204538826162,0.00415129828197555,-0.0378720774650381
20.5,0.00398494524558876,-0.038899426699051,0.976542817224313,-0.15175528337747,0.976542817223754,-0.151755283377168,0.00396810787411567,-0.0388836629697682
21,0.00379369903350618,-0.0399125879100612,0.975824154582009,-0.155300474897687,0.975824154581401,-0.155300474897486,0.00377622488843446,-0.0398962144571859
21.5,0.00359374162709439,-0.0409265374035819,0.975093682843011,-0.158840218729761,0.97509368284235,-0.158840218729653,0.00357562020970892,-0.0409095387880898
22,0.00338505227633426,-0.0419410865267071,0.974351390206323,-0.162374609505008,0.974351390205605,-0.162374609504988,0.00336627344582943,-0.041923447299173
22.5,0.00316761827717346,-0.0429560513171436,0.973597260085877,-0.165903731522929,0.973597260085099,-0.165903731522989,0.00314817223445352,-0.0429377560371966
23,0.00294143430728838,-0.0439712526795422,0.972831272023308,-0.169427659166864,0.972831272022468,-0.169427659166993,0.00292131157843772,-0.0439522859331611
23.5,0.00270650179274537,-0.0449865165083603,0.972053402503839,-0.172946457345115,0.972053402502935,-0.172946457345308,0.00268569321237216,-0.0449668629230966
24,0.00246282830718135,-0.0460016737634374,0.971263625682188,-0.176460181948393,0.971263625681219,-0.176460181948644,0.00244132500182018,-0.0459813180216582
24.5,0.00221042700448743,-0.047016560504118,0.970461914025412,-0.179968880315867,0.970461914024378,-0.179968880316168,0.00218822037621187,-0.0469954873544087
25,0.00194931608543161,-0.0480310178872654,0.969648238879509,-0.183472591703445,0.969648238878409,-0.183472591703788,0.0019263977958142,-0.0480092121540987
25.5,0.00167951829817704,-0.0490448921342637,0.968822570966344,-0.186971347749136,0.968822570965177,-0.186971347749517,0.00165588025270687,-0.0490223387260587
26,0.00140106047230928,-0.0500580344714172,0.967984880817247,-0.190465172931187,0.967984880816017,-0.190465172931601,0.00137669480536604,-0.0500347183871193
26.5,0.0011139730856419,-0.0510703010480436,0.967135139149238,-0.193954085015772,0.967135139147943,-0.193954085016209,0.00108887214609016,-0.0510462073823437
27,0.000818289862848931,-0.052081552835884,0.966273317189508,-0.19743809549153,0.96627331718815,-0.197438095491988,0.000792446200328201,-0.0520566667831996
27.5,0.000514047404780171,-0.0530916555132905,0.965399386953394,-0.200917209989114,0.965399386951975,-0.200917209989589,0.000487453756713524,-0.0530659623706242
28,0.000201284847150207,-0.0541004793371367,0.964513321480705,-0.204391428684255,0.964513321479226,-0.204391428684739,0.000173934126525083,-0.0540739645059154
28.5,-0.000119956452764552,-0.0551078990051259,0.963615095034869,-0.207860746683405,0.963615095033331,-0.207860746683894,-0.000148071168837555,-0.0550805479921523
29,-0.000449633202899674,-0.0561137935108982,0.962704683268992,-0.211325154391413,0.962704683267399,-0.211325154391905,-0.000478518683839524,-0.0560855919284844
29.5,-0.000787700438116989,-0.0571180459939118,0.961782063362602,-0.214784637860877,0.961782063360954,-0.214784637861367,-0.000817363309725511,-0.0570889795593015
30,-0.00113411175838857,-0.0581205435859733,0.960847214132434,-0.21823917912323,0.960847214130735,-0.218239179123714,-0.0011645585119188,-0.0580905981201485
30.5,-0.00148881954491342,-0.0591211772559324,0.959900116120385,-0.221688756501668,0.959900116118637,-0.221688756502143,-0.00152005654536194,-0.0590903386818575
31,-0.00185177515565971,-0.0601198416538482,0.958940751661383,-0.225133344906301,0.958940751659589,-0.225133344906764,-0.00188380864930288,-0.0600880959942898
31.5,-0.00222292910176086,-0.0611164349558586,0.957969104933698,-0.228572916111969,0.95796910493186,-0.228572916112416,-0.0022557652229459,-0.0610837683307448
32,-0.00260223120613623,-0.0621108587105823,0.956985161993925,-0.232007439019271,0.956985161992045,-0.232007439019698,-0.00263587598336329,-0.0620772573340642
32.5,-0.0029896307456756,-0.0631030176879483,0.95598891079866,-0.235436879899444,0.955988910796743,-0.235436879899851,-0.00302409010699456,-0.0630684678651763
33,-0.00338507657825621,-0.0640928197310893,0.954980341214667,-0.238861202623758,0.954980341212714,-0.238861202624143,-0.00342035635599913,-0.0640573078547462
33.5,-0.00378851725578994,-0.0650801756118065,0.953959445019113,-0.242280368878129,0.953959445017126,-0.24228036887849,-0.00382462319068366,-0.065043688158466
34,-0.00419990112445184,-0.0660649988900786,0.952926215891312,-0.245694338363665,0.952926215889294,-0.245694338363999,-0.0042368388691294,-0.0660275224164151
34.5,-0.00461917641314724,-0.0670472057779063,0.951880649397231,-0.249103068983874,0.951880649395186,-0.249103068984182,-0.00465695153509571,-0.0670087269168067
35,-0.00504629131123313,-0.0680267150077611,0.950822742967868,-0.25250651701925,0.950822742965798,-0.252506517019528,-0.00508490929520727,-0.0679872204643535
35.5,-0.00548119403643926,-0.0690034477058257,0.949752495872472,-0.255904637289951,0.94975249587038,-0.255904637290199,-0.00552066028637499,-0.0689629242534742
36,-0.00592383289384807,-0.0699773272701121,0.948669909187496,-0.259297383307253,0.948669909185383,-0.259297383307469,-0.00596415273430634,-0.0699357617463829
36.5,-0.00637415632676847,-0.070948279253547,0.947574985762014,-0.262684707414452,0.947574985759885,-0.262684707414635,-0.00641533500393821,-0.070905658556184
37,-0.00683211296024971,-0.071916231252029,0.946467730180285,-0.266066560917868,0.946467730178141,-0.266066560918019,-0.00687415564253929,-0.071872542334952
37.5,-0.00729765163793117,-0.0728811127974427,0.94534814872203,-0.269442894208563,0.945348148719873,-0.269442894208681,-0.00734056341618433,-0.0728363426667826
38,-0.00777072145288166,-0.0738428552555725,0.94421624932094,-0.272813656875355,0.944216249318774,-0.27281365687544,-0.00781450734023359,-0.0737969909657634
38.5,-0.00825127177301804,-0.0748013917288497,0.943072041521849,-0.276178797809716,0.943072041519676,-0.276178797809765,-0.00829593670442935,-0.0747544203787802
39,-0.00873925226164879,-0.0757566569638186,0.94191553643695,-0.279538265303061,0.941915536434772,-0.279538265303075,-0.00878480109313928,-0.0757085656930769
39.5,-0.00923461289364902,-0.0767085872632243,0.940746746701385,-0.282892007136953,0.940746746699204,-0.282892007136932,-0.00928105040125232,-0.0766593632484098
40,-0.00973730396771716,-0.0776571204025762,0.93956568642849,-0.286239970666681,0.939565686426308,-0.286239970666626,-0.00978463484618564,-0.0776067508537119
40.5,-0.0102472761151453,-0.078602195551059,0.93837237116494,-0.289582102898682,0.938372371162759,-0.289582102898594,-0.0102955049764245,-0.0785506677081051
41,-0.0107644803054779,-0.0795437531966385,0.937166817845996,-0.292918350562206,0.93716681784382,-0.292918350562084,-0.010813611676967,-0.0794910543261067
41.5,-0.0112888678494079,-0.0804817350752169,0.935949044751028,-0.296248660175623,0.935949044748857,-0.296248660175467,-0.0113389061720384,-0.0804278524668893
42,-0.0118203903992383,-0.0814160841036649,0.934719071459461,-0.299572978107758,0.934719071457297,-0.29957297810757,-0.0118713400253736,-0.0813610050674289
42.5,-0.0123589999471873,-0.0823467443166077,0.933476918807271,-0.302891250634589,0.933476918805116,-0.302891250634368,-0.0124108651383754,-0.082290456179396
43,-0.0129046488218076,-0.0832736608067615,0.932222608844122,-0.30620342399161,0.932222608841978,-0.306203423991356,-0.0129574337463921,-0.0832161509096117
43.5,-0.0134572896827503,-0.0841967796687109,0.930956164791242,-0.30950944442221,0.93095616478911,-0.309509444421925,-0.0135109984133645,-0.0841380353639309
44,-0.0140168755140975,-0.0851160479459379,0.929677611000085,-0.312809258222294,0.929677610997968,-0.312809258221978,-0.014071512025048,-0.0850560565943939
44.5,-0.0145833596164529,-0.0860314135809741,0.928386972911855,-0.316102811781454,0.928386972909753,-0.316102811781108,-0.0146389277810151,-0.0859701625494878
45,-0.0151566955979668,-0.0869428253685043,0.927084277017907,-0.319390051620892,0.927084277015823,-0.319390051620516,-0.0152131991855917,-0.0868803020273623
45.5,-0.0157368373644549,-0.0878502329113202,0.92576955082108,-0.322670924428371,0.925769550819014,-0.322670924427967,-0.015794280037915,-0.0877864246319009
46,-0.0163237391087484,-0.0887535865789189,0.924442822797962,-0.325945377090347,0.924442822795915,-0.325945377089916,-0.0163821244212234,-0.0886884807314259
46.5,-0.0169173552994175,-0.0896528374686896,0.923104122362113,-0.329213356721541,0.923104122360087,-0.329213356721082,-0.0169766866915305,-0.0895864214199953
47,-0.01751764066896,-0.0905479373694775,0.921753479828263,-0.33247481069206,0.921753479826258,-0.332474810691577,-0.0175779214657775,-0.0904801984810812
47.5,-0.0181245502015832,-0.0914388387274796,0.920390926377444,-0.335729686652326,0.920390926375461,-0.335729686651817,-0.0181857836095845,-0.0913697643535631
48,-0.0187380391206469,-0.0923254946142722,0.919016494023115,-0.338977932555869,0.919016494021157,-0.338977932555337,-0.0188002282246739,-0.0922550720998707
48.5,-0.0193580628758718,-0.0932078586969338,0.917630215578217,-0.342219496680233,0.917630215576284,-0.342219496679678,-0.0194212106360629,-0.0931360753762021
49,-0.0199845771303644,-0.0940858852100805,0.916232124623182,-0.345454327646031,0.916232124621274,-0.345454327645455,-0.0200486863790835,-0.0940127284046672
49.5,-0.0206175377475442,-0.0949595289297691,0.914822255474859,-0.348682374434363,0.914822255472976,-0.348682374433765,-0.0206826111863072,-0.0948849859472856
50,-0.0212569007780088,-0.0958287451491215,0.913400643156369,-0.351903586402642,0.913400643154513,-0.351903586402025,-0.021322940974416,-0.0957528032817125
50.5,-0.0219026224464089,-0.0966934896556071,0.911967323367843,-0.355117913298992,0.911967323366014,-0.355117913298356,-0.0219696318310895,-0.0966161361786171
51,-0.0225546591383613,-0.0975537187098712,0.91052233245804,-0.358325305275274,0.91052233245624,-0.35832530527462,-0.0226226400019274,-0.0974749408806042
51.5,-0.0232129673874428,-0.0984093890260387,0.90906570739683,-0.361525712898868,0.909065707395058,-0.361525712898198,-0.0232819218774739,-0.0983291740826118
52,-0.0238775038623097,-0.0992604577533942,0.907597485748499,-0.36471908716327,0.907597485746756,-0.364719087162585,-0.0239474339803489,-0.0991787929136814
52.5,-0.0245482253539547,-0.100106882459382,0.906117705645883,-0.367905379497606,0.906117705644168,-0.367905379496906,-0.0246191329525425,-0.100023754920045
53,-0.0252250887631422,-0.100948621113827,0.904626405765286,-0.371084541775119,0.9046264057636,-0.371084541774406,-0.025296975542875,-0.100864018049442
53.5,-0.0259080510880377,-0.101785632074336,0.903123625302175,-0.374256526320716,0.903123625300519,-0.374256526319991,-0.0259809185946641,-0.101699540636593
54,-0.026597069412047,-0.10261787407278,0.901609403947629,-0.377421285917621,0.901609403946002,-0.377421285916886,-0.0266709190335979,-0.102530281389782
54.5,-0.0272921008918892,-0.103445306202826,0.900083781865502,-0.380578773813205,0.900083781863905,-0.380578773812458,-0.0273669338558482,-0.103356199378455
55,-0.0279931027459103,-0.104267887908441,0.89854679967031,-0.38372894372405,0.898546799668742,-0.383728943723294,-0.0280689201164289,-0.104177254021819
55.5,-0.0287000322426533,-0.105085578973314,0.896998498405792,-0.386871749840286,0.896998498404253,-0.386871749839522,-0.0287768349178029,-0.104993405078337
56,-0.0294128466896873,-0.105898339511151,0.895438919524143,-0.390007146829262,0.895438919522633,-0.39000714682849,-0.0294906353987619,-0.105804612636098
56.5,-0.0301315034227134,-0.106706129956786,0.893868104865883,-0.393135089838589,0.893868104864403,-0.39313508983781,-0.0302102787235792,-0.106610837104018
57,-0.0308559597949422,-0.107508911058062,0.892286096640363,-0.396255534498593,0.892286096638912,-0.396255534497809,-0.0309357220714306,-0.107412039203786
57.5,-0.0315861731667541,-0.108306643868445,0.890692937406865,-0.399368436924226,0.890692937405441,-0.399368436923438,-0.0316669226261101,-0.108208179962553
58,-0.0323221008956447,-0.109099289740315,0.889088670056286,-0.40247375371646,0.889088670054891,-0.40247375371567,-0.0324038375660201,-0.1089992207063
58.5,-0.0330637003264525,-0.109886810318908,0.887473337793409,-0.405571441963208,0.887473337792041,-0.405571441962413,-0.0331464240544539,-0.109785123053852
59,-0.0338109287818744,-0.110669167536864,0.885846984119696,-0.408661459239782,0.885846984118356,-0.408661459238986,-0.0338946392301664,-0.110565848911498
59.5,-0.0345637435532719,-0.11144632360935,0.884209652816637,-0.411743763608959,0.884209652815323,-0.411743763608161,-0.0346484401982243,-0.111341360468182
60,-0.0353221018917571,-0.112218241029723,0.8825613879296,-0.414818313620625,0.882561387928313,-0.414818313619827,-0.0354077840211546,-0.112111620191236
60.5,-0.036085960999568,-0.112984882565699,0.88090223375219,-0.417885068311071,0.880902233750929,-0.417885068310273,-0.0361726277103678,-0.112876590822618
61,-0.0368552780217236,-0.113746211256009,0.879232234811088,-0.420943987201936,0.879232234809851,-0.420943987201138,-0.036942928217872,-0.113636235375632
61.5,-0.0376300100379625,-0.114502190407492,0.877551435851356,-0.423995030298831,0.877551435850143,-0.423995030298036,-0.0377186424282606,-0.114390517132091
62,-0.038410114054958,-0.115252783592635,0.875859881822202,-0.427038158089663,0.875859881821013,-0.42703815808887,-0.0384997271509875,-0.11513939963992
62.5,-0.0391955469988062,-0.115997954647493,0.874157617863186,-0.430073331542671,0.87415761786202,-0.43007333154188,-0.0392861391129052,-0.115882846711144
