"Freq [GHz]","re(St(P1,P1)) []","im(St(P1,P1)) []","re(St(P1,P2)) []","im(St(P1,P2)) []","re(St(P2,P1)) []","im(St(P2,P1)) []","re(St(P2,P2)) []","im(St(P2,P2)) []"
0,0.00543811572276809,0,0.994576999830315,0,0.994576999597484,0,0.0054381121399274,0
0.5,0.00604033081823019,-0.000413737373767376,0.993938582529779,-0.00591244812845382,0.993938582488781,-0.00591244827759496,0.00603985025432507,-0.000412020447372541
1,0.00657367395879049,-0.0015753840977446,0.993327084429513,-0.0110806023060732,0.993327084485042,-0.0110806022566692,0.00657241228098826,-0.00157134286618188
1.5,0.0068988664490206,-0.00288804766849182,0.992877713827728,-0.0160908156920385,0.992877713847733,-0.0160908157110384,0.00689674146056518,-0.00288141068921988
2,0.00707712463188059,-0.00422935296595739,0.992529862391901,-0.0210644569340239,0.992529862374104,-0.0210644569595679,0.00707423878385427,-0.00421986152158738
2.5,0.0071808744606745,-0.00556028218109361,0.992212350846868,-0.0260415138797896,0.992212350811965,-0.0260415138918368,0.00717730146384099,-0.00554782459531111
3,0.0072446910349786,-0.00687971226109951,0.991891124011614,-0.0310228967291142,0.991891123975224,-0.0310228967260908,0.0072404631573324,-0.00686421787042768
3.5,0.00728396780918672,-0.00819216562901559,0.991551494803663,-0.0360035268784458,0.991551494774501,-0.0360035268648264,0.00727909769463242,-0.00817357237435878
4,0.00730562330221662,-0.00950163573195439,0.991187425333327,-0.0409789050847387,0.991187425315079,-0.0409789050661846,0.00730011779758133,-0.00947988359499874
4.5,0.0073127997143736,-0.0108108192407794,0.990796715855994,-0.04594599621878,0.990796715849131,-0.0459459962002526,0.00730666603018992,-0.0107858504871583
5,0.00730692598115379,-0.0121213476772013,0.990378852737756,-0.0509030098012744,0.990378852740868,-0.0509030097864454,0.00730017367079716,-0.0120931082348203
5.5,0.00728865690516178,-0.0134341190583811,0.989934012087036,-0.0558490418229649,0.989934012097773,-0.0558490418140583,0.00728129788784804,-0.0134025595363791
6,0.00725831165766122,-0.014749563483095,0.989462589870044,-0.0607837698372808,0.989462589885739,-0.0607837698352238,0.00725035946874319,-0.0147146395849873
6.5,0.00721607837735849,-0.0160678302514778,0.988964985263392,-0.0657072254121438,0.988964985281478,-0.0657072254167748,0.00720754723265804,-0.0160295026862674
7,0.00716210595487121,-0.017388912645556,0.988441510367992,-0.0706196334475582,0.988441510386248,-0.0706196334578824,0.00715300989532741,-0.017347146708012
7.5,0.00709654097467349,-0.018712727990903,0.987892363408456,-0.0755213031577791,0.987892363425136,-0.0755213031722022,0.00708689319052147,-0.0186674929624475
8,0.00701953859021853,-0.0200391670306805,0.987317632727873,-0.0804125572021839,0.987317632741753,-0.0804125572187244,0.007009350940967,-0.0199904355115663
8.5,0.0069312618266093,-0.0213681228507925,0.986717314186997,-0.0852936881490534,0.986717314197373,-0.0852936881655086,0.00692054453589064,-0.0213158700955933
9,0.00683187654206541,-0.0226995065415707,0.986091332774188,-0.0901649339775918,0.986091332780831,-0.0901649339916712,0.00682063803344701,-0.0226437098398309
9.5,0.00672154551427084,-0.0240332545107673,0.985439563769971,-0.095026466433997,0.985439563773079,-0.0950264664434286,0.00670979235302882,-0.0239738926333768
10,0.00660042316754739,-0.0253693307354546,0.984761851341371,-0.0998783877459344,0.984761851341505,-0.0998783877485296,0.00658816007761565,-0.0253063834536471
10.5,0.00643404343644505,-0.0266402294142782,0.984045780965936,-0.104758203515781,0.984045780965959,-0.104758203518478,0.00642272310366965,-0.0265749572707286
11,0.00625929677860415,-0.0279114993699343,0.983301796885869,-0.109624722717677,0.983301796885776,-0.109624722720469,0.0062489064247695,-0.0278440100922159
11.5,0.00607614349121577,-0.0291831612503932,0.98253051224359,-0.114477918504703,0.982530512243378,-0.114477918507585,0.0060666622696659,-0.0291135645995011
12,0.00588454112738523,-0.0304552358834362,0.981732509376572,-0.119317799388625,0.981732509376235,-0.119317799391593,0.00587593983899148,-0.0303836431960631
12.5,0.00568444437561377,-0.0317277442273891,0.980908338392651,-0.12414440476841,0.980908338392186,-0.124144404771458,0.00567668520205145,-0.031654267932729
13,0.00547580493485056,-0.0330007073128709,0.980058516283992,-0.128957800583785,0.980058516283396,-0.128957800586904,0.00546884119099644,-0.0329254604237628
13.5,0.0052585713853629,-0.0342741461750125,0.979183526526919,-0.133758075147353,0.979183526526189,-0.133758075150538,0.00525234729279711,-0.0341972417533016
14,0.00503268905578252,-0.0355480817753904,0.978283819112316,-0.138545335197366,0.978283819111449,-0.138545335200611,0.00502713953947637,-0.0354696323714565
14.5,0.00479809988667218,-0.0368225349130844,0.977359810950551,-0.143319702202853,0.977359810949545,-0.143319702206153,0.00479315039710787,-0.0367426519796652
15,0.00455474229108838,-0.0380975261240533,0.976411886595701,-0.148081308943068,0.976411886594554,-0.148081308946413,0.00455030865414779,-0.0380163194046128
15.5,0.0043025510126169,-0.0393730755681476,0.97544039923594,-0.152830296374611,0.975440399234651,-0.152830296377996,0.00429853930975202,-0.0392906524601724
16,0.00404145698147473,-0.0406492029030421,0.974445671899916,-0.157566810792261,0.974445671898484,-0.157566810795678,0.00403776346275062,-0.0405656677968684
16.5,0.00377138716932787,-0.0419259271442427,0.97342799883269,-0.16229100128291,0.973427998831115,-0.162291001286353,0.00376789820208251,-0.0418413807382096
17,0.00349226444354853,-0.043203266510532,0.9723876469989,-0.167003017467081,0.972387646997182,-0.167003017470543,0.00348885649950403,-0.0431178051034697
17.5,0.00320400742176477,-0.0444812382539514,0.971324857675244,-0.171703007517964,0.971324857673381,-0.17170300752144,0.00320054710552764,-0.0443949530162731
18,0.0029065303276046,-0.0457598584736947,0.970239848098803,-0.176391116444958,0.970239848096798,-0.176391116448439,0.00290287444957613,-0.0456728346986339
18.5,0.00259974284867365,-0.0470391419130656,0.969132813142161,-0.181067484626086,0.969132813140014,-0.181067484629567,0.00259573854545975,-0.0469514582499064
19,0.00228354999789808,-0.0483191017388491,0.968003926990468,-0.185732246572176,0.968003926988182,-0.185732246575651,0.00227903490335786,-0.0482308294102878
19.5,0.0019578519794861,-0.0495997493023514,0.966853344799639,-0.190385529904632,0.966853344797214,-0.190385529908095,0.00195265444957383,-0.0495109513085192
20,0.0016225440608799,-0.0508810938815061,0.965681204318523,-0.195027454528241,0.965681204315961,-0.195027454531686,0.00161648345543906,-0.050791824193527
20.5,0.00127751645219953,-0.0521631424034292,0.964487627461276,-0.199658131980446,0.96448762745858,-0.199658131983867,0.00127040347682519,-0.0520734451497789
21,0.000922654194803613,-0.053445899146908,0.963272721819184,-0.20427766493891,0.963272721816354,-0.204277664942302,0.000914291305817494,-0.0533558077962657
21.5,0.000557837060730815,-0.0547293654243779,0.962036582103823,-0.20888614686985,0.962036582100863,-0.208886146873207,0.000548018936200018,-0.0546389019691049
22,0.000182939464918624,-0.0560135392430587,0.960779291515822,-0.213483661800439,0.960779291512735,-0.213483661803757,0.000171453544491468,-0.0559227133878761
22.5,-0.000202169607767783,-0.0572984149450426,0.959500923035459,-0.218070284199664,0.959500923032249,-0.218070284202938,-0.000215542511649736,-0.0572072233059386
23,-0.000597626658522754,-0.0585839828262249,0.958201540633041,-0.222646078953022,0.958201540629709,-0.222646078956246,-0.000613111675742378,-0.0584924081451397
23.5,-0.00100357371131299,-0.059870228734185,0.956881200398429,-0.227211101417662,0.95688120039498,-0.227211101420834,-0.00102140115355087,-0.0597782391154529
24,-0.00142015832788028,-0.0611571336452834,0.955539951590277,-0.231765397545704,0.955539951586714,-0.231765397548817,-0.0014405628508608,-0.0610646818203131
24.5,-0.00184753359848155,-0.062444673221405,0.954177837606441,-0.236309004064638,0.954177837602767,-0.236309004067692,-0.00187075328588349,-0.0623516958485744
25,-0.00228585810573248,-0.0637328173471072,0.952794896877809,-0.240841948704823,0.952794896874028,-0.240841948707812,-0.00231213347415288,-0.0636392343542549
25.5,-0.00273529585877114,-0.0650215296480554,0.951391163688367,-0.245364250465142,0.951391163684484,-0.245364250468063,-0.00276486878377519,-0.0649272436254269
26,-0.00319601619494986,-0.0663107669920469,0.949966668924713,-0.249875919908974,0.949966668920729,-0.249875919911823,-0.00322912875889747,-0.0662156626439421
26.5,-0.00366819364613763,-0.0676004789740894,0.948521440758565,-0.254376959483448,0.948521440754486,-0.254376959486222,-0.00370508690925664,-0.0675044226377923
27,-0.00415200776674396,-0.0688906073874622,0.947055505265981,-0.258867363855976,0.94705550526181,-0.258867363858673,-0.00419292046375547,-0.0687934466283595
27.5,-0.00464764292053221,-0.0701810856829215,0.945568886987106,-0.263347120262737,0.945568886982847,-0.263347120265356,-0.00469281008605832,-0.0700826489749238
28,-0.00515528802334675,-0.0714718384186788,0.944061609430295,-0.267816208864586,0.944061609425953,-0.267816208867124,-0.00520493955033241,-0.0713719349192274
28.5,-0.00567513623894828,-0.0727627807041147,0.942533695524445,-0.272274603106506,0.942533695520023,-0.272274603108961,-0.00572949537538614,-0.0726612001330862
29,-0.00620738462525122,-0.0740538176406367,0.940985168023259,-0.276722270077299,0.940985168018761,-0.276722270079667,-0.00626666641564566,-0.0739503302724085
29.5,-0.00675223372844558,-0.0753448437634754,0.93941604986509,-0.281159170866766,0.93941604986052,-0.281159170869048,-0.00681664340763061,-0.0752392005412421
30,-0.00730988712270086,-0.0766357424887145,0.937826364491844,-0.285585260918093,0.937826364487206,-0.285585260920286,-0.00737961847085272,-0.0765276752698103
30.5,-0.00788055089340078,-0.0779263855701666,0.936216136130288,-0.290000490373536,0.936216136125587,-0.290000490375639,-0.00795578456236434,-0.0778156075106891
31,-0.00846443306222977,-0.0792166325712613,0.934585390038911,-0.29440480441192,0.934585390034149,-0.294404804413932,-0.00854533488453124,-0.079102838657652
31.5,-0.00906174295282014,-0.0805063303574531,0.932934152723323,-0.298798143576752,0.932934152718505,-0.298798143578671,-0.00914846224602062,-0.0803891980918729
32,-0.00967269049613184,-0.0817953126150526,0.931262452123004,-0.303180444094012,0.931262452118133,-0.303180444095839,-0.00976535837640935,-0.0816745028604209
32.5,-0.0102974854752926,-0.083083399402788,0.929570317771995,-0.307551638178962,0.929570317767076,-0.307551638180695,-0.0103962131953216,-0.0829585573921416
33,-0.0109363367102246,-0.0843703967426925,0.927857780935983,-0.311911654331466,0.927857780931018,-0.311911654333105,-0.0110412140375387,-0.0842411532561658
33.5,-0.011589451183065,-0.0856560962571988,0.926124874728033,-0.316260417619531,0.926124874723027,-0.316260417621076,-0.0117005448360656,-0.0855220689683454
34,-0.0122570331061295,-0.086940274859544,0.924371634205045,-0.320597849950927,0.924371634200002,-0.320597849952377,-0.0123743852657827,-0.0868010698509689
34.5,-0.0129392829349731,-0.0882226945046822,0.922598096446876,-0.32492387033279,0.922598096441798,-0.324923870334145,-0.0130629098508965,-0.0880779079510154
35,-0.0136363963299591,-0.0895031020079986,0.92080430061988,-0.329238395119338,0.920804300614771,-0.329238395120598,-0.0137662870400964,-0.0893523220221213
35.5,-0.0143485630706564,-0.0907812289390308,0.918990288026492,-0.333541338247803,0.918990288021356,-0.333541338248967,-0.014484678253972,-0.0906240375752447
36,-0.0150759659283189,-0.0920567915972494,0.917156102142346,-0.337832611462814,0.917156102137186,-0.337832611463884,-0.015218236909928,-0.0918927670026819
36.5,-0.0158187795026659,-0.0933294910766787,0.915301788642268,-0.342112124529501,0.915301788637088,-0.342112124530477,-0.0159671074304926,-0.0931582097797654
37,-0.0165771690301542,-0.0945990134256933,0.913427395416391,-0.34637978543561,0.913427395411192,-0.346379785436492,-0.0167314242415705,-0.0944200527480747
37.5,-0.0173512891718907,-0.0958650299078376,0.911532972577497,-0.350635500583011,0.911532972572284,-0.3506355005838,-0.0175113107678196,-0.0956779704834605
38,-0.0181412827902567,-0.0971271973687537,0.909618572460619,-0.354879174968934,0.909618572455395,-0.35487917496963,-0.0183068784328845,-0.0969316257515014
38.5,-0.0189472797242143,-0.0983851587135267,0.907684249615815,-0.35911071235734,0.907684249610583,-0.359110712357944,-0.019118225672751,-0.09818067005229
39,-0.0197693955740458,-0.0996385434977625,0.905730060794944,-0.363330015440803,0.905730060789707,-0.363330015441315,-0.0199454369709315,-0.0994247442556018
39.5,-0.0206077305070137,-0.100886968634587,0.903756064933212,-0.36753698599332,0.903756064927973,-0.367536985993742,-0.0207885819245324,-0.100663479326594
40,-0.0214623680960212,-0.102130039218572,0.901762323126137,-0.371731525014444,0.901762323120898,-0.371731525014775,-0.0216477143505323,-0.101896497141214
40.5,-0.022333374203779,-0.10336734946614,0.899748898602583,-0.375913532865131,0.899748898597347,-0.375913532865374,-0.02252287144172,-0.103123411389419
41,-0.0232207959253335,-0.104598483770672,0.897715856694363,-0.380082909395713,0.897715856689133,-0.380082909395868,-0.0234140729817788,-0.104343828563277
41.5,-0.0241246606018533,-0.105823017868877,0.895663264802945,-0.384239554066356,0.895663264797723,-0.384239554066425,-0.02432132062887,-0.105557349025847
42,-0.0250449749185337,-0.107040520113494,0.893591192363676,-0.388383366060401,0.893591192358464,-0.388383366060384,-0.0252445972768163,-0.106763568155654
42.5,-0.0259817240991744,-0.108250552845717,0.891499710807917,-0.392514244390934,0.891499710802719,-0.392514244390834,-0.0261838665025856,-0.107962077560432
43,-0.0269348712094192,-0.109452673859149,0.889388893523458,-0.396632088000967,0.889388893518276,-0.396632088000784,-0.0271390721082043,-0.109152466352738
43.5,-0.0279043565799591,-0.110646437945493,0.887258815813499,-0.400736795857518,0.887258815808334,-0.400736795857254,-0.028110137764531,-0.110334322478974
44,-0.0288900973599759,-0.111831398510685,0.885109554854496,-0.404828267039976,0.885109554849352,-0.404828267039632,-0.0290969667634791,-0.11150723409241
44.5,-0.0298919872099279,-0.113007109248767,0.88294118965311,-0.40890640082301,0.882941189647987,-0.408906400822586,-0.0300994418842826,-0.11267079095994
45,-0.0309098961413883,-0.114173125859561,0.88075380100247,-0.41297109675436,0.880753800997371,-0.412971096753859,-0.0311174253782978,-0.113824585891526
45.5,-0.0319436705100151,-0.115329007795046,0.878547471437956,-0.417022254727773,0.878547471432883,-0.417022254727196,-0.0321507590756022,-0.114968216180641
46,-0.0329931331660194,-0.116474320018539,0.876322285192657,-0.421059775051356,0.876322285187613,-0.421059775050704,-0.033199264615366,-0.11610128504364
46.5,-0.0340580837645645,-0.117608634760068,0.874078328152668,-0.425083558511615,0.874078328147653,-0.42508355851089,-0.0342627438005639,-0.117223403045579
47,-0.0351382992365512,-0.118731533250943,0.871815687812338,-0.429093506433405,0.871815687807355,-0.429093506432609,-0.0353409790761863,-0.118334189499935
47.5,-0.0362335344181782,-0.119842607420411,0.8695344532296,-0.433089520736056,0.869534453224651,-0.43308952073519,-0.0364337341286603,-0.119433273829732
48,-0.0373435228355726,-0.120941461537415,0.867234714981473,-0.437071503985841,0.867234714976559,-0.437071503984907,-0.0375407546027297,-0.120520296877799
48.5,-0.0384679776387258,-0.122027713780945,0.864916565119818,-0.441039359445057,0.864916565114941,-0.441039359444057,-0.0386617689306558,-0.121594912154353
49,-0.0396065926769682,-0.123100997723145,0.86258009712743,-0.444992991117858,0.86258009712259,-0.444992991116792,-0.0397964892672258,-0.122656787010674
49.5,-0.0407590437063038,-0.124160963710383,0.860225405874528,-0.448932303793062,0.860225405869728,-0.448932303791933,-0.0409446125228045,-0.123705603728456
50,-0.0419249897171913,-0.125207280128703,0.857852587575688,-0.452857203084085,0.85785258757093,-0.452857203082895,-0.0421058214854875,-0.124741060515356
50.5,-0.0431040743697745,-0.12623963454157,0.855461739747276,-0.45676759546619,0.85546173974256,-0.456767595464939,-0.0432797860224089,-0.125762872398351
51,-0.0442959275222121,-0.127257734689483,0.853052961165411,-0.460663388311162,0.853052961160738,-0.460663388309853,-0.0444661643493448,-0.126770772007707
51.5,-0.0455001668366658,-0.128261309342892,0.85062635182449,-0.464544489919617,0.850626351819862,-0.464544489918252,-0.045664604357081,-0.12776451024573
52,-0.0467163994466274,-0.129250109001799,0.848182012896306,-0.46841080955102,0.848182012891724,-0.468410809549599,-0.0468747449824448,-0.128743856835772
52.5,-0.0479442236687299,-0.130223906437482,0.845720046689774,-0.472262257451586,0.845720046685239,-0.472262257450112,-0.0480962176115618,-0.129708600748476
53,-0.0491832307418841,-0.131182497073874,0.843240556611282,-0.476098744880157,0.843240556606796,-0.476098744878632,-0.049328647502741,-0.130658550503648
53.5,-0.0504330065766105,-0.132125699208216,0.840743647125682,-0.479920184132191,0.840743647121245,-0.479920184130616,-0.0505716552164209,-0.131593534347619
54,-0.0516931334976865,-0.133053354072616,0.838229423717923,-0.483726488561949,0.838229423713536,-0.483726488560325,-0.0518248580397884,-0.132513400307361
54.5,-0.0529631919638074,-0.133965325740157,0.835697992855339,-0.487517572602995,0.835697992851003,-0.487517572601325,-0.0530878713941146,-0.133418016123984
55,-0.0542427622487345,-0.134861500880969,0.833149461950589,-0.491293351787106,0.833149461946305,-0.491293351785392,-0.0543603102133381,-0.13430726906953
55.5,-0.0555314260694063,-0.135741788375402,0.830583939325257,-0.495053742761658,0.830583939321025,-0.4950537427599,-0.055641790283158,-0.135181065652136
56,-0.056828768147719,-0.136606118792922,0.828001534174096,-0.498798663305606,0.828001534169918,-0.498798663303808,-0.0569319295306975,-0.136039331215731
56.5,-0.0581343776939964,-0.137454443746643,0.825402356529932,-0.502528032344107,0.825402356525808,-0.50252803234227,-0.0582303492557199,-0.136882009441335
57,-0.0594478498016918,-0.138286735134509,0.822786517229203,-0.506241769961869,0.822786517225134,-0.506241769959994,-0.0595366752953919,-0.137709061757841
57.5,-0.0607687867443976,-0.139102984278966,0.820154127878155,-0.509939797415306,0.820154127874141,-0.509939797413394,-0.0608505391156676,-0.13852046667079
58,-0.0620967991678875,-0.139903200977622,0.817505300819645,-0.513622037143547,0.817505300815687,-0.513622037141601,-0.0621715788234777,-0.139316219018152
58.5,-0.0634315071715239,-0.140687412477767,0.814840149100598,-0.517288412778368,0.814840149096696,-0.51728841277639,-0.0634994400950403,-0.14009632916246
59,-0.0647725412750161,-0.141455662387818,0.812158786440059,-0.52093884915311,0.812158786436213,-0.520938849151101,-0.0648337770167626,-0.140860822128851
59.5,-0.0661195432680696,-0.142208009538719,0.809461327197861,-0.524573272310621,0.809461327194072,-0.524573272308583,-0.0661742528362984,-0.141609736698601
60,-0.0674721669419935,-0.142944526808107,0.806747886343892,-0.528191609510292,0.806747886340162,-0.528191609508226,-0.067520540622423,-0.142343124467697
60.5,-0.0688300787037394,-0.143665299919661,0.804018579427953,-0.531793789234216,0.804018579424281,-0.531793789232125,-0.0688723238334019,-0.143061048879742
61,-0.0701929580741584,-0.14437042622951,0.801273522550185,-0.535379741192532,0.801273522546569,-0.535379741190416,-0.0702292967945082,-0.143763584242234
61.5,-0.071560498073438,-0.145060013510887,0.798512832332072,-0.538949396327976,0.798512832328516,-0.538949396325838,-0.0715911650862091,-0.144450814734801
62,-0.0729324054977338,-0.145734178747451,0.795736625888003,-0.542502686819707,0.795736625884506,-0.542502686817549,-0.0729576458453663,-0.14512283341753
62.5,-0.0743084010919034,-0.146393046944809,0.792945020797374,-0.546039546086412,0.792945020793935,-0.546039546084233,-0.0743284679824838,-0.145779741246939
