"Freq [GHz]","re(St(P1,P1)) []","im(St(P1,P1)) []","re(St(P1,P2)) []","im(St(P1,P2)) []","re(St(P2,P1)) []","im(St(P2,P1)) []","re(St(P2,P2)) []","im(St(P2,P2)) []"
0,0.00869639325071603,0,0.991322467452846,0,0.991322451402084,0,0.00869637656467148,0
0.5,0.00946101963934609,-0.000104802883470256,0.990478230071595,-0.00998233558723705,0.990478229003958,-0.00998233488650513,0.0094609164265691,-0.000104281077916824
1,0.0100434027605001,-0.0010952918621232,0.989683111938538,-0.0190716565560898,0.989683113003041,-0.0190716558491726,0.0100432394979748,-0.00109403739415548
1.5,0.0103950193826368,-0.00222817795408226,0.988984649381765,-0.0280046241679663,0.988984650259697,-0.0280046242623992,0.0103949015461282,-0.00222618865286783
2,0.0105836864683866,-0.00339018933903823,0.988329375111246,-0.0368756766084868,0.988329375625779,-0.0368756769437759,0.0105837200531473,-0.00338745899191117
2.5,0.0106888042878133,-0.00454214520970098,0.987642294121797,-0.0457305837351658,0.987642294381212,-0.0457305840737998,0.0106890584237114,-0.00453870048034766
3,0.0107465431254132,-0.00568344185172975,0.986887897931494,-0.054569586046421,0.986887898044519,-0.0545695863158358,0.0107470589851588,-0.00567930474953293
3.5,0.0107726115860904,-0.00681831683386047,0.986052448052659,-0.0633857870855055,0.986052448091274,-0.0633857872764692,0.0107734188418482,-0.00681349451838464
4,0.0107741751320041,-0.00795007685271187,0.985132028687167,-0.07217323140239,0.985132028693227,-0.0721732315270955,0.0107753033117173,-0.00794456243940278
4.5,0.0107548100073001,-0.00908069870183326,0.984126944224349,-0.0809280695943597,0.984126944219692,-0.0809280696699721,0.0107562945616324,-0.00907447558098706
5,0.0107165362578217,-0.0102112513166324,0.983039142270226,-0.0896482740133457,0.983039142264397,-0.0896482740556719,0.0107184208537749,-0.0102042978054255
5.5,0.0106606627914062,-0.0113422894906972,0.981871006868762,-0.0983331310822031,0.981871006864304,-0.0983331311036038,0.0106629993530459,-0.011334582579094
6,0.0105881417594942,-0.0124741097354537,0.980624801300742,-0.106982782883644,0.980624801296696,-0.106982782892755,0.0105909894084161,-0.0124656276396466
6.5,0.0104997182552408,-0.0136068960935303,0.979302435180168,-0.115597868336979,0.979302435174311,-0.11559786833922,0.0105031418882696,-0.0135976197562684
7,0.0103959950552107,-0.0147407960184553,0.977905397651655,-0.124179260619159,0.977905397641874,-0.124179260617518,0.0104000639619847,-0.0147307098300509
7.5,0.0102774627791475,-0.015875956004165,0.976434774106877,-0.132727885033468,0.976434774091924,-0.132727885029348,0.0102822494783011,-0.0158650480121905
8,0.0101445163775215,-0.0170125356036221,0.97489130128797,-0.141244599948023,0.974891301267818,-0.141244599941984,0.0101500957207809,-0.017000797422476
8.5,0.0099974663308493,-0.0181507106449037,0.973275435820741,-0.149730125019339,0.973275435796663,-0.149730125011741,0.0100039148598538,-0.0181381372126577
9,0.00983654771592143,-0.019290671571087,0.971587422745394,-0.158185003462197,0.971587422719886,-0.158185003453686,0.00984394323090601,-0.0192772608479128
9.5,0.00966192819949502,-0.0204326199839193,0.969827357370556,-0.166609587823222,0.969827357347163,-0.166609587815106,0.00967034949377187,-0.0204183726478471
10,0.00947371524434304,-0.0215767648879104,0.967995237719518,-0.175004041207289,0.967995237702616,-0.175004041201781,0.00948324196268512,-0.0215616840578257
10.5,0.00928354773438418,-0.0227118456221942,0.966066396017062,-0.183386309289027,0.966066396002646,-0.183386309277594,0.00929426610333954,-0.0226959861681921
11,0.00907780738365209,-0.023852256780581,0.964067886558204,-0.191732311593638,0.964067886547008,-0.191732311576923,0.00908979577794909,-0.0238356292515314
11.5,0.00885589675393764,-0.0249976943175638,0.962000819658605,-0.2000425700977,0.962000819651226,-0.200042570076409,0.00886923467699234,-0.0249803121790966
12,0.00861724257752589,-0.0261478111655689,0.959866152141731,-0.208317587291777,0.959866152138629,-0.208317587266659,0.00863201045130868,-0.0261296909050794
12.5,0.00836129847195691,-0.0273022204607694,0.95766470436967,-0.216557832612716,0.957664704371175,-0.216557832584537,0.00837757742315176,-0.0272833816686959
13,0.00808754723957295,-0.0284604988757247,0.955397176994124,-0.224763732326239,0.95539717700044,-0.224763732295762,0.0081054188848606,-0.028440964303865
13.5,0.00779550276309424,-0.0296221900092966,0.953064167013779,-0.232935662391276,0.953064167024998,-0.232935662359246,0.00781504899609511,-0.0296019856072931
14,0.00748471151362162,-0.0307868077888278,0.950666182850409,-0.241073943845096,0.950666182866522,-0.241073943812223,0.00750601429575359,-0.0307659627201367
14.5,0.00715475369167246,-0.0319538398443253,0.948203658260763,-0.249178840274198,0.948203658281667,-0.249178840241153,0.00717789484886494,-0.0319323864832048
15,0.00680524402510274,-0.0331227508194596,0.945676964985346,-0.257250556973443,0.945676965010863,-0.257250556940844,0.00683030505200805,-0.0331007247306165
15.5,0.00643583225019528,-0.034292985589208,0.943086424100574,-0.26528924143954,0.943086424130459,-0.265289241407946,0.00646289412322176,-0.0342704254918444
16,0.00604620330370942,-0.0354639723589452,0.940432316089452,-0.273294984890869,0.940432316123408,-0.273294984860779,0.00607534630393253,-0.0354409200769652
16.5,0.00563607725457349,-0.0366351256245661,0.937714889680931,-0.281267824550832,0.937714889718616,-0.281267824522681,0.00566738080129525,-0.0366116260247003
17,0.00520520900406807,-0.0378058489777029,0.934934369531566,-0.28920774647449,0.934934369572608,-0.289207746448652,0.00523875149955483,-0.0377819498972833
17.5,0.00475338778300721,-0.0389755377442977,0.932090962837598,-0.297114688737222,0.932090962881601,-0.297114688714005,0.00478924646870826,-0.0389512899103346
18,0.00428043647361243,-0.040143581448554,0.929184864973087,-0.304988544838733,0.929184865019641,-0.304988544818385,0.00431868729796414,-0.0401190383896943
18.5,0.00378621078258906,-0.0413093660976895,0.926216264251995,-0.31282916720595,0.926216264300686,-0.312829167188662,0.00382692828033987,-0.0412845840505285
19,0.0032705982904534,-0.0424722762859293,0.923185345910614,-0.32063637070414,0.923185345961028,-0.320636370690048,0.00331385547329155,-0.0424473140970258
19.5,0.00273351740047656,-0.0436316971187003,0.920092295402619,-0.328409936087348,0.920092295454348,-0.328409936076536,0.00277938565862984,-0.0436066161435431
20,0.00217491620880816,-0.0447870159601982,0.916937301093234,-0.336149613337224,0.916937301145882,-0.336149613329727,0.00222346522318173,-0.0447618799602298
20.5,0.00159477131542951,-0.0459376240093237,0.913720556432181,-0.343855124854134,0.913720556485366,-0.343855124849949,0.00164606897976949,-0.0459124990480126
21,0.000993086593667369,-0.047082917710396,0.910442261677851,-0.351526168476265,0.910442261731212,-0.351526168475347,0.00104719894619199,-0.0470578720492183
21.5,0.000369891934090316,-0.048222300006219,0.907102625237777,-0.3591624203119,0.907102625290974,-0.359162420314169,0.000426883097976061,-0.0481974040013038
22,-0.000274758023276644,-0.0493551814419197,0.903701864683308,-0.366763537377457,0.903701864736024,-0.366763537382806,-0.000214825891177328,-0.0493305074419867
22.5,-0.000940785156257506,-0.0504809811285498,0.900240207489632,-0.374329160039527,0.900240207541576,-0.37432916004782,-0.000877851909098781,-0.0504566033746781
23,-0.00162808911688955,-0.051599127575843,0.896717891545888,-0.381858914263446,0.896717891596794,-0.381858914274527,-0.00156209665456114,-0.0515751221034928
23.5,-0.00233654856798543,-0.0527090594036446,0.893135165474358,-0.389352413674059,0.893135165523988,-0.389352413687753,-0.0022674408675068,-0.0526855039472909
24,-0.0030660223924931,-0.0538102259415969,0.889492288792426,-0.396809261436566,0.889492288840567,-0.396809261452684,-0.0029937455326764,-0.0537871998422281
24.5,-0.00381635086958365,-0.0549020877264863,0.885789531946287,-0.404229051966803,0.885789531992754,-0.404229051985143,-0.00374085305055594,-0.0548796718421698
25,-0.00458735681264277,-0.0559841169064603,0.882027176241212,-0.411611372481244,0.882027176285846,-0.411611372501599,-0.00450858837077223,-0.0559623935261029
25.5,-0.00537884666540689,-0.0570557975609791,0.878205513689445,-0.418955804397509,0.878205513732114,-0.418955804419664,-0.00529676008415692,-0.0570348503213542
26,-0.00619061155346889,-0.0581166259449875,0.874324846793611,-0.426261924596232,0.874324846834205,-0.426261924619968,-0.0061051614706692,-0.05809653975107
26.5,-0.00702242828923327,-0.0591661106653423,0.870385488280649,-0.433529306555119,0.870385488319082,-0.433529306580217,-0.00693357150121454,-0.0591469716139228
27,-0.00787406032913773,-0.0602037727970803,0.866387760798863,-0.440757521365665,0.866387760835072,-0.440757521391911,-0.00778175579214774,-0.060185668103631
27.5,-0.00874525868260639,-0.0612291459465861,0.862331996588575,-0.447946138642601,0.862331996622519,-0.447946138669779,-0.00864946751188278,-0.0612121638752889
28,-0.00963576277273737,-0.0622417762682512,0.858218537135025,-0.455094727335627,0.858218537166682,-0.455094727363528,-0.00953644823958943,-0.0622260060651065
28.5,-0.0105453012492127,-0.0632412224406897,0.854047732810627,-0.462202856452423,0.854047732839992,-0.462202856480844,-0.0104424287764092,-0.0632267542695844
29,-0.0114735927542624,-0.0642270556080869,0.849819942512374,-0.469270095701338,0.849819942539462,-0.469270095730085,-0.0113671299100174,-0.0642139804897008
29.5,-0.0124203466428671,-0.0651988592917893,0.845535533299037,-0.476296016061559,0.845535533323875,-0.476296016090445,-0.0123102631336613,-0.0651872690451961
30,-0.0133852636586086,-0.0661562292767436,0.841194880031877,-0.483280190287944,0.84119488005451,-0.483280190316791,-0.0132715313210678,-0.0661462164635772
30.5,-0.0143680365667824,-0.0670987734770035,0.836798365021765,-0.490222193357163,0.836798365042247,-0.490222193385803,-0.0142506293588029,-0.0670904313480311
31,-0.0153683507465255,-0.0680261117840444,0.832346377684956,-0.497121602861192,0.832346377703354,-0.497121602889468,-0.015247244737819,-0.0680195342280049
31.5,-0.0163858847438365,-0.0689378759012793,0.827839314209183,-0.503977999353701,0.827839314225574,-0.503977999381468,-0.0162610581060272,-0.0689331573958386
32,-0.0174203107874057,-0.0698337091677627,0.823277577231285,-0.510790966654363,0.823277577245756,-0.510790966681485,-0.0172917437838129,-0.0698309447324458
32.5,-0.0184712952692342,-0.0707132663737643,0.818661575527187,-0.517560092115655,0.818661575539829,-0.517560092142009,-0.0183389702444386,-0.0707125515247159
33,-0.019538499192022,-0.0715762135705353,0.813991723714738,-0.524284966856269,0.813991723725653,-0.524284966881743,-0.0194024005613035,-0.0715776442769789
33.5,-0.0206215785853019,-0.0724222278763396,0.809268441969667,-0.530965185964882,0.809268441978958,-0.530965185989375,-0.0204816928240221,-0.0724259005186005
34,-0.0217201848922534,-0.0732509972805211,0.80449215575468,-0.537600348677615,0.804492155762456,-0.537600348701038,-0.0215765005252359,-0.0732570086094898
34.5,-0.0228339653291132,-0.0740622204471642,0.799663295561596,-0.544190058532217,0.799663295567969,-0.544190058554492,-0.0226864729200722,-0.074070667545082
35,-0.0239625632190226,-0.0748556065196606,0.794782296666252,-0.550733923501677,0.794782296671336,-0.550733923522738,-0.0238112553600698,-0.0748665867621158
35.5,-0.025105618302095,-0.075630874927315,0.789849598895826,-0.557231556109673,0.789849598899735,-0.557231556129461,-0.0249504896033546,-0.0756444859463405
36,-0.0262627670234358,-0.0763877551949312,0.784865646408142,-0.563682573530035,0.784865646410992,-0.563682573548505,-0.0261038141027798,-0.0764040948431144
36.5,-0.0274336428007322,-0.0771259867561601,0.779830887482486,-0.570086597672141,0.779830887484393,-0.570086597689258,-0.0272708642736483,-0.0771451530716663
37,-0.0286178762730002,-0.0778453187712674,0.774745774321383,-0.576443255253975,0.774745774322459,-0.57644325526971,-0.0284512727425982,-0.077867409943691
37.5,-0.0298150955319605,-0.0785455099498052,0.769610762862799,-0.582752177864342,0.769610762863157,-0.582752177878678,-0.0296446695791089,-0.0785706242867831
38,-0.0310249263374495,-0.0792263283786289,0.764426312602199,-0.58901300201563,0.76442631260195,-0.589013002028557,-0.0308506825110452,-0.0792545642731275
38.5,-0.0322469923181896,-0.0798875513555232,0.759192886423903,-0.595225369188281,0.759192886423154,-0.595225369199799,-0.0320689371255434,-0.0799190072537482
39,-0.0334809151591646,-0.0805289652286737,0.753910950441155,-0.601388925868042,0.753910950440011,-0.601388925878158,-0.0332990570564949,-0.0805637395985375
39.5,-0.0347263147767635,-0.0811503652421245,0.748580973844371,-0.607503323576918,0.748580973842931,-0.607503323585644,-0.0345406641597839,-0.0811885565422148
40,-0.0359828094827876,-0.0817515553872776,0.743203428757014,-0.613568218898642,0.743203428755376,-0.613568218905999,-0.035793378677366,-0.0817932620362837
40.5,-0.0372500161383371,-0.0823323482604637,0.737778790098576,-0.619583273499385,0.737778790096832,-0.619583273505399,-0.0370568193912139,-0.0823776686070158
41,-0.0385275502985155,-0.0828925649265455,0.732307535454172,-0.625548154144314,0.732307535452411,-0.625548154149017,-0.0383306037680622,-0.082941597219423
41.5,-0.0398150263488556,-0.0834320347884732,0.726790144950256,-0.631462532710558,0.726790144948559,-0.631462532713987,-0.0396143480958472,-0.083484877147159
42,-0.0411120576342497,-0.0839505954626893,0.721227101136003,-0.637326086197044,0.72122710113445,-0.637326086199241,-0.0409076676126383,-0.0840073458482244
42.5,-0.0424182565811639,-0.084448092660232,0.715618888869946,-0.643138496731619,0.715618888868609,-0.643138496732629,-0.0422101766288308,-0.0845088488463587
43,-0.043733234813823,-0.0849243800733798,0.70996599521143,-0.648899451575798,0.709965995210378,-0.64889945157567,-0.043521488643286,-0.084989239617939
43.5,-0.0450566032650018,-0.0853793192676442,0.704268909316536,-0.654608643127455,0.704268909315833,-0.654608643126242,-0.0448412164540621,-0.0854483794842147
44,-0.0463879722820213,-0.085812779578914,0.698528122338092,-0.660265768921708,0.698528122337795,-0.660265768919466,-0.0461689722643299,-0.0858861375086705
44.5,-0.0477269517284835,-0.0862246380155345,0.692744127329451,-0.665870531630213,0.692744127329612,-0.665870531626999,-0.0475043677840051,-0.086302390399315
45,-0.0490731510822432,-0.0866147791650987,0.68691741915173,-0.671422639059063,0.686917419152397,-0.671422639054936,-0.0488470143276023,-0.0866970224156682
45.5,-0.0504261795300623,-0.086983095105718,0.681048494384219,-0.676921804145435,0.681048494385434,-0.676921804140457,-0.0501965229087556,-0.0870699252802177
46,-0.05178564605937,-0.0873294853215417,0.675137851237701,-0.682367744953129,0.675137851239502,-0.682367744947361,-0.0515525043318238,-0.0874209980941165
46.5,-0.0531511595474876,-0.0876538566222829,0.669185989470438,-0.687760184667086,0.669185989472856,-0.687760184660593,-0.0529145692809476,-0.0877501472568842
47,-0.0545223288486724,-0.0879561230665181,0.663193410306598,-0.693098851586997,0.663193410309661,-0.693098851579842,-0.054282328406913,-0.0880572863898744
47.5,-0.0558987628792746,-0.08823620588852,0.657160616356935,-0.698383479120049,0.657160616360666,-0.698383479112294,-0.0556553924121089,-0.0883423362632756
48,-0.0572800707012925,-0.0884940334283882,0.651088111541513,-0.703613805772869,0.65108811154593,-0.703613805764579,-0.0570333721338762,-0.0886052247264081
48.5,-0.058665861604573,-0.0887295410652529,0.644976401014329,-0.708789575142732,0.644976401019445,-0.70878957513397,-0.0584158786264848,-0.0888458866410928
49,-0.0600557451878756,-0.0889426711533119,0.638825991089664,-0.713910535908026,0.638825991095489,-0.713910535898854,-0.0598025232419667,-0.0890642638178598
49.5,-0.0614493314390024,-0.0891333729604936,0.632637389170048,-0.718976441818028,0.632637389176585,-0.718976441808508,-0.0611929177100043,-0.0892603049547747
50,-0.0628462308141691,-0.0893016026095127,0.626411103675684,-0.723987051681994,0.626411103682937,-0.723987051672187,-0.0625866742170519,-0.0894339655786756
50.5,-0.0642460543167758,-0.0894473230211248,0.620147643975255,-0.728942129357573,0.62014764398322,-0.728942129347537,-0.0639834054848445,-0.0895852079885952
51,-0.0656484135757043,-0.0895705038593578,0.613847520317991,-0.733841443738555,0.613847520326662,-0.733841443728347,-0.065382724848435,-0.0897140012011821
51.5,-0.067052920923276,-0.0896711214785378,0.607511243766917,-0.738684768741944,0.607511243776285,-0.738684768731621,-0.0667842463338743,-0.0898203208979065
52,-0.068459189472957,-0.0897491588719073,0.601139326133217,-0.743471883294369,0.601139326143268,-0.743471883283986,-0.0681875847356453,-0.0899041493738725
52.5,-0.0698668331969127,-0.0898046056216574,0.594732279911624,-0.748202571317809,0.594732279922343,-0.748202571307415,-0.069592355693929,-0.089965475488047
53,-0.0712754670034743,-0.089837457850197,0.588290618216798,-0.752876621714636,0.588290618228167,-0.752876621704284,-0.0709981757717925,-0.0900042946147314
53.5,-0.0726847068145866,-0.0898477181724869,0.581814854720639,-0.757493828351977,0.581814854732636,-0.757493828341713,-0.0724046625323448,-0.0900206085961069
54,-0.0740941696432859,-0.0898353956492821,0.575305503590476,-0.762053990045364,0.575305503603078,-0.762053990035234,-0.0738114346159244,-0.0900144256956895
54.5,-0.0755034736712419,-0.0898005057411207,0.568763079428119,-0.766556910541682,0.5687630794413,-0.766556910531729,-0.0752181118173505,-0.0899857605525439
55,-0.0769122383263992,-0.0897430702629165,0.562188097209732,-0.771002398501403,0.562188097223465,-0.771002398491668,-0.0766243151632726,-0.0899346341361038
55.5,-0.0783200843607422,-0.0896631173390162,0.555581072226498,-0.775390267480092,0.555581072240752,-0.775390267470612,-0.0780296669896384,-0.0898610737014661
56,-0.0797266339281814,-0.0895606813585825,0.548942520026071,-0.779720335909181,0.548942520040816,-0.779720335899992,-0.0794337910192938,-0.0897651127450144
56.5,-0.0811315106625861,-0.0894358029311822,0.542272956354789,-0.783992427076005,0.542272956369993,-0.78399242706714,-0.0808363124397181,-0.0896467909602565
57,-0.0825343397559459,-0.0892885288424566,0.53557289710064,-0.7882063691031,0.535572897116268,-0.78820636909459,-0.0822368579809007,-0.089506154193752
57.5,-0.0839347480366654,-0.0891189120097634,0.528842858236974,-0.792361994926744,0.528842858252992,-0.792361994918617,-0.083635055993344,-0.0893432544010141
58,-0.0853323640479658,-0.0889270114376815,0.522083355766966,-0.796459142274753,0.522083355783339,-0.796459142267033,-0.0850305365261814,-0.0891581496022826
58.5,-0.0867268181263922,-0.0887128921732819,0.515294905668809,-0.800497653643521,0.515294905685499,-0.800497653636232,-0.0864229314054039,-0.0889509038380714
59,-0.0881177424803896,-0.0884766252610696,0.508478023841658,-0.804477376274313,0.508478023858629,-0.804477376267476,-0.0878118743121515,-0.0887215871243871
59.5,-0.0895047712689251,-0.0882182876975064,0.501633226052321,-0.808398162128801,0.501633226069535,-0.808398162122432,-0.0891970008610663,-0.088470275407542
60,-0.0908875406801306,-0.0879379623850387,0.4947610278827,-0.812259867863852,0.49476102790012,-0.812259867857967,-0.0905779486786612,-0.0881970505184711
60.5,-0.0922656890099299,-0.0876357380855503,0.487861944677996,-0.816062354805574,0.487861944695584,-0.816062354800186,-0.0919543574816783,-0.0879020001264823
61,-0.0936388567406071,-0.0873117093731694,0.480936491495678,-0.819805488922623,0.480936491513396,-0.819805488917744,-0.0933258691553986,-0.0875852176923667
61.5,-0.0950066866192894,-0.0869659765863681,0.473985183055231,-0.823489140798777,0.473985183073041,-0.823489140794413,-0.094692127831865,-0.0872468024208055
62,-0.096368823736293,-0.0865986457792934,0.467008533688699,-0.827113185604784,0.467008533706565,-0.827113185600941,-0.0960527799679792,-0.0868868592120119
62.5,-0.0977249156032948,-0.0862098286722727,0.460007057292021,-0.830677503069502,0.460007057309905,-0.830677503066185,-0.0974074744234232,-0.086505498612554
