"Freq [GHz]","re(St(P1,P1)) []","im(St(P1,P1)) []","re(St(P1,P2)) []","im(St(P1,P2)) []","re(St(P2,P1)) []","im(St(P2,P1)) []","re(St(P2,P2)) []","im(St(P2,P2)) []"
0,0.00571305323256865,0,0.994303850413417,0,0.994303850748111,0,0.00571305445072312,0
0.5,0.006363009752544,-0.000588601738975569,0.993571924096617,-0.00833885223076081,0.993571924260113,-0.00833885213044994,0.0063628020270734,-0.0005879992555613
1,0.0068914294208966,-0.00197261692572681,0.992828097772595,-0.0158742063264867,0.992828097645731,-0.015874205825714,0.00689086714960396,-0.00197118167243815
1.5,0.00718610584015167,-0.00350778271450736,0.992186599035261,-0.0232300813005644,0.992186599003331,-0.0232300810702739,0.00718511674204159,-0.00350541657141434
2,0.00730166593217696,-0.00506998551245985,0.991604507428879,-0.0305181249218514,0.991604507373179,-0.0305181248270685,0.00730020623864469,-0.0050666041806835
2.5,0.00731632778243352,-0.00661120421266936,0.991011367696487,-0.0377862533307738,0.991011367610536,-0.0377862532942128,0.00731434491167349,-0.00660674412903894
3,0.00727031133873624,-0.00812699696578179,0.990372616286544,-0.0450359852245406,0.990372616184945,-0.0450359852105073,0.00726774889211512,-0.00812139335860174
3.5,0.00718340200128198,-0.00962074425163451,0.989674845722411,-0.0522607622974327,0.989674845620503,-0.0522607622902527,0.00718020751687209,-0.00961392655187865
4,0.00706599856117052,-0.0110962485404382,0.988914543703366,-0.0594545847570167,0.988914543613551,-0.0594545847506254,0.00706212789930172,-0.0110881413553905
4.5,0.00692407614547808,-0.0125565399103991,0.988092599089953,-0.0666134873537505,0.988092599021322,-0.0666134873469932,0.00691949535534908,-0.0125470653718622
5,0.00676138827405293,-0.0140039130064391,0.987211696223417,-0.0737354096423726,0.987211696181909,-0.07373540963665,0.00675607393339273,-0.0139929932096123
5.5,0.00658048655520638,-0.0154401386130116,0.986275046243781,-0.080819760761262,0.986275046232365,-0.0808197607591605,0.00657442519663975,-0.0154276977383425
6,0.00638321797438413,-0.0168666427986937,0.985285764791674,-0.0878669859154888,0.985285764810528,-0.0878669859198373,0.00637640497557368,-0.0168526087887271
6.5,0.00617098019133389,-0.0182846298542874,0.984246582390519,-0.0948782030052602,0.984246582437251,-0.0948782030184026,0.00616341837809942,-0.0182689356232206
7,0.00594485956539992,-0.0196951604514206,0.983159734146217,-0.101854917920592,0.98315973421612,-0.10185491794383,0.00593655770160184,-0.0196777446542082
7.5,0.00570571013541443,-0.0210991991760565,0.982026947305792,-0.108798811372501,0.982026947392151,-0.108798811405633,0.00569668142215596,-0.0210800065895009
8,0.00545420192049773,-0.0224976423200483,0.980849480392206,-0.1157115861453,0.980849480486621,-0.115711586186294,0.00544446258826248,-0.0224766239007836
8.5,0.00519085283030724,-0.0238913333946549,0.979628186594813,-0.122594863163453,0.979628186687546,-0.122594863208209,0.00518042087679804,-0.0238684460827141
9,0.00491605154968389,-0.0252810712695828,0.978363585208839,-0.129450115569602,0.978363585289159,-0.129450115611792,0.00490494565172545,-0.0252562776036829
9.5,0.00463007524226611,-0.0266676140841842,0.977055931794174,-0.136278631372377,0.977055931850673,-0.136278631403365,0.00461831385147138,-0.0266408816885155
10,0.00433310408674958,-0.028051680908046,0.975705282072649,-0.143081496792315,0.975705282093546,-0.143081496801145,0.00432070470518747,-0.0280229819015094
10.5,0.00400131509080275,-0.0294327383353643,0.974285764013792,-0.149896138994382,0.974285764034263,-0.149896139003486,0.00398904790361468,-0.0294027661343894
11,0.00365343745480858,-0.0308106332234388,0.972822934887539,-0.156679794922721,0.972822934907575,-0.156679794932075,0.00364129860362872,-0.0307794106160424
11.5,0.00328948574968498,-0.0321852122445474,0.97131797743856,-0.163433487258369,0.971317977458154,-0.163433487267948,0.00327746982723109,-0.0321527628747083
12,0.00290947540825925,-0.033556321756254,0.969771890330601,-0.170158232616014,0.969771890349748,-0.170158232625794,0.00289757536763172,-0.0335226700852851
12.5,0.00251342274732633,-0.0349238078028682,0.96818550452555,-0.176855023652904,0.968185504544248,-0.176855023662859,0.00250162980849557,-0.0348889790672717
13,0.00210134498988926,-0.0362875161192475,0.966559500073357,-0.183524814850847,0.966559500091603,-0.183524814860957,0.00208964854318727,-0.0362515362847531
13.5,0.0016732602874292,-0.0376472921370556,0.964894422790455,-0.190168511593813,0.964894422808251,-0.190168511604052,0.0016616477938636,-0.0376101878484776
14,0.00122918774205413,-0.0390029809936596,0.963190700428368,-0.196786962139825,0.963190700445714,-0.196786962150175,0.00121764463024962,-0.0389647795202159
14.5,0.000769147428329675,-0.0403544275438539,0.961448658043048,-0.203380952084989,0.961448658059948,-0.203380952095424,0.000757656987905725,-0.0403151567194664
15,0.000293160414601784,-0.0417014763745271,0.959668532368143,-0.209951200932874,0.959668532384601,-0.209951200943376,0.00028170368578434,-0.0416611645326856
15.5,-0.000198751216429816,-0.043043971822526,0.957850485071658,-0.216498360409284,0.957850485087679,-0.216498360419834,-0.000210195557157289,-0.043002647725118
16,-0.000706564348129934,-0.0443817579958425,0.955994614836551,-0.223023014195551,0.955994614852142,-0.22302301420613,-0.00071802010653943,-0.0443394507554111
16.5,-0.00123025481163633,-0.0457146787983573,0.954100968253179,-0.229525678790219,0.954100968268346,-0.229525678800811,-0.00124174839862462,-0.0456714177930961
17,-0.00176979736917154,-0.0470425779583499,0.952169549546908,-0.236006805246173,0.952169549561659,-0.236006805256761,-0.00178135792818113,-0.0469983927391215
17.5,-0.00232516569931729,-0.0483652990609498,0.950200329189693,-0.242466781566505,0.950200329204036,-0.242466781577074,-0.00233682523849094,-0.0483202192495127
18,-0.00289633238466841,-0.0496826855848118,0.948193251461556,-0.248905935576412,0.948193251475499,-0.24890593558695,-0.00290812591390271,-0.0496367407623457
18.5,-0.00348326890229883,-0.0509945809431676,0.946148241038588,-0.255324538119309,0.946148241052141,-0.255324538129801,-0.00349523457534784,-0.0509478005281081
19,-0.0040859456175753,-0.0523008285295683,0.944065208689538,-0.261722806453073,0.944065208702709,-0.261722806463508,-0.00409812487932926,-0.0522532416436223
19.5,-0.00470433178186935,-0.053601271768466,0.941944056164718,-0.268100907746482,0.941944056177517,-0.268100907756849,-0.00471676952089767,-0.0535529070895859
20,-0.00533839553483245,-0.0548957541709578,0.939784680359728,-0.274458962596859,0.939784680372164,-0.274458962607147,-0.0053511402412344,-0.0548466397718799
20.5,-0.0059881039119507,-0.056184119395859,0.93758697683325,-0.28079704850762,0.937586976845333,-0.280797048517821,-0.00600120784050456,-0.0561342825666933
21,-0.00665342285820791,-0.0574662113163842,0.935350842753644,-0.287115203279395,0.935350842765383,-0.2871152032895,-0.00666694219673281,-0.0574156783695479
21.5,-0.0073343172487696,-0.0587418740926122,0.933076179343694,-0.293413428280618,0.9330761793551,-0.29341342829062,-0.00734831229152877,-0.0586906701482293
22,-0.00803075091774508,-0.0600109522499939,0.93076289388705,-0.299691691573724,0.930762893898131,-0.299691691583613,-0.00804528624360812,-0.0599591009996643
22.5,-0.00874268669619399,-0.0612732907640225,0.928410901354031,-0.305949930881078,0.928410901364796,-0.305949930890852,-0.00875783135113195,-0.0612208142106452
23,-0.00947008646070568,-0.0625287351512642,0.926020125698622,-0.312188056381435,0.926020125709081,-0.312188056391085,-0.0094859141440336,-0.0624756533223441
23.5,-0.0102129111940521,-0.0637771315667963,0.923590500872911,-0.318405953332678,0.923590500883073,-0.318405953342202,-0.0102295004476216,-0.0637234621984011
24,-0.0109711210596037,-0.0650183269081255,0.921121971599953,-0.324603484520678,0.921121971609827,-0.324603484530069,-0.0109885554588937,-0.0649640850963378
24.5,-0.0117446754914157,-0.0662521689255182,0.918614493941182,-0.330780492537008,0.918614493950774,-0.330780492546262,-0.0117630438371787,-0.0661973667419342
25,-0.0125335333021385,-0.0674785063385661,0.916068035690018,-0.336936801890471,0.916068035699339,-0.336936801899586,-0.0125529298108649,-0.0674231524060129
25.5,-0.0133376528111817,-0.0686971889587242,0.913482576619295,-0.343072220959058,0.913482576628354,-0.34307222096803,-0.0133581773022342,-0.0686412879830107
26,-0.0141569919958627,-0.069908067817307,0.910858108606469,-0.34918654378987,0.910858108615272,-0.349186543798696,-0.0141787500725646,-0.0698516200704162
26.5,-0.0149915086686358,-0.0711109952982474,0.908194635657358,-0.355279551755349,0.908194635665913,-0.355279551764028,-0.0150146118899704,-0.0710539960479593
27,-0.0158411606838488,-0.0723058252746378,0.905492173846269,-0.361351015074437,0.905492173854583,-0.361351015082966,-0.015865726722658,-0.0722482641551285
27.5,-0.016705906177943,-0.0734924132476877,0.902750751187843,-0.367400694207405,0.902750751195926,-0.367400694215783,-0.0167320589605826,-0.073434273565228
28,-0.0175857038474397,-0.0746706164863222,0.899970407453739,-0.373428341133051,0.899970407461595,-0.373428341141277,-0.0176135736687617,-0.0746118744537245
28.5,-0.0184805132696163,-0.0758402941650547,0.89715119394528,-0.379433700516727,0.897151193952917,-0.379433700524799,-0.0185102368758313,-0.0757809180581368
29,-0.0193902952712856,-0.0770013074971148,0.894293173231591,-0.385416510777361,0.894293173239015,-0.385416510785279,-0.0194220159017273,-0.0769412567260459
29.5,-0.0203150123517338,-0.078153519858934,0.89139641886119,-0.391376505061304,0.891396418868409,-0.391376505069067,-0.0203488797287031,-0.0780927439470407
30,-0.0212546291664847,-0.0792967969010825,0.888461015053786,-0.397313412130363,0.888461015060803,-0.397313412137971,-0.0212907994202067,-0.0792352343635163
30.5,-0.0222091130792099,-0.0804310066394254,0.885487056377925,-0.403226957170991,0.885487056384748,-0.403226957178445,-0.0222477485923979,-0.0803685837540595
31,-0.0231784347897634,-0.0815560195187375,0.882474647419208,-0.409116862531132,0.882474647425842,-0.40911686253843,-0.0232197039433365,-0.0814926489819257
31.5,-0.0241625690469519,-0.0826717084390725,0.879423902442948,-0.414982848390786,0.879423902449399,-0.414982848397929,-0.0242066458450069,-0.0826072878994641
32,-0.0251614954551894,-0.0837779487328871,0.876334945054517,-0.420824633371916,0.876334945060789,-0.420824633378905,-0.0252085590033587,-0.0837123591975124
32.5,-0.0261751993846331,-0.0848746180780768,0.873207907859979,-0.4266419350929,0.873207907866078,-0.426641935099735,-0.026225433191403,-0.0848077221866079
33,-0.0272036729945777,-0.0859615963287068,0.870042932129167,-0.432434470672307,0.870042932135098,-0.432434470678989,-0.0272572640599461,-0.0858932364942333
33.5,-0.0282469163797708,-0.0870387652411597,0.866840167462886,-0.438201957186427,0.866840167468652,-0.438201957192957,-0.0283040540298126,-0.0869687616593642
34,-0.0293049388486978,-0.0881060080685789,0.863599771465611,-0.443944112084586,0.863599771471218,-0.443944112090965,-0.029365813268124,-0.0880341566020957
34.5,-0.0303777603415376,-0.089163208990765,0.860321909424732,-0.449660653565959,0.860321909430183,-0.449660653572186,-0.0304425607493024,-0.0890892789421298
35,-0.0314654129932074,-0.0902102523400126,0.857006753997134,-0.45535130092127,0.857006754002435,-0.455351300927347,-0.0315343253987483,-0.0901339841354549
35.5,-0.0325679428432542,-0.0912470215755901,0.853654484903718,-0.461015774842485,0.85365448490887,-0.461015774848414,-0.0326411473132662,-0.0911681243934812
36,-0.0336854116888807,-0.0922733979507828,0.850265288632258,-0.466653797703313,0.850265288637267,-0.466653797709094,-0.03376307904707,-0.0921915473434662
36.5,-0.0348178990695261,-0.0932892588064886,0.846839358148894,-0.472265093813099,0.846839358153762,-0.472265093818734,-0.0349001869451317,-0.0932040943832031
37,-0.0359655043604091,-0.0942944754146124,0.843376892618382,-0.47784938964646,0.843376892623115,-0.477849389651949,-0.0360525524963169,-0.0942055986770012
37.5,-0.0371283489373858,-0.0952889102831846,0.83987809713318,-0.483406414050789,0.839878097137779,-0.483406414056134,-0.0372202736666872,-0.0951958827342609
38,-0.0383065783553042,-0.0962724138238372,0.836343182451327,-0.488935898433583,0.836343182455795,-0.488935898438786,-0.0384034661578577,-0.0961747555069213
38.5,-0.0395003644555554,-0.097244820272111,0.832772364743046,-0.494437576931354,0.832772364747386,-0.494437576936416,-0.0396022645158725,-0.0971420089386598
39,-0.0407099072843917,-0.0982059427434403,0.829165865345918,-0.499911186561733,0.829165865350135,-0.499911186566656,-0.0408168229920192,-0.0980974138979389
39.5,-0.0419354366604849,-0.0991555673049425,0.825523910528458,-0.505356467360227,0.825523910532553,-0.505356467365011,-0.0420473160277948,-0.099040715430466
40,-0.0431772131770223,-0.100093445948436,0.821846731261887,-0.510773162502947,0.821846731265862,-0.510773162507595,-0.0432939382016497,-0.0999716272763644
40.5,-0.0444355283598268,-0.101019288367873,0.818134562999867,-0.516161018416531,0.818134563003726,-0.516161018421043,-0.0445569034352859,-0.100889825616077
41,-0.0457107036288912,-0.101932752480159,0.814387645465964,-0.52151978487633,0.814387645469709,-0.521519784880708,-0.0458364432129451,-0.101794942039951
41.5,-0.047003087628573,-0.102833433689358,0.81060622244857,-0.526849215093872,0.810606222452203,-0.526849215098118,-0.04713280352039,-0.102686555783611
42,-0.0483130514063319,-0.103720852988924,0.806790541603033,-0.532149065794499,0.806790541606557,-0.532149065798614,-0.0484462401645933,-0.103564185338856
42.5,-0.0496409808401251,-0.10459444413383,0.80294085426074,-0.53741909728599,0.802940854264156,-0.537419097289975,-0.04977701209631,-0.104427279642539
43,-0.0509872656545589,-0.105453540303115,0.79905741524486,-0.54265907351893,0.79905741524817,-0.542659073522788,-0.0511253723342609,-0.105275209167208
43.5,-0.0523522843464408,-0.106297360919155,0.795140482692528,-0.54786876213949,0.795140482695734,-0.547868762143221,-0.0524915560933853,-0.106107257389434
44,-0.0537363843897493,-0.10712499959297,0.791190317883174,-0.553047934535238,0.791190317886279,-0.553047934538844,-0.0538757657660421,-0.106922613292934
44.5,-0.0551398572435908,-0.107935414514291,0.787207185072776,-0.55819636587454,0.787207185075781,-0.558196365878022,-0.0552781525125289,-0.107720365766605
45,-0.0565629079839045,-0.108727422973383,0.783191351333778,-0.563313835140064,0.783191351336685,-0.563313835143424,-0.0566987944059221,-0.108499500966535
45.5,-0.0580056198578264,-0.109499702038739,0.779143086400444,-0.568400125156843,0.779143086403254,-0.568400125160082,-0.0581376713645326,-0.109258903898983
46,-0.0594679147424461,-0.110250797643494,0.775062662519415,-0.573455022615325,0.77506266252213,-0.573455022618445,-0.059594637504728,-0.10999736560811
46.5,-0.0609495113713603,-0.110979144350025,0.770950354305265,-0.578478318089791,0.770950354307887,-0.578478318092794,-0.0610693920550746,-0.110713597365093
47,-0.0624498842175546,-0.111683097746018,0.766806438600824,-0.583469806052498,0.766806438603354,-0.583469806055384,-0.0625614505639109,-0.1114062530921
47.5,-0.063968226966939,-0.11236098066128,0.762631194342089,-0.588429284883851,0.762631194344529,-0.588429284886622,-0.064070118749126,-0.112073960854434
48,-0.0655034253846659,-0.113011143110992,0.758424902427522,-0.593356556878914,0.758424902429872,-0.593356556881572,-0.0655944718864914,-0.112715363571912
48.5,-0.0670540448046803,-0.113632034087432,0.75418784559155,-0.598251428250519,0.754187845593813,-0.598251428253065,-0.0671333429824144,-0.113329168129544
49,-0.0686183371816904,-0.114222281196029,0.749920308282106,-0.60311370912921,0.749920308284281,-0.603113709131645,-0.0686853229804708,-0.113914200861945
49.5,-0.0701942714131771,-0.11478077198218,0.745622576542029,-0.607943213560251,0.74562257654412,-0.607943213562577,-0.070248775771703,-0.114469466077757
50,-0.0717795884040106,-0.115306729079347,0.741294937894189,-0.612739759497903,0.741294937896195,-0.612739759500122,-0.0718218697347267,-0.114994203090933
50.5,-0.0733718792894377,-0.115799770533233,0.736937681230162,-0.617503168797158,0.736937681232086,-0.61750316879927,-0.0734026259426308,-0.115487936399369
51,-0.0749686818115858,-0.116259947233307,0.732551096702342,-0.62223326720309,0.732551096704183,-0.622233267205097,-0.0749889811946406,-0.115950513462428
51.5,-0.076567586732894,-0.116687751467545,0.728135475619339,-0.626929884337996,0.728135475621099,-0.626929884339899,-0.0765788619532301,-0.116382125165219
52,-0.0781663440930533,-0.117084093995303,0.723691110344544,-0.631592853686459,0.723691110346224,-0.631592853688259,-0.0781702634761393,-0.1167833055559
52.5,-0.0797629586344726,-0.117450251121147,0.719218294197742,-0.636222012578476,0.719218294199344,-0.636222012580176,-0.0797613273170205,-0.117154909642727
53,-0.0813557650340343,-0.117787787225781,0.714717321359668,-0.640817202170768,0.714717321361192,-0.640817202172368,-0.0813504102141309,-0.117498070592998
53.5,-0.0829434764370532,-0.118098461241368,0.710188486779381,-0.645378267426385,0.710188486780829,-0.645378267427887,-0.0829361382835532,-0.117814140125071
54,-0.084525203563223,-0.118384127062585,0.70563208608438,-0.649905057092713,0.705632086085752,-0.649905057094117,-0.0845174422366231,-0.118104617769191
54.5,-0.0861004455300692,-0.118646637679168,0.701048415493353,-0.65439742367798,0.70104841549465,-0.654397423679288,-0.0860935717034284,-0.118371075660432
55,-0.0876690567635027,-0.118887761137095,0.696437771731472,-0.658855223426351,0.696437771732696,-0.658855223427565,-0.0876640892115563,-0.118615085495109
55.5,-0.0892311964405224,-0.119109113818792,0.691800451948158,-0.663278316291694,0.691800451949309,-0.663278316292814,-0.0892288465040744,-0.118838153334093
56,-0.0907872676804708,-0.119312113619284,0.687136753637223,-0.667666565910093,0.687136753638302,-0.667666565911122,-0.0907879473676371,-0.119041666351613
56.5,-0.0923378533197367,-0.119497952948363,0.682446974559332,-0.672019839571188,0.682446974560341,-0.672019839572126,-0.0923417018440885,-0.119226853767671
57,-0.0938836539155077,-0.119667589478174,0.677731412666698,-0.676338008188397,0.677731412667637,-0.676338008189246,-0.0938905766572228,-0.119394762411021
57.5,-0.0954254320317788,-0.119821751325839,0.672990366029954,-0.680620946268099,0.672990366030824,-0.680620946268859,-0.0954351460691268,-0.119546245893376
58,-0.0969639652219149,-0.119960952869545,0.668224132767138,-0.684868531877816,0.668224132767941,-0.68486853187849,-0.0969760464168972,-0.119681965368518
58.5,-0.0985000086863028,-0.120085517485636,0.663433010974727,-0.689080646613478,0.663433010975461,-0.689080646614066,-0.0985139364960641,-0.119802399321812
59,-0.100034267481239,-0.120195603962493,0.658617298660663,-0.693257175565788,0.658617298661332,-0.693257175566292,-0.100049464930763,-0.119907859721661
59.5,-0.101567377416929,-0.1202912340046,0.653777293679336,-0.697398007285775,0.65377729367994,-0.697398007286195,-0.101583244816614,-0.119998512055767
60,-0.103099893372153,-0.120372318938964,0.648913293668446,-0.701503033749543,0.648913293668985,-0.701503033749881,-0.103115835290979,-0.120074397152672
60.5,-0.104632283601246,-0.120438684378605,0.644025595987716,-0.705572150322289,0.644025595988192,-0.705572150322547,-0.104647729278301,-0.120135453148307
61,-0.106164928637394,-0.120490092132383,0.639114497659408,-0.709605255721623,0.639114497659822,-0.709605255721801,-0.106179346445823,-0.120181536419479
61.5,-0.107698123534523,-0.120526259060199,0.634180295310595,-0.713602251980215,0.634180295310948,-0.713602251980314,-0.107711030342952,-0.120212440721026
62,-0.109232082382364,-0.120546872862993,0.629223285117152,-0.717563044407829,0.629223285117445,-0.717563044407852,-0.109243048739365,-0.120227914105137
62.5,-0.11076694423635,-0.120551604985455,0.624243762749428,-0.72148754155277,0.624243762749661,-0.721487541552718,-0.110775596281632,-0.120227673462894
