"Freq [GHz]","re(St(P1,P1)) []","im(St(P1,P1)) []","re(St(P1,P2)) []","im(St(P1,P2)) []","re(St(P2,P1)) []","im(St(P2,P1)) []","re(St(P2,P2)) []","im(St(P2,P2)) []"
0,0.00817605421150347,0,0.991841863055015,0,0.991841863637092,0,0.00817606410203098,0
0.5,0.00888305284012958,-8.81659468667806E-005,0.991062802170855,-0.00932414074309662,0.991062802724752,-0.00932414092601697,0.00888334349154718,-8.89196642042123E-005
1,0.00942582358394617,-0.000994391682686668,0.990331136089758,-0.0178237289853982,0.990331136141549,-0.0178237289575307,0.00942661728699434,-0.000996210489581983
1.5,0.00975852689952461,-0.00203420006408628,0.989690563911246,-0.0261768700340888,0.989690563951569,-0.0261768700460241,0.00976019626938474,-0.00203709432078902
2,0.00994074518485721,-0.0031033338998796,0.98909471233086,-0.0344706565742605,0.989094712351607,-0.0344706565975272,0.00994319308045988,-0.00310765658080392
2.5,0.0100458660130238,-0.00416387677215546,0.988474467426663,-0.0427491501296835,0.988474467433923,-0.0427491501519359,0.0100490248228891,-0.00416969063728168
3,0.010107811898338,-0.00521476259514131,0.987796575376692,-0.0510132887603305,0.987796575376615,-0.0510132887775914,0.0101117212927297,-0.00522206770326683
3.5,0.0101414234851491,-0.00625984147050396,0.987047987999474,-0.0592569563285998,0.987047987996392,-0.059256956340187,0.0101461831774659,-0.00626865780050245
4,0.0101534850220926,-0.00730222343076559,0.98622486419886,-0.0674747486438907,0.986224864195574,-0.0674747486503504,0.0101592122280758,-0.00731260707481418
4.5,0.0101473703122927,-0.00834380586234751,0.985327351004015,-0.0756631585619711,0.985327351002262,-0.0756631585642378,0.0101541752058931,-0.00835584265524236
5,0.0101249687505742,-0.00938563491055699,0.98435716805278,-0.0838203516144942,0.984357168053572,-0.0838203516135412,0.010132943747698,-0.00939942874244171
5.5,0.0100874932941373,-0.0104282655709476,0.983316470650113,-0.0919457107369723,0.98331647065397,-0.091945710733687,0.0100967107893657,-0.010443927819451
6,0.0100358219479418,-0.0114720017672685,0.982207321166076,-0.100039417402538,0.982207321173182,-0.100039417397643,0.010046336408293,-0.0114896437487246
6.5,0.0099706425552939,-0.0125170359323779,0.981031464969026,-0.108102121026214,0.981031464979341,-0.108102121020266,0.00998249433723097,-0.0125367643769918
7,0.00989251502963484,-0.01356352316248,0.979790262896154,-0.116134695643752,0.979790262909486,-0.116134695637126,0.00990573443964171,-0.0135854380570324
7.5,0.00980189963908917,-0.0146116169698178,0.978484702931223,-0.12413807021292,0.978484702947288,-0.124138070205825,0.00981651053115429,-0.0146358110144575
8,0.00969917180461155,-0.0156614840087546,0.977115448760739,-0.132113116963953,0.977115448779196,-0.132113116956439,0.00971519446478208,-0.0156880430562021
8.5,0.00958463174325358,-0.0167133080487076,0.975682901724691,-0.140060583475973,0.975682901745176,-0.140060583467951,0.00960208504971616,-0.0167423120682022
9,0.00945851214319207,-0.0177672889352056,0.974187263444957,-0.147981056382072,0.974187263467102,-0.147981056373323,0.00947741509529068,-0.0177988132000828
9.5,0.00932098495604952,-0.0188236395863801,0.972628592738692,-0.155874947019455,0.97262859276214,-0.155874947009642,0.00934135769749501,-0.0188577559029364
10,0.00917216759431629,-0.0198825825452014,0.971006854127759,-0.16374249159551,0.971006854152179,-0.163742491584193,0.00919403205218636,-0.0199193604223091
10.5,0.00902183231925387,-0.0209321097336397,0.969302130449209,-0.171594243686258,0.969302130474632,-0.171594243678252,0.0090449152754509,-0.0209711369087935
11,0.00885846576548412,-0.0219872171406714,0.967537263444585,-0.179414897809624,0.967537263470623,-0.179414897804937,0.00888281311699786,-0.0220285551374668
11.5,0.00868151222964816,-0.0230476796186037,0.965713080233716,-0.187205068014792,0.96571308026,-0.187205068013385,0.00870716727666146,-0.0230913926517151
12,0.0084904351942495,-0.0241132328659157,0.963830270789647,-0.194965319620465,0.96383027081583,-0.194965319622265,0.00851743847302766,-0.0241593876833095
12.5,0.00828471983080475,-0.0251835761004937,0.961889407658211,-0.202696160695703,0.961889407683974,-0.202696160700604,0.00831310896111548,-0.0252322418097508
13,0.00806387515453527,-0.0262583748451255,0.959890964290115,-0.210398036856126,0.959890964315163,-0.210398036863996,0.00809368470327632,-0.0263096227260204
13.5,0.00782743583712228,-0.0273372637831324,0.957835331744741,-0.218071328737973,0.957835331768808,-0.218071328748656,0.00785869719947258,-0.0273911670887954
14,0.00757496368860464,-0.0284198496454167,0.955722833653554,-0.225716351577502,0.955722833676403,-0.225716351590828,0.00760770498762267,-0.028476483394448
14.5,0.00730604882323649,-0.0295057140938808,0.95355373942716,-0.233333356396719,0.953553739448579,-0.233333356412501,0.00734029482849169,-0.0295651548558493
15,0.00702031052721105,-0.0305944165700605,0.951328275758697,-0.240922532371453,0.951328275778504,-0.240922532389492,0.00705608259265594,-0.0306567422467507
15.5,0.00671739784842976,-0.0316854970818388,0.949046636522271,-0.248484010029702,0.949046636540308,-0.248484010049796,0.00675471386942783,-0.0317507866865672
16,0.0063969899301996,-0.03277847890512,0.946708991193363,-0.256017864994144,0.946708991209497,-0.256017865016082,0.00643586431931437,-0.0328468123422834
16.5,0.00605879611174948,-0.0338728711812148,0.944315491932845,-0.263524122041132,0.944315491946969,-0.263524122064705,0.00609923979266569,-0.0339443290281209
17,0.00570255581899931,-0.0349681713944439,0.941866279480976,-0.271002759299004,0.941866279493004,-0.271002759324002,0.00574457623770708,-0.0350428346872529
17.5,0.00532803826899914,-0.0360638677179688,0.939361488005425,-0.278453712451164,0.939361488015292,-0.278453712477377,0.00537163942121405,-0.0361418177434221
18,0.00493504201110018,-0.0371594412190759,0.93680124904043,-0.285876878844637,0.936801249048092,-0.28587687887186,0.00498022448473667,-0.0372407593134556
18.5,0.00452339432718885,-0.0382543679181171,0.934185694644294,-0.293272121433549,0.934185694649724,-0.293272121461585,0.00457015535860172,-0.038339135274672
19,0.00409295051231712,-0.0393481206978854,0.931514959890974,-0.300639272509837,0.931514959894163,-0.30063927253849,0.00414128405495773,-0.0394364181837545
19.5,0.00364359305588202,-0.0404401710625584,0.928789184799449,-0.307978137191576,0.928789184800402,-0.307978137220658,0.00369348985995976,-0.0405320790460204
20,0.00317523074211012,-0.0415299907473123,0.926008515792532,-0.315288496653163,0.92600851579127,-0.315288496682497,0.00322667844386415,-0.0416255889359831
20.5,0.00268779768720939,-0.0426170531813947,0.923173106765309,-0.322570111092113,0.923173106761864,-0.322570111121528,0.00274078090637109,-0.0427164204718158
21,0.00218125232897737,-0.0437008348088592,0.920283119832619,-0.32982272243498,0.920283119827036,-0.329822722464315,0.00223575277306204,-0.0438040491477465
21.5,0.00165557638316094,-0.0447808162722838,0.917338725815219,-0.33704605679047,0.917338725807551,-0.337046056819572,0.00171157295726704,-0.0448879545295588
22,0.00111077377933611,-0.0458564834656774,0.914340104515424,-0.34423982666161,0.914340104505735,-0.344239826690339,0.00116824270018673,-0.0459676213192486
22.5,0.000546869587576326,-0.0469273284634606,0.911287444825215,-0.351403732931343,0.911287444813575,-0.351403732959565,0.000605784500629203,-0.0470425402956074
23,-3.60910542140935E-005,-0.0479928503328362,0.908180944702911,-0.358537466637296,0.908180944689398,-0.358537466664887,2.42410442964913E-005,-0.0481122091379516
23.5,-0.000638044003799965,-0.0490525558371924,0.905020811048536,-0.365640710552155,0.905020811033235,-0.365640710579003,-0.000576325858766658,-0.0491761331405278
24,-0.00125890716169524,-0.050105960038288,0.901807259502842,-0.372713140586148,0.901807259485841,-0.372713140612149,-0.00119583632123516,-0.0502338258252881
24.5,-0.00189858149574423,-0.0511525868050062,0.898540514190512,-0.379754427027764,0.898540514171903,-0.379754427052826,-0.00183419340389424,-0.0512848094607543
25,-0.00255695203820583,-0.0521919692363677,0.895220807424306,-0.386764235638255,0.895220807404184,-0.386764235662292,-0.00249128411427507,-0.0523286154946065
25.5,-0.00323388885129616,-0.0532236500062793,0.891848379383717,-0.393742228614584,0.891848379362182,-0.393742228637522,-0.00316698037440388,-0.0533647849074639
26,-0.00392924795806138,-0.0542471816373191,0.888423477778985,-0.400688065434592,0.888423477756134,-0.400688065456364,-0.00386113995443893,-0.0543928684950912
26.5,-0.00464287223619642,-0.0552621267104541,0.884946357509092,-0.407601403597113,0.884946357485026,-0.407601403617663,-0.00457360736973567,-0.0554124270859635
27,-0.00537459227313825,-0.0562680580173491,0.881417280320458,-0.414481899268783,0.881417280295279,-0.41448189928806,-0.00530421473959508,-0.0564230317007963
27.5,-0.00612422718137928,-0.0572645586614664,0.877836514471493,-0.421329207848224,0.8778365144453,-0.421329207866187,-0.00605278260655423,-0.0574242636602853
28,-0.00689158537344059,-0.0582512221138267,0.874204334406879,-0.428142984457354,0.874204334379774,-0.42814298447397,-0.00681912071560453,-0.058415714646888
28.5,-0.00767646529642885,-0.0592276522288655,0.870521020444413,-0.434922884368599,0.870521020416493,-0.434922884383842,-0.00760302875319147,-0.0593969867261459
29,-0.00847865612646392,-0.0601934632254508,0.866786858476337,-0.441668563375921,0.866786858447701,-0.441668563389772,-0.00840429704622869,-0.0603676923325835
29.5,-0.00929793842359322,-0.061148279637699,0.863002139686454,-0.44837967811673,0.863002139657196,-0.448379678129176,-0.00922270722168977,-0.0613274542248794
30,-0.010134084748067,-0.0620917362398719,0.859167160283697,-0.455055886351028,0.859167160253912,-0.455055886362063,-0.0100580328276106,-0.0622759054145907
30.5,-0.0109868602390713,-0.0630234779492473,0.855282221252445,-0.461696847203379,0.855282221222223,-0.461696847213003,-0.0109100399165515,-0.0632126890723677
31,-0.0118560231571759,-0.0639431597104869,0.851347628119482,-0.468302221372705,0.851347628088911,-0.468302221380921,-0.0117784875927471,-0.0641374584151966
31.5,-0.0127413253918898,-0.0648504463647117,0.847363690737266,-0.474871671314302,0.84736369070643,-0.47487167132112,-0.0126631285243014,-0.0650498765779165
32,-0.0136425129358143,-0.0657450125061588,0.843330723082946,-0.481404861397971,0.84333072305193,-0.481404861403407,-0.0135637094218942,-0.0659496164719093
32.5,-0.0145593263269427,-0.0666265423289796,0.839249043072455,-0.487901458045644,0.839249043041336,-0.487901458049716,-0.0144799714855222,-0.0668363606335527
33,-0.015491501060702,-0.0674947294664794,0.83511897238885,-0.494361129851503,0.835118972357703,-0.494361129854233,-0.0154116508208529,-0.0677098010647658
33.5,-0.0164387679733548,-0.0683492768248365,0.830940836324066,-0.5007835476872,0.830940836292964,-0.500783547688614,-0.016358478826796,-0.0685696390677081
34,-0.0174008535983633,-0.0691898964130698,0.826714963633164,-0.507168384794415,0.826714963602175,-0.507168384794543,-0.0173201825558746,-0.069415585075437
34.5,-0.0183774804973229,-0.0700163091708443,0.82244168640016,-0.513515316866742,0.822441686369347,-0.513515316865619,-0.0182964850490004,-0.0702473584801251
35,-0.019368367567029,-0.070828244795462,0.818121339914518,-0.519824022122581,0.818121339883945,-0.519824022120239,-0.0192871056462096,-0.0710646874602242
35.5,-0.0203732303242185,-0.0716254415692291,0.813754262557413,-0.526094181370484,0.813754262527135,-0.526094181366962,-0.0202917602748844,-0.0718673088077866
36,-0.0213917811694591,-0.0724076461882125,0.809340795696875,-0.532325478068232,0.809340795666945,-0.53232547806357,-0.0213101617169503,-0.0726549677569642
36.5,-0.0224237296316369,-0.0731746135932358,0.804881283590996,-0.538517598376677,0.804881283561465,-0.538517598370915,-0.0223420198564693,-0.0734274178145842
37,-0.0234687825944017,-0.0739261068038527,0.80037607329839,-0.54467023120927,0.800376073269304,-0.544670231202452,-0.0233870419090237,-0.0741844205935357
37.5,-0.0245266445059126,-0.0746618967558936,0.795825514595146,-0.550783068278031,0.795825514566548,-0.550783068270201,-0.024444932634195,-0.0749257456495885
38,-0.0255970175731111,-0.0753817621430728,0.79122995989758,-0.556855804136596,0.791229959869509,-0.556855804127797,-0.0255153945324009,-0.0756511703221582
38.5,-0.0266796019417345,-0.0760854892630581,0.786589764190116,-0.562888136220876,0.786589764162608,-0.562888136211156,-0.0265981280272861,-0.0763604795794225
39,-0.0277740958631957,-0.0767728718683183,0.78190528495768,-0.56887976488777,0.781905284930767,-0.568879764877176,-0.0276928316347991,-0.0770534658681205
39.5,-0.0288801958493808,-0.0774437110219534,0.777176882122055,-0.574830393452274,0.777176882095765,-0.574830393440851,-0.0287992021200211,-0.0777299289682684
40,-0.029997596816386,-0.0780978149587082,0.772404917981657,-0.580739728223286,0.772404917956018,-0.580739728211083,-0.0299169346427568,-0.0783896758529813
40.5,-0.0311259922181192,-0.0787349989512446,0.767589757154287,-0.586607478538337,0.76758975712932,-0.5866074785254,-0.0310457228928355,-0.079032520553512
41,-0.032265074170659,-0.0793550851817444,0.762731766522386,-0.592433356797407,0.762731766498112,-0.592433356783783,-0.0321852592160038,-0.0796582840295679
41.5,-0.0334145335681906,-0.0799579026188469,0.757831315180446,-0.598217078495982,0.757831315156881,-0.598217078481717,-0.0333352347312467,-0.0802667940449376
42,-0.0345740601912873,-0.0805432868998928,0.752888774384193,-0.603958362257434,0.752888774361351,-0.603958362242576,-0.0344953394403059,-0.080857885048397
42.5,-0.0357433428082533,-0.0811110802184118,0.74790451750124,-0.609656929864798,0.747904517479134,-0.609656929849392,-0.0356652623301186,-0.0814313980598437
43,-0.0369220692701956,-0.0816611312167744,0.742878919962934,-0.615312506291976,0.742878919941571,-0.615312506276067,-0.036844691468853,-0.0819871805615843
43.5,-0.0381099266004403,-0.0821932948838768,0.737812359217124,-0.620924819734407,0.73781235919651,-0.620924819718039,-0.0380333140961523,-0.0825250863946632
44,-0.039306601078857,-0.0827074324577485,0.732705214681662,-0.626493601639181,0.732705214661803,-0.626493601622397,-0.0392308167081715,-0.0830449756601027
44.5,-0.0405117783216374,-0.0832034113329241,0.727557867698423,-0.632018586734611,0.72755786767932,-0.632018586717455,-0.0404368851379442,-0.0835467146249321
45,-0.04172514335699,-0.0836811049724119,0.722370701487677,-0.637499513059218,0.72237070146933,-0.63749951304173,-0.0416512046315547,-0.0840301756328177
45.5,-0.0429463806972175,-0.084140392824105,0.717144101102685,-0.642936121990114,0.717144101085092,-0.642936121972335,-0.0428734599205918,-0.0844952370191604
46,-0.0441751744075833,-0.0845811602414437,0.711878453384373,-0.648328158270737,0.71187845336753,-0.648328158252706,-0.0441033352912824,-0.0849417830304642
46.5,-0.0454112081723418,-0.0850032984081497,0.706574146916007,-0.653675370037904,0.706574146899908,-0.653675370019659,-0.0453405146506982,-0.0853697037478031
47,-0.0466541653582808,-0.0854067042668437,0.701231571977754,-0.658977508848129,0.701231571962392,-0.658977508829706,-0.0465846815903829,-0.0857788950142029
47.5,-0.0479037290760915,-0.0857912804513553,0.695851120501091,-0.664234329703162,0.695851120486456,-0.664234329684597,-0.0478355194477229,-0.0861692583657455
48,-0.0491595822398582,-0.086156935222537,0.690433186022968,-0.669445591074716,0.690433186009051,-0.669445591056042,-0.04909271136535,-0.0865407009662106
48.5,-0.0504214076249208,-0.0865035824073844,0.68497816363973,-0.674611054928307,0.68497816362652,-0.674611054909559,-0.0503559403488508,-0.0868931355450634
49,-0.0516888879243578,-0.0868311413412821,0.67948644996072,-0.679730486746196,0.679486449948203,-0.679730486727402,-0.0516248893230172,-0.0872264803386065
49.5,-0.0529617058042997,-0.0871395368131813,0.673958443061572,-0.684803655549352,0.673958443049735,-0.684803655530545,-0.0528992411868659,-0.0875406590340997
50,-0.0542395439582716,-0.0874286990135275,0.668394542437173,-0.689830333918439,0.668394542426001,-0.689830333899647,-0.0541786788676163,-0.0878356007166765
50.5,-0.0555220851607347,-0.0876985634847557,0.662795148954291,-0.694810298013741,0.662795148943767,-0.69481029799499,-0.0554628853738172,-0.0881112398188657
51,-0.0568090123199904,-0.0879490710741759,0.657160664803871,-0.699743327594025,0.65716066479398,-0.699743327575341,-0.0567515438477721,-0.0883675160725549
51.5,-0.0581000085305826,-0.0881801678890785,0.651491493453017,-0.70462920603429,0.651491493443742,-0.704629206015697,-0.0580443376174202,-0.0886043744632111
52,-0.0593947571253268,-0.0883918052538902,0.645788039596661,-0.709467720342378,0.645788039587984,-0.7094677203239,-0.0593409502477893,-0.088821765186201
52.5,-0.0606929417270747,-0.0885839396692151,0.640050709108958,-0.714258661174425,0.64005070910086,-0.714258661156082,-0.0606410655921424,-0.0890196436050419
53,-0.0619942463003129,-0.0887565327726042,0.63427990899441,-0.71900182284911,0.634279908986872,-0.719001822830923,-0.0619443678429181,-0.089197970211431
53.5,-0.063298355202684,-0.0889095513009096,0.628476047338763,-0.723697003360711,0.628476047331766,-0.7236970033427,-0.0632505415825548,-0.0893567105868978
54,-0.0646049532364971,-0.0890429670540555,0.622639533259705,-0.728344004390929,0.62263953325323,-0.728344004373109,-0.0645592718342697,-0.0894958353659342
54.5,-0.0659137257002994,-0.0891567568601074,0.616770776857387,-0.732942631319463,0.616770776851414,-0.732942631301852,-0.0658702441128672,-0.0896153202004573
55,-0.0672243584405605,-0.0892509025414897,0.610870189164814,-0.737492693233352,0.610870189159324,-0.737492693215964,-0.0671831444756311,-0.0897151457254761
55.5,-0.0685365379035112,-0.0893253908822229,0.604938182098138,-0.741994002935047,0.604938182093108,-0.741994002917896,-0.0684976595733466,-0.0897952975258231
56,-0.0698499511871846,-0.0893802135960577,0.598975168406878,-0.746446376949226,0.598975168402291,-0.746446376932325,-0.0698134767014981,-0.0898557661038317
56.5,-0.0711642860936731,-0.089415367295385,0.592981561624136,-0.750849635528343,0.59298156161997,-0.750849635511702,-0.0711302838516671,-0.0898965468478364
57,-0.0724792311816488,-0.0894308534608061,0.586957776016806,-0.755203602656912,0.586957776013042,-0.755203602640542,-0.0724477697631632,-0.0899176400013788
57.5,-0.0737944758191173,-0.0894266784112607,0.580904226535851,-0.759508106054536,0.580904226532468,-0.759508106038447,-0.0737656239749081,-0.0899190506330343
58,-0.0751097102365105,-0.0894028532745889,0.574821328766663,-0.763762977177678,0.574821328763641,-0.763762977161876,-0.075083536877576,-0.0899007886066794
58.5,-0.076424625579988,-0.0893593939584593,0.568709498879557,-0.767968051220181,0.568709498876877,-0.767968051204674,-0.0764011997660115,-0.0898628685522276
59,-0.0777389139650763,-0.0892963211215423,0.562569153580428,-0.772123167112561,0.562569153578071,-0.772123167097355,-0.0777183048919239,-0.0898053098366142
59.5,-0.0790522685305676,-0.0892136601448504,0.556400710061622,-0.776228167520068,0.556400710059568,-0.776228167505167,-0.0790345455168493,-0.0897281365350128
60,-0.0803643834926966,-0.0891114411031608,0.550204585953037,-0.780282898839536,0.550204585951268,-0.780282898824944,-0.0803496159653882,-0.0896313774021749
60.5,-0.081674954199582,-0.0889896987364398,0.543981199273509,-0.784287211195043,0.543981199272006,-0.784287211180763,-0.0816632116787017,-0.0895150658438201
61,-0.0829836771859153,-0.0888484724211946,0.537730968382513,-0.788240958432383,0.537730968381257,-0.788240958418419,-0.0829750292682553,-0.089379239887992
61.5,-0.0842902502278826,-0.0886878061416775,0.531454311932202,-0.792143998112391,0.531454311931177,-0.792143998098743,-0.0842847665697947,-0.0892239421563187
62,-0.0855943723983005,-0.0885077484608822,0.525151648819839,-0.795996191503112,0.525151648819026,-0.795996191489781,-0.0855921226975435,-0.0890492198351031
62.5,-0.0868957441219401,-0.0883083524912632,0.518823398140626,-0.799797403570863,0.518823398140009,-0.799797403557848,-0.086896798098587,-0.0888551246461827
