"Freq [GHz]","re(St(P1,P1)) []","im(St(P1,P1)) []","re(St(P1,P2)) []","im(St(P1,P2)) []","re(St(P2,P1)) []","im(St(P2,P1)) []","re(St(P2,P2)) []","im(St(P2,P2)) []"
0,0.00776293438161701,0,0.992250007620896,0,0.992250007548137,0,0.00776292855209704,0
0.5,0.00875628730875277,0.00349114812322604,0.991220246754835,-0.0106114006804994,0.991220246816916,-0.0106114007421514,0.0087558024338783,0.00349332587573059
1,0.0103640394217805,0.00604547441689007,0.989535020952593,-0.0202862456170418,0.989535020950786,-0.0202862456154076,0.0103622911654355,0.00604999369697445
1.5,0.0122535009614051,0.00778294453440331,0.987510252911183,-0.0291486522765698,0.987510252910464,-0.0291486522750244,0.0122494263665978,0.00778983703925462
2,0.014060630760647,0.00886839614752244,0.985523909780561,-0.037347735365981,0.985523909780389,-0.0373477353650431,0.0140538622512301,0.00887815859215291
2.5,0.0156599498161598,0.00952027778491349,0.983701359638976,-0.0451148277818358,0.98370135963887,-0.0451148277814148,0.0156500646504347,0.00953292668466688
3,0.0170245282986339,0.00990385297637619,0.982062682456402,-0.0526165556174689,0.982062682456199,-0.0526165556173082,0.0170108788598067,0.0099193760742704
3.5,0.0181726404748912,0.0101332969953711,0.980586964402199,-0.0599636776599795,0.980586964401924,-0.0599636776599066,0.018154515605632,0.0101517875741575
4,0.0191391655540192,0.0102817226278971,0.979239869421979,-0.0672265332825628,0.979239869421708,-0.0672265332825068,0.0191158816164236,0.0103033444727272
4.5,0.0199609024411298,0.0103930825271501,0.977985982950892,-0.0744478838251652,0.977985982950688,-0.074447883825111,0.0199318167367049,0.0104180215217751
5,0.0206704118122962,0.010492332964307,0.976793856945329,-0.0816525275295028,0.976793856945222,-0.0816525275294735,0.0206349074160543,0.0105207722581975
5.5,0.0212943136510162,0.0105927282198701,0.975637454414692,-0.0888539925417309,0.975637454414688,-0.088853992541746,0.0212517815167494,0.0106248423241047
6,0.0218535223470162,0.0107005818312942,0.974495984812187,-0.0960589378148962,0.974495984812273,-0.0960589378149725,0.0218033484438671,0.0107365402283004
6.5,0.0223641355298179,0.0108182153784289,0.97335315530074,-0.103269935615265,0.973353155300891,-0.103269935615405,0.0223056935318313,0.0108581895588999
7,0.0228384144197676,0.0109457311764531,0.972196312369555,-0.110487186643796,0.972196312369742,-0.110487186643994,0.0227710625804217,0.0109899021351314
7.5,0.0232856493192904,0.0110820586692792,0.971015663158623,-0.117709559670495,0.971015663158816,-0.117709559670734,0.0232087301126017,0.0111306236703856
8,0.0237128594504076,0.0112255635909562,0.96980363233438,-0.124935213854663,0.969803632334549,-0.124935213854918,0.0236257009358979,0.0112787418527027
8.5,0.0241253361089365,0.0113743973261267,0.968554354500619,-0.132161966750032,0.968554354500733,-0.132161966750267,0.0240272543391817,0.0114324346158829
9,0.0245270561095669,0.0115266929620357,0.967263282694517,-0.139387508549043,0.967263282694553,-0.13938750854922,0.0244173581555509,0.0115898652076267
9.5,0.0249209939940936,0.0116806712985627,0.965926889735113,-0.146609523861773,0.965926889735047,-0.146609523861843,0.0247989813258956,0.0117492873411935
10,0.025309357446036,0.0118346942591048,0.964542441337261,-0.153825758186736,0.964542441337073,-0.15382575818665,0.0251743295034003,0.0119090978608445
10.5,0.025737259228482,0.0119886542494232,0.96313182804993,-0.161035576664809,0.963131828053492,-0.161035576666882,0.0255817668358129,0.0120670615895659
11,0.0261540122300166,0.0121370722775715,0.961672049085131,-0.168239250359319,0.96167204909152,-0.168239250363618,0.0259782233263934,0.0122210328896295
11.5,0.0265614838474849,0.0122805483334316,0.960162060094909,-0.175435063469254,0.960162060103347,-0.175435063475747,0.026365609945577,0.0123713692183705
12,0.0269612939829321,0.0124194455156039,0.958601113100712,-0.182621469339304,0.958601113110548,-0.182621469347892,0.0267455568045048,0.01251822834368
12.5,0.0273548372223972,0.0125539499764868,0.956988691607988,-0.189797074431128,0.956988691618678,-0.189797074441663,0.0271194455947568,0.0126616247020559
13,0.0277433059001248,0.0126841173863088,0.955324460519924,-0.196960622699914,0.955324460531021,-0.196960622712213,0.0274884402789631,0.0128014719898677
13.5,0.0281277126086094,0.0128099087997713,0.95360822717195,-0.204110980958011,0.953608227183088,-0.204110980971877,0.0278535152167679,0.0129376152282914
14,0.0285089113534847,0.012931218242823,0.951839910795947,-0.211247125467361,0.951839910806829,-0.211247125482581,0.0282154804184385,0.0130698548079651
14.5,0.0288876169594561,0.0130478938569636,0.9500195184306,-0.218368129816358,0.950019518440994,-0.218368129832719,0.0285750039140136,0.0131979644362403
15,0.0292644225862318,0.013159754044147,0.948147125804156,-0.225473154039587,0.948147125813881,-0.225473154056877,0.0289326313880059,0.0133217044548739
15.5,0.0296398153646139,0.0132665997387189,0.946222862085644,-0.232561434892288,0.946222862094564,-0.232561434910302,0.0292888033095027,0.0134408316451875
16,0.0300141902484885,0.0133682236820354,0.944246897670772,-0.239632277173271,0.944246897678792,-0.239632277191813,0.0296438698179246,0.0135551063693997
16.5,0.030387862222214,0.0134644173787817,0.9422194343674,-0.24668504598728,0.942219434374457,-0.246685046006163,0.0299981036265285,0.0136642976925443
17,0.0307610770207677,0.013554976260836,0.940140697492748,-0.253719159843035,0.940140697498807,-0.253719159862086,0.0303517111919296,0.0137681869743314
17.5,0.0311340205222458,0.0136397034656388,0.938010929504407,-0.260734084492129,0.938010929509459,-0.260734084511189,0.0307048423764852,0.0138665703027916
18,0.0315068269656556,0.0137184125441521,0.935830384869943,-0.267729327424014,0.935830384873998,-0.267729327442936,0.0310575988060486,0.0139592600525789
18.5,0.0318795861355201,0.0137909293423679,0.933599325942497,-0.274704432942473,0.933599325945581,-0.274704432961127,0.0314100411011161,0.0140460857832891
19,0.0322523496414053,0.0138570932456246,0.931318019657705,-0.281658977758278,0.931318019659858,-0.281658977776545,0.0317621951362685,0.0141268946421533
19.5,0.0326251364065408,0.013916757932483,0.928986734904053,-0.288592567041195,0.928986734905326,-0.288592567058974,0.0321140574617219,0.0142015513964959
20,0.0329979374662515,0.0139697917523236,0.926605740447406,-0.295504830881858,0.92660574044786,-0.295504830899059,0.0324656000020789,0.0142699381919498
20.5,0.033370720164406,0.0140160778154586,0.924175303312783,-0.302395421120325,0.924175303312483,-0.30239542113687,0.0328167741309744,0.0143319541098892
21,0.0337434318247307,0.0140555138649694,0.921695687544069,-0.309264008503646,0.921695687543086,-0.309264008519472,0.0331675142061186,0.0143875145803924
21.5,0.0341160029637524,0.0140880119842883,0.919167153276399,-0.316110280139327,0.919167153274808,-0.316110280154382,0.0335177406370544,0.0144365506939337
22,0.0344883501032462,0.0141134981827187,0.916589956067129,-0.322933937215532,0.916589956065006,-0.322933937229776,0.0338673625475378,0.0144790084449524
22.5,0.034860378232303,0.0141319118919241,0.913964346440408,-0.3297346929622,0.913964346437828,-0.329734692975602,0.034216280085578,0.0145148479327186
23,0.0352319829624325,0.0141432053992243,0.911290569607732,-0.336512270830097,0.911290569604771,-0.336512270842636,0.0345643864266443,0.0145440425389833
23.5,0.0356030524132961,0.0141473432379298,0.908568865332922,-0.343266402867267,0.908568865329654,-0.343266402878932,0.034911569509162,0.014566578097303
24,0.0359734688616801,0.0141443015505887,0.905799467914957,-0.349996828274416,0.905799467911455,-0.349996828285203,0.0352577135359757,0.0145824520653854
24.5,0.0363431101820311,0.014134067437529,0.902982606266265,-0.356703292122619,0.902982606262598,-0.356703292132532,0.0356027002708821,0.0145916727090589
25,0.0367118511031754,0.0141166383004092,0.900118504067543,-0.363385544218262,0.900118504063778,-0.363385544227311,0.0359464101553988,0.0145942583043168
25.5,0.0370795643027039,0.0140920211883195,0.897207379983116,-0.370043338101573,0.897207379979316,-0.370043338109776,0.0362887232676253,0.0145902363622461
26,0.03744612135776,0.0140602321522936,0.894249447923317,-0.376676430166297,0.894249447919539,-0.376676430173674,0.0366295201422097,0.0145796428803118
26.5,0.0378113935686478,0.0140212956127554,0.891244917342463,-0.383284578889147,0.891244917338763,-0.383284578895723,0.0369686824680132,0.0145625216224934
27,0.0381752526696779,0.0139752437433422,0.888193993562824,-0.389867544158674,0.888193993559251,-0.389867544164481,0.0373060936779908,0.0145389234299362
27.5,0.0385375714399048,0.0139221158737042,0.885096878116475,-0.39642508669407,0.885096878113074,-0.39642508669914,0.0376416394440303,0.0145089055631795
28,0.0388982242249434,0.0138619579132024,0.88195376909827,-0.402956967545198,0.881953769095084,-0.402956967549568,0.0379752080879545,0.0144725310765048
28.5,0.0392570873797421,0.0137948217968746,0.878764861524285,-0.409462947665908,0.878764861521351,-0.409462947669616,0.0383066909185705,0.014429868224594
29,0.0396140396410631,0.0137207649545934,0.875530347691045,-0.415942787553347,0.875530347688393,-0.415942787556432,0.0386359825034987,0.0143809899013353
29.5,0.0399689624374535,0.0136398498040224,0.87225041753169,-0.422396246946575,0.872250417529349,-0.42239624694908,0.0389629808835347,0.0143259731104273
30,0.0403217401436265,0.0135521432676381,0.868925258965949,-0.428823084578401,0.868925258963943,-0.428823084580367,0.0392875877363945,0.0142648984672007
30.5,0.040672260285429,0.0134577163139199,0.865555058241397,-0.43522305797481,0.865555058239743,-0.435223057976279,0.0396097084959775,0.0141978497309654
31,0.0410204137009222,0.0133566435225628,0.862140000263995,-0.441595923296908,0.86214000026271,-0.441595923297924,0.0399292524325714,0.0141249133670459
31.5,0.0413660946625098,0.0132490026734732,0.858680268916386,-0.447941435220704,0.858680268915482,-0.447941435221308,0.0402461326988655,0.0140461781376157
32,0.0417092009645609,0.0131348743591544,0.855176047362763,-0.454259346850457,0.855176047362247,-0.454259346850692,0.0405602663461075,0.0139617347203559
32.5,0.0420496339804995,0.013014341620004,0.851627518339482,-0.460549409661743,0.851627518339358,-0.460549409661651,0.0408715743142772,0.0138716753539252
33,0.0423872986929516,0.0128874896019756,0.848034864430867,-0.46681137347069,0.848034864431137,-0.466811373470311,0.0411799813997458,0.0137760935092037
33.5,0.0427221037001702,0.0127544052359937,0.84439826832987,-0.47304498642619,0.84439826833053,-0.473044986425561,0.0414854162035274,0.0136750835852374
34,0.0430539612016516,0.0126151769384582,0.840717913083452,-0.479249995022177,0.840717913084497,-0.479249995021337,0.0417878110628941,0.0135687406288347
34.5,0.0433827869655567,0.0124698943321493,0.836993982322719,-0.48542614412736,0.836993982324142,-0.485426144126345,0.0420871019688472,0.0134571600767186
35,0.0437085002803035,0.012318647986823,0.833226660477978,-0.491573177030005,0.833226660479769,-0.49157317702885,0.042383228471664,0.0133404375191909
35.5,0.0440310238924767,0.0121615291787558,0.829416132978967,-0.497690835495656,0.829416132981112,-0.497690835494393,0.042676133576517,0.0132186684842599
36,0.0443502839329539,0.0119986296684954,0.825562586440631,-0.503778859835844,0.825562586443117,-0.503778859834503,0.0429657636309339,0.0130919482411735
36.5,0.0446662098330182,0.0118300414960806,0.821666208834876,-0.509836988986061,0.821666208837685,-0.509836988984672,0.0432520682056972,0.0129603716223777
37,0.0449787342319938,0.0116558567929698,0.817727189648747,-0.515864960591451,0.817727189651863,-0.515864960590039,0.0435349999705943,0.0128240328628865
37.5,0.0452877928778428,0.0114761676099386,0.813745720029598,-0.521862511098814,0.813745720033001,-0.521862511097405,0.0438145145662736,0.0126830254561147
38,0.0455933245219754,0.0112910657602252,0.809721992917761,-0.527829375853707,0.809721992921429,-0.527829375852324,0.0440905704733396,0.0125374420252345
38.5,0.0458952708094342,0.0111006426771764,0.805656203167291,-0.533765289201523,0.805656203171203,-0.533765289200186,0.0443631288796664,0.0123873742091575
39,0.0461935761654727,0.0109049892857009,0.801548547655381,-0.539669984591579,0.801548547659514,-0.539669984590305,0.0446321535468182,0.0122329125622579
39.5,0.0464881876794517,0.010704195886832,0.797399225380995,-0.545543194683343,0.797399225385326,-0.545543194682149,0.0448976106763472,0.0120741464670179
40,0.0467790549868938,0.0104983520547152,0.793208437553331,-0.551384651454056,0.793208437557835,-0.551384651452956,0.0451594687766482,0.0119111640587694
40.5,0.0470661301504158,0.0102875465453636,0.788976387670649,-0.557194086307056,0.788976387675302,-0.557194086306062,0.0454176985309749,0.0117440521617624
41,0.0473493675402208,0.0100718672165451,0.784703281590057,-0.562971230180239,0.784703281594833,-0.562971230179361,0.0456722726671233,0.0115728962358294
41.5,0.0476287237147265,0.00985140095817139,0.780389327588776,-0.568715813654139,0.780389327593651,-0.568715813653386,0.0459231658292484,0.0113977803329216
42,0.0479041573018502,0.00962623363259918,0.776034736417432,-0.574427567059196,0.776034736422382,-0.574427567058573,0.0461703544521901,0.0112187870628534
42.5,0.0481756288814266,0.00939645002425871,0.771639721345878,-0.580106220581815,0.771639721350876,-0.580106220581327,0.0464138166386492,0.0110359975676084
43,0.0484431008691489,0.00916213379805486,0.767204498202035,-0.585751504368921,0.767204498207058,-0.585751504368569,0.0466535320394911,0.0108494915035916
43.5,0.0487065374024045,0.00892336746600764,0.762729285404244,-0.591363148630703,0.762729285409267,-0.591363148630488,0.0468894817374145,0.0106593470312499
44,0.0489659042283106,0.00868023236161575,0.758214303987554,-0.596940883741346,0.758214303992553,-0.596940883741267,0.0471216481341836,0.010465640811513
44.5,0.0492211685942234,0.00843280862145201,0.753659777624405,-0.602484440337543,0.753659777629356,-0.602484440337597,0.047350014841581,0.0102684480085212
45,0.0494722991409625,0.00818117517352601,0.749065932640092,-0.607993549414633,0.749065932644973,-0.607993549414816,0.0475745665762118,0.0100678422981673
45.5,0.0497192657989384,0.00792540973195222,0.74443299802342,-0.613467942420247,0.744432998028208,-0.613467942420553,0.0477952890582558,0.00986389588196013
46,0.0499620396873677,0.00766558879751067,0.739761205432897,-0.618907351345359,0.739761205437572,-0.618907351345781,0.0480121689142416,0.0096566795057943
46.5,0.0502005930167141,0.00740178766367372,0.735050789198837,-0.624311508812674,0.735050789203376,-0.624311508813203,0.0482251935838963,0.00944626248319513
47,0.0504348989944736,0.00713408042773067,0.730301986321671,-0.629680148162294,0.730301986326057,-0.629680148162921,0.0484343512310982,0.00923271272265769
47.5,0.0506649317344042,0.00686254000661635,0.725515036466813,-0.635013003534638,0.725515036471026,-0.635013003535351,0.0486396306589476,0.00901609675870574
48,0.0508906661692772,0.00658723815711559,0.720690181956332,-0.640309809950594,0.720690181960355,-0.640309809951382,0.0488410212289569,0.00879647978633291
48.5,0.051112077967209,0.00630824550009135,0.715827667757732,-0.645570303388902,0.715827667761548,-0.645570303389752,0.0490385127843396,0.00857392569849635
49,0.0513291434516202,0.00602563154843194,0.710927741470082,-0.650794220860777,0.710927741473675,-0.650794220861674,0.0492320955773803,0.00834849712636254
49.5,0.0515418395248505,0.00573946473841203,0.705990653307732,-0.655981300481801,0.705990653311087,-0.655981300482731,0.0494217602008384,0.00812025548201567
50,0.0517501435954498,0.00544981246418186,0.701016656081855,-0.6611312815411,0.70101665608496,-0.661131281542047,0.0496074975233545,0.00788926100336695
50.5,0.0519540335091508,0.00515674111512243,0.696006005180003,-0.666243904567854,0.696006005182844,-0.666243904568801,0.0497892986287976,0.00765557280101103
51,0.0521534874835238,0.00486031611580295,0.690958958543886,-0.671318911395182,0.690958958546454,-0.671318911396114,0.0499671547595011,0.00741924890679724
51.5,0.0523484840463029,0.00456060196830599,0.685875776645555,-0.676356045221454,0.685875776647838,-0.676356045222353,0.050141057263326,0.00718034632389164
52,0.0525390019773617,0.00425766229669206,0.680756722462143,-0.681355050669078,0.680756722464134,-0.681355050669926,0.0503109975444822,0.00693892107813443
52.5,0.052725020254324,0.00395155989338253,0.675602061449344,-0.686315673840821,0.675602061451034,-0.6863156738416,0.0504769670180416,0.00669502827048662
53,0.0529065180017755,0.00364235676726599,0.670412061513755,-0.691237662373733,0.670412061515139,-0.691237662374425,0.0506389570680763,0.00644872213040387
53.5,0.0530834744440363,0.00333011419332346,0.665186992984232,-0.696120765490732,0.665186992985304,-0.696120765491318,0.0507969590093339,0.00620005606994611
54,0.0532558688614744,0.00301489276360317,0.659927128582371,-0.700964734049902,0.659927128583128,-0.700964734050364,0.0509509640523988,0.00594908273849304
54.5,0.053423680550301,0.00269675243935802,0.654632743392246,-0.7057693205916,0.654632743392684,-0.705769320591919,0.0511009632722441,0.00569585407789053
55,0.0535868887858194,0.00237575260419431,0.649304114829494,-0.710534279383408,0.649304114829613,-0.710534279383565,0.0512469475801104,0.00544042137791034
55.5,0.0537454727890733,0.00205195211806669,0.643941522609867,-0.715259366463008,0.643941522609666,-0.715259366462985,0.0513889076986358,0.00518283533187786
56,0.0538994116968535,0.00172540937197868,0.638545248717321,-0.71994433967906,0.6385452487168,-0.719944339678837,0.0515268341401588,0.00492314609236011
56.5,0.0540486845350119,0.00139618234324246,0.63311557737174,-0.724588958730123,0.633115577370901,-0.724588958729684,0.0516607171881234,0.00466140332678155
57,0.0541932701950344,0.00106432865116896,0.627652794996376,-0.729192985201716,0.627652794995224,-0.729192985201041,0.051790546881513,0.00439765627287658
57.5,0.0543331474138262,0.000729905613059911,0.622157190185067,-0.733756182601552,0.622157190183604,-0.733756182600624,0.0519163130022424,0.00413195379386239
58,0.0544682947566538,0.000392970300379658,0.616629053669296,-0.738278316393039,0.616629053667528,-0.73827831639184,0.0520380050654302,0.00386434443324507
58.5,0.0545986906032009,5.35795949865858E-005,0.611068678285174,-0.74275915402709,0.611068678283107,-0.742759154025604,0.0521556123124962,0.0035948764691584
59,0.0547243131366812,-0.000288209754674473,0.605476358940379,-0.747198464972318,0.60547635893802,-0.747198464970528,0.0522691237069965,0.00332359796815618
59.5,0.0548451403359591,-0.000632341077544951,0.599852392581107,-0.75159602074367,0.599852392578464,-0.75159602074156,0.0523785279331414,0.0030505568383673
60,0.0549611499706342,-0.000978757724173274,0.594197078159095,-0.755951594929557,0.594197078156177,-0.755951594927113,0.0524838133969306,0.00277580088193818
60.5,0.055072319599027,-0.00132740301130235,0.588510716598744,-0.760264963217549,0.588510716595561,-0.760264963214755,0.0525849682298292,0.00249937784668419
61,0.0551786265690294,-0.00167822016690311,0.58279361076439,-0.764535903418682,0.582793610760953,-0.764535903415525,0.0526819802949322,0.00222133547687942
61.5,0.0552800480217605,-0.00203115227575873,0.577046065427751,-0.768764195490436,0.577046065424071,-0.768764195486903,0.0527748371955469,0.00194172156310596
62,0.0553765608979784,-0.0023861422256834,0.57126838723559,-0.772949621558436,0.57126838723168,-0.772949621554514,0.052863526286135,0.0016605839911088
62.5,0.0554681419472067,-0.00274313265447113,0.565460884677621,-0.777091965936935,0.565460884673493,-0.777091965932612,0.0529480346855469,0.00137797078957247
63,0.0555547677395132,-0.00310206589765377,0.559623868054679,-0.781191015148115,0.559623868050347,-0.781191015143382,0.0530283492924942,0.00109393017676745
63.5,0.0556364146798982,-0.00346288393715632,0.553757649447188,-0.78524655794028,0.553757649442666,-0.785246557935126,0.0531044568031948,0.000808510606000401
64,0.0557130590252453,-0.00382552835093236,0.547862542683942,-0.789258385304957,0.547862542679246,-0.789258385299372,0.0531763437311321,0.000521760809802929
