"Freq [GHz]","re(St(P1,P1)) []","im(St(P1,P1)) []","re(St(P1,P2)) []","im(St(P1,P2)) []","re(St(P2,P1)) []","im(St(P2,P1)) []","re(St(P2,P2)) []","im(St(P2,P2)) []"
0,0.00776435025250066,0,0.992248583032051,0,0.992248582842876,0,0.00776434353315381,0
0.5,0.00875705951131067,0.00348960978799795,0.991219428585534,-0.0106132066795581,0.991219428584728,-0.0106132066746092,0.00875659505145165,0.00349179008125233
1,0.0103663435053232,0.00604260267216183,0.989532608327139,-0.0202900643312045,0.989532608324978,-0.0202900643308563,0.010364619948378,0.00604707412862915
1.5,0.0122577327065683,0.00777736751785874,0.987505880632923,-0.0291530960722586,0.987505880631876,-0.0291530960707949,0.0122535975235092,0.00778412117763594
2,0.0140663403078856,0.0088592672847847,0.98551790697102,-0.0373519715326376,0.985517906971061,-0.0373519715314758,0.0140594258657289,0.00886882988277993
2.5,0.0156666561772956,0.00950736304219824,0.983694172023472,-0.0451185614964453,0.983694172023839,-0.0451185614959604,0.0156565227142802,0.0095197175762598
3,0.0170319563989905,0.0098871198446604,0.982054589083789,-0.0526197320037811,0.982054589084036,-0.0526197320037483,0.0170179005397695,0.00990222545673625
3.5,0.0181806362166119,0.0101127312337805,0.980578112056415,-0.059966286156417,0.980578112056446,-0.0599662861565555,0.0181618817539038,0.0101306765141969
4,0.0191476190856481,0.0102572978367963,0.97923034529252,-0.0672285537134494,0.979230345292396,-0.0672285537135906,0.0191234246206444,0.0102782571992392
4.5,0.0199697167185158,0.0103647682498069,0.977975854336353,-0.0744492862129773,0.977975854336169,-0.0744492862130492,0.019939391652249,0.010388943198139
5,0.0206794945427413,0.0104601033093701,0.976783185394911,-0.0816532808192454,0.976783185394743,-0.0816532808192445,0.0206423810908964,0.0104876918566141
5.5,0.0213035769620993,0.0105565653618571,0.975626298589792,-0.0888540702726228,0.975626298589684,-0.0888540702725713,0.0212590287576528,0.0105877541016008
6,0.0218628838584622,0.0106604761210805,0.974484399894113,-0.0960583200896203,0.974484399894086,-0.0960583200895466,0.0218102504025619,0.0106954437950164
6.5,0.0223735190253614,0.0107741640357886,0.973341191984411,-0.103268608903292,0.973341191984465,-0.10326860890322,0.0223121366704386,0.0108130893483445
7,0.0228477499038838,0.0108977366750631,0.972184016286848,-0.110485142685535,0.972184016286975,-0.110485142685486,0.0227769377861509,0.010940806792648
7.5,0.0232948726471697,0.0110301272852227,0.971003074788328,-0.117706794184883,0.971003074788508,-0.117706794184865,0.0232139319043394,0.0110775455729755
8,0.0237219117428288,0.0111697042537897,0.969790787251713,-0.124931725362204,0.969790787251927,-0.124931725362222,0.0236301267863447,0.0112216968071115
8.5,0.024134163100014,0.011314620769562,0.968541283813029,-0.13215775561356,0.968541283813255,-0.132157755613607,0.0240308041343039,0.0113714417125208
9,0.0245356075126774,0.0114630111230687,0.967250013552961,-0.139382576238505,0.967250013553176,-0.139382576238571,0.0244199337964578,0.0115249467872807
9.5,0.0249292229277484,0.011613096906284,0.965913445852485,-0.146603872412634,0.96591344585267,-0.146603872412703,0.0248004864649167,0.0116804690320951
10,0.0253172199353112,0.0117632405615637,0.96452884347681,-0.153819389812806,0.964528843476944,-0.153819389812857,0.0251746693986338,0.0118364086510367
10.5,0.0257964768845668,0.0119351060559363,0.963033889706526,-0.161216202968464,0.963033889704437,-0.161216202967518,0.0256339733677092,0.0120092955102118
11,0.0262625320511693,0.012091563734876,0.9614850668898,-0.168581740646928,0.961485066885582,-0.168581740644955,0.0260792512258731,0.0121684274162557
11.5,0.0267162487887159,0.0122346009925463,0.959883651238877,-0.17591637631323,0.959883651232628,-0.175916376310208,0.0265115636527904,0.0123156964210187
12,0.0271585459420653,0.0123658930621655,0.958230797723888,-0.183220541842819,0.958230797715714,-0.18322054183874,0.0269319887686484,0.0124526722604554
12.5,0.0275903602490636,0.0124868405691374,0.956527543336518,-0.190494712083516,0.956527543326526,-0.190494712078381,0.027341589213568,0.0125806463995
13,0.0280126187883829,0.0125986050941425,0.95477481176267,-0.197739390948136,0.954774811750971,-0.197739390941955,0.0277413892861247,0.0127006722687812
13.5,0.0284262193904322,0.01270214192964,0.952973419139185,-0.204955099075464,0.95297341912589,-0.204955099068256,0.0281323597991238,0.012813601254885
14,0.0288320172555915,0.0127982296480935,0.951124080599994,-0.212142363048341,0.951124080585216,-0.21214236304013,0.0285154087542155,0.0129201143908535
14.5,0.0292308163356053,0.012887496390716,0.949227417351197,-0.219301706119231,0.949227417335047,-0.219301706110049,0.028891376327319,0.0130207499290369
15,0.0296233643128793,0.0129704429700899,0.947283964050061,-0.226433640364906,0.947283964032647,-0.226433640354789,0.0292610329867272,0.0131159271102932
15.5,0.0300103502522391,0.0130474629893598,0.94529417629817,-0.233538660171603,0.945294176279599,-0.233538660160593,0.0296250798366601,0.0132059665058382
16,0.0303924042000795,0.013118860237938,0.943258438092596,-0.240617236939275,0.943258438072971,-0.240617236927416,0.0299841504966901,0.0132911073255877
16.5,0.0307700981696843,0.0131848636463252,0.941177069110116,-0.247669814886698,0.941177069089537,-0.247669814874038,0.0303388139994348,0.0133715220769195
17,0.0311439480832585,0.0132456400829739,0.939050331727629,-0.254696807837485,0.939050331706191,-0.254696807824072,0.0306895783229129,0.013447328932169
17.5,0.0315144163457365,0.0133013052630191,0.936878437706698,-0.261698596868945,0.936878437684495,-0.261698596854832,0.0310368942771874,0.0135186021297311
18,0.0318819148074396,0.0133519330180414,0.934661554491594,-0.268675528710607,0.934661554468714,-0.268675528695844,0.0313811595436388,0.0135853806974282
18.5,0.0322468079363308,0.0133975631519323,0.932399811088261,-0.27562791478597,0.932399811064788,-0.275627914770609,0.0317227227246342,0.0136476757508486
19,0.0326094160696517,0.0134382080828139,0.930093303506671,-0.282556030799181,0.930093303482683,-0.282556030783275,0.0320618873058746,0.0137054765854461
19.5,0.0329700186521609,0.0134738584465979,0.927742099761167,-0.28946011677709,0.927742099736741,-0.289460116760687,0.0323989154666515,0.0137587557503207
20,0.0333288573965268,0.0135044878149486,0.925346244433047,-0.296340377486228,0.925346244408254,-0.296340377469381,0.0327340316974583,0.013807473264033
20.5,0.03368613932269,0.0135300566595806,0.922905762807026,-0.303196983153275,0.922905762781933,-0.303196983136031,0.0330674262019176,0.0138515801086505
21,0.0340420396488152,0.0135505156762912,0.920420664598745,-0.310030070426242,0.920420664573414,-0.31003007040865,0.0333992580725266,0.013891021117248
21.5,0.0343967045180797,0.0135658085657488,0.917890947294409,-0.316839743521808,0.917890947268901,-0.316839743503912,0.0337296582385095,0.0139257373521786
22,0.0347502535539516,0.0135758743538088,0.915316599126235,-0.323626075511843,0.915316599100603,-0.323626075493689,0.0340587321900667,0.0139556680560049
22.5,0.0351027822426313,0.0135806493217348,0.912697601708855,-0.330389109709151,0.912697601683152,-0.330389109690781,0.0343865624872971,0.0139807522440039
23,0.0354543641455153,0.0135800686061818,0.910033932362545,-0.337128861118627,0.910033932336818,-0.33712886110008,0.0347132110645402,0.0140009299961705
23.5,0.0358050529473674,0.0135740675196583,0.907325566149052,-0.3438453179257,0.907325566123346,-0.343845317907014,0.035038721342303,0.0140161434973303
24,0.0361548843477,0.0135625826344639,0.904572477645318,-0.350538442998821,0.904572477619674,-0.350538442980033,0.0353631201595783,0.01402633786621
24.5,0.036503877803964,0.0135455526665444,0.901774642479449,-0.357208175387055,0.901774642453905,-0.357208175368201,0.0356864195394787,0.0140314618077468
25,0.0368520381356819,0.0135229191901074,0.898932038652115,-0.3638544317976,0.898932038626707,-0.36385443177871,0.0360086183008648,0.0140314681174361
25.5,0.0371993569988335,0.013494627209127,0.896044647665224,-0.370477108041216,0.896044647639984,-0.370477108022322,0.0363297035281611,0.0140263140619217
26,0.0375458142396991,0.0134606256078644,0.893112455478213,-0.37707608043637,0.89311245545317,-0.3770760804175,0.0366496519109139,0.0140159616561537
26.5,0.0378913791370893,0.0134208674991623,0.890135453310836,-0.383651207165107,0.890135453286019,-0.383651207146287,0.0369684309639413,0.0140003778542415
27,0.0382360115414868,0.0133753104864112,0.887113638309782,-0.390202329575701,0.887113638285215,-0.390202329556955,0.0372860001381654,0.0139795346684004
27.5,0.0385796629191649,0.0133239168526615,0.884047014094978,-0.396729273428692,0.884047014070684,-0.396729273410043,0.0376023118314625,0.0139534092281315
28,0.0389222773088328,0.0132666536883488,0.880935591199998,-0.403231850084274,0.880935591175997,-0.403231850065744,0.0379173123081309,0.0139219837898654
28.5,0.0392637921978392,0.0132034929673446,0.877779387419624,-0.409709857630081,0.877779387395936,-0.40970985761169,0.0382309425348571,0.0138852457057121
29,0.0396041393244601,0.0131344115795979,0.874578428076332,-0.416163081949296,0.874578428052973,-0.416163081931062,0.0385431389404044,0.013843187358607
29.5,0.0399432454122756,0.0130593913274257,0.871332746216243,-0.422591297729697,0.871332746193229,-0.422591297711636,0.0388538341056053,0.0137958060700235
30,0.0402810328421891,0.0129784188914226,0.868042382743998,-0.428994269414812,0.868042382721341,-0.428994269396938,0.0391629573896854,0.0137431039854695
30.5,0.0406174202671539,0.0128914857711149,0.864707386504967,-0.435371752098772,0.86470738648268,-0.4353717520811,0.0394704354983775,0.0136850879421802
31,0.0409523231742916,0.0127985882047114,0.861327814322268,-0.441723492366758,0.861327814300362,-0.441723492349301,0.039776192998826,0.0136217693227442
31.5,0.0412856543986554,0.0126997270716874,0.857903730995235,-0.44804922908316,0.857903730973719,-0.448049229065928,0.0400801527858243,0.0135531638978493
32,0.0416173245925562,0.0125949077813705,0.854435209265162,-0.454348694129732,0.854435209244043,-0.454348694112737,0.0403822365035151,0.0134792916608055
32.5,0.0419472426540211,0.0124841401502621,0.850922329753499,-0.460621613096108,0.850922329732785,-0.460621613079357,0.0406823649263276,0.0134001766561447
33,0.0422753161176609,0.012367438270419,0.847365180877008,-0.466867705925085,0.847365180856705,-0.466867705908588,0.0409804583025801,0.0133158468042108
33.5,0.0426014515109288,0.0122448203708966,0.843763858743853,-0.473086687515105,0.843763858723964,-0.473086687498869,0.041276436663883,0.0132263337233768
34,0.0429255546785168,0.0121163086739645,0.840118467034064,-0.479278268282316,0.840118467014594,-0.479278268266348,0.0415702201031977,0.0131316725512676
34.5,0.0432475310773868,0.0119819292475513,0.836429116867409,-0.485442154684572,0.836429116848362,-0.485442154668878,0.0418617290241599,0.0130319017661509
35,0.043567286044744,0.0118417118551845,0.832695926661267,-0.491578049709644,0.832695926642644,-0.491578049694228,0.0421508843640547,0.0129270630094787
35.5,0.0438847250410436,0.0116956898044994,0.828919021980766,-0.497685653329858,0.828919021962568,-0.497685653314723,0.0424376077926239,0.0128172009103994
36,0.044199753869974,0.0115438997952293,0.825098535383141,-0.503764662925262,0.825098535365371,-0.503764662910414,0.0427218218887057,0.0127023629129318
36.5,0.0445122788771859,0.011386381767478,0.821234606257978,-0.509814773677362,0.821234606240633,-0.509814773662802,0.0430034502965441,0.0125825991063732
37,0.0448222071293939,0.0112231787509355,0.817327380664763,-0.515835678935329,0.817327380647844,-0.51583567892106,0.0432824178634408,0.0124579620594071
37.5,0.0451294465753622,0.0110543367156123,0.813377011168977,-0.521827070556517,0.813377011152483,-0.521827070542542,0.043558650760303,0.0123285066583037
38,0.0454339061901459,0.0108799044245855,0.809383656677741,-0.527788639223022,0.809383656661671,-0.527788639209342,0.0438320765865084,0.0121942899495299
38.5,0.0457354961038717,0.0106999332891571,0.805347482275901,-0.533720074735879,0.805347482260252,-0.533720074722494,0.0441026244603906,0.0120553709869973
39,0.0460341277162294,0.0105144772267783,0.801268659063252,-0.539621066288464,0.801268659048021,-0.539621066275377,0.0443702250965541,0.0119118106841661
39.5,0.0463297137977673,0.0103235925220305,0.797147363993526,-0.545491302720508,0.797147363978712,-0.545491302707717,0.0446348108711321,0.0117636716711315
40,0.0466221685789963,0.0101273376908942,0.792983779715625,-0.551330472754077,0.792983779701224,-0.551330472741584,0.0448963158760073,0.0116110181568024
40.5,0.0469114078282369,0.00992577334851663,0.788778094417495,-0.557138265212786,0.788778094403502,-0.557138265200589,0.0451546759629508,0.0114539157962434
41,0.047197348919069,0.00971896208062539,0.784530501672963,-0.5629143692254,0.784530501659377,-0.562914369213499,0.0454098287785472,0.011292431563206
41.5,0.0474799108881938,0.00950696831871944,0.780241200291801,-0.568658474414942,0.780241200278615,-0.568658474403336,0.0456617137907218,0.0111266336278708
42,0.0477590144844517,0.00928985821913919,0.775910394173174,-0.574370271074315,0.775910394160385,-0.574370271063004,0.0459102723076165,0.0109565912397798
42.5,0.0480345822096823,0.00906769954607478,0.771538292162649,-0.580049450329404,0.771538292150254,-0.580049450318386,0.0461554474895059,0.0107823746159212
43,0.0483065383520823,0.00884056155857638,0.767125107912834,-0.58569570429052,0.767125107900825,-0.585695704279793,0.0463971843544027,0.0106040548339268
43.5,0.0485748090126522,0.00860851490159131,0.76267105974771,-0.591308726193034,0.762671059736084,-0.591308726182597,0.0466354297779398,0.0104217037303069
44,0.0488393221252951,0.00837163150102915,0.758176370530695,-0.596888210527964,0.758176370519446,-0.596888210517814,0.0468701324880847,0.0102353938036428
44.5,0.0491000074710918,0.0081299844628735,0.753641267536432,-0.602433853163199,0.753641267525555,-0.602433853153335,0.047101243055197,0.010045198122656
45,0.0493567966872296,0.00788364797630459,0.749065982326279,-0.607945351456061,0.749065982315769,-0.607945351446481,0.0473287138778988,0.00985119023904601
45.5,0.0496096232710503,0.00763269722081683,0.744450750627467,-0.613422404357783,0.744450750617319,-0.613422404348485,0.0475524991652045,0.00965344410499758
46,0.0498584225796297,0.00737720827728638,0.739795812215874,-0.618864712510487,0.739795812206081,-0.618864712501469,0.0477725549153045,0.00945203399523731
46.5,0.0501031318252921,0.00711725804294605,0.735101410802341,-0.624271978337191,0.735101410792897,-0.624271978328449,0.0479888388913917,0.00924703443352926
47,0.0503436900674283,0.00685292415021133,0.73036779392247,-0.629643906125318,0.730367793913369,-0.629643906116849,0.0482013105948717,0.0090385201234805
47.5,0.0505800382009559,0.00658428488929197,0.725595212829804,-0.634980202104181,0.725595212821042,-0.634980202095985,0.0484099312362812,0.00882656588353781
48,0.0508121189417507,0.00631141913452815,0.720783922392319,-0.640280574516851,0.720783922383889,-0.640280574508925,0.0486146637042155,0.00861124658604007
48.5,0.0510398768093517,0.00603440627437113,0.715934180992123,-0.645544733686797,0.715934180984019,-0.645544733679136,0.0488154725325365,0.00839263710020488
49,0.0512632581072127,0.00575332614493917,0.711046250428269,-0.650772392079655,0.711046250420485,-0.650772392072258,0.0490123238661236,0.0081708122389117
49.5,0.051482210900772,0.0054682589670586,0.706120395822598,-0.655963264360483,0.706120395815128,-0.655963264353348,0.0492051854253948,0.00794584670915544
50,0.0516966849935833,0.00517928528671607,0.701156885528495,-0.66111706744678,0.701156885521333,-0.661117067439903,0.0493940264698236,0.00771781506603697
50.5,0.0519066319017305,0.00488648591882501,0.696155991042479,-0.66623352055758,0.696155991035618,-0.666233520550958,0.049578817760645,0.00748679167016053
51,0.0521120048267525,0.00458994189423056,0.691117986918514,-0.671312345258875,0.691117986911949,-0.671312345252506,0.0497595315229399,0.00725285064830494
51.5,0.0523127586272676,0.00428973440984737,0.686043150684969,-0.67635326550562,0.686043150678692,-0.676353265499501,0.0499361414072666,0.00701606585725045
52,0.0525088497894848,0.00398594478185554,0.680931762764094,-0.681356007680548,0.680931762758101,-0.681356007674675,0.0501086224509955,0.00677651085061881
52.5,0.0527002363967834,0.00367865440184945,0.675784106393974,-0.68632030063,0.675784106388259,-0.686320300624372,0.0502769510394867,0.00653425884861442
53,0.0528868780985089,0.00336794469585261,0.67060046755282,-0.691245875696989,0.670600467547375,-0.691245875691601,0.0504411048672457,0.0062893827105342
53.5,0.0530687360781492,0.00305389708610815,0.665381134885534,-0.696132466751642,0.665381134880355,-0.696132466746492,0.0506010628991772,0.00604195490993353
54,0.0532457730210223,0.00273659295554518,0.660126399632475,-0.700979810219238,0.660126399627554,-0.700979810214323,0.0507568053320405,0.00579204751231932
54.5,0.0534179530816075,0.00241611361483518,0.654836555560313,-0.705787645105957,0.654836555555646,-0.705787645101275,0.0509083135562147,0.00553973215526554
55,0.0535852418506413,0.00209254027194405,0.649511898894921,-0.710555713022515,0.649511898890501,-0.710555713018062,0.0510555701178506,0.00528508003082256
55.5,0.0537476063220881,0.00176595400408308,0.644152728256211,-0.715283758205806,0.644152728252032,-0.715283758201578,0.0511985586815092,0.00502816187012906
56,0.0539050148600962,0.00143643573198543,0.638759344594846,-0.719971527538679,0.638759344590903,-0.719971527534675,0.0513372639933443,0.00476904793009897
56.5,0.054057437166018,0.00110406619639047,0.633332051130764,-0.724618770567984,0.63333205112705,-0.7246187705642,0.0514716718449021,0.00450780798208983
57,0.0542048442456046,0.000768925936679155,0.627871153293434,-0.729225239520967,0.627871153289943,-0.7292252395174,0.0516017690376019,0.00424451130244752
57.5,0.0543472083764395,0.000431095271549331,0.622376958663784,-0.733790689320143,0.622376958660511,-0.73379068931679,0.0517275433479385,0.00397922666482653
58,0.0544845030756945,9.0654281657554E-005,0.616849776917754,-0.738314877596728,0.616849776914693,-0.738314877593587,0.0518489834934688,0.00371202233419071
58.5,0.0546167030682729,-0.000252317205860941,0.61128991977138,-0.742797564702724,0.611289919768525,-0.742797564699791,0.0519660790996124,0.00344296606239924
59,0.0547437842554067,-0.000597739631076066,0.605697700927391,-0.747238513721732,0.605697700924736,-0.747238513719004,0.0520788206673081,0.00317212508529158
59.5,0.0548657236837615,-0.000945533713230751,0.600073436023236,-0.751637490478582,0.600073436020777,-0.751637490476058,0.0521871995415575,0.00289956612117709
60,0.0549824995151068,-0.00129562046107468,0.594417442580509,-0.755994263547843,0.59441744257824,-0.755994263545518,0.0522912078808805,0.00262535537064879
60.5,0.0550940909965941,-0.00164792118163859,0.588730039955704,-0.760308604261279,0.588730039953618,-0.760308604259151,0.05239083862771,0.00234955851764052
61,0.0552004784316903,-0.00200235748752881,0.583011549292268,-0.764580286714321,0.58301154929036,-0.764580286712387,0.052486085479745,0.00207224073164591
61.5,0.0553016431518047,-0.00235885130281227,0.5772622934739,-0.768809087771612,0.577262293472166,-0.768809087769869,0.0525769428622719,0.00179346667102226
62,0.0553975674886447,-0.0027173248675697,0.571482597079061,-0.772994787071671,0.571482597077495,-0.772994787070116,0.0526634059014742,0.00151330048730697
62.5,0.0554882347473299,-0.00307770074118285,0.565672786336634,-0.777137167030739,0.56567278633523,-0.77713716702937,0.0527454703987404,0.00123180583047816
63,0.0555736291802984,-0.00343990180442799,0.559833189082722,-0.781236012845856,0.559833189081476,-0.781236012844669,0.0528231328059705,0.000949045855088593
63.5,0.0556537359620239,-0.00380385126044142,0.553964134718529,-0.785291112497198,0.553964134717435,-0.785291112496191,0.0528963902018911,0.000665083227202268
64,0.0557285411645694,-0.00416947263462547,0.548065954169294,-0.789302256749737,0.548065954168348,-0.789302256748907,0.052965240269382,0.000379980132082958
