"Freq [GHz]","re(St(P1,P1)) []","im(St(P1,P1)) []","re(St(P1,P2)) []","im(St(P1,P2)) []","re(St(P2,P1)) []","im(St(P2,P1)) []","re(St(P2,P2)) []","im(St(P2,P2)) []"
0,0.00800299937782256,0,0.992013947165105,0,0.992013943090569,0,0.00800298403089528,0
0.5,0.00876916477489331,0.000142348593229258,0.991182869076805,-0.00877151940753329,0.99118286885388,-0.00877151960823497,0.00876869290845761,0.000143323370119575
1,0.00936371029725969,-0.000610478412012228,0.990420920987413,-0.0166416229579038,0.99042092090742,-0.0166416229728394,0.00936240326024951,-0.00060800917768411
1.5,0.00971383231306966,-0.00150808427294535,0.989790871823274,-0.0243569061893663,0.98979087176456,-0.0243569061690039,0.0097112416017584,-0.00150387204822877
2,0.0099064472289605,-0.00242538754615929,0.989229454960119,-0.0320188214683288,0.989229454924766,-0.0320188214431791,0.00990273528094132,-0.002418965119519
2.5,0.0100222944205823,-0.00332989048296994,0.988659046121505,-0.0396711492576536,0.988659046100236,-0.0396711492382469,0.0100175611436306,-0.00332110895127968
3,0.0100961264394135,-0.00422292216338072,0.988043479462545,-0.0473134380813498,0.988043479448276,-0.0473134380692741,0.0100903739406681,-0.00421169095469942
3.5,0.0101427890515753,-0.00510889124869607,0.98736854740789,-0.0549387177938314,0.98736854739666,-0.0549387177877314,0.0101359833460579,-0.00509510811939684
4,0.0101692077159705,-0.00599087968324064,0.986629838526053,-0.0625410978132592,0.986629838516091,-0.0625410978111507,0.0101613168600561,-0.00597442689419481
4.5,0.0101790579053611,-0.00687067552282539,0.985827175302768,-0.0701167778652492,0.985827175293634,-0.0701167778653637,0.0101700662837412,-0.00685143095459129
5,0.0101745876016723,-0.00774928732224467,0.984962083176409,-0.0776637384346994,0.984962083168347,-0.0776637384357723,0.0101644971561223,-0.00772713473677733
5.5,0.0101573478825348,-0.00862732086041706,0.984036604868564,-0.0851812485908017,0.98403660486207,-0.0851812485920815,0.0101461739985786,-0.00860215586440294
6,0.010128497896874,-0.0095051936159205,0.983052744505534,-0.092669430908404,0.983052744501071,-0.0926694309095728,0.0101162641068817,-0.00947692580491122
6.5,0.0100889412888201,-0.0103832437183167,0.982012224611694,-0.100128922354488,0.98201222460951,-0.100128922355508,0.0100756746075873,-0.010351796340573
7,0.0100393946487822,-0.0112617804582671,0.980916404185552,-0.107560624757614,0.980916404185596,-0.107560624758605,0.0100251220932045,-0.0112270887793144
7.5,0.00998042754156103,-0.0121411051474274,0.979766279381896,-0.11496552932795,0.979766279383788,-0.114965529329059,0.0099651738105917,-0.0121031143138612
8,0.00991248966979175,-0.0130215180329865,0.978562523959879,-0.122344599254658,0.978562523962904,-0.122344599255924,0.00989627575739926,-0.0129801808969958
8.5,0.00983593133464405,-0.0139033192611917,0.977305545580184,-0.129698696186111,0.977305545583341,-0.129698696187403,0.00981877381842228,-0.0138585943947787
9,0.00975101972222051,-0.0147868077181506,0.97599554477867,-0.137028538733105,0.975995544780711,-0.13702853873405,0.00973293050696289,-0.0147386577055002
9.5,0.00965795216275545,-0.0156722794472635,0.974632569768954,-0.144334683497024,0.974632569768438,-0.144334683496954,0.00963893851143377,-0.0156206694676277
10,0.00955686698934752,-0.0165600263072383,0.973216563970494,-0.151617521288364,0.973216563965843,-0.151617521286303,0.00953693172296592,-0.0165049229841143
10.5,0.00946063727316968,-0.0174421571812786,0.971741523156415,-0.15894554336696,0.971741523151351,-0.158945543364519,0.00943978620445174,-0.0173838921328042
11,0.00935459525620754,-0.0183299355744984,0.970210019097887,-0.166244782380227,0.970210019092435,-0.166244782377398,0.00933280607766949,-0.0182684553195189
11.5,0.00923824563973789,-0.0192231931337448,0.968623279680872,-0.173515257960677,0.968623279675061,-0.173515257957455,0.00921549884899783,-0.0191584430589677
12,0.00911111052654142,-0.0201217277471448,0.966982451842319,-0.180757053776917,0.966982451836176,-0.180757053773302,0.00908738945446438,-0.0200536522833428
12.5,0.0089727315028995,-0.0210253060415537,0.965288600770649,-0.187970306422056,0.965288600764204,-0.187970306418049,0.00894802232786714,-0.0209538488393091
13,0.00882267139620892,-0.0219336659576679,0.963542710337147,-0.195155194980329,0.96354271033043,-0.195155194975936,0.00879696314477599,-0.0218587700612694
13.5,0.00866051571783699,-0.0228465193642062,0.961745684576401,-0.202311931364975,0.961745684569441,-0.202311931360204,0.00863380025218755,-0.0227681273823857
14,0.00848587380480118,-0.0237635546761905,0.959898350038518,-0.20944075148733,0.959898350031346,-0.209440751482191,0.00845814579758122,-0.0236816089484493
14.5,0.00829837967709318,-0.0246844394461756,0.958001458844893,-0.21654190728807,0.958001458837535,-0.216541907282578,0.00826963657433316,-0.024598882203577
15,0.00809769262991422,-0.0256088229013685,0.95605569229143,-0.223615659637235,0.956055692283915,-0.223615659631406,0.00806793460287092,-0.0255195964207862
15.5,0.00788349758189746,-0.0265363384035315,0.954061664857486,-0.230662272089371,0.954061664849842,-0.230662272083221,0.00785272746872209,-0.0264433851544612
16,0.00765550520147701,-0.0274666058125184,0.952019928494264,-0.237682005464328,0.952019928486517,-0.237682005457877,0.00762372843970605,-0.027369868595732
16.5,0.00741345183416492,-0.0283992337380639,0.949930977082317,-0.244675113212059,0.94993097707449,-0.244675113205326,0.00738067638506365,-0.0282986558154743
17,0.00715709925352415,-0.0293338216679593,0.947795250963563,-0.251641837511095,0.947795250955681,-0.251641837504102,0.00712333551934935,-0.0292293468832603
17.5,0.00688623425828366,-0.0302699619640245,0.945613141468315,-0.258582406044671,0.9456131414604,-0.258582406037442,0.00685149499353183,-0.0301615348537418
18,0.00660066813729854,-0.0312072417202252,0.943384995371922,-0.265497029395253,0.943384995363995,-0.265497029387808,0.00656496835499748,-0.0310948076150062
18.5,0.00630023602308055,-0.0321452444798953,0.941111119228555,-0.27238589899706,0.941111119220635,-0.272385898989423,0.00626359289716921,-0.032028749595949
19,0.00598479615339453,-0.0330835518113961,0.938791783541282,-0.279249185586778,0.938791783533388,-0.279249185578975,0.00594722891817517,-0.0329629433321019
19.5,0.00565422905906732,-0.0340217447433959,0.936427226737807,-0.286087038094318,0.936427226729955,-0.28608703808637,0.00561575890668725,-0.0338969708912231
20,0.00530843669466247,-0.0349594050627433,0.934017658930129,-0.292899582918363,0.934017658922335,-0.292899582910294,0.00526908667151232,-0.0348304151616932
20.5,0.00494734152718762,-0.0358961164791798,0.931563265443994,-0.299686923534739,0.931563265436272,-0.299686923526572,0.00490713643003615,-0.035762861008046
21,0.00457088559642099,-0.0368314656622608,0.929064210110336,-0.306449140389562,0.929064210102699,-0.306449140381319,0.00452985186905513,-0.0366938962990653
21.5,0.00417902955897664,-0.0377650431567218,0.926520638316205,-0.313186291033128,0.926520638308666,-0.313186291024831,0.00413719519001743,-0.0376231128147329
22,0.00377175172669875,-0.0386964441830673,0.923932679816889,-0.319898410454696,0.923932679809458,-0.319898410446366,0.00372914614921971,-0.0385501070388639
22.5,0.00334904710862483,-0.0396252693306713,0.921300451314332,-0.326585511582394,0.921300451307019,-0.326585511574053,0.00330570110209999,-0.0394744808447245
23,0.00291092646437857,-0.0405511251508321,0.918624058809521,-0.333247585916471,0.918624058802335,-0.33324758590814,0.00286687205944031,-0.0403958420811181
23.5,0.00245741537564853,-0.0414736246573955,0.915903599738443,-0.339884604267882,0.91590359973139,-0.33988460425958,0.00241268576204545,-0.0413138050665622
24,0.00198855334125669,-0.0423923877424719,0.913139164902581,-0.346496517577715,0.91313916489567,-0.346496517569459,0.00194318277935318,-0.042227990999081
24.5,0.00150439290028342,-0.0433070415146908,0.910330840205834,-0.353083257796267,0.910330840199071,-0.353083257788075,0.00145841663637508,-0.0431380282890674
25,0.00100499878677895,-0.0442172205672016,0.907478708210192,-0.359644738803545,0.907478708203581,-0.359644738795434,0.00095845297242686,-0.044043552822405
25.5,0.000490447118741411,-0.0451225671823579,0.904582849522768,-0.366180857355667,0.904582849516315,-0.366180857347653,0.000443368734306226,-0.0449442081607869
26,-3.91753766630365E-005,-0.0460227314796782,0.901643344026703,-0.372691494044058,0.90164334402041,-0.372691494036157,-8.67485941936641E-005,-0.0458396456858032
26.5,-0.000583772100377189,-0.0469173715133673,0.898660271968185,-0.37917651425654,0.898660271962056,-0.379176514248764,-0.000631801725182124,-0.0467295246930688
27,-0.00114323728045967,-0.0478061533252405,0.895633714911502,-0.385635769131249,0.89563371490554,-0.385635769123612,-0.00119168426128069,-0.0476135124422008
27.5,-0.00171745663258815,-0.0486887509585285,0.892563756573482,-0.392069096496057,0.892563756567689,-0.39206909648857,-0.00176628135172874,-0.0484912841681144
28,-0.00230630798221876,-0.0495648464376455,0.889450483548131,-0.39847632178758,0.889450483542508,-0.398476321780255,-0.00235547031018418,-0.0493625230586894
28.5,-0.00290966184890246,-0.0504341297185791,0.886293985931666,-0.404857258945148,0.886293985926214,-0.404857258937995,-0.00295912119474467,-0.0502269202034331
29,-0.00352738199355035,-0.0512962986141829,0.883094357857466,-0.411211711276165,0.883094357852185,-0.411211711269193,-0.00357709735100009,-0.0510841745174193
29.5,-0.00415932592966228,-0.0521510586982918,0.879851697949825,-0.417539472290248,0.879851697944716,-0.417539472283467,-0.00420925591916033,-0.0519339926443632
30,-0.0048053453997226,-0.0529981231921741,0.876566109704731,-0.423840326500279,0.876566109699794,-0.423840326493696,-0.00485544830646978,-0.0527760888423494
30.5,-0.00546528681810854,-0.0538372128365294,0.873237701805256,-0.430114050189177,0.87323770180049,-0.430114050182799,-0.0055155206262642,-0.0536101848553905
31,-0.00613899168193827,-0.0546680557518873,0.869866588378515,-0.436360412141766,0.86986658837392,-0.436360412135599,-0.00618931410512513,-0.0544360097736349
31.5,-0.00682629695139447,-0.0554903872899772,0.866452889200585,-0.442579174341522,0.866452889196159,-0.442579174335572,-0.00687666545965343,-0.0552532998847894
32,-0.00752703540107336,-0.0563039498783315,0.862996729855171,-0.448770092632398,0.862996729850913,-0.44877009262667,-0.00757740724443368,-0.0560617985189806
32.5,-0.00824103594393316,-0.0571084928601313,0.859498241851338,-0.454932917346185,0.859498241847246,-0.454932917340682,-0.0082913681727636,-0.0568612558890567
33,-0.00896812392944796,-0.0579037723310727,0.855957562705074,-0.461067393896142,0.855957562701146,-0.461067393890869,-0.00901837341174999,-0.0576514289280783
33.5,-0.00970812141750838,-0.0586895509747776,0.852374835989036,-0.467173263337781,0.852374835985271,-0.467173263332739,-0.00975824485333066,-0.0584320811255069
34,-0.0104608474296397,-0.0594655978981012,0.848750211354381,-0.47325026289784,0.848750211350776,-0.473250262893032,-0.0105108013627699,-0.05920298236343
34.5,-0.0112261181790204,-0.0602316884674784,0.84508384452821,-0.479298126472604,0.845083844524762,-0.479298126468032,-0.0112758590061292,-0.0599639087539378
35,-0.0120037472807752,-0.0609876041473006,0.841375897289773,-0.485316585096768,0.841375897286481,-0.485316585092432,-0.0120532312581765,-0.060714642478639
35.5,-0.0127935459439404,-0.0617331323411467,0.837626537428283,-0.491305367384107,0.837626537425142,-0.491305367380008,-0.0128427291921286,-0.061454971631123
36,-0.0135953231464609,-0.0624680662365736,0.833835938684856,-0.497264199941235,0.833835938681864,-0.497264199937373,-0.0136441616525832,-0.0621846900630555
36.5,-0.0144088857944993,-0.0631922046540387,0.830004280680853,-0.503192807755741,0.830004280678008,-0.503192807752115,-0.0144573354129198,-0.062903597234471
37,-0.0152340388672895,-0.0639053519004159,0.826131748834626,-0.509090914559978,0.826131748831923,-0.509090914556587,-0.0152820553183976,-0.0636114980687181
37.5,-0.0160705855487007,-0.064607317627485,0.822218534268458,-0.514958243171771,0.822218534265895,-0.514958243168614,-0.0161181244161061,-0.0643082028124181
38,-0.0169183273466103,-0.0652979166956709,0.818264833707292,-0.520794515813272,0.818264833704865,-0.520794515810348,-0.0169653440728676,-0.064993526900713
38.5,-0.0177770642011171,-0.0659769690432503,0.814270849370649,-0.526599454409159,0.814270849368355,-0.526599454406466,-0.0178235140821195,-0.0656672908280048
39,-0.0186465945825859,-0.0666442995611721,0.810236788858975,-0.532372780865347,0.810236788856812,-0.53237278086288,-0.0186924327607558,-0.0663293200243309
39.5,-0.019526715580419,-0.0672997379735686,0.806162865035515,-0.538114217329297,0.806162865033478,-0.538114217327056,-0.0195718970368242,-0.0669794447374408
40,-0.0204172229834222,-0.0679431187240115,0.802049295904673,-0.543823486433026,0.802049295902759,-0.543823486431008,-0.0204617025289408,-0.0676174999206296
40.5,-0.0213179113525644,-0.0685742808674988,0.797896304487707,-0.549500311519813,0.797896304485912,-0.549500311518013,-0.0213616436182127,-0.0682433251262963
41,-0.0222285740868675,-0.0691930679681383,0.793704118696487,-0.555144416855566,0.793704118694808,-0.555144416853981,-0.0222715135134055,-0.0688567644052008
41.5,-0.0231490034831273,-0.0697993280024461,0.789472971205977,-0.5607555278258,0.78947297120441,-0.560755527824426,-0.0231911043100473,-0.0694576662113255
42,-0.0240789907901004,-0.070392913268176,0.785203099325986,-0.566333371119066,0.785203099324527,-0.566333371117899,-0.0241202070441046,-0.0700458833122553
42.5,-0.02501832625776,-0.0709736802985467,0.780894744872679,-0.571877674897679,0.780894744871325,-0.571877674896714,-0.025058611740821,-0.0706212727049385
43,-0.025966799182168,-0.0715414897817405,0.776548154040274,-0.57738816895652,0.776548154039021,-0.577388168955754,-0.0260061074592706,-0.0711836955367009
43.5,-0.0269241979464704,-0.0720962064855063,0.772163577273274,-0.58286458487064,0.772163577272118,-0.582864584870067,-0.026962482333122,-0.071733017031344
44,-0.0278903100584895,-0.0726376991867156,0.767741269139555,-0.588306656132363,0.767741269138492,-0.588306656131978,-0.0279275236080868,-0.0722691064201666
44.5,-0.0288649221853429,-0.0731658406056895,0.763281488204561,-0.593714118278543,0.763281488203588,-0.593714118278342,-0.0289010176764747,-0.0727918368777333
45,-0.0298478201854886,-0.073680507345119,0.758784496906839,-0.599086709008579,0.758784496905953,-0.599086709008556,-0.0298827501092547,-0.0733010854622056
45.5,-0.0308387891385555,-0.0741815798333879,0.754250561435092,-0.604424168293762,0.754250561434288,-0.604424168293912,-0.0308725056859751,-0.0737967330600428
46,-0.0318376133733013,-0.0746689422721113,0.749679951606907,-0.609726238478497,0.749679951606182,-0.609726238478814,-0.0318700684228845,-0.0742786643348899
46.5,-0.0328440764939973,-0.0751424825877021,0.745072940749289,-0.614992664373897,0.745072940748641,-0.614992664374376,-0.0328752215995423,-0.0747467676804525
47,-0.033857961405523,-0.0756020923867679,0.740429805581103,-0.620223193344231,0.740429805580527,-0.620223193344867,-0.0338877477842108,-0.075200935177168
47.5,-0.0348790503374209,-0.0760476669151439,0.735750826097498,-0.625417575386651,0.73575082609699,-0.625417575387438,-0.0349074288582629,-0.0756410625524789
48,-0.0359071248671493,-0.076479105020382,0.731036285456388,-0.630575563204631,0.731036285455945,-0.630575563205562,-0.035934046039849,-0.0760670491445161
48.5,-0.0369419659427379,-0.0768963091174985,0.726286469867031,-0.635696912275485,0.72628646986665,-0.635696912276555,-0.036967379907023,-0.0764787978690094
49,-0.0379833539050366,-0.0772991851577988,0.721501668480741,-0.640781380912345,0.721501668480418,-0.640781380913548,-0.0380072104205147,-0.0768762151892262
49.5,-0.0390310685097366,-0.0776876426005975,0.716682173283755,-0.645828730320917,0.716682173283486,-0.645828730322248,-0.0390533169463206,-0.0772592110887698
50,-0.0400848889493066,-0.0780615943876508,0.711828278992265,-0.650838724651345,0.711828278992048,-0.650838724652797,-0.0401054782782638,-0.0776276990470427
50.5,-0.0411445938749956,-0.0784209569201366,0.706940282949626,-0.655811131045474,0.706940282949457,-0.655811131047041,-0.0411634726606631,-0.0779815960172195
51,-0.0422099614190218,-0.0787656500380014,0.702018485025714,-0.660745719679781,0.70201848502559,-0.660745719681458,-0.042227077811228,-0.0783208224065364
51.5,-0.0432807692170541,-0.0790955970015172,0.69706318751845,-0.665642263804246,0.697063187518368,-0.665642263806025,-0.043296070944295,-0.0786453020587495
52,-0.044356794431096,-0.0794107244748796,0.692074695057458,-0.670500539777384,0.692074695057414,-0.670500539779261,-0.0443702287944936,-0.0789549622385911
52.5,-0.0454378137728471,-0.0797109625117024,0.687053314509829,-0.675320327097688,0.687053314509821,-0.675320327099656,-0.045449327640936,-0.0792497336180701
53,-0.0465236035276274,-0.0799962445422459,0.68199935488799,-0.680101408431668,0.681999354888015,-0.680101408433721,-0.0465331433319973,-0.0795295502644662
53.5,-0.0476139395789276,-0.0802665073622394,0.676913127259624,-0.684843569638701,0.676913127259678,-0.684843569640832,-0.0476214513107572,-0.079794349629868
54,-0.0487085974336408,-0.0805216911231595,0.671794944659625,-0.689546599792863,0.671794944659706,-0.689546599795067,-0.0487140266411502,-0.0800440725421186
54.5,-0.0498073522480311,-0.0807617393238186,0.666645122004061,-0.694210291201937,0.666645122004167,-0.694210291204208,-0.0498106440348792,-0.0802786631970271
55,-0.0509099788544721,-0.0809865988031419,0.661463976006095,-0.698834439423722,0.661463976006222,-0.698834439426054,-0.0509110778791313,-0.0804980691517181
55.5,-0.0520162517889965,-0.0811962197340009,0.656251825093842,-0.703418843279835,0.656251825093987,-0.703418843282221,-0.0520151022651195,-0.0807022413189889
56,-0.0531259453196801,-0.0813905556179834,0.651008989330126,-0.707963304867112,0.651008989330288,-0.707963304869547,-0.0531224910174863,-0.0808911339625552
56.5,-0.0542388334758824,-0.0815695632809826,0.645735790334094,-0.712467629566768,0.645735790334269,-0.712467629569245,-0.0542330177245828,-0.0810647046930679
57,-0.0553546900783619,-0.0817332028694926,0.640432551204658,-0.716931626051422,0.640432551204844,-0.716931626053937,-0.0553464557696364,-0.0812229144647856
57.5,-0.0564732887702727,-0.081881437847505,0.635099596445729,-0.721355106290112,0.635099596445923,-0.721355106292657,-0.0564625783628215,-0.0813657275727962
58,-0.0575944030490495,-0.0820142349938937,0.629737251893195,-0.725737885551406,0.629737251893397,-0.725737885553977,-0.0575811585742274,-0.0814931116506859
58.5,-0.0587178062991841,-0.0821315644002046,0.624345844643638,-0.730079782404719,0.624345844643843,-0.730079782407309,-0.0587019693677329,-0.0816050376685507
59,-0.0598432718258872,-0.0822333994687386,0.618925702984707,-0.734380618719919,0.618925702984915,-0.734380618722523,-0.0598247836357739,-0.081701479931262
59.5,-0.060970572889632,-0.0823197169108464,0.613477156327165,-0.738640219665327,0.613477156327372,-0.738640219667939,-0.0609493742350033,-0.0817824160768877
60,-0.0620994827415643,-0.0823904967453454,0.608000535138536,-0.742858413704191,0.608000535138742,-0.742858413706805,-0.0620755140228211,-0.081847827075191
60.5,-0.0632297746597721,-0.0824457222969752,0.602496170878345,-0.74703503258971,0.602496170878547,-0.747035032592321,-0.0632029758947695,-0.0818976972261102
61,-0.0643612219863929,-0.0824853801948136,0.596964395934895,-0.751169911358692,0.596964395935091,-0.751169911361294,-0.0643315328227725,-0.0819320141581585
61.5,-0.0654935981655417,-0.0825094603705749,0.591405543563577,-0.755262888323914,0.591405543563766,-0.755262888326503,-0.0654609578941855,-0.0819507688266476
62,-0.0666266767820362,-0.0825179560567204,0.58581994782666,-0.759313805065253,0.585819947826839,-0.759313805067821,-0.0665910243516553,-0.0819539555116812
62.5,-0.0677602316008986,-0.0825108637843129,0.580207943534534,-0.763322506419643,0.580207943534703,-0.763322506422187,-0.0677215056337409,-0.0819415718158383
