"Freq [GHz]","re(St(P1,P1)) []","im(St(P1,P1)) []","re(St(P1,P2)) []","im(St(P1,P2)) []","re(St(P2,P1)) []","im(St(P2,P1)) []","re(St(P2,P2)) []","im(St(P2,P2)) []"
0,0.00588890338730153,0,0.994125209297636,0,0.994125199795235,0,0.00588889366230205,0
0.5,0.00644986517924195,0.000160159912455882,0.993524323582072,-0.006220545877067,0.993524322908268,-0.00622054705812936,0.00644993737133603,0.000160941733751585
1,0.00692703746694434,-0.00035934972371976,0.992958102962863,-0.0117587116812139,0.992958103194528,-0.0117587118931084,0.0069273111058834,-0.000357828520325398
1.5,0.00724441820447375,-0.000968034330135481,0.992479263048729,-0.017301887618892,0.992479263174021,-0.0173018878112039,0.0072450590946378,-0.000965757745134965
2,0.00743426337283104,-0.00163362592002514,0.992038759100364,-0.0227104138891985,0.992038759160467,-0.0227104140364389,0.00743529538613785,-0.00163079040823533
2.5,0.00754805696038741,-0.00230011648325146,0.991640969099301,-0.0280579758600794,0.991640969122471,-0.0280579759620352,0.00754943819458997,-0.00229681071380838
3,0.00761934157048039,-0.00295573276629213,0.991266427970601,-0.0333817916974226,0.991266427972533,-0.0333817917608261,0.00762104156654075,-0.00295198718621492
3.5,0.00766624412594652,-0.00360054088424455,0.990895841516083,-0.0386969367897461,0.990895841505181,-0.0386969368218804,0.00766825220336287,-0.00359636306473554
4,0.00769851062565152,-0.0042370951287527,0.990514994517119,-0.0440081031548374,0.990514994498057,-0.0440081031620512,0.00770083110154784,-0.00423248492217887
4.5,0.00772157208373647,-0.00486805475426344,0.990114198127345,-0.0493155987018987,0.990114198102966,-0.0493155986895601,0.00772421936773515,-0.00486301017205903
5,0.00773858872966349,-0.00549568064046468,0.989686933673596,-0.0546180239691836,0.989686933645875,-0.0546180239418792,0.00774158399199232,-0.00549020004864964
5.5,0.00775147626942818,-0.00612181270659917,0.989228759002379,-0.059913408600984,0.989228758972922,-0.0599134085627693,0.00775484537019722,-0.00611589559817638
6,0.00776143806952234,-0.0067479506141952,0.988736572760476,-0.0651996785550013,0.988736572730766,-0.0651996785095497,0.00776521030052235,-0.00674159783783868
6.5,0.00776925249942151,-0.00737533954347214,0.988208145081816,-0.0704748382513403,0.988208145053361,-0.0704748382020561,0.00777345982500233,-0.00736855333313091
7,0.00777543444230555,-0.00800503963219956,0.987641821818055,-0.0757370326546125,0.987641821792456,-0.075737032604696,0.00778011104661114,-0.00799782357389311
7.5,0.0077803295312735,-0.00863797804697164,0.987036337410337,-0.0809845599126255,0.987036337389333,-0.0809845598651204,0.00778551155689922,-0.008630337036311
8,0.00778417101376794,-0.00927498715571584,0.986390695283419,-0.0862158647865892,0.986390695268903,-0.0862158647443927,0.00778989642316075,-0.00926692736631995
8.5,0.00778711510089103,-0.00991683247755315,0.985704090467416,-0.0914295257077216,0.985704090461447,-0.0914295256736022,0.00779342361902557,-0.00990836134705742
9,0.00778926351717124,-0.0105642333372122,0.984975858940975,-0.0966242407452524,0.984975858945773,-0.0966242407218489,0.00779619663004227,-0.010555359572221
9.5,0.00779067820291102,-0.011217878362058,0.984205444114707,-0.101798814495079,0.984205444132651,-0.101798814484897,0.00779827919600873,-0.0112086119615711
10,0.00779139106954169,-0.011878437335767,0.983392374456766,-0.106952146498421,0.983392374490381,-0.106952146503834,0.00779970509638006,-0.0118687896321097
10.5,0.00778763138020067,-0.0125223858996844,0.982605341668654,-0.112108245987102,0.982605341701726,-0.112108245994129,0.00779658162117991,-0.0125121707167999
11,0.00777972391227355,-0.0131719216895325,0.981794441145927,-0.11725204539601,0.98179444117832,-0.117252045404525,0.00778935995988467,-0.0131611419480748
11.5,0.00776728428582629,-0.0138269803676563,0.980959648300475,-0.122384073063269,0.980959648332084,-0.122384073073143,0.00777765625360216,-0.0138156414614574
12,0.0077499409580401,-0.0144874728376641,0.980100908058912,-0.127504766014457,0.980100908089647,-0.127504766025561,0.00776109922855545,-0.0144755826553027
12.5,0.00772733668907064,-0.0151532872026596,0.979218148153145,-0.132614480499149,0.979218148182938,-0.132614480511355,0.00773933166887758,-0.015140856118685
13,0.00769912975424117,-0.0158242907663193,0.978311289078656,-0.137713502311171,0.978311289107453,-0.137713502324355,0.00771201163920315,-0.0158113316045467
13.5,0.00766499491247111,-0.0165003320470354,0.977380251349516,-0.142802056522505,0.977380251377283,-0.142802056536548,0.00767881346645678,-0.0164868600186607
14,0.00762462414382034,-0.0171812427785683,0.976424960600893,-0.147880316418248,0.976424960627602,-0.147880316433035,0.00763942849312508,-0.0171672753981102
14.5,0.00757772717127351,-0.0178668398740469,0.975445351006978,-0.152948411531457,0.975445351032616,-0.15294841154688,0.00759356561661058,-0.0178523968561661
15,0.00752403178358002,-0.0185569273334236,0.974441367402971,-0.158006434752514,0.974441367427535,-0.15800643476847,0.00754095163095753,-0.0185420304737809
15.5,0.007463283977062,-0.0192512980778732,0.973412966427793,-0.163054448537002,0.973412966451286,-0.163054448553396,0.00748133138836549,-0.0192359711211045
16,0.00739524793486634,-0.0199497356978524,0.972360116941719,-0.168092490266376,0.972360116964151,-0.168092490283116,0.0074144677985443,-0.0199340041956386
16.5,0.00731970586232598,-0.020652016104453,0.971282799920146,-0.173120576832192,0.971282799941533,-0.173120576849197,0.00734014168415963,-0.0206359072665312
17,0.0072364576968251,-0.0213579090765204,0.970181007980768,-0.178138708522106,0.970181008001132,-0.178138708539299,0.00725815151043219,-0.0213414516172565
17.5,0.00714532071001267,-0.0220671796985821,0.96905474466559,-0.183146872287083,0.969054744684956,-0.183146872304394,0.0071683130064476,-0.0220504036815159
18,0.00704612901943641,-0.0227795896867318,0.967904023570378,-0.188145044466503,0.967904023588774,-0.188145044483865,0.00707045869500511,-0.0227625263692759
18.5,0.00693873302563403,-0.0234948986017391,0.966728867391113,-0.193133193042974,0.966728867408571,-0.193133193060328,0.00696443734686111,-0.0234775802819369
19,0.00682299878962328,-0.0242128649502145,0.96552930693895,-0.198111279492447,0.965529306955503,-0.198111279509737,0.0068501133741587,-0.0241953248172155
19.5,0.00669880736448153,-0.0249332471761532,0.964305380160962,-0.203079260288622,0.964305380176645,-0.2030792603058,0.00672736617664321,-0.0249155191658308
20,0.00656605409343861,-0.0256558045463091,0.963057131193011,-0.208037088113941,0.963057131207861,-0.208037088130962,0.00659608945302456,-0.0256379232031634
20.5,0.0064246478856434,-0.0263802979337266,0.961784609462635,-0.212984712823113,0.961784609476689,-0.212984712839936,0.00645619048861562,-0.0263622982800347
21,0.00627451047944977,-0.0271064905045648,0.960487868853427,-0.217922082199212,0.960487868866722,-0.217922082215802,0.0063075894290977,-0.0270884079174967
21.5,0.00611557570187471,-0.0278341483137567,0.959166966937541,-0.222849142536974,0.959166966950117,-0.222849142553298,0.00615021854909092,-0.027816018410971
22,0.00594778873169105,-0.0285630408154405,0.957821964279383,-0.227765839083053,0.957821964291277,-0.227765839099083,0.00598402152302496,-0.0285448993495456
22.5,0.00577110537248948,-0.0292929412943175,0.956452923810881,-0.232672116358796,0.956452923822132,-0.232672116374508,0.0058089527047247,-0.0292748240563609
23,0.00558549134105835,-0.030023627224073,0.955059910276879,-0.237567918387185,0.955059910287524,-0.237567918402558,0.00562497642111065,-0.0300055699561468
23.5,0.00539092157544613,-0.0307548805590829,0.953642989747852,-0.242453188842437,0.953642989757928,-0.242453188857453,0.00543206628446957,-0.0307369188759674
24,0.00518737956623799,-0.0314864879653962,0.952202229196277,-0.247327871137784,0.952202229205822,-0.247327871152426,0.00523020452690603,-0.0314686572850973
24.5,0.00497485671379039,-0.0322182409968796,0.950737696132445,-0.252191908464547,0.950737696141493,-0.252191908478804,0.00501938135981345,-0.0322005764798075
25,0.00475335171350505,-0.0329499362221179,0.949249458295196,-0.257045243793463,0.949249458303783,-0.257045243807324,0.0047995943605269,-0.032932472718604
25.5,0.00452286997059581,-0.033681375307407,0.947737583392946,-0.26188781984739,0.947737583401105,-0.261887819860849,0.0045708478876984,-0.033664147313194
26,0.00428342304528823,-0.0344123650608741,0.946202138890387,-0.266719579052978,0.946202138898152,-0.266719579066028,0.00433315252643346,-0.0343954066801686
26.5,0.00403502812894302,-0.0351427174424208,0.944643191836376,-0.271540463477536,0.944643191843777,-0.271540463490173,0.00408652456373981,-0.0351260623580845
27,0.00377770755119639,-0.0358722495438442,0.943060808728684,-0.276350414756194,0.943060808735754,-0.276350414768417,0.00383098549448468,-0.0358559309942639
27.5,0.00351148831789749,-0.0366007835432014,0.941455055411527,-0.281149374013522,0.941455055418294,-0.281149374025331,0.00356656155768709,-0.0365848343053741
28,0.00323640167933714,-0.0373281466370889,0.939825997002044,-0.28593728178292,0.939825997008536,-0.285937281794316,0.00329328330273548,-0.0373125990154555
28.5,0.00295248272807491,-0.0380541709542241,0.938173697842161,-0.290714077926415,0.938173697848406,-0.290714077937402,0.00301118518487442,-0.0380390567747786
29,0.00265977002544859,-0.0387786934534002,0.936498221472557,-0.29547970155696,0.93649822147858,-0.295479701567541,0.00272030518912375,-0.0387640440626278
29.5,0.00235830525575648,-0.0395015558085838,0.934799630625712,-0.300234090964786,0.934799630631537,-0.300234090974967,0.00242068448165567,-0.0394874020767717
30,0.00204813290698241,-0.0402226042836205,0.933077987235302,-0.304977183549004,0.933077987240953,-0.304977183558791,0.00211236708755941,-0.0402089766121052
30.5,0.00172929997684967,-0.0409416895988008,0.931333352459444,-0.309708915755304,0.931333352464944,-0.309708915764704,0.00179539959381425,-0.0409286179307531
31,0.00140185570297208,-0.0416586667912304,0.929565786715559,-0.314429223020311,0.929565786720927,-0.314429223029333,0.00146983087627645,-0.0416461806255646
31.5,0.0010658513158015,-0.0423733950707779,0.927775349724811,-0.319138039722964,0.927775349730068,-0.319138039731616,0.00113571184942035,-0.0423615234788197
32,0.000721339813113786,-0.0430857376730978,0.925962100564367,-0.323835299143038,0.925962100569531,-0.323835299151331,0.000793095237588637,-0.043074509317653
32.5,0.000368375754722927,-0.0437955617111159,0.924126097725838,-0.328520933426885,0.924126097730925,-0.328520933434828,0.000442035366488791,-0.0437850048676096
33,7.01507619016439E-006,-0.0445027380260898,0.922267399178502,-0.33319487356022,0.92226739918353,-0.333194873567823,8.25879737003654E-005,-0.044492880605467
33.5,-0.000362685079720593,-0.0452071410392936,0.920386062436075,-0.337857049347814,0.920386062441058,-0.337857049355088,-0.000285189963024401,-0.0451980106123808
34,-0.000740666515038735,-0.0459086486051543,0.918482144625913,-0.342507389399796,0.918482144630866,-0.342507389406752,-0.000661240380847805,-0.0459002724282302
34.5,-0.00112687011317764,-0.0466071418665752,0.916555702559721,-0.347145821124245,0.916555702564655,-0.347145821130896,-0.00104550427145872,-0.046599546907891
35,-0.00152123596124476,-0.0473025051130727,0.914606792804925,-0.351772270725745,0.914606792809854,-0.3517722707321,-0.00143792180631991,-0.0472957180800935
35.5,-0.00192370345911275,-0.0479946256422128,0.912635471756026,-0.356386663209473,0.912635471760958,-0.356386663215546,-0.00183843244859078,-0.0479886730093799
36,-0.0023342114162776,-0.0486833936247666,0.910641795705298,-0.360988922390467,0.910641795710245,-0.36098892239627,-0.00224697505272559,-0.0486783016615775
36.5,-0.00275269813744344,-0.0493687019739411,0.908625820912357,-0.365578970907657,0.908625820917326,-0.3655789709132,-0.00266348795271493,-0.0493644967731757
37,-0.00317910149774803,-0.0500504462188929,0.906587603672152,-0.370156730242227,0.906587603677153,-0.370156730247523,-0.00308790903984402,-0.0500471537248361
37.5,-0.00361335900847065,-0.0507285243827864,0.904527200381032,-0.374722120739964,0.904527200386071,-0.374722120745025,-0.00352017583083625,-0.0507261704192854
38,-0.00405540787402769,-0.0514028368654784,0.902444667600599,-0.379275061637148,0.902444667605684,-0.379275061641986,-0.00396022552717029,-0.0514014471637194
38.5,-0.00450518504100117,-0.0520732863309674,0.900340062119134,-0.383815471089657,0.900340062124269,-0.383815471094282,-0.00440799506631995,-0.0520728865568461
39,-0.00496262723989599,-0.0527397775996281,0.898213441010391,-0.388343266204876,0.898213441015581,-0.388343266209302,-0.00486342116561422,-0.0527403933806112
39.5,-0.00542767102028657,-0.0534022175452631,0.89606486168966,-0.39285836307612,0.89606486169491,-0.392858363080357,-0.00532644035937579,-0.0534038744966459
40,-0.00590025277995443,-0.0540605149969591,0.893894381966973,-0.397360676819198,0.893894381972287,-0.397360676823257,-0.00579698902994263,-0.0540632387474329
40.5,-0.00638030878857782,-0.0547145806456864,0.891702060097425,-0.401850121610833,0.891702060102804,-0.401850121614725,-0.00627500343314119,-0.0547183968621445
41,-0.00686777520650828,-0.055364326955609,0.88948795482855,-0.406326610728659,0.889487954833997,-0.406326610732396,-0.00676041971873265,-0.0553692613671233
41.5,-0.00736258809910983,-0.056009668080002,0.887252125444775,-0.410790056592505,0.887252125450291,-0.410790056596096,-0.00725317394632646,-0.056015746500907
42,-0.00786468344710961,-0.0566505197816942,0.884994631808943,-0.415240370806736,0.884994631814531,-0.415240370810193,-0.00775320209720859,-0.0566577681337346
42.5,-0.00837399715338133,-0.0572867993579196,0.882715534400968,-0.419677464203413,0.882715534406626,-0.419677464206744,-0.00826044008249971,-0.0572952436914136
43,-0.0088904650465344,-0.0579184255694674,0.880414894353637,-0.424101246886054,0.880414894359367,-0.424101246889269,-0.00877482374802813,-0.0579280920834473
43.5,-0.00941402288167165,-0.0585453185740097,0.87809277348566,-0.428511628273825,0.878092773491461,-0.428511628276933,-0.0092962888762822,-0.0585562336353036
44,-0.00994460633862754,-0.0591673998634683,0.875749234332008,-0.432908517145957,0.875749234337879,-0.432908517148968,-0.00982477118575242,-0.0591795900246996
44.5,-0.0104821510179973,-0.0597845922052933,0.873384340171634,-0.437291821686248,0.873384340177575,-0.43729182168917,-0.0103602063279797,-0.059798084221772
45,-0.0110265924352208,-0.0603968195875177,0.870998155052675,-0.441661449527492,0.870998155058683,-0.441661449530334,-0.0109025298825754,-0.0604116404330035
45.5,-0.0115778660129766,-0.06100400716745,0.868590743815198,-0.446017307795717,0.868590743821272,-0.446017307798486,-0.0114516773504715,-0.0610201840487734
46,-0.0121359070721169,-0.0616060812238668,0.866162172111616,-0.450359303154102,0.866162172117753,-0.450359303156807,-0.0120075841456354,-0.0616236415943929
46.5,-0.0127006508213525,-0.0622029691125729,0.863712506424852,-0.454687341846482,0.863712506431051,-0.45468734184913,-0.0125701855854567,-0.0622219406845008
47,-0.0132720323458791,-0.0627945992251837,0.861241814084362,-0.459001329740329,0.86124181409062,-0.459001329742927,-0.0131394168800066,-0.0628150099806775
47.5,-0.0138499865951269,-0.0633809009510111,0.858750163280102,-0.463301172369159,0.858750163286415,-0.463301172371714,-0.0137152131203475,-0.0634027791521519
48,-0.0144344483697829,-0.0639618046419006,0.856237623074559,-0.467586774974249,0.856237623080924,-0.467586774976766,-0.0142975092660471,-0.0639851788394679
48.5,-0.0150253523082523,-0.0645372415799237,0.853704263412918,-0.471858042545653,0.853704263419332,-0.471858042548139,-0.0148862401320695,-0.0645621406209971
49,-0.0156226328726669,-0.0651071439477539,0.851150155131495,-0.47611487986242,0.851150155137954,-0.476114879864881,-0.015481340375143,-0.0651335969821452
49.5,-0.0162262243345868,-0.0656714448016534,0.848575369964496,-0.480357191532,0.848575369970995,-0.480357191534441,-0.0160827444797685,-0.0656994812871725
50,-0.0168360607604925,-0.0662300780469109,0.845979980549212,-0.484584882028777,0.845979980555749,-0.484584882031204,-0.0166903867439473,-0.0662597277534689
50.5,-0.0174520759971708,-0.0667829784156441,0.843364060429755,-0.488797855731719,0.843364060436326,-0.488797855734135,-0.0173042012647531,-0.0668142714282072
51,-0.0180742036570877,-0.0673300814468317,0.840727684059385,-0.492996016961097,0.840727684065984,-0.492996016963508,-0.017924121923834,-0.0673630481672316
51.5,-0.0187023771038336,-0.0678713234684882,0.838070926801545,-0.497179270014282,0.838070926808169,-0.49717927001669,-0.0185500823729245,-0.0679059946160984
52,-0.0193365294377106,-0.0684066415818551,0.835393864929675,-0.501347519200567,0.835393864936321,-0.501347519202979,-0.019182016019455,-0.0684430481931591
52.5,-0.0199765934815356,-0.068935973647533,0.832696575625878,-0.505500668875056,0.83269657563254,-0.505500668877474,-0.0198198560123209,-0.0689741470745744
53,-0.0206225017667172,-0.069459258273426,0.829979136978518,-0.509638623471552,0.82997913698519,-0.509638623473979,-0.0204635352278765,-0.0694992301811823
53.5,-0.0212741865196694,-0.0699764348044339,0.827241627978818,-0.513761287534498,0.827241627985498,-0.513761287536937,-0.0211129862562126,-0.0700182371671122
54,-0.0219315796485967,-0.0704874433137834,0.824484128516542,-0.517868565749933,0.824484128523225,-0.517868565752386,-0.0217681413877665,-0.0705311084100611
54.5,-0.0225946127307206,-0.0709922245959171,0.821706719374798,-0.521960362975493,0.821706719381479,-0.521960362977965,-0.0224289326003171,-0.0710377850031518
55,-0.0232632169999624,-0.0714907201608577,0.818909482224051,-0.526036584269442,0.818909482230725,-0.526036584271933,-0.0230952915463972,-0.0715382087482749
55.5,-0.0239373233351375,-0.0719828722299588,0.81609249961539,-0.530097134918752,0.816092499622053,-0.530097134921264,-0.0237671495411723,-0.0720323221508519
56,-0.0246168622486873,-0.0724686237329738,0.813255854973115,-0.534141920466246,0.813255854979762,-0.534141920468782,-0.0244444375508102,-0.0725200684159294
56.5,-0.0253017638759769,-0.0729479183063687,0.810399632586685,-0.538170846736813,0.810399632593313,-0.538170846739373,-0.025127086181382,-0.0730013914455443
57,-0.0259919579651858,-0.0734207002927912,0.807523917602097,-0.542183819862694,0.807523917608698,-0.54218381986528,-0.025815025668308,-0.0734762358372661
57.5,-0.0266873738678205,-0.0738869147416449,0.80462879601271,-0.546180746307886,0.804628796019283,-0.546180746310498,-0.0265081858663883,-0.0739445468838786
58,-0.0273879405298548,-0.0743465074106909,0.801714354649612,-0.550161532891643,0.801714354656151,-0.550161532894282,-0.0272064962404275,-0.0744062705741052
58.5,-0.0280935864835352,-0.0747994247686173,0.798780681171513,-0.554126086811119,0.798780681178014,-0.554126086813786,-0.0279098858564795,-0.0748613535943358
59,-0.0288042398398545,-0.0752456139985127,0.795827864054244,-0.558074315663163,0.795827864060703,-0.558074315665858,-0.028618283373728,-0.0753097433312849
59.5,-0.0295198282817037,-0.0756850230021745,0.792855992579896,-0.562006127465266,0.792855992586307,-0.562006127467988,-0.0293316170370134,-0.0757513878755185
60,-0.0302402790577301,-0.0761176004052178,0.789865156825609,-0.56592143067571,0.789865156831969,-0.565921430678461,-0.030049814670025,-0.0761862360258035
60.5,-0.0309655189768943,-0.0765432955628995,0.786855447652079,-0.569820134212913,0.786855447658385,-0.569820134215692,-0.0307728036691654,-0.0766142372942139
61,-0.031695474403746,-0.0769620585666273,0.783826956691791,-0.573702147474004,0.783826956698038,-0.573702147476809,-0.0315005109980986,-0.0770353419119505
61.5,-0.0324300712544171,-0.077373840251088,0.780779776337009,-0.577567380352627,0.780779776343192,-0.57756738035546,-0.0322328631829872,-0.077449500835812
62,-0.0331692349933451,-0.0777785922019472,0.777713999727564,-0.58141574325603,0.777713999733681,-0.581415743258888,-0.0329697863084282,-0.0778566657552786
