"Freq [GHz]","re(St(P1,P1)) []","im(St(P1,P1)) []","re(St(P1,P2)) []","im(St(P1,P2)) []","re(St(P2,P1)) []","im(St(P2,P1)) []","re(St(P2,P2)) []","im(St(P2,P2)) []"
0,0.00449882330491391,0,0.995517266361276,0,0.995517268558615,0,0.00449882816201352,0
0.5,0.00506085285362445,-0.000780798733657662,0.99487713481065,-0.00720602138743587,0.994877134888107,-0.0072060213894467,0.00506113210440162,-0.000782087149094224
1,0.0055272579950234,-0.00226397853889182,0.99420925239346,-0.0137001806057597,0.994209252350494,-0.0137001802859764,0.00552788177343899,-0.00226695553375578
1.5,0.00569943923625438,-0.00395366177773226,0.993620624837936,-0.0202586961728279,0.993620624947937,-0.0202586958699484,0.0057005742277223,-0.00395833095366172
2,0.00573083646104244,-0.0055903200000742,0.992992177776953,-0.0266316185821367,0.992992177970846,-0.0266316183540845,0.00573219676335945,-0.00559693266209038
2.5,0.00569835556695875,-0.0071860121423537,0.992371916554299,-0.0328763899216806,0.992371916769493,-0.0328763897740494,0.0056997653897044,-0.00719460637910174
3,0.00562797843339347,-0.00875417423890923,0.991768431063515,-0.0390418028006305,0.991768431261544,-0.0390418027163193,0.005629332812223,-0.00876474899343194
3.5,0.00553002051254836,-0.0103027898711936,0.991172974936045,-0.0451592122184277,0.991172975098685,-0.0451592121766051,0.00553124833660679,-0.0103153405337597
4,0.00540921939977901,-0.0118363381611832,0.990572258425932,-0.0512458958445059,0.990572258547374,-0.0512458958279662,0.00541026600715577,-0.0118508636001273
4.5,0.00526804279787241,-0.0133573190019192,0.989953675956377,-0.0573101967239982,0.989953676037335,-0.0573101967205591,0.00526886186851794,-0.0133738224511024
5,0.00510793298063383,-0.0148671035013965,0.989306793431772,-0.0633553699465814,0.989306793476049,-0.0633553699484164,0.00510848253173668,-0.0148855921537923
5.5,0.00492983121618784,-0.0163663971558439,0.988623397622723,-0.0693819552687547,0.988623397635405,-0.0693819552712771,0.00493007148703883,-0.0163868815783221
6,0.00473441990420342,-0.0178554992600723,0.987897125511351,-0.0753891280156562,0.987897125497924,-0.0753891280165089,0.00473431216595865,-0.01787799287378
6.5,0.00452224291938874,-0.019334453906473,0.987123049297575,-0.0813754385961776,0.987123049263531,-0.0813754385944714,0.00452174876574318,-0.019358972565664
7,0.00429376908275425,-0.0208031413657652,0.986297328713371,-0.0873392069733168,0.986297328664045,-0.0873392069690828,0.00429284998518842,-0.0208297030200439
7.5,0.00404942726269875,-0.0222613354381256,0.985416947155776,-0.0932787270460027,0.985416947096284,-0.0932787270398014,0.00404804427920724,-0.0222899598571162
8,0.00378962650955161,-0.0237087406642571,0.984479519398527,-0.0991923673332238,0.984479519333757,-0.0991923673258919,0.00378774008706662,-0.0237394492070475
8.5,0.00351476790647365,-0.0251450172077128,0.983483153508764,-0.105078615418592,0.983483153443379,-0.105078615411069,0.0035123377434213,-0.025177832624089
9,0.00322525164050991,-0.0265697979528445,0.98242635172325,-0.11093609218139,0.982426351661691,-0.110936092174595,0.00322223658995491,-0.0266047442071127
9.5,0.00292148121313629,-0.0279827005455546,0.981307938640611,-0.116763550146307,0.981307938587108,-0.116763550141067,0.00291783921475453,-0.0280198026566554
10,0.0026038658831366,-0.0293833360608531,0.980127008351663,-0.122559863890892,0.980127008310234,-0.122559863887895,0.00259955391667233,-0.029422619954425
10.5,0.00228855064478956,-0.030831067981218,0.979010775264888,-0.128381839817983,0.979010775223422,-0.128381839813416,0.00228399946120189,-0.0308724358578276
11,0.00195803063049932,-0.0322756570255542,0.977864964754671,-0.134178242568277,0.977864964713326,-0.134178242562167,0.00195322775760362,-0.032319127801979
11.5,0.00161233174075104,-0.0337169520922593,0.976690499882904,-0.139950266265594,0.976690499841829,-0.139950266257983,0.00160726457285076,-0.0337625459467619
12,0.00125148124940255,-0.0351548018790782,0.975488124205465,-0.145699071621513,0.975488124164796,-0.145699071612458,0.00124613703529175,-0.0352025403124356
12.5,0.000875507829411315,-0.0365890548738701,0.97425842138568,-0.151425770896092,0.974258421345538,-0.151425770885662,0.000869873659071485,-0.0366389607759166
13,0.000484441580422407,-0.038019559345233,0.973001834443067,-0.157131416730402,0.97300183440356,-0.157131416718673,0.000478504370198113,-0.038071657067432
13.5,7.83140583714426E-005,-0.0394461633330487,0.971718684181274,-0.162816994319607,0.971718684142498,-0.16281699430666,7.20605343915715E-005,-0.0395004787676334
14,-0.000342841692733076,-0.0408687146388811,0.970409186480183,-0.168483416406073,0.970409186442219,-0.168483416391996,-0.000349425013173005,-0.0409252753051179
14.5,-0.000778991106694563,-0.0422870608162129,0.969073468253911,-0.174131520603011,0.969073468216828,-0.174131520587893,-0.000785917936097044,-0.0423458959544898
15,-0.00123009805844705,-0.0437010491604886,0.967711581969855,-0.179762068602483,0.967711581933712,-0.179762068586415,-0.00123738236279902,-0.0437621898349292
15.5,-0.00169612482460318,-0.0451105266989633,0.966323518696077,-0.185375746871744,0.966323518660919,-0.185375746854817,-0.0017037808502087,-0.0451740059093781
16,-0.00217703204095179,-0.0465153401802652,0.964909219698032,-0.190973168493791,0.964909219663898,-0.190973168476095,-0.00218507434489768,-0.046581192984346
16.5,-0.00267277865662197,-0.0479153360637063,0.963468586643846,-0.196554875859195,0.963468586610762,-0.196554875840816,-0.00268122214145505,-0.0479835997104408
17,-0.00318332188457901,-0.0493103605082772,0.962001490502823,-0.202121343964104,0.962001490470808,-0.202121343945126,-0.00319218183784231,-0.0493810745837044
17.5,-0.00370861714805137,-0.0507002593612702,0.960507779237416,-0.207672984112967,0.960507779206482,-0.207672984093474,-0.00371790928745486,-0.0507734659478074
18,-0.00424861802246779,-0.0520848781465526,0.958987284396675,-0.213210147863274,0.958987284366829,-0.213210147843344,-0.00425835854758205,-0.052160621997245
18.5,-0.0048032761723989,-0.0534640620523876,0.957439826721265,-0.218733131083113,0.957439826692504,-0.218733131062822,-0.00481348182390123,-0.0535423907816353
19,-0.00537254128292841,-0.0548376559188464,0.955865220868077,-0.224242178021186,0.955865220840397,-0.224242178000605,-0.00538322941061253,-0.054918620211279
19.5,-0.00595636098479496,-0.056205504224712,0.954263279357632,-0.229737485312872,0.954263279331022,-0.229737485292065,-0.00596754962575285,-0.0562891580641498
20,-0.00655468077256732,-0.0575674510739352,0.952633815840716,-0.235219205865998,0.952633815815163,-0.235219205845031,-0.00656638874117982,-0.0576538519945293
20.5,-0.00716744391495344,-0.0589233401815656,0.950976647773052,-0.240687452586149,0.950976647748538,-0.240687452565079,-0.00717969090662757,-0.0590125495435161
21,-0.0077945913562833,-0.0602730148592179,0.949291598578547,-0.246142301914505,0.949291598555052,-0.246142301893387,-0.0078073980671825,-0.0603650981517201
21.5,-0.00843606160797139,-0.0616163180000719,0.947578499373494,-0.251583797161533,0.947578499350995,-0.251583797140419,-0.00844944987340512,-0.0617113451744777
22,-0.00909179062865589,-0.062953092063506,0.945837190316052,-0.257011951628031,0.945837190294526,-0.257011951606967,-0.00910578358324227,-0.0630511379000356
22.5,-0.00976171169144324,-0.0642831790594154,0.944067521637814,-0.262426751511154,0.944067521617235,-0.262426751490185,-0.00977633395473904,-0.0643843235711778
23,-0.0104457552364685,-0.0656064205324145,0.942269354407187,-0.267828158597821,0.942269354387527,-0.267828158576984,-0.0104610331284212,-0.0657107494109419
23.5,-0.0111438487066713,-0.0669226575461201,0.940442561067932,-0.273216112751266,0.940442561049163,-0.273216112730599,-0.0111598104980607,-0.0670302626531312
24,-0.0118559163643501,-0.0682317306678581,0.938587025790369,-0.27859053419895,0.938587025772462,-0.278590534178487,-0.0118725925683446,-0.0683427105785626
24.5,-0.0125818790856207,-0.0695334799541949,0.936702644667581,-0.283951325631633,0.936702644650509,-0.283951325611404,-0.0125993027977526,-0.0696479405580792
25,-0.0133216541294385,-0.0708277449379344,0.934789325784322,-0.289298374124477,0.934789325768054,-0.289298374104511,-0.0133398614247123,-0.070945800103718
25.5,-0.014075154877249,-0.0721143646173661,0.932846989182286,-0.294631552891515,0.932846989166793,-0.294631552871833,-0.0140941852747858,-0.0722361369296003
26,-0.0148422905386022,-0.0733931774488257,0.930875566741866,-0.299950722884991,0.930875566727118,-0.299950722865619,-0.0148621875463323,-0.0735187990245234
26.5,-0.0156229658172968,-0.0746640213440644,0.928875001997385,-0.305255734251044,0.928875001983354,-0.305255734231999,-0.0156437775717149,-0.0747936347387019
27,-0.0164170805315286,-0.0759267336742437,0.92684524990019,-0.310546427652744,0.926845249886846,-0.310546427634046,-0.0164388605506327,-0.0760604928875794
27.5,-0.0172245291803957,-0.077181151283169,0.92478627654158,-0.315822635471272,0.924786276528894,-0.315822635452935,-0.0172473372517179,-0.0773192228764226
28,-0.0180452004475881,-0.0784271105129932,0.922698058845679,-0.321084182895241,0.922698058833625,-0.321084182877279,-0.0180691036778886,-0.0785696748501594
28.5,-0.0188789766313852,-0.0796644472468278,0.920580584240568,-0.326330888907812,0.920580584229117,-0.326330888890236,-0.0189040506903249,-0.0798116998740848
29,-0.0197257329879504,-0.0808929969739993,0.918433850314581,-0.331562567180469,0.918433850303706,-0.33156256716329,-0.0197520635851628,-0.0810451501523624
29.5,-0.020585336972323,-0.0821125948855781,0.916257864463461,-0.336779026881773,0.916257864453138,-0.336779026864999,-0.0206130216161353,-0.0822698792929539
30,-0.0214576473584421,-0.0833230760102184,0.914052643532989,-0.341980073408759,0.914052643523189,-0.341980073392397,-0.0214867974554525,-0.083485742629775
30.5,-0.0223425132157257,-0.0845242754036197,0.911818213460819,-0.347165509048074,0.91181821345152,-0.347165509032129,-0.0223732565841428,-0.0846925976155657
31,-0.0232397727151818,-0.0857160284092378,0.909554608920564,-0.352335133573331,0.909554608911741,-0.352335133557809,-0.023272256601966,-0.0858903043024619
31.5,-0.0241492517324766,-0.0868981710136869,0.907261872970477,-0.357488744784642,0.907261872962107,-0.357488744769544,-0.0241836464458022,-0.0870787259316117
32,-0.0250707622087052,-0.0880705403280879,0.904940056708605,-0.362626138995754,0.904940056700665,-0.362626138981082,-0.0251072655043085,-0.0882577296588687
32.5,-0.0260041002215423,-0.0892329752371626,0.902589218935841,-0.367747111473749,0.902589218928309,-0.367747111459505,-0.026042942615557,-0.0894271874507588
33,-0.0269490437098344,-0.0903853172722031,0.900209425827933,-0.372851456835807,0.900209425820788,-0.372851456821991,-0.026990494933695,-0.0905869771942249
33.5,-0.0279053497832638,-0.0915274117835361,0.897800750617233,-0.377938969407122,0.897800750610455,-0.377938969393733,-0.0279497266505526,-0.0917369840755742
34,-0.0288727515354938,-0.092659109514829,0.895363273284681,-0.383009443543689,0.89536327327825,-0.383009443530725,-0.0289204275591174,-0.092877102299461
34.5,-0.0298509542640603,-0.0937802687182641,0.892897080262377,-0.388062673923312,0.892897080256274,-0.388062673910772,-0.0299023714486047,-0.0940072372385476
35,-0.0308396309839445,-0.094890758000338,0.890402264146878,-0.393098455807886,0.890402264141085,-0.393098455795766,-0.0308953143266725,-0.0951273081302002
35.5,-0.0318384171051815,-0.0959904601583297,0.887878923423257,-0.398116585279712,0.887878923417757,-0.398116585268007,-0.0318989924748637,-0.0962372514695855
36,-0.0328469041308431,-0.097079277365254,0.885327162199847,-0.403116859454304,0.885327162194624,-0.403116859443012,-0.0329131203614289,-0.0973370252910779
36.5,-0.0338646322250767,-0.0981571381976534,0.882747089953516,-0.408099076671971,0.882747089948553,-0.408099076661087,-0.033937388465385,-0.0984266145842574
37,-0.0348910815111381,-0.0992240071913419,0.880138821285234,-0.41306303667018,0.880138821280517,-0.413063036659699,-0.034971461113449,-0.0995060381598634
37.5,-0.0359256620033049,-0.100279897876907,0.877502475685685,-0.418008540738525,0.877502475681199,-0.418008540728442,-0.0360149745069613,-0.10057535736731
38,-0.0369677021845533,-0.101324890618636,0.874838177310601,-0.422935391857982,0.874838177306331,-0.422935391848291,-0.0370675352336907,-0.10163468717108
38.5,-0.0380164364669314,-0.102359157095485,0.87214605476548,-0.427843394825907,0.872146054761414,-0.427843394816601,-0.0381287197413713,-0.102684210217854
39,-0.0390709922061785,-0.103382993966644,0.869426240899362,-0.432732356368138,0.869426240895487,-0.432732356359211,-0.0391980755282013,-0.10372419466398
39.5,-0.0401303777453974,-0.104396869203696,0.866678872607278,-0.437602085239419,0.866678872603583,-0.437602085230864,-0.0402751252271923,-0.104755016666508
40,-0.0411934744045691,-0.105401485771292,0.863904090641023,-0.442452392313217,0.863904090637496,-0.442452392305027,-0.0413593753921686,-0.105777188530944
40.5,-0.0422590378627787,-0.106397868745036,0.861102039427883,-0.447283090661936,0.861102039424513,-0.447283090654103,-0.0424503327216913,-0.106791393473189
41,-0.0433257187212716,-0.107387483303223,0.858272866896957,-0.452093995628406,0.858272866893735,-0.452093995620925,-0.0435475317911531,-0.107798527634408
41.5,-0.0443921192853513,-0.108372391550388,0.855416724312723,-0.456884924889459,0.855416724309639,-0.456884924882322,-0.0446505802100375,-0.108799749097377
42,-0.0454569152453544,-0.109355453964123,0.852533766115497,-0.461655698512298,0.852533766112541,-0.461655698505495,-0.0457592295258309,-0.109796531690393
42.5,-0.0465190884620253,-0.110340572341554,0.849624149768456,-0.466406139004321,0.84962414976562,-0.466406138997846,-0.0468734829892111,-0.110790717512352
43,-0.0475783404000612,-0.111332947420515,0.846688035610898,-0.471136071356998,0.846688035608174,-0.471136071350844,-0.0479937537698225,-0.111784555154047
43.5,-0.0486357787554265,-0.112339271896491,0.843725586717427,-0.475845323084308,0.843725586714808,-0.475845323078466,-0.0491210875105534,-0.11278069899988
44,-0.0496949698275765,-0.113367679391671,0.84073696876277,-0.480533724256235,0.84073696876025,-0.480533724250697,-0.0502574572470598,-0.113782127566876
44.5,-0.050763368979834,-0.114427111891329,0.837722349891936,-0.485201107527746,0.837722349889506,-0.485201107522504,-0.0514061194905343,-0.114791916615585
45,-0.0518538754820879,-0.115525598858232,0.834681900595442,-0.489847308163642,0.834681900593097,-0.489847308158689,-0.0525719772890481,-0.115812783299917
45.5,-0.0529856992637179,-0.116666963921366,0.831615793589358,-0.494472164059652,0.831615793587092,-0.49447216405498,-0.0537618204225075,-0.116846321793662
46,-0.0541829982013545,-0.117846124430165,0.828524203699916,-0.499075515760048,0.828524203697726,-0.499075515755648,-0.0549842122407236,-0.117891917942097
46.5,-0.0554696265760911,-0.119044796250715,0.825407307752456,-0.503657206472118,0.825407307750335,-0.503657206467982,-0.0562487196760318,-0.118945506445735
47,-0.0568602124707578,-0.120231296638183,0.822265284464475,-0.508217082077728,0.822265284462419,-0.508217082073849,-0.0575642570142763,-0.119998617680881
47.5,-0.0583517254498122,-0.121367546053385,0.819098314342596,-0.512754991142218,0.819098314340601,-0.512754991138588,-0.0589366719366387,-0.121038410004489
48,-0.0599219225202387,-0.122421363224824,0.815906579583231,-0.517270784920841,0.815906579581294,-0.517270784917452,-0.0603663136949625,-0.122049285996209
48.5,-0.0615370274788135,-0.123376689122752,0.812690263976776,-0.521764317362952,0.812690263974894,-0.521764317359797,-0.0618467887908286,-0.123016004174938
49,-0.063163587723023,-0.124235503973833,0.809449552815151,-0.526235445114101,0.809449552813319,-0.526235445111171,-0.0633658375844592,-0.123927195677452
49.5,-0.0647770980691613,-0.125012160828335,0.80618463280251,-0.530684027516211,0.806184632800728,-0.5306840275135,-0.0649081644129328,-0.124777712657588
50,-0.0663643474147518,-0.125725531933715,0.802895691969001,-0.535109926605976,0.802895691967264,-0.535109926603476,-0.0664589292501304,-0.125568846014813
50.5,-0.067921303003249,-0.126393275763468,0.799582919587381,-0.539513007111604,0.799582919585689,-0.539513007109307,-0.0680064112028861,-0.126306683965281
51,-0.0694496113368908,-0.127029256694325,0.796246506092392,-0.543893136448038,0.796246506090743,-0.543893136445938,-0.0695431126061351,-0.126999707521025
51.5,-0.070953619629447,-0.127643194752449,0.792886643002748,-0.548250184710757,0.79288664300114,-0.548250184708846,-0.0710654977443969,-0.1276566731672
52,-0.0724384590263001,-0.128241344501616,0.789503522845602,-0.552584024668245,0.789503522844034,-0.552584024666517,-0.07257300978399,-0.128285280895415
52.5,-0.0739090349823398,-0.128827420643336,0.786097339083411,-0.556894531753247,0.786097339081882,-0.556894531751695,-0.0740669550287111,-0.128891614823309
53,-0.0753696033181844,-0.129403418667848,0.782668286043056,-0.561181584052863,0.782668286041566,-0.56118158405148,-0.0755495812026157,-0.129480108667716
53.5,-0.0768236652680426,-0.129970232947952,0.779216558847147,-0.565445062297571,0.779216558845695,-0.565445062296351,-0.0770234446805068,-0.130053775622872
54,-0.0782740117054878,-0.130528084186001,0.775742353347392,-0.569684849849248,0.775742353345977,-0.569684849848183,-0.0784910356321167,-0.130614521361629
54.5,-0.0797228232076317,-0.131076800163955,0.772245866059966,-0.573900832688247,0.772245866058589,-0.573900832687333,-0.0799545891721039,-0.131163443154039
55,-0.081171780261571,-0.131615993780775,0.768727294102781,-0.578092899399595,0.768727294101442,-0.578092899398825,-0.0814160136439385,-0.131701076451034
55.5,-0.0826221640688221,-0.132145172847045,0.765186835134579,-0.582260941158354,0.765186835133278,-0.582260941157722,-0.0828768847690605,-0.13222758210163
56,-0.0840749414920602,-0.132663805974092,0.761624687295788,-0.586404851714202,0.761624687294526,-0.586404851713703,-0.0843384723535309,-0.132742881245182
56.5,-0.0855308336499735,-0.133171360825532,0.758041049151061,-0.590524527375278,0.758041049149838,-0.590524527374905,-0.0858017799029127,-0.133246749005444
57,-0.0869903700211593,-0.133667325267067,0.754436119633432,-0.594619866991331,0.75443611963225,-0.59461986699108,-0.0872675865267377,-0.13373887774973
57.5,-0.0884539305724154,-0.134151218106237,0.750810097990044,-0.598690771936212,0.750810097988903,-0.598690771936077,-0.0887364859766117,-0.134218918750038
58,-0.0899217783498127,-0.134622593616854,0.747163183729365,-0.60273714608974,0.747163183728266,-0.602737146089717,-0.0902089207422957,-0.134686508931928
58.5,-0.0913940846293919,-0.135081042451075,0.743495576569873,-0.606758895818989,0.743495576568817,-0.606758895819073,-0.0916852107488897,-0.135141287534645
59,-0.0928709483288989,-0.135526190538726,0.739807476390132,-0.610755929959006,0.739807476389121,-0.61075592995919,-0.0931655769734517,-0.135582906059298
59.5,-0.0943524110182838,-0.135957696945718,0.736099083180222,-0.614728159793,0.736099083179258,-0.614728159793282,-0.0946501606131567,-0.136011033821665
60,-0.0958384685622075,-0.136375251272844,0.732370596994486,-0.61867549903204,0.73237059699357,-0.618675499032415,-0.0961390385129083,-0.136425360675801
60.5,-0.097329080184856,-0.136778570934477,0.728622217905537,-0.622597863794261,0.72862221790467,-0.622597863794724,-0.0976322355233792,-0.136825597955286
61,-0.0988241755585272,-0.137167398508095,0.724854145959499,-0.626495172583618,0.724854145958683,-0.626495172584166,-0.0991297343778245,-0.13721147832467
61.5,-0.100323660372973,-0.137541499255004,0.721066581132445,-0.630367346268215,0.721066581131681,-0.630367346268844,-0.100631483581868,-0.137582754994625
62,-0.10182742073279,-0.137900658858223,0.717259723287981,-0.634214308058214,0.717259723287273,-0.63421430805892,-0.102137403720794,-0.137939200594131
62.5,-0.103335326647273,-0.138244681391532,0.713433772135972,-0.638035983483352,0.713433772135319,-0.638035983484132,-0.103647392510288,-0.138280605886517
