"Freq [GHz]","re(St(P1,P1)) []","im(St(P1,P1)) []","re(St(P1,P2)) []","im(St(P1,P2)) []","re(St(P2,P1)) []","im(St(P2,P1)) []","re(St(P2,P2)) []","im(St(P2,P2)) []"
0,0.00318945560394468,0,0.996822305110982,0,0.996822302768123,0,0.00318945524895753,0
0.5,0.00354145211947099,0.000850588279647013,0.996406346288651,-0.00456784620800477,0.996406346235922,-0.00456784644399733,0.00354142037701166,0.000850674673387175
1,0.00387642315340386,0.00124147785691875,0.995918182154782,-0.00865510811887305,0.995918182075254,-0.00865510810887216,0.00387635654976393,0.00124168135700131
1.5,0.00376676527256414,0.00149453417887457,0.995602339186403,-0.0128332150080688,0.995602339124513,-0.0128332149958723,0.00376662471343536,0.0014949191111171
2,0.00372350681503697,0.00179972645079474,0.995216544143204,-0.0168771923650333,0.995216544099097,-0.0168771923526023,0.00372331834569373,0.00180024541893786
2.5,0.00370299462085022,0.00213622096561394,0.994792718852445,-0.0207930704602681,0.9947927188235,-0.0207930704489492,0.00370276971998607,0.00213686431061433
3,0.00369212170933686,0.00249319325622466,0.994353324450818,-0.0246009727764118,0.994353324433301,-0.0246009727667982,0.00369186364338958,0.00249395944125652
3.5,0.00368595137895511,0.00286556749774824,0.993911147150293,-0.028325342559878,0.993911147140552,-0.0283253425520016,0.00368565958096134,0.00286645717272549
4,0.00368226804909622,0.00325106600969427,0.993471570562495,-0.0319889237991688,0.993471570557515,-0.0319889237927438,0.00368193996870447,0.00325208055162207
4.5,0.0036799177084661,0.00364885604118292,0.993035269824464,-0.0356102349189911,0.993035269821997,-0.0356102349135679,0.0036795496009292,0.00364999714019199
5,0.00367820669516838,0.00405892077175629,0.992600368111783,-0.0392031923935736,0.99260036811028,-0.0392031923886886,0.00367779396592116,0.00406019030388194
5.5,0.00367665207653811,0.00448175197825051,0.992163864826674,-0.0427777093815713,0.992163864825118,-0.0427777093767894,0.00367618942417569,0.00448315196492821
6,0.00367486524062666,0.00491819396987658,0.991722467591795,-0.0463405694295691,0.991722467589564,-0.04634056942451,0.00367434669900946,0.00491972656375061
6.5,0.00367249112980583,0.00536936376728647,0.991273023459071,-0.0498962519878461,0.991273023455817,-0.0498962519822133,0.0036719100534317,0.00537103124419147
7,0.00366917227092145,0.00583661261433477,0.990812710007982,-0.0534476010017038,0.990812710003534,-0.0534476009952467,0.00366852128361139,0.00583841736377266
7.5,0.00366452407148921,0.00632151175647611,0.990339094587525,-0.0569963266290152,0.990339094581837,-0.056996326621551,0.00366379498732627,0.00632345626695052
8,0.00365811484279099,0.00682585385963908,0.989850127271468,-0.0605433660152022,0.989850127264559,-0.0605433660065753,0.00365729856256858,0.00682794069644466
8.5,0.00364944700651482,0.00735166569122914,0.989344104485685,-0.0640891362650979,0.989344104477623,-0.0640891362552063,0.00364853338988114,0.00735389746412096
9,0.00363793724856365,0.00790122997142717,0.988819622891062,-0.0676337091189838,0.988819622881938,-0.0676337091077421,0.00363691495992324,0.00790360928929967
9.5,0.00362289390592191,0.00847711563842957,0.988275533189038,-0.0711769303977485,0.988275533178957,-0.0711769303850955,0.00362175023061306,0.00847964504692644
10,0.00360348998187038,0.00908221663840436,0.987710898122099,-0.0747185011386069,0.987710898111171,-0.0747185011245053,0.00360221060769028,0.00908489853522187
10.5,0.00365948965816287,0.00953877493111044,0.987177106389047,-0.0782217714993676,0.987177106378918,-0.0782217714858602,0.00365841214036389,0.00954132752860115
11,0.00371812982569819,0.00999591493807195,0.986638494968974,-0.0817095273584414,0.986638494959553,-0.0817095273455477,0.00371724728372036,0.00999829533367347
11.5,0.00377941710441437,0.0104537214419995,0.986095515714741,-0.0851830790531913,0.986095515705942,-0.0851830790409212,0.00377871881149483,0.0104558839660767
12,0.00384336461891183,0.0109122881475709,0.985548471734024,-0.088643664604624,0.985548471725767,-0.0886436645929791,0.00384283542854941,0.010914184413636
12.5,0.00390999343419912,0.0113717181293245,0.984997539499313,-0.0920924420213431,0.984997539491525,-0.0920924420103182,0.00390961313956018,0.0113732971446083
13,0.00397933421149223,0.0118321242002146,0.984442789204765,-0.0955304850735956,0.984442789197377,-0.09553048506318,0.00397907683501068,0.0118333325534152
13.5,0.00405142910835606,0.0122936291643745,0.983884203165051,-0.0989587818281885,0.983884203158003,-0.0989587818183679,0.00405126212061059,0.0122944113105232
14,0.00412633394676078,0.0127563659081469,0.983321692184506,-0.102378235318255,0.983321692177744,-0.102378235309007,0.0041262174163819,0.0127566645741783
14.5,0.00420412067025557,0.0132204772719557,0.98275510992164,-0.105789665810903,0.982755109915115,-0.105789665802209,0.00420400635041557,0.013220234010265
15,0.00428488010675521,0.0136861156324373,0.982184265340615,-0.109193814223191,0.982184265334283,-0.109193814215025,0.00428471046896279,0.0136852715536988
15.5,0.00436872504547968,0.0141534421092397,0.981608933383766,-0.11259134631857,0.981608933377589,-0.112591346310908,0.00436843227833834,0.0141519388294009
16,0.00445579362437971,0.0146226252942219,0.981028864023129,-0.115982857389111,0.981028864017074,-0.115982857381927,0.00445529862395119,0.0146204061338002
16.5,0.00454625300656087,0.015093839383284,0.98044378985913,-0.119368877192561,0.980443789853167,-0.119368877185829,0.00454546439636913,0.015090850859139
17,0.00464030329934294,0.015567261573334,0.979853432434915,-0.12274987496734,0.979853432429019,-0.122749874961034,0.00463911653218851,0.0155634552231398
17.5,0.00473818163615027,0.0160430685709416,0.979257507428562,-0.126126264393504,0.979257507422712,-0.126126264387601,0.00473647824680884,0.0160384031477356
18,0.0048401662977345,0.0165214320471185,0.97865572887487,-0.129498408404423,0.978655728869047,-0.129498408398895,0.00483781339529499,0.0165158761139934
18.5,0.00494658069422149,0.0170025128681703,0.978047812555567,-0.132866623783137,0.978047812549755,-0.132866623777961,0.00494343080465989,0.0169960478098581
19,0.00505779696244144,0.0174864539399944,0.977433478682787,-0.136231185500631,0.977433478676975,-0.136231185495785,0.00505368835489975,0.0174790773868452
19.5,0.00517423885474574,0.0179733715286718,0.976812453986596,-0.139592330770974,0.976812453980772,-0.139592330766434,0.0051689965068771,0.0179651011572792
20,0.00529638350868006,0.0184633449706562,0.976184473303644,-0.142950262811954,0.9761844732978,-0.142950262807697,0.00528982088416821,0.0184542226023647
20.5,0.00542476159720889,0.0189564047691619,0.975549280751295,-0.146305154309808,0.975549280745424,-0.146305154305816,0.00541668341769924,0.0189465006317078
21,0.00555995527617806,0.0194525191970993,0.974906630559816,-0.149657150593983,0.974906630553914,-0.149657150590238,0.00555016146446138,0.0194419361457876
21.5,0.00570259328390121,0.0199515796969805,0.974256287624693,-0.153006372532875,0.974256287618754,-0.153006372529355,0.00569088422810946,0.0199404571124182
22,0.00585334252665276,0.0204533855864697,0.973598027831731,-0.15635291916483,0.973598027825754,-0.156352919161519,0.00583952575876256,0.0204419025814668
22.5,0.00601289552794662,0.0209576288391591,0.97293163819942,-0.159696870080836,0.972931638193404,-0.159696870077717,0.00599679381682133,0.0209460063276339
23,0.00618195325543858,0.0214638799978695,0.972256916875852,-0.163038287576249,0.972256916869796,-0.163038287573309,0.00616341398052517,0.0214523811178182
23.5,0.00636120309224408,0.0219715765618735,0.971573673021323,-0.16637721858933,0.971573673015226,-0.166377218586553,0.0063401085896089,0.0219605049215947
24,0.00655129210587083,0.022480015424549,0.97088172660246,-0.169713696444167,0.970881726596325,-0.16971369644154,0.00652757047255007,0.0224697106778717
24.5,0.00675279628668898,0.0229883510640452,0.970180908119227,-0.173047742414937,0.970180908113054,-0.173047742412447,0.00672643191251759,0.0229791814370182
25,0.0069661870508633,0.0234956011388725,0.969471058282298,-0.176379367127735,0.969471058276091,-0.17637936712537,0.00693722995119905,0.0234879527413838
25.5,0.00719179696738939,0.024000660850497,0.968752027655137,-0.179708571815188,0.968752027648897,-0.179708571812937,0.00716036985801302,0.0239949239122219
26,0.00742978727701599,0.02450232686604,0.968023676272355,-0.183035349438055,0.968023676266085,-0.183035349435909,0.0073960893107905,0.0244988794171959
26.5,0.00768012019730024,0.0249993307501817,0.9672858732437,-0.186359685686946,0.967285873237405,-0.186359685684894,0.00764442641150759,0.0249985206799876
27,0.00794253912197285,0.0254903808010489,0.966538496351146,-0.189681559876192,0.966538496344828,-0.189681559874226,0.007905194946835,0.025492507604151
27.5,0.00821655951979094,0.0259742100510327,0.965781431644962,-0.193000945740899,0.965781431638626,-0.19300094573901,0.00817797016138344,0.0259795078358023
28,0.00850147257604067,0.0264496271649026,0.965014573043398,-0.196317812147195,0.965014573037047,-0.196317812145376,0.00846208766027579,0.0264582505734352
28.5,0.00879636244745585,0.0269155662483409,0.964237821939518,-0.199632123724736,0.964237821933156,-0.199632123722979,0.00875665690944466,0.026927580778406
29,0.00910013656595621,0.0273711313455887,0.963451086817881,-0.2029438414297,0.963451086811512,-0.202943841428001,0.00906058928370135,0.0273865091664822
29.5,0.00941156695376683,0.0278156317503919,0.962654282883028,-0.206252923045626,0.962654282876657,-0.206252923043978,0.00937263895423351,0.0278342535174452
30,0.00972933925817943,0.0282486051601911,0.961847331701197,-0.209559323628772,0.961847331694829,-0.20955932362717,0.00969145339699484,0.0282702676522373
30.5,0.0100521054022835,0.0286698270301646,0.961030160856175,-0.212862995903937,0.961030160849813,-0.212862995902373,0.0100156292180759,0.0286942557805185
31,0.0103785355132531,0.0290793060027315,0.960202703619882,-0.216163890616104,0.960202703613531,-0.216163890614576,0.0103437685247915,0.0291061715811458
31.5,0.0107073651459384,0.029477266738076,0.959364898637935,-0.219461956842691,0.9593648986316,-0.219461956841194,0.0106745312822862,0.0295062030486333
32,0.0110374346618614,0.0298641226223324,0.958516689630245,-0.222757142270663,0.95851668962393,-0.222757142269194,0.0110066799027442,0.0298947455385916
32.5,0.0113677187647987,0.0302404415336606,0.957658025106496,-0.226049393442362,0.957658025100205,-0.226049393440915,0.0113391135241039,0.0302723663737476
33,0.0116973454161692,0.0306069080586933,0.956788858096236,-0.229338655973442,0.956788858089974,-0.229338655972016,0.0116708908009607,0.0306397647457126
33.5,0.0120256044613059,0.0309642853254284,0.955909145893176,-0.232624874745949,0.955909145886947,-0.23262487474454,0.0120012413164581,0.030997730501058
34,0.0123519471549066,0.0313133790723925,0.955018849813265,-0.235907994079269,0.955018849807073,-0.235907994077876,0.0123295667549158,0.0313471048549721
34.5,0.0126759783175549,0.0316550058541889,0.954117934965997,-0.239187957881368,0.954117934959847,-0.239187957879987,0.0126554336588254,0.0316887452971168
35,0.0129974430886826,0.0319899665280101,0.953206370038423,-0.242464709782451,0.953206370032318,-0.24246470978108,0.0129785599197939,0.0320234961050181
35.5,0.0133162102159499,0.0323190254803318,0.952284127091285,-0.24573819325299,0.95228412708523,-0.245738193251629,0.0132987971710078,0.0323521650913454
36,0.013632253611754,0.0326428955024407,0.951351181366701,-0.249008351707805,0.9513511813607,-0.249008351706452,0.013616111042025,0.0326755065659912
36.5,0.0139456335929674,0.0329622278330091,0.950407511106809,-0.252275128597749,0.950407511100866,-0.252275128596401,0.0139305608962104,0.0329942100284129
37,0.0142564788676727,0.0332776066508016,0.949453097382806,-0.255538467490307,0.949453097376925,-0.255538467488964,0.0142422802776162,0.0333088938193347
37.5,0.0145649699926337,0.0335895471968244,0.948487923933826,-0.258798312140366,0.94848792392801,-0.258798312139027,0.0145514589082504,0.0336201028284007
38,0.0148713247286012,0.0338984967009297,0.947511977015087,-0.262054606552202,0.947511977009341,-0.262054606550865,0.0148583267371473,0.0339283093395417
38.5,0.0151757854822477,0.0342048373501722,0.94652524525481,-0.265307295033639,0.946525245249136,-0.265307295032306,0.0151631402684959,0.034233916160507
39,0.0154786088461004,0.0345088906364766,0.945527719519374,-0.268556322243262,0.945527719513777,-0.268556322241931,0.0154661711915163,0.0345372612936008
39.5,0.0157800571264632,0.0348109225374007,0.944519392786257,-0.271801633231391,0.944519392780739,-0.271801633230062,0.0157676971946794,0.0348386235349532
40,0.0160803916747365,0.0351111491000822,0.943500260024257,-0.275043173475554,0.943500260018823,-0.275043173474226,0.0160679947608491,0.035138228520911
40.5,0.0163798677995569,0.0354097421054591,0.9424703180806,-0.278280888911012,0.942470318075252,-0.278280888909687,0.0163673336961368,0.0354362548610891
41,0.0166787310256602,0.0357068345821283,0.94142956557448,-0.281514725956908,0.941429565569222,-0.281514725955584,0.0166659731320024,0.0357328401018246
41.5,0.0169772144718815,0.0360025260152386,0.940378002796666,-0.284744631538487,0.9403780027915,-0.284744631537166,0.0169641587475432,0.0360280863494893
42,0.0172755371382162,0.0362968871557305,0.93931563161479,-0.287970553105843,0.93931563160972,-0.287970553104524,0.0172621209788806,0.0363220654503409
42.5,0.017573902915329,0.0365899643807581,0.938242455383971,-0.291192438649554,0.938242455378999,-0.291192438648237,0.0175600740091773,0.0366148236744328
43,0.0178725001555333,0.0368817835892814,0.937158478862442,-0.294410236713552,0.937158478857571,-0.294410236712239,0.0178582153618607,0.0369063858879137
43.5,0.0181715016697569,0.0371723536400139,0.936063708131879,-0.297623896405529,0.936063708127112,-0.297623896404221,0.0181567259483278,0.0371967592235196
44,0.018471065038777,0.0374616693541072,0.934958150522136,-0.300833367405148,0.934958150517476,-0.300833367403845,0.0184557704480777,0.0374859362756099
44.5,0.0187713331483296,0.0377497141142751,0.933841814540111,-0.3040385999703,0.933841814535559,-0.304038599969002,0.018755497923021,0.0377738978560438
45,0.0190724348761916,0.038036462096884,0.932714709802496,-0.307239544941618,0.932714709798056,-0.307239544940327,0.0190560425882725,0.0380606153521545
45.5,0.0193744858750284,0.0383218801752994,0.931576846972171,-0.310436153745453,0.931576846967845,-0.310436153744169,0.019357524679066,0.0383460527296782
46,0.0196775894078303,0.0386059295323451,0.930428237698009,-0.313628378395456,0.930428237693798,-0.313628378394182,0.0196600513677679,0.0386301682227319
46.5,0.0199818372034057,0.0388885670179953,0.929268894557893,-0.316816171492954,0.9292688945538,-0.316816171491689,0.0199637176965946,0.0389129157507324
47,0.0202873103079608,0.0391697462857723,0.928098831004753,-0.319999486226219,0.92809883100078,-0.319999486224966,0.0202686075009628,0.0391942460990657
47.5,0.0205940799156001,0.0394494187383301,0.926918061315423,-0.323178276368788,0.926918061311571,-0.323178276367546,0.0205747943057309,0.0394741078968228
48,0.0209022081659045,0.039727534309524,0.925726600542165,-0.3263524962769,0.925726600538437,-0.326352496275672,0.0208823421823024,0.0397524484213259
48.5,0.0212117489008318,0.04000404210709,0.924524464466696,-0.329522100886199,0.924524464463093,-0.329522100884986,0.0211913065589431,0.0400292142555871
49,0.0215227483763498,0.0402788909371337,0.923311669556558,-0.332687045707735,0.923311669553082,-0.332687045706538,0.0215017349799624,0.0403043518215767
49.5,0.0218352459265218,0.0405520297287991,0.922088232923709,-0.33584728682338,0.922088232920362,-0.3358472868222,0.0218136678118678,0.0405778078090226
50,0.0221492745795078,0.0408234078750125,0.920854172285192,-0.339002780880713,0.920854172281974,-0.339002780879553,0.022127138896375,0.0408495295167717
50.5,0.0224648616261778,0.0410929755029346,0.919609505925767,-0.342153485087432,0.91960950592268,-0.342153485086293,0.0224421761514341,0.0411194651212243
51,0.0227820291428936,0.0413606836857727,0.918354252662387,-0.345299357205355,0.918354252659433,-0.345299357204238,0.0227588021222799,0.0413875638842138
51.5,0.0231007944705902,0.041626484605868,0.917088431810422,-0.348440355544049,0.9170884318076,-0.348440355542956,0.0230770344850828,0.0416537763108142
52,0.023421170652649,0.0418903316774486,0.915812063151517,-0.351576438954151,0.91581206314883,-0.351576438953083,0.0233968865061041,0.0419180542659041
52.5,0.0237431668342372,0.042152179636153,0.914525166903009,-0.354707566820395,0.914525166900457,-0.354707566819353,0.0237183674594183,0.0421803510569423
53,0.0240667886258769,0.0424119846012938,0.9132277636888,-0.357833699054392,0.913227763686384,-0.35783369905338,0.024041483006323,0.0424406214891933
53.5,0.0243920384339807,0.0426697041158872,0.911919874511615,-0.360954796087208,0.911919874509336,-0.360954796086225,0.0243662355394812,0.0426988218986128
54,0.0247189157610354,0.0429252971686449,0.910601520726571,-0.364070818861726,0.910601520724428,-0.364070818860775,0.0246926244947689,0.0429549101667572
54.5,0.0250474174779811,0.0431787242014401,0.909272724015975,-0.367181728824875,0.90927272401397,-0.367181728823956,0.0250206466336343,0.0432088457213322
55,0.0253775380712202,0.0434299471051751,0.907933506365302,-0.370287487919694,0.907933506363435,-0.370287487918811,0.0253502962986115,0.043460589525375
55.5,0.0257092698665178,0.0436789292064721,0.906583890040271,-0.373388058577287,0.906583890038542,-0.373388058576441,0.0256815656444636,0.0437101040575663
56,0.0260426032319009,0.0439256352472155,0.90522389756498,-0.376483403708668,0.90522389756339,-0.376483403707859,0.02601444484723,0.0439573532857049
56.5,0.0263775267615174,0.0441700313585893,0.903853551701037,-0.379573486696513,0.903853551699585,-0.379573486695745,0.0263489222932806,0.044202302635036
57,0.0267140274422269,0.0444120850309881,0.902472875427632,-0.382658271386855,0.902472875426318,-0.382658271386128,0.0266849847502996,0.0444449189527973
57.5,0.0270520908045825,0.0446517650809244,0.901081891922513,-0.385737722080693,0.901081891921338,-0.385737722080009,0.0270226175219531,0.0446851704701141
58,0.0273917010596864,0.0448890416158441,0.899680624543816,-0.388811803525569,0.89968062454278,-0.38881180352493,0.0273618045878346,0.0449230267621514
58.5,0.0277328412232863,0.0451238859975962,0.898269096812704,-0.391880480907094,0.898269096811805,-0.391880480906501,0.0277025287301392,0.0451584587072493
59,0.0280754932283474,0.0453562708051519,0.896847332396782,-0.394943719840449,0.89684733239602,-0.394943719839904,0.0280447716483705,0.0453914384456272
59.5,0.0284196380272197,0.0455861697970704,0.895415355094253,-0.398001486361855,0.895415355093628,-0.398001486361359,0.0283885140632699,0.0456219393381428
60,0.028765255684412,0.0458135578740706,0.893973188818769,-0.401053746920032,0.89397318881828,-0.401053746919587,0.0287337358110302,0.0458499359254358
60.5,0.0291123254608882,0.046038411042036,0.892520857584961,-0.404100468367648,0.892520857584608,-0.404100468367255,0.0290804159287636,0.0460754038877792
61,0.029460825890714,0.046260706375667,0.891058385494602,-0.407141617952756,0.891058385494384,-0.407141617952417,0.0294285327320831,0.0462983200058237
61.5,0.0298107348507975,0.0464804219829634,0.889585796723389,-0.410177163310245,0.889585796723304,-0.41017716330996,0.0297780638855802,0.0465186621224127
62,0.0301620296243892,0.0466975369706826,0.888103115508303,-0.413207072453278,0.888103115508352,-0.41320707245305,0.0301289864669088,0.0467364091055831
62.5,0.0305146869589626,0.046912031410843,0.88661036613554,-0.416231313764765,0.88661036613572,-0.416231313764594,0.0304812770250854,0.0469515408128128
63,0.0308686831189959,0.0471238863083658,0.885107572928965,-0.41924985598882,0.885107572929275,-0.419249855988708,0.0308349116335987,0.0471640380565967
63.5,0.0312239939341693,0.0473330835698743,0.883594760239091,-0.422262668222258,0.88359476023953,-0.422262668222207,0.0311898659388154,0.0473738825713447
