"Freq [GHz]","re(St(P1,P1)) []","im(St(P1,P1)) []","re(St(P1,P2)) []","im(St(P1,P2)) []","re(St(P2,P1)) []","im(St(P2,P1)) []","re(St(P2,P2)) []","im(St(P2,P2)) []"
0,0.00437570200381288,0,0.995639124332229,0,0.995639107131865,0,0.00437568692319701,0
0.5,0.00496337029106542,-0.000969919383088325,0.995020316831841,-0.00512062484866505,0.995020317368251,-0.00512062698761895,0.00496327838971666,-0.000969780464917136
1,0.00549117779374342,-0.00266792729624754,0.99443071084993,-0.00951936055716018,0.994430710883556,-0.00951936060539538,0.00549086560172185,-0.00266756390052336
1.5,0.0058211854951189,-0.00452558462765396,0.994002134198819,-0.0137545402474153,0.994002134214679,-0.0137545402882786,0.00582057497464916,-0.00452492285056394
2,0.00600103311998268,-0.00641964566078812,0.993685931140824,-0.0179498780861849,0.993685931147571,-0.0179498781192464,0.00600009016316605,-0.00641861104688957
2.5,0.00610135522745381,-0.00830674462124037,0.993412024617314,-0.0221496539679187,0.99341202461904,-0.022149653994429,0.00610005238539912,-0.00830528509814243
3,0.00615718324150194,-0.0101840221541387,0.993145282209417,-0.0263568659244164,0.993145282208234,-0.026356865945484,0.00615549529847215,-0.0101820929828911
3.5,0.0061843294793551,-0.0120554198087852,0.992869825122023,-0.0305673632373384,0.992869825119207,-0.0305673632538159,0.00618223561210662,-0.0120529800213056
4,0.00618989359182009,-0.013924714700309,0.992578583936226,-0.0347770602474569,0.992578583932618,-0.0347770602600619,0.00618737804094316,-0.0139217274429271
4.5,0.00617704723041079,-0.0157944762670397,0.992268482342034,-0.0389830715901702,0.99226848233822,-0.0389830715995352,0.00617409854532802,-0.0157909096724431
5,0.00614717693668965,-0.0176662125326335,0.991938261821037,-0.0431835962017502,0.991938261817389,-0.0431835962084577,0.00614378660525983,-0.0176620401772833
5.5,0.00610087157076666,-0.0195406809966343,0.99158747131001,-0.0473776131931647,0.991587471306718,-0.0473776131977708,0.00609703258029271,-0.0195358818328142
6,0.00603838651111221,-0.0214181546913057,0.991215988361053,-0.0515646132497221,0.99121598835815,-0.0515646132527401,0.00603409211589145,-0.0214127125866916
6.5,0.00595986031371165,-0.0232986157162678,0.990823794017535,-0.0557443990836912,0.990823794014911,-0.0557443990855866,0.00595510310728553,-0.0232925187730348
7,0.00586541077833846,-0.0251818869198619,0.990410872715918,-0.0599169469847922,0.990410872713327,-0.0599169469859522,0.00586018207012007,-0.0251751267155189
7.5,0.00575517196855335,-0.0270677175381859,0.98997717426803,-0.0640823149729375,0.989977174265118,-0.0640823149736889,0.00574946141827359,-0.0270602883849058
8,0.00562930310113297,-0.0289558364342604,0.989522605898872,-0.0682405844843519,0.989522605895189,-0.0682405844849114,0.00562309855009691,-0.0289477347118101
8.5,0.00548798505136316,-0.0308459833312007,0.989047037750725,-0.0723918253467151,0.989047037745745,-0.0723918253472089,0.00548127249188912,-0.0308372069181946
9,0.0053314124054844,-0.0327379255549403,0.988550313319814,-0.0765360764461143,0.988550313312961,-0.076536076446585,0.0053241760396201,-0.0327284733627788
9.5,0.00515978488589353,-0.0346314655472177,0.988032260600837,-0.0806733366348418,0.988032260591487,-0.0806733366352361,0.0051520072360387,-0.0346213371497281
10,0.00497329981997563,-0.0365264427349068,0.987492702027807,-0.0848035620712668,0.987492702015305,-0.0848035620714338,0.00496496186485906,-0.0365156380813421
10.5,0.00476448184892941,-0.0383687556546146,0.986919604868992,-0.0889537403485967,0.986919604856281,-0.0889537403484209,0.00475706600923642,-0.038359239167475
11,0.00454389920664,-0.040212981188569,0.986324026990611,-0.0930934742426714,0.986324026977718,-0.0930934742421279,0.00453726003392996,-0.0402049268892668
11.5,0.00431135314821041,-0.0420591141050739,0.985706432576598,-0.097222743046812,0.985706432563554,-0.0972227430458812,0.00430532765754421,-0.0420526855579837
12,0.00406664154064762,-0.0439071374620523,0.985067260394727,-0.1013415516683,0.985067260381563,-0.101341551666971,0.00406105024282066,-0.0439024861825796
12.5,0.00380955954806783,-0.0457570224446604,0.984406922985047,-0.10544992698648,0.984406922971797,-0.105449926984742,0.00380420762217648,-0.045754286420598
13,0.00353990032338136,-0.0476087282449509,0.983725806275559,-0.109547914359126,0.983725806262253,-0.109547914356974,0.00353457891683262,-0.0476080305833202
13.5,0.00325745570359892,-0.0494622019839728,0.983024269575612,-0.113635574316408,0.98302426956228,-0.113635574313836,0.00325194334564904,-0.0494636496940268
14,0.00296201690604803,-0.0513173786763277,0.982302645896743,-0.117712979471499,0.982302645883418,-0.117712979468505,0.00295608102008815,-0.0513210615978403
14.5,0.00265337522274212,-0.0531741812370345,0.98156124255135,-0.121780211668088,0.981561242538062,-0.121780211664676,0.00264677372187272,-0.0531801711213316
15,0.00233132271011804,-0.0550325205304434,0.98080034198142,-0.125837359376899,0.980800341968197,-0.125837359373072,0.00232380566006252,-0.0550408702799885
15.5,0.00199565287141457,-0.0568922954606395,0.980020202772367,-0.129884515346375,0.980020202759238,-0.129884515342137,0.00198696420453059,-0.0569030385312503
16,0.00164616132902828,-0.0587533931026449,0.979221060810525,-0.133921774506854,0.979221060797517,-0.133921774502218,0.00163604059302336,-0.0587665430707673
16.5,0.00128264648418808,-0.0606156888735558,0.978403130546645,-0.137949232122677,0.978403130533783,-0.137949232117649,0.00127083060922262,-0.0606312391692478
17,0.000904910161391381,-0.0624790467424488,0.977566606331935,-0.141966982182941,0.977566606319242,-0.141966982177538,0.000891135229494022,-0.0624969705472296
17.5,0.000512758235138855,-0.0643433194778851,0.976711663797237,-0.145975116018647,0.976711663784735,-0.145975116012878,0.000496761236233212,-0.0643635697848737
18,0.000106001236601205,-0.0662083489314806,0.975838461250125,-0.14997372113193,0.975838461237834,-0.149973721125813,8.75217960057961E-005,-0.0662308587638751
18.5,-0.000315545062057276,-0.0680739663559944,0.974947141068471,-0.153962880221727,0.974947141056411,-0.153962880215275,-0.000336762999081974,-0.0680986491384106
19,-0.000752059087795853,-0.0699399927561446,0.974037831072808,-0.157942670389394,0.974037831060994,-0.157942670382622,-0.000776265628077699,-0.069966742832122
19.5,-0.00120371293324983,-0.0718062392702308,0.973110645863056,-0.161913162507608,0.973110645851504,-0.161913162500538,-0.0012311506769706,-0.0718349325579508
20,-0.00167067185154302,-0.0736725075805431,0.972165688108273,-0.16587442073596,0.972165688096997,-0.165874420728606,-0.00170157441436181,-0.073703002357755
20.5,-0.00215309378100759,-0.075538590350348,0.971203049780755,-0.169826502167096,0.971203049769767,-0.169826502159474,-0.0021876844075327,-0.0755707281585707
21,-0.0026511289013153,-0.0774042716852215,0.970222813328155,-0.173769456588022,0.970222813317466,-0.173769456580152,-0.00268961917921234,-0.0774378783424723
21.5,-0.00316491922229722,-0.0792693276163305,0.969225052779353,-0.177703326342009,0.969225052768972,-0.17770332633391,-0.00320750790508162,-0.0793042143269753
22,-0.00369459820660434,-0.0811335266032449,0.968209834781473,-0.181628146277504,0.968209834771407,-0.181628146269192,-0.00374147015186238,-0.0811694911530703
22.5,-0.00424029042708163,-0.0829966300537723,0.967177219566985,-0.185543943771544,0.967177219557241,-0.185543943763039,-0.00429161565557895,-0.0830334580779777
23,-0.00480211125962121,-0.0848583928582745,0.966127261850927,-0.189450738816228,0.96612726184151,-0.189450738807548,-0.00485804413943847,-0.0848958591698787
23.5,-0.00538016661199409,-0.0867185639358938,0.965060011659298,-0.193348544157867,0.965060011650211,-0.193348544149029,-0.00544084517053134,-0.0867564339019671
24,-0.00597455268899311,-0.0885768867901469,0.963975515090414,-0.197237365479544,0.963975515081661,-0.197237365470566,-0.00604009805443445,-0.0886149177432589
24.5,-0.00658535579402236,-0.0904331000712553,0.962873815011615,-0.201117201618749,0.962873815003196,-0.201117201609647,-0.0066558717665986,-0.090471042743804
25,-0.00721265216705735,-0.0922869381427569,0.961754951694125,-0.204988044812782,0.961754951686042,-0.204988044803571,-0.00728822491927872,-0.0923245381120106
25.5,-0.00785650785873127,-0.0941381316498227,0.960618963389191,-0.208849880965479,0.960618963381446,-0.208849880956178,-0.00793720576264861,-0.0941751307819976
26,-0.00851697864010015,-0.0959864080868997,0.959465886848822,-0.212702689929668,0.959465886841411,-0.212702689920291,-0.00860285221860746,-0.0960225459690025
26.5,-0.0091941099474882,-0.0978314923622419,0.958295757794523,-0.216546445800472,0.958295757787446,-0.216546445791033,-0.00928519194570138,-0.0978665077110739
27,-0.00988793686161293,-0.0996731073571104,0.957108611337524,-0.220381117215347,0.957108611330777,-0.220381117205862,-0.00998424243350554,-0.0997067393954167
27.5,-0.0105984841200686,-0.101510974477403,0.955904482353902,-0.224206667657286,0.955904482347482,-0.224206667647769,-0.0107000111247337,-0.101542964267884
28,-0.0113257661620808,-0.103344814195652,0.954683405817983,-0.228023055758233,0.954683405811888,-0.228023055748695,-0.0114324955633084,-0.103374905924373
28.5,-0.0120697872043055,-0.105174346581427,0.953445417097282,-0.231830235600213,0.953445417091508,-0.231830235590669,-0.012181683566569,-0.105202288782943
29,-0.0128305413463395,-0.106999291818297,0.952190552212109,-0.235628157012115,0.952190552206651,-0.235628157002576,-0.0129475534197767,-0.107024838535632
29.5,-0.013608012704487,-0.10881937070566,0.95091884806283,-0.23941676586051,0.950918848057683,-0.239416765850989,-0.0137300740910703,-0.108842282579242
30,-0.0144021755722472,-0.110634305143899,0.949630342627606,-0.243196004333148,0.949630342622764,-0.243196004323654,-0.0145292054650275,-0.110654350424316
30.5,-0.0152129946058744,-0.112443818601395,0.948325075133265,-0.246965811214066,0.948325075128722,-0.24696581120461,-0.0153448985929737,-0.11246077408181
31,-0.0160404250333287,-0.114247636562206,0.947003086201793,-0.250726122149604,0.947003086197544,-0.250726122140197,-0.016177095958241,-0.114261288427077
31.5,-0.0168844128848719,-0.116045486953258,0.945664417974756,-0.254476869904669,0.945664417970794,-0.254476869895319,-0.0170257317545756,-0.116055631540886
32,-0.0177448952434968,-0.117837100550084,0.944309114217801,-0.258217984608908,0.944309114214121,-0.258217984599626,-0.0178907321759572,-0.117843545027346
32.5,-0.0186218005133882,-0.119622211360344,0.942937220407226,-0.261949393992555,0.94293722040382,-0.261949393983347,-0.0187720157161207,-0.11962477430871
33,-0.0195150487045778,-0.121400556984436,0.941548783800423,-0.265671023611817,0.941548783797285,-0.26567102360269,-0.0196694934761511,-0.121399068897186
33.5,-0.0204245517319477,-0.123171878952693,0.940143853491913,-0.269382797063813,0.940143853489036,-0.269382797054777,-0.0205830694785396,-0.123166182643901
34,-0.0213502137267721,-0.124935923038829,0.938722480456456,-0.273084636191185,0.938722480453832,-0.273084636182246,-0.0215126409862132,-0.124925873965379
34.5,-0.0222919313589884,-0.126692439549378,0.937284717580678,-0.276776461276488,0.937284717578302,-0.276776461267653,-0.0224580988250662,-0.126677906047857
35,-0.0232495941684082,-0.128441183589061,0.935830619684489,-0.280458191226615,0.935830619682352,-0.280458191217889,-0.0234193277086199,-0.128422047029933
35.5,-0.0242230849031703,-0.130181915302095,0.934360243533412,-0.284129743747515,0.934360243531508,-0.284129743738903,-0.0243962065635199,-0.13015807016408
36,-0.0252122798637211,-0.131914400089628,0.932873647842935,-0.287791035509491,0.932873647841256,-0.287791035500999,-0.025388608854637,-0.131885753957603
36.5,-0.0262170492507164,-0.133638408803541,0.931370893275793,-0.291441982303407,0.931370893274333,-0.291441982295039,-0.0263964029086368,-0.133604882293707
37,-0.0272372575152846,-0.135353717917018,0.929852042433061,-0.29508249918814,0.929852042431813,-0.295082499179902,-0.02741945223494,-0.135315244533365
37.5,-0.0282727637101657,-0.137060109672353,0.928317159839823,-0.298712500629648,0.928317159838779,-0.298712500621543,-0.0284576158431212,-0.137016635598745
38,-0.0293234218403011,-0.138757372206519,0.926766311926126,-0.30233190063198,0.926766311925279,-0.302331900624011,-0.0295107485557987,-0.13870885603895
38.5,-0.0303890812115635,-0.14044529965519,0.925199567003839,-0.305940612860616,0.925199567003183,-0.305940612852786,-0.0305787013162316,-0.140391712078872
39,-0.0314695867763635,-0.142123692235895,0.923616995239977,-0.309538550758488,0.923616995239505,-0.309538550750801,-0.0316613214898532,-0.142065015652013
39.5,-0.0325647794749842,-0.143792356311094,0.922018668627001,-0.313125627655034,0.922018668626705,-0.313125627647491,-0.0327584531590783,-0.14372858441807
40,-0.0336744965715575,-0.145451104431958,0.920404660950536,-0.316701756868624,0.92040466095041,-0.31670175686123,-0.0338699374107829,-0.145382241766151
40.5,-0.0347985719837167,-0.147099755363802,0.918775047754915,-0.320266851802723,0.918775047754952,-0.32026685179548,-0.034995612615939,-0.147025816804492
41,-0.0359368366050096,-0.148738134094002,0.917129906306897,-0.323820826036081,0.91712990630709,-0.323820826028989,-0.0361353147009331,-0.148659144337474
41.5,-0.0370891186192834,-0.150366071823381,0.915469315557893,-0.327363593407304,0.915469315558238,-0.327363593400365,-0.0372888774101917,-0.150282064830846
42,-0.0382552438063131,-0.151983405941998,0.913793356104964,-0.330895068094086,0.913793356105453,-0.3308950680873,-0.0384561325597766,-0.151894424365952
42.5,-0.0394350358380461,-0.153589979990327,0.912102110150847,-0.334415164687404,0.912102110151473,-0.334415164680773,-0.0396369102816859,-0.153496074583789
43,-0.0406283165649129,-0.155185643606809,0.910395661463231,-0.337923798260965,0.910395661463989,-0.337923798254492,-0.0408310392586505,-0.15508687261974
43.5,-0.0418349062917314,-0.156770252462735,0.908674095333487,-0.341420884436146,0.908674095334371,-0.341420884429829,-0.0420383469492509,-0.156666681029713
44,-0.0430546240428284,-0.158343668185476,0.906937498534993,-0.344906339442707,0.906937498535996,-0.344906339436547,-0.0432586598032851,-0.158235367708536
44.5,-0.0442872878160463,-0.159905758270989,0.905185959281243,-0.348380080175507,0.905185959282361,-0.348380080169506,-0.0444918034672687,-0.159792805801249
45,-0.0455327148254119,-0.161456395986598,0.903419567183839,-0.351842024247461,0.903419567185065,-0.351842024241618,-0.0457376029801096,-0.161338873608145
45.5,-0.0467907217322771,-0.162995460264931,0.901638413210498,-0.355292090038933,0.901638413211827,-0.355292090033247,-0.0469958829589269,-0.162873454484137
46,-0.0480611248648279,-0.164522835589983,0.899842589643162,-0.358730196743795,0.89984258964459,-0.358730196738268,-0.048266467775109,-0.164396436733191
46.5,-0.0493437404259087,-0.166038411876146,0.898032190036317,-0.362156264412342,0.898032190037836,-0.362156264406972,-0.0495491817206762,-0.165907713498438
47,-0.0506383846891612,-0.167542084341088,0.896207309175562,-0.365570213991222,0.89620730917717,-0.365570213986009,-0.0508438491650864,-0.167407182648586
47.5,-0.0519448741835431,-0.169033753373296,0.894368043036526,-0.368971967360589,0.894368043038216,-0.368971967355532,-0.0521502947026273,-0.168894746661202
48,-0.0532630258663188,-0.170513324395096,0.892514488744166,-0.372361447368616,0.892514488745933,-0.372361447363713,-0.0534683432905689,-0.170370312503424
48.5,-0.0545926572846728,-0.171980707721864,0.89064674453249,-0.375738577863525,0.89064674453433,-0.375738577858777,-0.0547978203782672,-0.171833791510615
49,-0.0559335867261274,-0.1734358184182,0.888764909704767,-0.379103283723293,0.888764909706676,-0.3791032837187,-0.056138552027445,-0.173285099263462
49.5,-0.057285633357984,-0.174878576151709,0.886869084594224,-0.382455490883149,0.886869084596197,-0.382455490878706,-0.0574903650238712,-0.174724155463958
50,-0.0586486173560415,-0.176308905045042,0.88495937052528,-0.385795126360992,0.884959370527312,-0.3857951263567,-0.0588530869806899,-0.176150883810729
50.5,-0.0600223600228603,-0.177726733526816,0.88303586977533,-0.389122118280873,0.883035869777417,-0.389122118276731,-0.0602265464336438,-0.17756521187407
51,-0.0614066838958888,-0.179131994181968,0.881098685537086,-0.392436395894621,0.881098685539225,-0.392436395890627,-0.0616105729284919,-0.178967070971104
51.5,-0.0628014128457498,-0.180524623602061,0.879147921881516,-0.395737889601734,0.879147921883702,-0.395737889597887,-0.0630049971008487,-0.180356396041369
52,-0.0642063721650475,-0.181904562236054,0.877183683721349,-0.39902653096764,0.87718368372358,-0.399026530963938,-0.0644096507487735,-0.181733125523189
52.5,-0.0656213886480315,-0.183271754241964,0.875206076775199,-0.402302252740397,0.875206076777469,-0.402302252736839,-0.0658243668983609,-0.183097201231091
53,-0.0670462906614947,-0.18462614733986,0.873215207532264,-0.405564988865957,0.87321520753457,-0.405564988862541,-0.0672489798626429,-0.184448568234554
53.5,-0.0684809082072557,-0.185967692666539,0.87121118321765,-0.40881467450203,0.871211183219988,-0.408814674498755,-0.0686833252940822,-0.185787174738327
54,-0.0699250729766254,-0.187296344632256,0.869194111758274,-0.412051246030661,0.869194111760642,-0.412051246027524,-0.0701272402309459,-0.187112971964534
54.5,-0.0713786183972223,-0.188612060779796,0.867164101749388,-0.415274641069578,0.86716410175178,-0.415274641066577,-0.0715805631378622,-0.18842591403677
55,-0.0728413796725254,-0.189914801646181,0.865121262421674,-0.418484798482371,0.865121262424089,-0.418484798479504,-0.0730431339408252,-0.189725957866358
55.5,-0.0743131938145386,-0.191204530627251,0.863065703608958,-0.421681658387576,0.863065703611393,-0.421681658384842,-0.0745147940569489,-0.191013063040922
56,-0.0757938996699579,-0.19248121384534,0.860997535716487,-0.424865162166725,0.860997535718939,-0.424865162164121,-0.0759953864192496,-0.192287191715427
56.5,-0.077283337940203,-0.193744820020237,0.858916869689798,-0.428035252471407,0.858916869692265,-0.428035252468931,-0.0774847554967186,-0.193548308505786
57,-0.0787813511956882,-0.194995320343589,0.856823816984162,-0.431191873229394,0.856823816986639,-0.431191873227045,-0.0789827473099665,-0.194796380385152
57.5,-0.080287783884695,-0.196232688356888,0.854718489534583,-0.434334969649892,0.854718489537069,-0.434334969647667,-0.0804892094426998,-0.196031376582966
58,-0.081802482337204,-0.197456899833154,0.85260099972637,-0.437464488227951,0.852600999728862,-0.437464488225849,-0.0820039910492834,-0.197253268486852
58.5,-0.0833252947640271,-0.19866793266242,0.850471460366242,-0.440580376748088,0.850471460368738,-0.440580376746105,-0.0835269428586496,-0.198462029547401
59,-0.0848560712515778,-0.199865766741048,0.848329984653994,-0.443682584287145,0.848329984656491,-0.44368258428528,-0.0850579171747718,-0.19965763518589
59.5,-0.0863946637526106,-0.201050383864989,0.846176686154677,-0.446771061216445,0.846176686157173,-0.446771061214696,-0.0865967678739701,-0.200840062704969
60,-0.0879409260732438,-0.202221767626961,0.844011678771315,-0.449845759203265,0.844011678773809,-0.449845759201629,-0.0881433503992547,-0.202009291202347
60.5,-0.0894947138565619,-0.203379903317607,0.841835076718135,-0.452906631211662,0.841835076720623,-0.452906631210138,-0.0896975217519258,-0.203165301487467
61,-0.091055884563105,-0.204524777830607,0.8396469944943,-0.455953631502691,0.839646994496781,-0.455953631501276,-0.0912591404806525,-0.204308076001186
61.5,-0.0926242974485146,-0.205656379571748,0.837447546858142,-0.458986715634035,0.837447546860615,-0.458986715632727,-0.0928280666682278,-0.205437598738453
62,-0.0941998135386115,-0.206774698371918,0.835236848801891,-0.462005840459085,0.835236848804353,-0.462005840457881,-0.0944041619161868,-0.206553855173954
62.5,-0.0957822956021617,-0.207879725404001,0.83301501552687,-0.465010964125493,0.833015015529319,-0.465010964124391,-0.0959872893274905,-0.20765683219072
63,-0.0973716081215694,-0.208971453103608,0.83078216241918,-0.468002046073216,0.830782162421614,-0.468002046072214,-0.0975773134874335,-0.208746518011645
