"Freq [GHz]","re(St(P1,P1)) []","im(St(P1,P1)) []","re(St(P1,P2)) []","im(St(P1,P2)) []","re(St(P2,P1)) []","im(St(P2,P1)) []","re(St(P2,P2)) []","im(St(P2,P2)) []"
0,0.0028915696240972,0,0.997117923296173,0,0.997117916325806,0,0.00289156306934046,0
0.5,0.00321815278985582,0.000561215530034076,0.996712561804962,-0.00463535259513037,0.996712563497375,-0.00463535313392782,0.00321807315071254,0.000561438509144807
1,0.00351544006250037,0.000687316784727443,0.996222385784936,-0.00880751100834942,0.996222385971013,-0.0088075109638055,0.00351519735312777,0.000687872644938636
1.5,0.00334924192813091,0.000926439780204902,0.995891753988237,-0.0130661519297668,0.995891754145813,-0.0130661518757442,0.00334912528621523,0.000927457964177592
2,0.00319012594068191,0.00110055747922644,0.995479106565458,-0.0171899842735321,0.995479106692159,-0.0171899842192822,0.00319004906674181,0.00110210041783176
2.5,0.00305733693531884,0.00123307856434351,0.995016122041702,-0.0211801674337551,0.995016122139162,-0.021180167385733,0.00305721864611908,0.00123515351462444
3,0.0029551003494328,0.00134494947977615,0.994527710822884,-0.0250528863414274,0.99452771089481,-0.0250528863028414,0.0029548841573126,0.001347539231773
3.5,0.00288067123964941,0.0014509270857328,0.994030374777174,-0.0288306262271671,0.994030374827862,-0.0288306261986406,0.00288032173936514,0.00145401039795523
4,0.00282921795466695,0.00156061258062934,0.993533160118052,-0.0325360287471366,0.993533160151554,-0.0325360287277139,0.0028287124854498,0.00156417225342942
4.5,0.00279588352372162,0.00168036412366135,0.993039641130839,-0.03618872207546,0.993039641150622,-0.036188722063395,0.00279520586183413,0.00168438845578045
5,0.00277636521906022,0.00181482611808725,0.992549899981055,-0.0398042930163687,0.992549899989951,-0.0398042930097073,0.00277550212289945,0.00181930786825291
5.5,0.00276687059079017,0.00196794503461106,0.992062068600983,-0.0433944298111371,0.992062068601252,-0.0433944298080231,0.00276581056117964,0.00197287977428395
6,0.00276383558316007,0.00214361903469751,0.991573371130088,-0.046967545362973,0.991573371123513,-0.0469675453617651,0.00276256928837881,0.00214900360423442
6.5,0.00276353413376063,0.0023461289419302,0.991080759765851,-0.0505294989931731,0.99108075975384,-0.0505294989925016,0.00276205634445859,0.00235196032782348
7,0.00276158833736218,0.00258044296797522,0.990581267228569,-0.0540842465836793,0.990581267212238,-0.0540842465824323,0.00275990160734119,0.00258671797037202
7.5,0.00275232686174298,0.00285243058216267,0.990072179775459,-0.0576343653102276,0.9900721797557,-0.057634365307524,0.00275044753593046,0.0028591470444983
8,0.00272789625768366,0.00316895944597739,0.989551104560793,-0.0611814528551511,0.989551104538329,-0.0611814528502972,0.00272586364141114,0.00317612069462037
8.5,0.00267699039730562,0.00353776023062657,0.989015978986039,-0.0647264207522289,0.989015978961454,-0.0647264207446971,0.00267487983870551,0.00354538605189347
9,0.00258303713699881,0.00396678709433385,0.988465050897755,-0.0682697053854469,0.988465050871535,-0.0682697053748269,0.00258097658141188,0.00397493758182321
9.5,0.00242172470978758,0.00446251484498372,0.987896846232458,-0.0718114177259368,0.987896846205005,-0.0718114177119213,0.00241990993413294,0.00447133819817491
10,0.00215803164229533,0.00502612991551121,0.987310133170318,-0.0753514486670976,0.987310133141971,-0.0753514486494629,0.00215672323091515,0.00503595056683981
10.5,0.00215941701618116,0.00526971907965823,0.986756755276604,-0.0788499068821613,0.986756755249332,-0.0788499068629376,0.00215421994698273,0.00528314774039451
11,0.00215796824516451,0.00551265366087517,0.986201252334879,-0.0823325064884282,0.986201252308807,-0.0823325064677558,0.00214868791969236,0.00553044763349408
11.5,0.00215307055837463,0.00575511347711277,0.985643890262616,-0.0858008340666085,0.985643890237847,-0.0858008340446252,0.0021395519639664,0.00577816460206826
12,0.00214402212613865,0.0059973567738707,0.985084776355262,-0.0892563558209174,0.985084776331876,-0.0892563557977688,0.00212617228379017,0.00602671476618788
12.5,0.00213002334399875,0.0062397448831284,0.984523888401578,-0.0927004146789008,0.984523888379638,-0.0927004146547334,0.00210784265972069,0.00627664353636526
13,0.00211016636048678,0.00648277469280334,0.983961100390198,-0.0961342311028055,0.983961100369746,-0.0961342310777589,0.00208379207732341,0.00652866031613808
13.5,0.00208342616707781,0.00672712135872722,0.983396204840242,-0.0995589066220566,0.983396204821306,-0.0995589065962701,0.0020531921299007,0.0067836819196172
14,0.00204865554544549,0.00697369433899642,0.9828289319223,-0.102975429268701,0.982828931904892,-0.102975429242308,0.00201517369991232,0.0070428862616323
14.5,0.00200458772811294,0.00722371051954074,0.982258965618193,-0.106384680257852,0.982258965602311,-0.106384680230978,0.0019688580775963,0.00730777758003676
15,0.00194985307815649,0.00747878877492081,0.981685957211379,-0.109787441396912,0.981685957197014,-0.109787441369678,0.00191340992955994,0.00758026352539254
15.5,0.0018830198511601,0.00774107041394068,0.981109536415461,-0.113184402828975,0.981109536402592,-0.113184402801491,0.00184812243663491,0.00786274238325202
16,0.00180267468728196,0.00801336886237047,0.980529320444766,-0.116576170816948,0.980529320433364,-0.116576170789318,0.00177254832592547,0.00815819466190781
16.5,0.00170756638946742,0.00829934822741185,0.979944921315079,-0.119963275357269,0.97994492130511,-0.119963275329591,0.00168669378818742,0.00847026610547674
17,0.00159684686183435,0.00860372155319089,0.979355951639515,-0.123346177477503,0.97935595163094,-0.123346177449863,0.00159129377603971,0.00880331741626783
17.5,0.0014704545238779,0.00893244149130767,0.978762029157748,-0.126725276123151,0.978762029150523,-0.126725276095631,0.00148818355676741,0.00916239832358778
18,0.00132969338392408,0.00929282291127942,0.978162780208973,-0.130100914578008,0.97816278020305,-0.13010091455068,0.00138076668792092,0.00955308041105107
18.5,0.00117805350757544,0.00969348253025171,0.977557842331767,-0.133473386391432,0.977557842327096,-0.133473386364366,0.00127454505746757,0.00998105907121838
19,0.00102227225332824,0.0101439044596785,0.976946866148391,-0.136842940807239,0.976946866144922,-0.136842940780494,0.00117761319740858,0.0104514240211269
19.5,0.000873513039492763,0.0106533626598124,0.976329516667695,-0.140209787703793,0.976329516665373,-0.140209787677421,0.00110092574559231,0.0109675276852435
20,0.000748302545790169,0.0112289181629652,0.975705474119855,-0.143574102065206,0.975705474118628,-0.143574102039257,0.00105804795259873,0.0115294903006111
20.5,0.000668535319706898,0.0118723954580027,0.975074434417799,-0.146936028010016,0.975074434417613,-0.146936027984532,0.00106406418532262,0.0121325963993408
21,0.000659603254232422,0.012576790236531,0.974436109324188,-0.150295682407486,0.974436109324989,-0.150295682382504,0.00113346020813768,0.0127661198145619
21.5,0.000745946413362342,0.0133234564665239,0.973790226389102,-0.15365315811354,0.973790226390838,-0.153653158089093,0.0012771941290905,0.0134133009472661
22,0.000944483292815101,0.0140821439419683,0.973136528711944,-0.157008526858589,0.973136528714562,-0.157008526834705,0.00149973722472244,0.0140530379112542
22.5,0.00125823008668072,0.014815475812386,0.972474774571179,-0.160361841818906,0.972474774574627,-0.160361841795611,0.00179724767490044,0.0146632100941004
23,0.00167351653088199,0.0154872068644965,0.971804736957303,-0.163713139901834,0.971804736961531,-0.163713139879148,0.00215781623256556,0.0152246866542942
23.5,0.00216289411114867,0.0160708722722775,0.971126203037526,-0.16706244377338,0.971126203042485,-0.167062443751321,0.00256384641021667,0.0157245876090246
24,0.002692528188943,0.0165547850954963,0.970438973574943,-0.170409763654739,0.970438973580585,-0.170409763633319,0.00299563912087181,0.0161576938759116
24.5,0.00323034964944302,0.0169416594717005,0.969742862320256,-0.173755098912165,0.969742862326533,-0.173755098891396,0.0034348329750834,0.0165258284679575
25,0.00375158314616969,0.0172442925518803,0.969037695390242,-0.177098439462561,0.96903769539711,-0.177098439442452,0.00386670217515644,0.0168358816928693
25.5,0.00424056954653906,0.017480149401699,0.968323310644001,-0.180439767014996,0.968323310651415,-0.180439766995554,0.0042810360496357,0.0170974460565057
26,0.00468980494887,0.0176670149431843,0.967599557065419,-0.183779056166495,0.967599557073337,-0.183779056147723,0.00467190121433803,0.0173207973706622
26.5,0.00509774079623898,0.0178204601416696,0.966866294158239,-0.18711627536851,0.966866294166621,-0.187116275350412,0.00503679882800834,0.0175155401322504
27,0.0054665135871475,0.0179528713367305,0.966123391358414,-0.190451387778812,0.96612339136722,-0.190451387761385,0.0053756580338396,0.0176899042792034
27.5,0.00580015534025558,0.0180734562267379,0.96537072746708,-0.193784352011964,0.965370727476273,-0.193784351995209,0.00568993018375225,0.0178505238751674
28,0.00610339349963029,0.0181887079788901,0.96460819010645,-0.197115122800098,0.964608190115992,-0.197115122784012,0.00598189001050892,0.0180025056920039
28.5,0.00638094295984487,0.0183029973211735,0.963835675200009,-0.200443651574399,0.963835675209865,-0.200443651558975,0.00625415155050535,0.0181496365755378
29,0.00663714200257043,0.018419126811025,0.963053086477813,-0.203769886976556,0.963053086487951,-0.203769886961789,0.00650936216244835,0.0182946326635314
29.5,0.00687580235875074,0.0185387854598251,0.962260335007113,-0.207093775308371,0.9622603350175,-0.207093775294257,0.00675002703911592,0.0184393780370535
30,0.00710018038964971,0.0186628954322368,0.961457338748149,-0.210415260926794,0.961457338758754,-0.210415260913324,0.00697842151433364,0.0185851299245008
30.5,0.00731300987635669,0.0187918647832102,0.960644022134681,-0.213734286590785,0.960644022145477,-0.21373428657795,0.00719655843881628,0.0187326844584921
31,0.00751656129871231,0.0189257662270301,0.959820315678576,-0.21705079376569,0.959820315689532,-0.21705079375348,0.0074061877555256,0.0188825053132913
31.5,0.00771270832952459,0.0190644608686232,0.958986155597618,-0.220364722890129,0.95898615560871,-0.220364722878535,0.00760881329760504,0.0190348208466211
32,0.00790299183105908,0.0192076823766449,0.958141483465621,-0.223676013609838,0.958141483476821,-0.223676013598848,0.00780571751050979,0.0191896960343241
32.5,0.00808867708489364,0.0193550933596158,0.957286245883812,-0.22698460498235,0.957286245895096,-0.226984604971954,0.00799798862066964,0.0193470849536501
33,0.00827080291539894,0.0195063225120389,0.956420394172469,-0.230290435655969,0.956420394183814,-0.230290435646153,0.0081865472217042,0.0195068686145969
33.5,0.00845022283452962,0.0196609886102945,0.955543884081724,-0.233593444026075,0.955543884093109,-0.233593444016828,0.00837217075605723,0.0196688819366875
34,0.00862763898973207,0.019818715601629,0.954656675520491,-0.236893568371444,0.954656675531895,-0.236893568362753,0.00855551526076814,0.0198329327796214
34.5,0.00880362991869493,0.0199791417149129,0.953758732302471,-0.240190746972941,0.953758732313873,-0.240190746964794,0.00873713424852512,0.0199988152086321
35,0.00897867312064016,0.0201419245989003,0.952850021908217,-0.243484918216665,0.952850021919599,-0.243484918209048,0.00891749486009069,0.0201663186066561
35.5,0.00915316336261768,0.0203067438534461,0.951930515262287,-0.246776020683409,0.951930515273632,-0.246776020676307,0.0090969915483905,0.0203352338132552
36,0.00932742751329002,0.0204733018785868,0.951000186524535,-0.250063993226025,0.951000186535824,-0.250063993219425,0.00927595759837746,0.0205053571480835
36.5,0.00950173656729808,0.0206413236646414,0.950059012894639,-0.253348775036154,0.950059012905859,-0.253348775030042,0.0094546747867959,0.0206764929391292
37,0.00967631540463926,0.0208105559406613,0.949106974429036,-0.256630305701562,0.949106974440171,-0.256630305695924,0.00963338146410075,0.0208484550026153
37.5,0.00985135072681903,0.0209807659584542,0.94814405386942,-0.259908525255206,0.948144053880455,-0.259908525250028,0.00981227930953349,0.0210210673952917
38,0.0100269975256325,0.0211517400942782,0.947170236482063,-0.263183374217016,0.947170236492986,-0.263183374212282,0.00999153897673388,0.0211941646686655
38.5,0.0102033843700212,0.0213232823859706,0.946185509907247,-0.266454793629239,0.946185509918046,-0.266454793624936,0.0101713048149357,0.0213675917887781
39,0.010380617739477,0.0214952130798107,0.945189864018105,-0.269722725086154,0.945189864028768,-0.269722725082268,0.0103516988214982,0.0215412038376992
39.5,0.0105587855867493,0.0216673672323375,0.944183290788268,-0.272987110758779,0.944183290798783,-0.272987110755295,0.010532823955845,0.0217148655787289
40,0.010737960276075,0.0218395933928948,0.943165784167703,-0.27624789341521,0.943165784178062,-0.276247893412113,0.0107147669229196,0.021888450942726
40.5,0.0109182010140856,0.0220117523799372,0.942137339966216,-0.279505016437096,0.942137339976408,-0.279505016434371,0.0108976005157059,0.0220618424754235
41,0.0110995558673998,0.0221837161558209,0.941097955744064,-0.282758423832721,0.941097955754081,-0.282758423830356,0.0110813855908852,0.0222349307729499
41.5,0.0112820634424861,0.0223553667995662,0.940047630709239,-0.286008060247114,0.940047630719073,-0.286008060245093,0.0112661727388227,0.0224076139237956
42,0.0114657542887543,0.0225265955738896,0.938986365620941,-0.289253870969524,0.938986365630586,-0.289253870967834,0.0114520036984621,0.0225797969690953
42.5,0.0116506520741168,0.0226973020809502,0.937914162698843,-0.292495801938611,0.937914162708291,-0.292495801937236,0.0116389125589292,0.0227513913885504
43,0.0118367745729431,0.022867393500335,0.936831025537743,-0.295733799745607,0.936831025546988,-0.295733799744535,0.0118269267824598,0.0229223146161732
43.5,0.0120241344988511,0.0230367839024759,0.935736959027256,-0.29896781163573,0.935736959036293,-0.298967811634947,0.0120160680773171,0.0230924895878235
44,0.0122127402087875,0.0232053936307186,0.934631969276207,-0.302197785508029,0.934631969285031,-0.302197785507521,0.0122063531445024,0.0232618443210333
44.5,0.0124025963000179,0.0233731487454953,0.933516063541396,-0.305423669913895,0.933516063550003,-0.305423669913648,0.012397794318047,0.0234303115265799
45,0.0125937041177527,0.023539980524498,0.93238925016047,-0.308645414054387,0.932389250168854,-0.308645414054388,0.0125904001153651,0.0235978282506466
45.5,0.0127860621879997,0.0237058250131508,0.931251538488609,-0.311862967776526,0.93125153849677,-0.311862967776762,0.0127841757114326,0.0237643355460122
46,0.0129796665876622,0.0238706226201963,0.9301029388388,-0.315076281568706,0.930102938846734,-0.315076281569165,0.0129791233482899,0.0239297781704657
46.5,0.0131745112618289,0.0240343177536784,0.92894346242543,-0.318285306555322,0.928943462433135,-0.31828530655599,0.0131752426895277,0.024094104310586
47,0.0133705882965159,0.0241968584930585,0.927773121311025,-0.321489994490721,0.927773121318497,-0.321489994491586,0.0133725311278416,0.0242572653289637
47.5,0.0135678881537153,0.0243581962936505,0.926591928355893,-0.324690297752587,0.926591928363133,-0.324690297753637,0.0135709840524935,0.024419215533027
48,0.0137663998744801,0.0245182857199373,0.925399897170518,-0.327886169334818,0.925399897177524,-0.32788616933604,0.0137705950824185,0.0245799119636736
48.5,0.0139661112548315,0.024677084204715,0.924197042070508,-0.331077562839976,0.924197042077279,-0.331077562841359,0.0139713562698557,0.0247393142020356
49,0.0141670089985064,0.0248345518313429,0.922983378033942,-0.334264432471372,0.922983378040479,-0.334264432472904,0.0141732582786155,0.024897384192792
49.5,0.0143690788499096,0.0249906511366493,0.921758920660979,-0.337446733024845,0.921758920667281,-0.337446733026515,0.014376290540489,0.025054086082567
50,0.014572305710134,0.0251453469323453,0.920523686135564,-0.340624419880274,0.920523686141632,-0.34062441988207,0.014580441392778,0.0252093860720739
50.5,0.0147766737384256,0.0252986061430061,0.919277691189125,-0.343797448992875,0.919277691194961,-0.343797448994788,0.0147856981994803,0.0253632522807534
51,0.0149821664411546,0.0254503976589182,0.918020953066136,-0.346965776884315,0.918020953071739,-0.346965776886333,0.0149920474583105,0.025515654622783
51.5,0.0151887667499984,0.0256006922022565,0.916753489491412,-0.350129360633672,0.916753489496785,-0.350129360635785,0.0151994748954041,0.0256665646934235
52,0.0153964570908126,0.0257494622052277,0.915475318639069,-0.35328815786829,0.915475318644213,-0.353288157870488,0.0154079655493015,0.0258159556647541
52.5,0.0156052194444515,0.0258966816989861,0.914186459103018,-0.356442126754517,0.914186459107936,-0.356442126756789,0.0156175038455882,0.0259638021899546
53,0.015815035400589,0.0260423262122331,0.912886929868924,-0.359591225988386,0.912886929873618,-0.359591225990723,0.0158280736633643,0.0261100803153482
53.5,0.0160258862054714,0.0261863726785294,0.911576750287535,-0.362735414786235,0.911576750292007,-0.362735414788629,0.0160396583945615,0.026254767399513
54,0.0162377528043829,0.0263287993514796,0.910255940049307,-0.365874652875291,0.910255940053561,-0.365874652877731,0.0162522409969917,0.0263978420388098
54.5,0.0164506158794956,0.0264695857270054,0.908924519160249,-0.369008900484228,0.908924519164287,-0.369008900486707,0.0164658040418869,0.0265392839987662
55,0.0166644558836884,0.0266087124720409,0.907582507918926,-0.372138118333716,0.907582507922752,-0.372138118336224,0.0166803297565894,0.0266790741507847
55.5,0.016879253070842,0.0267461613590079,0.906229926894552,-0.375262267626968,0.906229926898169,-0.375262267629497,0.0168958000629716,0.0268171944136997
56,0.0170949875230307,0.0268819152055537,0.904866796906108,-0.378381310040297,0.904866796909521,-0.378381310042841,0.0171121966120794,0.0269536276997651
56.5,0.0173116391749948,0.0270159578190341,0.903493139002446,-0.381495207713695,0.903493139005657,-0.381495207716244,0.0173295008154396,0.0270883578646668
57,0.0175291878362271,0.0271482739453122,0.902108974443306,-0.38460392324142,0.902108974446321,-0.384603923243968,0.0175476938734115,0.0272213696612353
57.5,0.0177476132109344,0.0272788492214766,0.900714324681224,-0.387707419662632,0.900714324684045,-0.387707419665171,0.0177667568009111,0.0273526486965086
58,0.017966894916144,0.0274076701321102,0.899309211344254,-0.390805660452052,0.899309211346888,-0.390805660454576,0.0179866704508064,0.027482181391876
58.5,0.0181870124981516,0.0275347239688024,0.897893656219497,-0.393898609510661,0.897893656221947,-0.393898609513163,0.0182074155352325,0.0276099549460351
59,0.0184079454475115,0.0276599987926094,0.896467681237367,-0.396986231156443,0.896467681239638,-0.396986231158917,0.0184289726450586,0.0277359573005267
59.5,0.0186296732127231,0.0277834833991986,0.895031308456577,-0.400068490115175,0.895031308458674,-0.400068490117615,0.0186513222676973,0.0278601771076241
60,0.0188521752127592,0.0279051672864483,0.893584560049802,-0.403145351511261,0.89358456005173,-0.403145351513661,0.0188744448034363,0.0279826037003836
60.5,0.0190754308485671,0.028025040624283,0.892127458289992,-0.406216780858615,0.892127458291756,-0.40621678086097,0.0190983205804408,0.0281032270646833
61,0.0192994195136478,0.0281430942265581,0.890660025537297,-0.409282744051602,0.890660025538902,-0.409282744053907,0.0193229298685714,0.0282220378130789
61.5,0.0195241206038073,0.0282593195248154,0.889182284226582,-0.412343207356026,0.889182284228033,-0.412343207358276,0.0195482528921229,0.0283390271603288
62,0.0197495135261765,0.028373708543756,0.887694256855511,-0.415398137400171,0.887694256856813,-0.415398137402361,0.0197742698416082,0.0284541869004679
62.5,0.0199755777075598,0.0284862538782784,0.886195965973157,-0.4184475011659,0.886195965974316,-0.418447501168027,0.0200009608846655,0.0285675093852759
63,0.0202022926021953,0.0285969486719672,0.884687434169138,-0.421491265979812,0.884687434170159,-0.421491265981871,0.0202283061761836,0.0286789875040712
63.5,0.0204296376989689,0.0287057865969003,0.883168684063233,-0.424529399504444,0.883168684064122,-0.424529399506432,0.0204562858677147,0.0287886146646834
