"Freq [GHz]","re(St(P1,P1)) []","im(St(P1,P1)) []","re(St(P1,P2)) []","im(St(P1,P2)) []","re(St(P2,P1)) []","im(St(P2,P1)) []","re(St(P2,P2)) []","im(St(P2,P2)) []"
0,0.0035873627588785,0,0.996427095029503,0,0.996427097066771,0,0.00358736138338145,0
0.5,0.00408035775330262,-0.00046088765004626,0.995900531172438,-0.00467827192231596,0.995900531271872,-0.004678272302165,0.00408008537835514,-0.000459965862631861
1,0.00454816659598123,-0.00154516860512643,0.995364280346038,-0.00873523844683533,0.995364280345392,-0.00873523842368229,0.00454745446538141,-0.00154299994527207
1.5,0.00485104540960535,-0.00276178098603097,0.994941598871492,-0.0127878299916944,0.994941598868209,-0.0127878299651982,0.00484969182752693,-0.00275853158180439
2,0.00501780616244929,-0.00402702159675528,0.994565441597732,-0.0167040462771233,0.994565441586932,-0.0167040462480159,0.00501578623005017,-0.00402233411930908
2.5,0.00510494509829407,-0.00528829903320016,0.994245629386894,-0.0205540319161557,0.994245629366416,-0.0205540318842807,0.00510234087244577,-0.00528201772915793
3,0.00514656094332366,-0.00653615913491379,0.99396569396705,-0.0243761067819612,0.993965693936568,-0.0243761067476882,0.00514342880366669,-0.00652822760457994
3.5,0.00516043553621692,-0.00777162702419787,0.993707006609872,-0.0281873149668783,0.993707006570096,-0.0281873149312055,0.00515679637261179,-0.00776202481566202
4,0.00515593234317002,-0.00899755978092642,0.993454917609568,-0.0319941193636168,0.993454917561792,-0.0319941193278872,0.00515178167384978,-0.00898627676819075
4.5,0.00513819676578819,-0.0102166373387185,0.993198935903139,-0.0357983276260363,0.993198935849028,-0.0357983275916958,0.00513351380688842,-0.0102036642003789
5,0.00511019026889237,-0.0114310192639717,0.992931697912214,-0.0395998789130694,0.992931697853664,-0.0395998788813934,0.00510494388431493,-0.0114163440815176
5.5,0.0050736897602448,-0.0126423887195273,0.99264800337193,-0.0433980696795668,0.992648003310999,-0.0433980696516372,0.00506784213163503,-0.0126259958645143
6,0.00502979868356501,-0.0138520609783903,0.99234412617074,-0.0471920664299628,0.992344126109538,-0.0471920664065237,0.00502330756681513,-0.0138339308465305
6.5,0.0049792203677721,-0.0150610807723481,0.99201735676209,-0.0509811025359603,0.992017356702724,-0.0509811025174542,0.00497204050212829,-0.0150411898158236
7,0.00492241065225674,-0.0162702962951915,0.991665702740166,-0.0547645379706019,0.991665702684679,-0.0547645379571655,0.00491449465932403,-0.016248617142395
7.5,0.00485966652783798,-0.0174804127165906,0.991287690759702,-0.0585418619095677,0.991287690710021,-0.0585418619010643,0.00485096549835129,-0.0174569142999879
8,0.0047911794685116,-0.0186920303627343,0.990882232384046,-0.0623126738910553,0.990882232341944,-0.0623126738871136,0.00478164335390341,-0.0186666780270617
8.5,0.00471706854385934,-0.0199056719911663,0.990448530539001,-0.06607665928248,0.990448530506081,-0.0660766592825333,0.00470664642314045,-0.0198784275746124
9,0.0046374015583972,-0.0211218024282882,0.989986012278332,-0.0698335657141076,0.989986012256012,-0.0698335657174489,0.00462604182368098,-0.0210926243168075
9.5,0.00455220888270391,-0.0223408428617251,0.989494279085783,-0.0735831829713725,0.989494279075291,-0.0735831829771811,0.00453985937071488,-0.0223096860192609
10,0.00446149269979368,-0.0235631813696919,0.988973069254276,-0.0773253269449974,0.988973069256657,-0.077325326952387,0.00444810078685354,-0.0235299973475769
10.5,0.00436636755536313,-0.0247730304044644,0.988479281088295,-0.0810717231653513,0.988479281090191,-0.0810717231723999,0.00435198107492019,-0.0247379647310204
11,0.00426366588671812,-0.0259860951224562,0.98797092602446,-0.0848069379364045,0.987970926025922,-0.0848069379430836,0.00424825039443055,-0.0259491227419044
11.5,0.00415312657393963,-0.0272022686229167,0.987448526869918,-0.0885313612892897,0.987448526870998,-0.0885313612955798,0.00413664873170849,-0.0271633645648528
12,0.00403450150247586,-0.0284214272441581,0.986912539073509,-0.09224539527328,0.98691253907426,-0.0922453952791704,0.00401692900005157,-0.0283805666830315
12.5,0.00390755640180118,-0.029643432373164,0.986363354645728,-0.0959494465033268,0.986363354646199,-0.0959494465088078,0.0038888578772307,-0.0296005906769894
13,0.00377207145995673,-0.0308681322380924,0.985801306565415,-0.0996439198204939,0.985801306565652,-0.0996439198255601,0.00375221642011891,-0.0308232850069228
13.5,0.00362784173058672,-0.0320953636594465,0.98522667347989,-0.103329213009585,0.985226673479939,-0.103329213014244,0.00360680047290396,-0.03204848675432
14,0.00347467735093621,-0.0333249537398528,0.984639684536618,-0.107005712497791,0.984639684536521,-0.107005712502047,0.00345242088717468,-0.0332760233029079
14.5,0.00331240359023344,-0.0345567214759983,0.984040524214661,-0.110673789945269,0.984040524214457,-0.110673789949129,0.00328890357317901,-0.0345057139426297
15,0.00314086074847508,-0.0357904792800667,0.983429337052243,-0.11433379963193,0.983429337051966,-0.114333799635407,0.00311608940207164,-0.035737371383906
15.5,0.00295990392543433,-0.0370260344013973,0.982806232191733,-0.117986076543196,0.982806232191416,-0.117986076546303,0.00293383397886793,-0.0369708031729719
16,0.0027694026792725,-0.0382631902421267,0.982171287685259,-0.121630935059559,0.982171287684933,-0.121630935062313,0.00274200730533536,-0.0382058130020297
16.5,0.00256924059324937,-0.0395017475633104,0.981524554522644,-0.125268668159582,0.981524554522334,-0.125268668161999,0.00254049335119566,-0.0394422019106395
17,0.00235931476787499,-0.0407415055803648,0.980866060358669,-0.128899547052581,0.9808660603584,-0.12889954705468,0.00232918955090328,-0.0406797693772134
17.5,0.00213953525457655,-0.0419822629487188,0.980195812929081,-0.132523821164939,0.980195812928874,-0.132523821166742,0.00210800624195606,-0.0419183143014088
18,0.00190982444548593,-0.0432238186421934,0.979513803154418,-0.13614171841205,0.97951380315429,-0.136141718413569,0.00187686605928505,-0.0431576358798775
18.5,0.0016701164324705,-0.0444659727279166,0.978820007938156,-0.139753445696128,0.978820007938124,-0.139753445697389,0.00163570329879301,-0.0443975343791889
19,0.00142035634702734,-0.0457085270427253,0.978114392671098,-0.143359189578091,0.978114392671174,-0.143359189579109,0.00138446326158398,-0.0456378118106997
19.5,0.00116049969116985,-0.0469512857765908,0.977396913457709,-0.146959117079092,0.977396913457904,-0.146959117079891,0.00112310158901446,-0.0468782725129868
20,0.000890511668032778,-0.0481940559693284,0.976667519082566,-0.150553376574276,0.97666751908289,-0.150553376574873,0.00085158359723328,-0.0481187236479173
20.5,0.00061036651955923,-0.0494366479269699,0.975926152736458,-0.154142098747466,0.975926152736919,-0.154142098747879,0.000569883618559835,-0.0493589756167854
21,0.000320046877397812,-0.0506788755644889,0.975172753522256,-0.157725397581024,0.975172753522859,-0.157725397581273,0.000277984355837424,-0.0505988424030797
21.5,1.95431319964523E-005,-0.0519205566814795,0.974407257760551,-0.161303371360044,0.9744072577613,-0.161303371360146,-2.41237452850984E-005,-0.0518381418484761
22,-0.000291147176150419,-0.053161513177252,0.973629600114587,-0.164876103674092,0.973629600115485,-0.164876103674062,-0.000336443102167433,-0.053076695868449
22.5,-0.000612019940062963,-0.0544015712116686,0.972839714553091,-0.168443664403458,0.972839714554139,-0.168443664403314,-0.000658969576057905,-0.0543143306138179
23,-0.000943065042421865,-0.0556405613177429,0.972037535168536,-0.172006110679833,0.972037535169735,-0.172006110679589,-0.000991693025798379,-0.0555508765841806
23.5,-0.00128426688277195,-0.0568783184716555,0.971222996867178,-0.175563487813896,0.971222996868528,-0.175563487813568,-0.00133459783282389,-0.0567861686988738
24,-0.00163560487486092,-0.0581146821255296,0.970396035945884,-0.17911583018445,0.970396035947383,-0.17911583018405,-0.00168766339652296,-0.0580200463307783
24.5,-0.00199705391371255,-0.0593494962078909,0.969556590569512,-0.182663162085435,0.969556590571159,-0.182663162084979,-0.00205086459954196,-0.0592523533078655
25,-0.00236858481244999,-0.0605826090963761,0.968704601161286,-0.186205498528618,0.968704601163077,-0.186205498528116,-0.0024241722430365,-0.06048293788702
25.5,-0.00275016470925255,-0.0618138735668139,0.967840010717414,-0.189742846000833,0.967840010719346,-0.189742846000296,-0.00280755345223993,-0.0617116527042647
26,-0.00314175744509573,-0.0630431467224835,0.966962765055998,-0.193275203175602,0.966962765058067,-0.193275203175042,-0.00320097205298664,-0.062938354705167
26.5,-0.00354332391317541,-0.064270289906935,0.966072813009228,-0.196802561579631,0.96607281301143,-0.196802561579057,-0.00360438892006995,-0.0641629050587822
27,-0.0039548223810556,-0.0654951686033769,0.965170106566816,-0.20032490621518,0.965170106569146,-0.200324906214603,-0.00401776229847126,-0.0653851690581693
27.5,-0.00437620878675204,-0.066717652323423,0.964254600977708,-0.203842216139811,0.964254600980162,-0.203842216139238,-0.00444104809864868,-0.0666050160102261
28,-0.00480743701000874,-0.0679376144875161,0.963326254816294,-0.207354465005156,0.963326254818866,-0.207354465004594,-0.0048742001671386,-0.0678223191171705
28.5,-0.00524845912010799,-0.0691549322991603,0.962385030018541,-0.210861621556633,0.962385030021225,-0.210861621556089,-0.00531717053379238,-0.0690369553517991
29,-0.00569922560158212,-0.0703694866148252,0.961430891892814,-0.214363650096173,0.961430891895604,-0.214363650095657,-0.00576990963701146,-0.0702488053283754
29.5,-0.0061596855591963,-0.0715811618110904,0.96046380910953,-0.217860510910001,0.960463809112421,-0.217860510909516,-0.00623236652833192,-0.0714577531707072
30,-0.00662978690354749,-0.0727898456504015,0.959483753673264,-0.221352160663589,0.959483753676251,-0.221352160663141,-0.00670448905770882,-0.0726636863788048
30.5,-0.00710947651863764,-0.0739954291466267,0.958490700880403,-0.224838552765876,0.958490700883479,-0.224838552765471,-0.0071862240408293,-0.0738664956952895
31,-0.00759870041269506,-0.0751978064314036,0.957484629265065,-0.228319637704795,0.957484629268226,-0.228319637704436,-0.00767751740973693,-0.0750660749725465
31.5,-0.00809740385350227,-0.0763968746221102,0.956465520535594,-0.231795363356073,0.956465520538832,-0.231795363355764,-0.00817831434801669,-0.0762623210414537
32,-0.00860553148943,-0.0775925336921484,0.955433359503617,-0.235265675267207,0.955433359506928,-0.235265675266951,-0.00868855941172125,-0.0774551335823896
32.5,-0.00912302745730337,-0.0787846863440915,0.954388134007382,-0.238730516918419,0.954388134010759,-0.238730516918221,-0.00920819663717709,-0.0786444149990571
33,-0.00964983547819526,-0.0799732378861906,0.953329834830797,-0.242189829962305,0.953329834834234,-0.242189829962165,-0.00973716963674232,-0.0798300702956225
33.5,-0.0101858989421542,-0.0811580961125564,0.95225845561942,-0.245643554443794,0.952258455622913,-0.245643554443717,-0.0102754216835332,-0.0810120069574936
34,-0.0107311609828238,-0.0823391711873054,0.951173992794436,-0.249091629001937,0.951173992797978,-0.249091629001922,-0.0108228957860643,-0.0821901348360297
34.5,-0.0112855645428468,-0.0835163755328714,0.950076445465475,-0.252533991054923,0.950076445469062,-0.252533991054973,-0.011379534753694,-0.083364366037372
35,-0.011849052430893,-0.0846896237226309,0.948965815343023,-0.255970576969693,0.948965815346648,-0.255970576969809,-0.0119452812537097,-0.0845346148155564
35.5,-0.0124215673710722,-0.0858588323778751,0.947842106651005,-0.259401322217304,0.947842106654665,-0.259401322217486,-0.0125200778608127,-0.0857007974699484
36,-0.0130030520454718,-0.0870239200692677,0.946705326040058,-0.262826161515298,0.946705326043746,-0.262826161515547,-0.0131038670997424,-0.0868628322471237
36.5,-0.0135934491304567,-0.0881848072226532,0.945555482501882,-0.266245028958004,0.945555482505595,-0.266245028958322,-0.0136965914816662,-0.0880206392470742
37,-0.0141927013273646,-0.0893414160293062,0.94439258728501,-0.269657858135866,0.944392587288742,-0.269657858136251,-0.0142981935349795,-0.0891741403338293
37.5,-0.0148007513881562,-0.0904936703604875,0.94321665381224,-0.273064582244632,0.943216653815986,-0.273064582245085,-0.0149086158310588,-0.0903232590503653
38,-0.0154175421365255,-0.0916414956862388,0.942027697599951,-0.276465134185249,0.942027697603708,-0.276465134185768,-0.0155278010054862,-0.0914679205377142
38.5,-0.0160430164849609,-0.0927848189983478,0.94082573617944,-0.279859446655255,0.940825736183203,-0.279859446655841,-0.0161556917752232,-0.0926080514582388
39,-0.0166771174481836,-0.0939235687373272,0.939610789020394,-0.283247452232341,0.939610789024158,-0.283247452232994,-0.0167922309521646,-0.0937435799228878
39.5,-0.0173197881533605,-0.0950576747233174,0.938382877456587,-0.286629083450762,0.93838287746035,-0.286629083451479,-0.0174373614534697,-0.0948744354223678
40,-0.0179709718474497,-0.0961870680907606,0.937142024613842,-0.290004272871153,0.9371420246176,-0.290004272871933,-0.0180910263090249,-0.0960005487620585
40.5,-0.0186306119020154,-0.0973116812267167,0.935888255340275,-0.293372953144343,0.935888255344023,-0.293372953145186,-0.0187531686663769,-0.0971218520005661
41,-0.019298651815808,-0.0984314477126929,0.93462159613884,-0.296735057069633,0.934621596142575,-0.296735057070536,-0.0194237317934246,-0.0982382783917548
41.5,-0.019975035215374,-0.0995463022698115,0.933342075102156,-0.300090517648004,0.933342075105874,-0.300090517648968,-0.020102659079151,-0.0993497623301343
42,-0.020659705853953,-0.100656180707206,0.932049721849589,-0.303439268130691,0.932049721853288,-0.303439268131711,-0.0207898940326262,-0.10045623929943
42.5,-0.0213526076088787,-0.101761019873488,0.930744567466554,-0.306781242063491,0.930744567470232,-0.306781242064569,-0.0214853802805244,-0.101557645824241
43,-0.0220536844776773,-0.102860757611144,0.929426644445994,-0.310116373327168,0.929426644449646,-0.310116373328299,-0.0221890615633308,-0.102653919424586
43.5,-0.0227628805730646,-0.103955332713718,0.928095986631974,-0.313444596174266,0.928095986635598,-0.31344459617545,-0.0229008817304417,-0.103744998573263
44,-0.023480140116979,-0.105044684885661,0.926752629165356,-0.316765845262647,0.92675262916895,-0.316765845263881,-0.0236207847343058,-0.104830822655834
44.5,-0.0242054074338212,-0.1061287547047,0.925396608431459,-0.320080055686004,0.92539660843502,-0.320080055687288,-0.024348714623765,-0.105911331933143
45,-0.0249386269430145,-0.107207483586606,0.924027962009677,-0.323387163001603,0.924027962013204,-0.323387163002933,-0.0250846155367104,-0.1069864675062
45.5,-0.0256797431510121,-0.108280813752231,0.922646728624964,-0.326687103255491,0.922646728628454,-0.326687103256866,-0.0258284316921898,-0.108056171283372
46,-0.0264287006428591,-0.109348688196701,0.921252948101126,-0.329979813005355,0.921252948104576,-0.329979813006772,-0.0265801073820616,-0.109120385949664
46.5,-0.0271854440733956,-0.110411050660649,0.91984666131586,-0.333265229341248,0.91984666131927,-0.333265229342706,-0.0273395869622878,-0.110179054938087
47,-0.0279499181581846,-0.111467845603374,0.918427910157473,-0.336543289904332,0.91842791016084,-0.336543289905826,-0.0281068148439551,-0.111232122402917
47.5,-0.0287220676642608,-0.112519018177825,0.916996737483198,-0.339813932903819,0.91699673748652,-0.339813932905349,-0.0288817354841037,-0.112279533194783
48,-0.0295018374007233,-0.113564514207303,0.915553187079069,-0.343077097132226,0.915553187082346,-0.34307709713379,-0.0296642933764083,-0.113321232837466
48.5,-0.0302891722092805,-0.114604280163795,0.914097303621273,-0.346332721979117,0.914097303624503,-0.34633272198071,-0.0304544330418034,-0.11435716750633
49,-0.0310840169547622,-0.115638263147837,0.91262913263892,-0.349580747443409,0.912629132642102,-0.349580747445033,-0.0312520990190732,-0.115387284008283
49.5,-0.0318863165156563,-0.116666410869829,0.911148720478182,-0.352821114144393,0.911148720481316,-0.352821114146042,-0.0320572358554664,-0.116411529763159
50,-0.0326960157747176,-0.117688671632704,0.90965611426773,-0.356053763331541,0.909656114270814,-0.356053763333214,-0.0328697880973819,-0.117429852786497
50.5,-0.033513059609674,-0.1187049943159,0.908151361885411,-0.359278636893217,0.908151361888444,-0.359278636894913,-0.0336897002811439,-0.118442201673578
51,-0.0343373928840566,-0.119715328360521,0.906634511926135,-0.362495677364361,0.906634511929116,-0.362495677366076,-0.0345169169239081,-0.119448525584671
51.5,-0.0351689604381955,-0.120719623755663,0.905105613670887,-0.365704827933228,0.905105613673816,-0.36570482793496,-0.035351382514723,-0.120448774231436
52,-0.036007707080389,-0.121717831025783,0.903564717056836,-0.36890603244726,0.903564717059713,-0.368906032449007,-0.0361930415057712,-0.121442897864368
52.5,-0.036853577578271,-0.122709901219112,0.90201187264849,-0.372099235418152,0.902011872651313,-0.372099235419912,-0.0370418383038001,-0.122430847261278
53,-0.0377065166503907,-0.123695785896983,0.900447131609845,-0.375284382026166,0.900447131612615,-0.375284382027937,-0.037897717261768,-0.123412573716702
53.5,-0.0385664689580256,-0.12467543712408,0.898870545677488,-0.378461418123767,0.898870545680205,-0.378461418125546,-0.0387606226707227,-0.124388029032211
54,-0.0394333790972304,-0.125648807459513,0.897282167134613,-0.381630290238608,0.897282167137276,-0.381630290240393,-0.0396304987519089,-0.125357165507559
54.5,-0.0403071915911322,-0.126615849948682,0.895682048785908,-0.384790945575934,0.895682048788518,-0.384790945577724,-0.0405072896491296,-0.126319935932614
55,-0.0411878508824832,-0.127576518115889,0.894070243933279,-0.387943332020422,0.894070243935835,-0.387943332022214,-0.0413909394213591,-0.12727629358003
55.5,-0.0420753013264769,-0.128530765957641,0.892446806352367,-0.391087398137526,0.892446806354869,-0.391087398139318,-0.0422813920356145,-0.12822619219862
56,-0.0429694871838245,-0.129478547936605,0.890811790269836,-0.394223093174332,0.890811790272285,-0.394223093176122,-0.0431785913600971,-0.129169586007376
56.5,-0.0438703526141094,-0.130419818976188,0.889165250341381,-0.397350367059991,0.889165250343777,-0.397350367061778,-0.0440824811575994,-0.130106429690108
57,-0.0447778416693987,-0.131354534455678,0.88750724163045,-0.400469170405719,0.887507241632793,-0.4004691704075,-0.0449930050791809,-0.131036678390646
57.5,-0.0456918982881392,-0.132282650205938,0.885837819587625,-0.403579454504433,0.885837819589916,-0.403579454506207,-0.045910106658117,-0.131960287708599
58,-0.0466124662893155,-0.133204122505599,0.88415704003065,-0.406681171330016,0.88415704003289,-0.406681171331781,-0.046833729304112,-0.132877213695608
58.5,-0.0475394893668886,-0.134118908077742,0.882464959125071,-0.409774273536268,0.88246495912726,-0.409774273538021,-0.0477638162978002,-0.133787412852081
59,-0.048472911084489,-0.135026964087001,0.880761633365475,-0.412858714455516,0.880761633367613,-0.412858714457258,-0.04870031078549,-0.134690842124367
59.5,-0.0494126748703935,-0.135928248137113,0.879047119557285,-0.415934448096969,0.879047119559373,-0.415934448098696,-0.049643155774199,-0.135587458902352
60,-0.0503587240127564,-0.136822718268838,0.877321474799105,-0.419001429144769,0.877321474801143,-0.419001429146479,-0.0505922941269391,-0.136477221017446
60.5,-0.051311001655104,-0.137710332958255,0.875584756465586,-0.422059612955808,0.875584756467576,-0.422059612957502,-0.0515476685582683,-0.137360086740935
61,-0.0522694507920923,-0.138591051115401,0.873837022190796,-0.4251089555573,0.873837022192738,-0.425108955558975,-0.0525092216301034,-0.138236014782674
61.5,-0.0532340142655146,-0.139464832083229,0.872078329852065,-0.428149413644121,0.872078329853961,-0.428149413645777,-0.0534768957477829,-0.139104964290101
62,-0.0542046347605658,-0.140331635636867,0.870308737554305,-0.431180944575954,0.870308737556155,-0.431180944577588,-0.0544506331563878,-0.139966894847555
62.5,-0.0551812548023476,-0.141191421983156,0.868528303614767,-0.434203506374223,0.868528303616572,-0.434203506375834,-0.0554303759372999,-0.14082176647587
