"Freq [GHz]","re(St(P1,P1)) []","im(St(P1,P1)) []","re(St(P1,P2)) []","im(St(P1,P2)) []","re(St(P2,P1)) []","im(St(P2,P1)) []","re(St(P2,P2)) []","im(St(P2,P2)) []"
0,0.00315205519081019,0,0.996862467916799,0,0.996862469226471,0,0.00315205405343022,0
0.5,0.00360782090960754,-0.000769086310452138,0.996364836234868,-0.00478722875728721,0.996364835757568,-0.00478722755109118,0.00360763198259662,-0.000768577371839996
1,0.00404724058194716,-0.00212255114697157,0.995833374898496,-0.00898930385246643,0.995833374907406,-0.00898930372120432,0.00404671218389296,-0.00212135804511604
1.5,0.00430438755608265,-0.00363579790562341,0.995421725246953,-0.0132225935316903,0.995421725305729,-0.0132225934070114,0.00430303445920899,-0.00363427581157794
2,0.00442364951563334,-0.00516963935036685,0.995021514378347,-0.0173094738572566,0.995021514457655,-0.0173094737583135,0.004421484559888,-0.00516721302179235
2.5,0.00446938329509194,-0.00668789202719466,0.994660893197102,-0.0213062235249701,0.994660893275054,-0.0213062234523811,0.00446655697219711,-0.00668434246218297
3,0.00447352273601354,-0.00818845095420784,0.99433641679712,-0.0252533251575393,0.994336416862526,-0.0252533251059148,0.00447013339024593,-0.00818370181223926
3.5,0.00445123183827789,-0.0096748208013544,0.994034734691699,-0.0291739412266949,0.994034734740781,-0.0291739411905816,0.00444732543701498,-0.00966884049766747
4,0.00441008815145061,-0.0111504912405493,0.993742148821378,-0.0330799373307507,0.99374214885434,-0.0330799373060948,0.0044056769287284,-0.0111432585368121
4.5,0.00435412888107134,-0.0126181155345435,0.993447427856254,-0.036977006412112,0.993447427875188,-0.0369770063961816,0.0043492048591256,-0.0126096078987388
5,0.00428563726024578,-0.0140795990212119,0.993142068726059,-0.0408677333931635,0.993142068733799,-0.0408677333840721,0.00428018044872047,-0.0140697888252674
5.5,0.004205973338685,-0.0155362996580752,0.992819842365821,-0.044753208220861,0.992819842365332,-0.0447532082172319,0.00419995660106576,-0.0155251531035319
6,0.00411598391039281,-0.0169891930190378,0.992476254608883,-0.0486338237070942,0.992476254602981,-0.0486338237077941,0.00410937590784233,-0.0169766700080967
6.5,0.00401621638421945,-0.0184389889694589,0.992108093038217,-0.0525096543907519,0.992108093029426,-0.0525096543947665,0.00400898341528899,-0.0184250432826296
7,0.00390703608212295,-0.0198862110656766,0.991713081935691,-0.056380629705977,0.991713081926185,-0.0563806297123293,0.00389914327653917,-0.0198707906148918
7.5,0.00378869346843169,-0.0213312503523344,0.991289628329218,-0.0602466095674892,0.991289628320831,-0.0602466095752305,0.00378010559332242,-0.0213142974289369
8,0.00366136420285601,-0.0227744021181113,0.990836636997354,-0.0641074154090688,0.990836636991591,-0.0641074154172827,0.0036520462300631,-0.0227558536110255
8.5,0.00352517383002082,-0.0242158913441504,0.99035337586226,-0.067962841995211,0.99035337586034,-0.0679628420030216,0.00351509135225614,-0.0241956789245652
9,0.00338021346426842,-0.0256558905908797,0.989839377862245,-0.071812661689167,0.989839377865131,-0.0718126616957449,0.00336933301325071,-0.0256339408665962
9.5,0.00322655002436045,-0.0270945327635381,0.989294369251285,-0.0756566262873069,0.989294369259724,-0.075656626291881,0.00321483932393174,-0.0270707674081088
10,0.00306423307354242,-0.0285319203592955,0.988718217116743,-0.0794944684498109,0.988718217131302,-0.0794944684516761,0.00305166124873679,-0.028506256220977
10.5,0.00290214484135531,-0.0299705054121482,0.988177164109982,-0.0833206401422029,0.988177164124551,-0.0833206401448283,0.00288891172739913,-0.0299433675707714
11,0.0027307152840097,-0.0314102644267358,0.987622012677993,-0.0871342237728641,0.987622012692495,-0.0871342237762356,0.0027167950428959,-0.0313816224810903
11.5,0.00254979518844656,-0.0328511369226856,0.987053276953686,-0.0909358204806612,0.987053276968047,-0.0909358204847592,0.00253516356055106,-0.0328209589620574
12,0.00235923857972575,-0.0342930521585947,0.986471380936389,-0.0947260241092511,0.986471380950544,-0.09472602411405,0.00234387301477446,-0.0342613048734206
12.5,0.00215890340496716,-0.0357359296380571,0.985876666947924,-0.0985054128563858,0.985876666961812,-0.0985054128618525,0.00214278318118433,-0.035702578445596
13,0.00194865214887663,-0.0371796796560941,0.985269404183632,-0.102274542746254,0.985269404197201,-0.102274542752352,0.00193175847850935,-0.0371446888392848
13.5,0.00172835237991076,-0.0386242038775118,0.984649797111379,-0.106033942719419,0.98464979712458,-0.106033942726109,0.00171066849963153,-0.0385875367350446
14,0.00149787722711159,-0.0400693959389589,0.984017993534655,-0.109784111127648,0.984017993547447,-0.109784111134888,0.00147938847215523,-0.0400310149444021
14.5,0.0012571057885733,-0.0415151420669604,0.983374092190497,-0.113525513424667,0.983374092202846,-0.113525513432412,0.00123779964978732,-0.0414750090347056
15,0.00100592347325124,-0.0429613217046336,0.982718149798422,-0.117258580855339,0.982718149810298,-0.117258580863541,0.000985789636578804,-0.0429193979604401
15.5,0.000744222278513784,-0.044407808140571,0.982050187513502,-0.120983709961981,0.98205018752488,-0.120983709970597,0.000723252646741224,-0.0443640546944328
16,0.000471901006388387,-0.045854469133741,0.981370196765675,-0.124701262745346,0.981370196776538,-0.124701262754332,0.00045008970331839,-0.0458088468529354
16.5,0.000188865421931417,-0.0473011675291009,0.980678144489364,-0.12841156733776,0.980678144499697,-0.12841156734707,0.000166208779374843,-0.0472536373093426
17,-0.000104971642542362,-0.04874776185925,0.97997397776346,-0.132114919065781,0.979973977773253,-0.132114919075367,-0.000128475114275384,-0.0486982847920148
17.5,-0.000409690233333926,-0.0501941069279672,0.979257627892899,-0.135811581798307,0.979257627902147,-0.135811581808132,-0.000434039890565674,-0.0501426444622508
18,-0.000725363267185919,-0.051640054372351,0.97852901397008,-0.139501789493683,0.97852901397878,-0.139501789503709,-0.000750556392573043,-0.0515865684692258
18.5,-0.00105205656479995,-0.0530854532006391,0.977788045958458,-0.143185747874614,0.97778804596661,-0.143185747884797,-0.00107808844038282,-0.0530299064792574
19,-0.00138982892178102,-0.0545301503035782,0.977034627342243,-0.146863636173633,0.977034627349852,-0.146863636183937,-0.00141669291406421,-0.0544725061774463
19.5,-0.0017387322128079,-0.0559739909376029,0.976268657385989,-0.150535608903617,0.97626865739306,-0.150535608914008,-0.00176641986846637,-0.0559142137401221
20,-0.00209881152492863,-0.057416819178699,0.975490033046501,-0.154201797618005,0.975490033053041,-0.154201797628451,-0.00212731267568034,-0.0573548742772019
20.5,-0.0024701053160171,-0.0588584783461483,0.974698650577247,-0.157862312633757,0.974698650583268,-0.157862312644224,-0.00249940819117983,-0.0587943322438917
21,-0.00285264559464166,-0.0602988113958567,0.97389440686271,-0.16151724469729,0.973894406868221,-0.161517244707753,-0.00288273693990293,-0.0602324318215608
21.5,-0.00324645811777241,-0.0617376612833125,0.973077200517038,-0.165166666579267,0.973077200522052,-0.165166666589698,-0.00327732331871455,-0.0616690172680583
22,-0.00365156260301941,-0.0631748712964519,0.972246932778231,-0.16881063458883,0.972246932782764,-0.168810634599203,-0.00368318581199722,-0.0631039332379135
22.5,-0.00406797295229422,-0.0646102853590893,0.971403508225949,-0.172449190001534,0.971403508230013,-0.172449190011824,-0.00410033721731834,-0.0645370250732
23,-0.00449569748408896,-0.0660437483056464,0.97054683534796,-0.17608236039821,0.970546835351572,-0.1760823604084,-0.00452878487844274,-0.0659681390659861
23.5,-0.00493473917178597,-0.0674751061282999,0.969676826977439,-0.179710160914251,0.969676826980614,-0.17971016092432,-0.00496853092319813,-0.0673971226935306
24,-0.00538509588565736,-0.0689042061975584,0.968793400620648,-0.183332595400389,0.968793400623403,-0.18333259541032,-0.00541957250393463,-0.0688238248274367
24.5,-0.00584676063648804,-0.0703308974576169,0.967896478692069,-0.18694965749748,0.96789647869442,-0.186949657507256,-0.00588190203862041,-0.0702480959181138
25,-0.00631972181897406,-0.0717550305977936,0.966985988671885,-0.190561331628595,0.966985988673849,-0.190561331638201,-0.00635550745082272,-0.0716697881559725
25.5,-0.00680396345326095,-0.0731764582014405,0.966061863198713,-0.194167593912342,0.966061863200306,-0.194167593921766,-0.0068403724070526,-0.0730887556107751
26,-0.00729946542323978,-0.0745950348737514,0.965124040108713,-0.197768413001764,0.965124040109953,-0.197768413010995,-0.00733647655017639,-0.0745048543506219
26.5,-0.00780620371036814,-0.0760106173499095,0.96417246243065,-0.201363750853349,0.964172462431554,-0.201363750862374,-0.00784379572779176,-0.0759179425420333
27,-0.00832415062202901,-0.0774230645849956,0.96320707834509,-0.204953563430743,0.963207078345675,-0.204953563439556,-0.00836230221463835,-0.0773278805325792
27.5,-0.00885327501354152,-0.0788322378270667,0.962227841114724,-0.208537801347773,0.962227841115006,-0.208537801356365,-0.0088919649283048,-0.0787345309174556
28,-0.0093935425031709,-0.0802380006747732,0.961234708991738,-0.212116410455227,0.961234708991732,-0.212116410463592,-0.00943274963761559,-0.0801377585913774
28.5,-0.00994491567955691,-0.0816402191208518,0.960227645107268,-0.215689332375711,0.960227645106992,-0.215689332383841,-0.00998461916323448,-0.0815374307871353
29,-0.0105073543011576,-0.0830387615827606,0.959206617347149,-0.219256504990704,0.959206617346618,-0.219256504998596,-0.0105475335701582,-0.0829334171020215
29.5,-0.0110808154874078,-0.0844334989217126,0.958171598217502,-0.222817862883723,0.958171598216731,-0.222817862891373,-0.0111214503518443,-0.0843255895133916
30,-0.0116652539013688,-0.0858243044512186,0.957122564703131,-0.226373337743215,0.957122564702136,-0.22637333775062,-0.0117063246058504,-0.0857138223844345
30.5,-0.012260621923776,-0.0872110539362687,0.956059498121186,-0.229922858728635,0.956059498119981,-0.229922858735792,-0.0123021092009197,-0.0870979924612363
31,-0.0128668698184428,-0.0885936255842013,0.954982383972091,-0.233466352802898,0.954982383970691,-0.233466352809807,-0.0129087549355419,-0.0884779788621595
31.5,-0.0134839458890363,-0.0899719000281576,0.953891211789454,-0.237003745034103,0.953891211787872,-0.237003745040761,-0.0135262106880482,-0.0898536630603934
32,-0.014111796627351,-0.0913457603041188,0.95278597499024,-0.240534958869309,0.952785974988489,-0.240534958875717,-0.014154423558389,-0.0912249288606262
32.5,-0.014750366853182,-0.0927150918222637,0.951666670726357,-0.244059916382839,0.95166667072445,-0.244059916388997,-0.0147933390017617,-0.0925916623705509
33,-0.0153995998460031,-0.0940797823334774,0.950533299738486,-0.247578538501389,0.950533299736436,-0.247578538507297,-0.015442900954285,-0.0939537519679678
33.5,-0.0160594374686561,-0.095439721891716,0.949385866212837,-0.251090745208109,0.949385866210656,-0.251090745213769,-0.016103051950984,-0.0953110882641739
34,-0.0167298202832902,-0.0967948028128354,0.948224377641364,-0.254596455727508,0.948224377639063,-0.254596455732923,-0.0167737332363162,-0.0966635640641851
34.5,-0.0174106876598205,-0.0981449196305459,0.947048844685816,-0.258095588693003,0.947048844683408,-0.258095588698174,-0.0174548848675404,-0.0980110743244156
35,-0.0181019778771779,-0.0994899690499582,0.945859281045923,-0.261588062298672,0.945859281043417,-0.261588062303603,-0.0181464458112008,-0.0993535161082586
35.5,-0.018803628217656,-0.100829849899278,0.94465570333188,-0.265073794436699,0.944655703329287,-0.265073794441391,-0.0188483540330351,-0.100690788540052
36,-0.0195155750546278,-0.102164463080038,0.943438130941281,-0.268552702821803,0.943438130938611,-0.268552702826259,-0.0195605465816002,-0.10202279275782
36.5,-0.020237753933968,-0.1034937115163,0.942206585940527,-0.272024705103908,0.94220658593779,-0.272024705108134,-0.0202829596659291,-0.10334943186517
37,-0.0209700996494576,-0.104817500103172,0.940961092950733,-0.275489718970104,0.940961092947938,-0.275489718974102,-0.0210155287275112,-0.104670610882635
37.5,-0.0217125463124933,-0.106135735654937,0.939701679038098,-0.278947662236899,0.939701679035254,-0.278947662240674,-0.0217581885068991,-0.105986236698789
38,-0.0224650274163875,-0.107448326853111,0.938428373608672,-0.282398452933692,0.938428373605787,-0.282398452937248,-0.0225108731052378,-0.107296218021355
38.5,-0.0232274758955758,-0.108755184194661,0.937141208307422,-0.285842009378253,0.937141208304504,-0.285842009381594,-0.0232735160410039,-0.108600465328542
39,-0.0239998241799925,-0.110056219940593,0.935840216921496,-0.289278250244976,0.935840216918552,-0.289278250248107,-0.0240460503022311,-0.109898890820816
39.5,-0.024782004244921,-0.1113513480651,0.934525435287575,-0.292707094626538,0.934525435284613,-0.292707094629464,-0.0248284083944891,-0.111191408373233
40,-0.0255739476565778,-0.112640484205466,0.933196901203148,-0.296128462089623,0.933196901200174,-0.29612846209235,-0.0256205223848895,-0.112477933488527
40.5,-0.0263755856136992,-0.113923545612818,0.931854654341598,-0.299542272725223,0.931854654338619,-0.299542272727755,-0.0264223239423571,-0.113758383251041
41,-0.0271868489853816,-0.115200451103893,0.930498736170932,-0.302948447194022,0.930498736167955,-0.302948447196365,-0.0272337443744114,-0.115032676281623
41.5,-0.0280076683454267,-0.116471121013892,0.92912918987603,-0.306346906767334,0.92912918987306,-0.306346906769492,-0.0280547146606956,-0.116300732693563
42,-0.028837974003411,-0.117735477150505,0.927746060284245,-0.309737573363964,0.927746060281288,-0.309737573365942,-0.028885165483452,-0.117562474049639
42.5,-0.0296776960327158,-0.118993442749203,0.926349393794217,-0.313120369583411,0.926349393791277,-0.313120369585217,-0.0297250272551832,-0.118817823320356
43,-0.0305267642957253,-0.12024494242982,0.924939238307749,-0.316495218735711,0.924939238304831,-0.316495218737349,-0.0305742301436677,-0.120066704843376
43.5,-0.0313851084663905,-0.121489902154487,0.923515643164611,-0.319862044868234,0.923515643161721,-0.319862044869709,-0.0314327040945361,-0.121309044284218
44,-0.0322526580503559,-0.122728249186936,0.922078659080139,-0.32322077278971,0.92207865907728,-0.323220772791028,-0.0323003788515722,-0.122544768598227
44.5,-0.0331293424028273,-0.123959912053214,0.920628338085465,-0.326571328091743,0.92062833808264,-0.32657132809291,-0.0331771839749257,-0.123773805993831
45,-0.0340150907443526,-0.125184820503789,0.919164733470287,-0.329913637168012,0.919164733467502,-0.329913637169033,-0.0340630488573663,-0.124996085897088
45.5,-0.0349098321746795,-0.126402905477098,0.917687899728031,-0.333247627231404,0.917687899725288,-0.333247627232284,-0.0349579027387625,-0.126211538917554
46,-0.0358134956848348,-0.127614099064476,0.916197892503289,-0.336573226329202,0.916197892500592,-0.336573226329949,-0.0358616747188844,-0.127420096815415
46.5,-0.0367260101675815,-0.128818334476522,0.91469476854142,-0.339890363356577,0.914694768538771,-0.339890363357195,-0.0367742937687041,-0.128621692469922
47,-0.0376473044263743,-0.130015546010839,0.913178585640208,-0.343198968068449,0.913178585637608,-0.343198968068945,-0.0376956887402821,-0.129816259849093
47.5,-0.0385773071829528,-0.131205669021152,0.911649402603461,-0.346498971089931,0.911649402600916,-0.346498971090307,-0.0386257883753734,-0.131003733980655
48,-0.0395159470836775,-0.132388639887786,0.910107279196472,-0.349790303925418,0.910107279193982,-0.349790303925682,-0.039564521312861,-0.132184050924235
48.5,-0.0404631527047338,-0.133564395989472,0.908552276103223,-0.353072898966484,0.90855227610079,-0.353072898966641,-0.0405118160951033,-0.133357147744739
49,-0.0414188525562986,-0.134732875676454,0.906984454885257,-0.356346689498656,0.906984454882883,-0.356346689498713,-0.0414676011733097,-0.134522962486928
49.5,-0.0423829750857623,-0.135894018244865,0.905403877942139,-0.359611609707172,0.905403877939825,-0.359611609707132,-0.0424318049120123,-0.135681434151131
50,-0.043355448680115,-0.137047763912359,0.903810608473398,-0.362867594681806,0.903810608471146,-0.362867594681676,-0.0434043555927364,-0.136832502670104
50.5,-0.0443362016675617,-0.138194053794947,0.902204710441909,-0.366114580420843,0.902204710439721,-0.366114580420627,-0.0443851814169272,-0.137976108886971
51,-0.0453251623184476,-0.139332829884997,0.900586248538623,-0.369352503834248,0.900586248536499,-0.369352503833951,-0.0453742105082091,-0.139112194534229
51.5,-0.0463222588455804,-0.140464035030387,0.898955288148569,-0.372581302746126,0.898955288146509,-0.372581302745753,-0.046371370914057,-0.14024070221378
52,-0.0473274194040069,-0.141587612914776,0.897311895318084,-0.375800915896521,0.897311895316089,-0.375800915896077,-0.0473765906069176,-0.141361575377991
52.5,-0.0483405720903017,-0.142703508038914,0.895656136723199,-0.379011282942574,0.895656136721269,-0.379011282942064,-0.0483897974848588,-0.142474758311689
53,-0.0493616449414381,-0.143811665703017,0.893988079639122,-0.382212344459147,0.893988079637259,-0.382212344458577,-0.0494109193717874,-0.143580196115114
53.5,-0.0503905659332909,-0.144912031990126,0.892307791910773,-0.385404041938896,0.892307791908975,-0.385404041938269,-0.0504398840172869,-0.144677834687772
54,-0.0514272629788178,-0.146004553750435,0.890615341924302,-0.388586317791878,0.890615341922569,-0.3885863177912,-0.0514766190961286,-0.145767620713166
54.5,-0.0524716639259677,-0.147089178586538,0.888910798579568,-0.391759115344696,0.888910798577901,-0.39175911534397,-0.0525210522074806,-0.146849501644356
55,-0.0535236965553602,-0.148165854839582,0.887194231263514,-0.394922378839235,0.887194231261912,-0.394922378838467,-0.0535731108738744,-0.14792342569035
55.5,-0.0545832885777775,-0.149234531576271,0.885465709824393,-0.398076053431017,0.885465709822855,-0.398076053430211,-0.0546327225399523,-0.148989341803265
56,-0.0556503676314973,-0.150295158576694,0.883725304546826,-0.401220085187185,0.883725304545353,-0.401220085186344,-0.0556998145710238,-0.150047199666234
56.5,-0.0567248612795043,-0.151347686322949,0.881973086127637,-0.404354421084159,0.881973086126227,-0.404354421083287,-0.0567743142514826,-0.151096949682053
57,-0.0578066970066188,-0.152392065988519,0.880209125652426,-0.40747900900498,0.880209125651078,-0.407479009004083,-0.0578561487830884,-0.152138542962506
57.5,-0.058895802216554,-0.153428249428383,0.878433494572861,-0.41059379773637,0.878433494571576,-0.41059379773545,-0.0589452452831574,-0.153171931318361
58,-0.0599921042289446,-0.154456189169814,0.876646264684651,-0.413698736965504,0.876646264683425,-0.413698736964566,-0.0600415307826732,-0.154197067250013
58.5,-0.0610955302763549,-0.155475838403849,0.874847508106166,-0.416793777276545,0.874847508105,-0.416793777275591,-0.0611449322243465,-0.155213903938721
59,-0.0622060075013042,-0.156487150977393,0.87303729725768,-0.419878870146925,0.873037297256572,-0.41987887014596,-0.062255376460648,-0.156222395238454
59.5,-0.0633234629533149,-0.157490081385926,0.871215704841213,-0.422953967943421,0.871215704840161,-0.422953967942449,-0.0633727902518211,-0.157222495668281
60,-0.0644478235860043,-0.158484584766795,0.869382803820943,-0.426019023917998,0.869382803819948,-0.42601902391702,-0.0644971002638983,-0.158214160405304
60.5,-0.0655790162542486,-0.159470616893055,0.867538667404165,-0.429073992203471,0.867538667403224,-0.429073992202491,-0.0656282330667444,-0.159197345278115
61,-0.0667169677114097,-0.160448134167834,0.865683369022783,-0.43211882780897,0.865683369021894,-0.432118827807993,-0.0667661151321202,-0.160172006760723
61.5,-0.0678616046066696,-0.161417093619208,0.86381698231529,-0.435153486615245,0.863816982314453,-0.435153486614272,-0.0679106728318083,-0.161138101966977
62,-0.0690128534824458,-0.162377452895537,0.861939581109263,-0.438177925369776,0.861939581108475,-0.43817792536881,-0.0690618324357793,-0.162095588645406
62.5,-0.0701706407719402,-0.163329170261267,0.860051239404297,-0.441192101681752,0.860051239403557,-0.441192101680796,-0.0702195201104437,-0.163044425174517
