"Freq [GHz]","re(St(P1,P1)) []","im(St(P1,P1)) []","re(St(P1,P2)) []","im(St(P1,P2)) []","re(St(P2,P1)) []","im(St(P2,P1)) []","re(St(P2,P2)) []","im(St(P2,P2)) []"
0,0.00374222878815544,0,0.996270356219611,0,0.996270398085471,0,0.00374225762703873,0
0.5,0.0040549091427593,0.00119725154335981,0.995912743546846,-0.00440274378174266,0.995912735143683,-0.00440273746673725,0.00405482565400206,0.00119735200845739
1,0.00436671481602247,0.0019979765501219,0.995502026265513,-0.00839803580982235,0.99550202828323,-0.00839803557830265,0.00436649762579222,0.00199819943389556
1.5,0.00449847920064883,0.00263353896059115,0.995197213867186,-0.0124586740943329,0.995197215627368,-0.0124586737945158,0.00449786819510933,0.00263376662107007
2,0.00456477051686477,0.00331408655276988,0.994844771122485,-0.0164037452547632,0.994844772576968,-0.0164037449269152,0.00456376750967991,0.00331443879939286
2.5,0.0046113035840456,0.00402268824972296,0.994477955924153,-0.0202458068695321,0.994477957062474,-0.02024580654993,0.0046098707360569,0.00402319263728756
3,0.00465230338364897,0.00474880113281628,0.994114290416014,-0.0240066020747456,0.99411429125769,-0.024006601791271,0.00465037882616137,0.00474946769088547
3.5,0.00469319816283109,0.00548689606459263,0.993759198584431,-0.0277079853892666,0.99375919916764,-0.027707985159763,0.00469070835435037,0.00548773227214738
4,0.00473642114227557,0.00623403930347699,0.993411153203856,-0.0313679586109181,0.993411153574911,-0.0313679584436528,0.00473328625098457,0.00623505355045673
4.5,0.00478321614244059,0.00698865038697249,0.993065605821997,-0.034999921710714,0.993065606027658,-0.0349999216060297,0.00477935236850957,0.00698985284535247
5,0.00483429780453348,0.00774989308708207,0.992717281157571,-0.0386132862502819,0.992717281240505,-0.0386132862027928,0.00482961840124041,0.00775129593399093
5.5,0.00489012526671173,0.00851736438809247,0.992361270770673,-0.0422144195591745,0.992361270767361,-0.0422144195598939,0.00488454097347724,0.00851898186781064
6,0.00495102744865594,0.00929092715575841,0.991993431942941,-0.0458075042300621,0.991993431883212,-0.0458075042681543,0.00494444663810345,0.00929277561382058
6.5,0.00501726523676815,0.0100706155838672,0.991610443943689,-0.0493952039534165,0.991610443851146,-0.049395204017519,0.00500959391207223,0.0100727135104925
7,0.00508906453363422,0.0108565794242264,0.991209721870623,-0.0529791440212986,0.991209721763487,-0.052979144100374,0.00508020624143657,0.0108589475167795
7.5,0.00516663491778324,0.0116490498777875,0.99078928807904,-0.05656024646595,0.99078928797109,-0.0565602465497967,0.00515649060955226,0.0116517111237995
8,0.00525018079247752,0.0124483181036696,0.99034764539094,-0.0601389600251894,0.990347645292416,-0.0601389601046973,0.00523864865155743,0.0124512978841027
8.5,0.0053399084328416,0.0132547213588623,0.989883668269247,-0.0637154168010765,0.989883668187631,-0.0637154168683045,0.00532688367644751,0.0132580475710053
9,0.00543603071138854,0.014068633909873,0.989396515345619,-0.0672895386970902,0.989396515286289,-0.0672895387452561,0.0054214053725673,0.0140723371096332
9.5,0.0055387704748055,0.0148904610204763,0.98888556152628,-0.0708611096920055,0.988885561493018,-0.0708611097154073,0.00552243316697582,0.0148945745842255
10,0.00564836312586253,0.01572063497842,0.988350346295085,-0.0744298249152395,0.98835034629049,-0.0744298249091315,0.00563019879119037,0.015725195285011
10.5,0.00579604126053068,0.0164946852846084,0.987845178238238,-0.0779813377461478,0.987845178233922,-0.0779813377397991,0.00577638696913924,0.0164993932485453
11,0.00595078681026634,0.0172669647851782,0.987329989688076,-0.0815186588559476,0.987329989684053,-0.0815186588493777,0.00592954993583605,0.0172718170143513
11.5,0.00611257779850211,0.0180373855309357,0.986805427493407,-0.0850425474168004,0.986805427489684,-0.0850425474100307,0.00608966352496024,0.0180423803368424
12,0.00628139066466044,0.0188058592420139,0.986272030403343,-0.0885537600668931,0.986272030399929,-0.0885537600599458,0.00625670203375608,0.0188109968569821
12.5,0.00645720019423945,0.0195722973342898,0.985730238282402,-0.0920530404475972,0.985730238279304,-0.0920530404404909,0.00643063817184772,0.0195775801282343
13,0.00663997944773435,0.0203366109517553,0.985180401606325,-0.0955411108342146,0.985180401603545,-0.0955411108269706,0.00661144300918813,0.0203420436469814
13.5,0.0068296996887211,0.0210987110050498,0.98462279093588,-0.0990186656529306,0.98462279093342,-0.0990186656455743,0.0067990859234086,0.0211043008875027
14,0.00702633031156241,0.0218585082164382,0.984057606135962,-0.102486366660949,0.984057606133823,-0.102486366653497,0.00699353454685552,0.0218642653418111
14.5,0.00722983876914864,0.0226159131715473,0.983484985169072,-0.10594483956456,0.983484985167252,-0.105944839557035,0.00719475471363908,0.0226218505645082
15,0.0074401905011708,0.023370836378009,0.982905012345202,-0.109394671857284,0.982905012343698,-0.109394671849707,0.00740271040703147,0.0233769702228352
15.5,0.00765734886346248,0.0241231883312656,0.982317725953971,-0.112836411674048,0.982317725952778,-0.112836411666434,0.00761736370760187,0.0241295381520952
16,0.00788127505895704,0.0248728795877073,0.981723125240229,-0.11627056747536,0.981723125239343,-0.11627056746773,0.00783867474247803,0.0248794684166027
16.5,0.00811192807088347,0.0256198208452392,0.981121176711942,-0.119697608395582,0.981121176711355,-0.119697608387953,0.00806660163617588,0.0256266753762446
17,0.00834926459882723,0.0263639230314179,0.98051181978998,-0.123117965109978,0.980511819789684,-0.123117965102365,0.00830110046345661,0.0263710737587939
17.5,0.00859323899833972,0.0271050973991751,0.979894971824631,-0.126532031095606,0.979894971824619,-0.126532031088024,0.00854212520469409,0.0271125787380098
18,0.00884380322480485,0.0278432556301151,0.979270532513982,-0.129940164180211,0.979270532514244,-0.129940164172675,0.0087896277042727,0.0278511060175655
18.5,0.0091009067822919,0.0285783099453321,0.978638387765936,-0.133342688290825,0.978638387766464,-0.133342688283349,0.00904355763255023,0.0285865719207896
19,0.00936449667816706,0.0293101732235965,0.977998413049242,-0.136739895329538,0.977998413050023,-0.136739895322131,0.0093038624519467,0.0293188934861757
19.5,0.00963451738422963,0.0300387591267079,0.977350476280209,-0.140132047117777,0.977350476281235,-0.140132047110453,0.00957048738774163,0.0300479885685347
20,0.0099109108051782,0.0307639822317216,0.976694440291471,-0.143519377362414,0.97669444029273,-0.143519377355184,0.00984337540416891,0.0307737759456703
20.5,0.0101936162551912,0.0314857581696937,0.976030164927524,-0.146902093607286,0.976030164929006,-0.146902093600156,0.0101224671864225,0.0314961754303411
21,0.0104825704434264,0.0322040037704951,0.97535750880948,-0.15028037914231,0.975357508811172,-0.150280379135292,0.0104077011291827,0.0322151079872515
21.5,0.01077770746921,0.0329186372131116,0.974676330808482,-0.153654394849646,0.974676330810375,-0.153654394842746,0.010699013332275,0.0329304958547323
22,0.0110789588276852,0.0336295781808666,0.973986491264154,-0.157024280972106,0.973986491266235,-0.157024280965332,0.0109963376040769,0.0336422626707233
22.5,0.0113862534266456,0.0343367480207704,0.97328785298112,-0.160390158793969,0.973287852983377,-0.160390158787325,0.0112996054732634,0.0343503336025801
23,0.011699517615231,0.0350400699062061,0.972580282033398,-0.163752132228091,0.972580282035821,-0.163752132221584,0.0116087462094734,0.0350546354801535
23.5,0.0120186752251184,0.0357394690020483,0.971863648403351,-0.167110289306253,0.971863648405929,-0.167110289299887,0.0119236868534475,0.0357550969315783
24,0.0123436476247732,0.0364348726311809,0.971137826478859,-0.170464703572084,0.971137826481581,-0.170464703565862,0.0122443522571513,0.0364516485210244
24.5,0.0126743537872282,0.0371262104413406,0.97040269542966,-0.173815435377659,0.970402695432516,-0.173815435371585,0.0125706651343545,0.0371442228877128
25,0.0130107103717906,0.03781341457112,0.969658139481228,-0.177162533086238,0.969658139484205,-0.177162533080315,0.0129025461220852,0.037832754885339
25.5,0.0133526318199546,0.038496419813868,0.968904048102255,-0.180506034184565,0.968904048105344,-0.180506034178797,0.0132399138533123,0.0385171817210432
26,0.0137000304656855,0.0391751637781965,0.968140316119729,-0.183845966308846,0.96814031612292,-0.183845966303233,0.0135826850411344,0.0391974430929363
26.5,0.0140528166601138,0.0398495870437179,0.967366843773717,-0.18718234818892,0.967366843777,-0.187182348183463,0.0139307745746815,0.0398734813252193
27,0.0144108989105491,0.0405196333106366,0.966583536722315,-0.190515190515415,0.966583536725679,-0.190515190510115,0.0142840956268306,0.0405452414998106
27.5,0.0147741840335648,0.0411852495417491,0.96579030600576,-0.193844496734767,0.965790306009196,-0.193844496729625,0.0146425597737547,0.0412126715833869
28,0.0151425773217577,0.0418463860954219,0.964987067977411,-0.197170263776989,0.96498706798091,-0.197170263772006,0.0150060771261959,0.0418757225487101
28.5,0.0155159827236389,0.0425029968481401,0.964173744208174,-0.200492482720944,0.964173744211727,-0.200492482716118,0.0153745564722649,0.0425343484890897
29,0.015894303035939,0.0431550393052125,0.963350261369964,-0.203811139401775,0.963350261373562,-0.203811139397105,0.0157479054314257,0.0431885067248081
29.5,0.0162774401074486,0.0438024746982837,0.962516551102935,-0.207126214964936,0.96251655110657,-0.207126214960422,0.0161260306192163,0.0438381579003595
30,0.0166652950533847,0.0444452680683933,0.961672549870487,-0.210437686370992,0.96167254987415,-0.210437686366634,0.0165088378221223,0.0444832660713739
30.5,0.017057768479072,0.0450833883333397,0.960818198805385,-0.213745526855238,0.960818198809068,-0.213745526851032,0.0168962321818928,0.0451237987800868
31,0.0174547607116374,0.0457168083383157,0.959953443549812,-0.217049706345782,0.959953443553508,-0.217049706341729,0.0172881183884618,0.0457597271183254
31.5,0.0178561720382264,0.0463455048887917,0.959078234091671,-0.220350191843652,0.959078234095372,-0.220350191839749,0.0176844008805098,0.0463910257770006
32,0.0182619029491765,0.0469694587648855,0.958192524599071,-0.223646947768096,0.958192524602771,-0.22364694776434,0.0180849840525841,0.0470176730812055
32.5,0.0186718543844381,0.0475886547165121,0.957296273254573,-0.226939936270113,0.957296273258264,-0.226939936266503,0.0184897724675819,0.0476396510100765
33,0.0190859279814666,0.0482030814388486,0.956389442090474,-0.230229117516975,0.956389442094149,-0.230229117513507,0.0188986710732861,0.0482569452007278
33.5,0.0195040263227336,0.0488127315278304,0.955471996826168,-0.233514449950262,0.955471996829821,-0.233514449946934,0.019311585421571,0.0488695449356666
34,0.0199260531809564,0.0494176014155561,0.954543906708411,-0.236795890519793,0.954543906712036,-0.236795890516603,0.0197284218887891,0.0494774431132494
34.5,0.0203519137601359,0.0500176912857273,0.95360514435512,-0.24007339489557,0.953605144358711,-0.240073394892514,0.0201490878958023,0.0500806362008637
35,0.0207815149304759,0.0506130049694395,0.952655685603206,-0.243346917659709,0.952655685606758,-0.243346917656784,0.0205734921260718,0.0506791241707252
35.5,0.0212147654553003,0.0512035498218373,0.951695509360813,-0.246616412480167,0.951695509364319,-0.24661641247737,0.0210015447401747,0.0512729104182839
36,0.0216515762081362,0.0517893365803701,0.950724597464208,-0.249881832267904,0.950724597467664,-0.249881832265232,0.0214331575851248,0.0518620016634614
36.5,0.0220918603782045,0.0523703792056041,0.949742934539523,-0.253143129318965,0.949742934542923,-0.253143129316415,0.0218682443968706,0.0524464078350959
37,0.0225355336626673,0.052946694705666,0.94875050786942,-0.256400255442866,0.948750507872761,-0.256400255440434,0.0223067209943791,0.0530261419391118
37.5,0.0229825144441099,0.0535183029456601,0.947747307264748,-0.259653162078527,0.947747307268023,-0.25965316207621,0.0227485054637605,0.0536012199111675
38,0.0234327239518725,0.0540852264435046,0.946733324941173,-0.262901800398862,0.94673332494438,-0.262901800396657,0.0231935183309722,0.0541716604546494
38.5,0.0238860864060311,0.0546474901537608,0.945708555400745,-0.266146121405097,0.945708555403878,-0.266146121402998,0.0236416827217117,0.0547374848650541
39,0.0243425291429838,0.0552051212412259,0.944672995318319,-0.269386076011705,0.944672995321376,-0.269386076009711,0.0240929245072458,0.0552987168419505
39.5,0.0248019827218244,0.0557581488460583,0.943626643432741,-0.272621615122856,0.943626643435717,-0.272621615120962,0.0245471724350212,0.0558553822898507
40,0.0252643810108544,0.0563066038423627,0.942569500442672,-0.275852689701114,0.942569500445563,-0.275852689699317,0.0250043582430761,0.0564075091094238
40.5,0.0257296612538315,0.0568505185921366,0.941501568906927,-0.27907925082912,0.94150156890973,-0.279079250827415,0.0254644167574014,0.056955126980589
41,0.0261977641157326,0.0573899266965638,0.940422853149175,-0.282301249764871,0.940422853151887,-0.282301249763255,0.0259272859715892,0.0574982671391258
41.5,0.0266686337080475,0.0579248627465931,0.939333359166864,-0.285518637991189,0.939333359169482,-0.285518637989658,0.0263929071082727,0.0580369621484653
42,0.0271422175938109,0.0584553620747104,0.938233094544205,-0.288731367259913,0.938233094546726,-0.288731367258464,0.0268612246620429,0.0585712456683904
42.5,0.0276184667727886,0.0589814605097962,0.937122068369068,-0.291939389631269,0.937122068371489,-0.291939389629897,0.0273321864237198,0.0591011522223872
43,0.0280973356474165,0.0595031941368303,0.936000291153626,-0.295142657508877,0.936000291155946,-0.295142657507579,0.0278057434860258,0.059626716965363
43.5,0.0285787819702825,0.0600205990631439,0.9348677747586,-0.29834112367077,0.934867774760816,-0.298341123669542,0.0282818502309141,0.0601479754534535
44,0.0290627667740755,0.0605337111927902,0.933724532320936,-0.301534741296801,0.933724532323047,-0.30153474129564,0.0287604642989466,0.0606649634175584
44.5,0.0295492542850945,0.0610425660104696,0.932570578184786,-0.304723463992745,0.932570578186789,-0.304723463991645,0.0292415465413182,0.0611777165422049
45,0.0300382118215243,0.0615471983763067,0.931405927835621,-0.307907245811398,0.931405927837514,-0.307907245810356,0.029725060955248,0.0616862702512329
45.5,0.0305296096777759,0.0620476423326106,0.930230597837357,-0.311086041270952,0.930230597839138,-0.311086041269965,0.030210974603628,0.0621906595017092
46,0.0310234209962978,0.0625439309235962,0.929044605772331,-0.314259805370879,0.929044605774,-0.314259805369944,0.0306992575199203,0.0626909185873403
46.5,0.031519621628299,0.0630360960288725,0.927847970184022,-0.317428493605538,0.927847970185577,-0.317428493604651,0.0311898825994316,0.0631870809525581
47,0.032018189984882,0.0635241682113337,0.926640710522361,-0.320592061975726,0.9266407105238,-0.320592061974882,0.0316828254781685,0.0636791790182669
47.5,0.0325191068800971,0.0640081765799279,0.925422847091529,-0.323750466998336,0.925422847092851,-0.323750466997532,0.0321780644005593,0.0641672440201508
48,0.033022355367429,0.0644881486675852,0.924194401000108,-0.326903665714315,0.924194401001314,-0.326903665713548,0.0326755800773851,0.0646513058602334
48.5,0.033527920571214,0.0649641103244878,0.922955394113493,-0.330051615695036,0.922955394114581,-0.330051615694302,0.0331753555353057,0.0651313929722785
49,0.0340357895144417,0.0654360856266352,0.921705849008428,-0.333194275047259,0.921705849009397,-0.333194275046554,0.0336773759593719,0.0656075322014298
49.5,0.0345459509443627,0.0659040967995936,0.920445788929596,-0.336331602416785,0.920445788930446,-0.336331602416106,0.0341816285299426,0.0660797486983662
50,0.0350583951572288,0.0663681641571228,0.919175237748143,-0.339463556990922,0.919175237748874,-0.339463556990265,0.0346881022553822,0.0665480658280846
50.5,0.0355731138234661,0.0668283060543027,0.917894219922055,-0.342590098499868,0.917894219922666,-0.342590098499231,0.0351967878019088,0.0670125050932906
51,0.0360900998144387,0.0672845388546517,0.916602760458287,-0.345711187217111,0.916602760458778,-0.345711187216489,0.0357076773219092,0.0674730860722561
51.5,0.0366093470319233,0.0677368769106415,0.915300884876582,-0.348826783958924,0.915300884876953,-0.348826783958315,0.036220764281977,0.0679298263708465
52,0.0371308502412789,0.0681853325569362,0.913988619174875,-0.351936850083036,0.913988619175128,-0.351936850082436,0.0367360432918751,0.0683827415883671
52.5,0.0376546049092183,0.068629916115623,0.912665989796233,-0.355041347486556,0.912665989796366,-0.355041347485962,0.0372535099355347,0.0688318452967185
53,0.0381806070469668,0.0690706359126336,0.911333023597231,-0.358140238603217,0.911333023597245,-0.358140238602626,0.0377731606051289,0.0692771490322925
53.5,0.0387088530595091,0.0695074983045414,0.909989747817724,-0.361233486399985,0.90998974781762,-0.361233486399394,0.0382949923391594,0.0697186622999746
54,0.0392393396015047,0.0699405077148663,0.908636190051941,-0.364321054373111,0.908636190051718,-0.364321054372517,0.0388190026654132,0.0701563925885289
54.5,0.0397720634403625,0.0703696666790246,0.90727237822082,-0.367402906543656,0.90727237822048,-0.367402906543056,0.0393451894495381,0.0705903453966044
55,0.0403070213268664,0.0707949758970433,0.905898340545571,-0.370479007452547,0.905898340545115,-0.370479007451938,0.0398735507498946,0.0710205242685658
55.5,0.0408442098736482,0.0712164342931743,0.904514105522369,-0.373549322155204,0.904514105521798,-0.373549322154583,0.0404040846792415,0.0714469308393227
56,0.0413836254417137,0.0716340390815372,0.903119701898149,-0.376613816215772,0.903119701897462,-0.376613816215137,0.0409367892737209,0.0718695648872948
56.5,0.0419252640351645,0.0720477858369766,0.901715158647452,-0.379672455700998,0.901715158646653,-0.379672455700346,0.0414716623695116,0.0722884243946862
57,0.0424691212041516,0.072457668570303,0.900300504950275,-0.382725207173783,0.900300504949363,-0.382725207173112,0.042008701487431,0.0727035056141989
57.5,0.0430151919560555,0.0728636798071534,0.898875770170868,-0.385772037686448,0.898875770169845,-0.385772037685754,0.0425479037256811,0.0731148031413571
58,0.0435634706748124,0.0732658106697387,0.897440983837468,-0.388812914773717,0.897440983836335,-0.388812914772998,0.0430892656608599,0.0735223099916256
58.5,0.0441139510482502,0.0736640509607676,0.895996175622898,-0.391847806445476,0.895996175621657,-0.391847806444731,0.0436327832572741,0.0739260176815206
59,0.0446666260032521,0.0740583892489074,0.894541375326014,-0.394876681179303,0.894541375324666,-0.39487668117853,0.0441784517845334,0.0743259163129604
59.5,0.0452214876485254,0.0744488129551683,0.893076612853956,-0.397899507912811,0.893076612852503,-0.397899507912006,0.044726265743337,0.074721994660124
60,0.0457785272247132,0.0748353084396616,0.891601918205184,-0.400916256035799,0.891601918203627,-0.400916256034961,0.0452762187993115,0.0751142402581337
60.5,0.046337735061551,0.0752178610882044,0.890117321453239,-0.403926895382259,0.890117321451582,-0.403926895381385,0.0458283037247072,0.0755026394929184
61,0.0468991005417685,0.0755964553983305,0.888622852731241,-0.406931396222236,0.888622852729483,-0.406931396221325,0.046382512347724,0.0758871776916588
61.5,0.0474626120713842,0.0759710750642616,0.887118542217049,-0.409929729253558,0.887118542215193,-0.409929729252608,0.0469388355091923,0.0762678392132587
62,0.0480282570560597,0.0763417030604989,0.885604420119101,-0.412921865593462,0.885604420117148,-0.412921865592471,0.0474972630263145,0.0766446075383431
62.5,0.0485960218831502,0.0767083217236829,0.88408051666287,-0.415907776770111,0.884080516660824,-0.415907776769078,0.0480577836631394,0.077017465358324
63,0.049165891909088,0.0770709128324512,0.882546862077951,-0.418887434714038,0.882546862075812,-0.41888743471296,0.0486203851074258,0.0773863946631105
63.5,0.0497378514517362,0.0774294576850452,0.881003486585707,-0.421860811749499,0.881003486583479,-0.421860811748377,0.0491850539535416,0.0777513768271151
64,0.0503118837873577,0.0777839371744625,0.879450420387514,-0.424827880585779,0.879450420385198,-0.42482788058461,0.0497517756910279,0.0781123926932229
