"Freq [GHz]","re(St(P1,P1)) []","im(St(P1,P1)) []","re(St(P1,P2)) []","im(St(P1,P2)) []","re(St(P2,P1)) []","im(St(P2,P1)) []","re(St(P2,P2)) []","im(St(P2,P2)) []"
0,0.0043168205959887,0,0.995695008008624,0,0.99569500781945,0,0.00431682213155682,0
0.5,0.00472662940205026,0.000859589910174208,0.995228191032169,-0.00561572497663221,0.995228191332217,-0.00561572508351205,0.00472653816908064,0.000859981374215835
1,0.00510377168872012,0.00121004769900068,0.994717198027388,-0.0107070746838218,0.994717197959623,-0.0107070746682076,0.00510348414610462,0.00121095129916782
1.5,0.00523814261564759,0.00136999871520516,0.994287814594371,-0.0158684714944393,0.994287814537024,-0.0158684714762849,0.00523745576709977,0.00137146941441202
2,0.00529813697019499,0.0015930075269992,0.993806967178896,-0.0208842529684397,0.993806967132089,-0.0208842529509496,0.0052972250651333,0.00159516418980843
2.5,0.00533488645076119,0.00185126082914167,0.993319579978377,-0.0257817637168714,0.993319579941066,-0.0257817637019659,0.00533381648405573,0.00185410968126298
3,0.0053635038026032,0.00213064243877881,0.992844473289737,-0.0305937615680438,0.992844473260545,-0.0305937615564922,0.00536229790187193,0.0021341742239418
3.5,0.00538961699854301,0.00242421185605046,0.992383715097138,-0.0353471960386109,0.992383715074749,-0.0353471960304397,0.00538827818240062,0.00242841671147076
4,0.00541571055436618,0.00272840887830661,0.991931382484348,-0.0400608191885823,0.991931382467613,-0.0400608191834291,0.00541423264266561,0.00273327844022297
4.5,0.00544303840622007,0.00304136776903263,0.991478926484977,-0.0447465315863251,0.991478926472911,-0.0447465315836606,0.0054414101568705,0.00304689506300271
5,0.00547231146868032,0.00336213938320107,0.991017782868049,-0.0494114679754745,0.991017782859798,-0.0494114679747408,0.00547051843819402,0.00336831839352669
5.5,0.00550397977132899,0.00369030757557809,0.990540399674101,-0.0540597353012213,0.990540399668908,-0.0540597353018946,0.00550200518662969,0.00369713284524131
6,0.0055383608880788,0.00402578804483156,0.990040502145062,-0.0586936127926023,0.990040502142242,-0.0586936127942446,0.00553618604783912,0.00403325435023838
6.5,0.00557570357960691,0.0043687174089051,0.989513039247058,-0.0633143103576739,0.989513039245988,-0.0633143103599281,0.00557330801134381,0.00437681949478819
7,0.00561622173615006,0.00471938972123898,0.988954021966685,-0.0679224243187857,0.988954021966798,-0.0679224243213818,0.00561358321458649,0.00472812207440043
7.5,0.00566011376190168,0.00507821934647357,0.988360343113285,-0.0725182021750843,0.988360343114065,-0.0725182021778314,0.00565720824019544,0.00508757599062903
8,0.00570757443850678,0.00544571925197435,0.987729612373415,-0.0771016922898138,0.987729612374398,-0.077101692292592,0.00570437591808759,0.00545569355013509
8.5,0.0057588027528479,0.00582248877716474,0.987060016270741,-0.0816728263638637,0.987060016271511,-0.0816728263666127,0.005755283104391,0.00583307323104254
9,0.00581400751520855,0.00620920754175991,0.986350203191124,-0.0862314636776924,0.986350203191316,-0.0862314636803942,0.00581013625597854,0.00622039357954218
9.5,0.00587341177711259,0.00660663356708291,0.985599190434845,-0.0907774141922166,0.985599190434137,-0.0907774141949043,0.00586915580551473,0.00661841131194674
10,0.0059372566381366,0.00701560448672378,0.984806289599894,-0.0953104503671067,0.984806289598009,-0.0953104503698272,0.00593257992340385,0.007027962498805
10.5,0.00604675402504498,0.0073509247207868,0.984074944870158,-0.0998496946432246,0.984074944868171,-0.0998496946461174,0.00604167893000274,0.00736385914568061
11,0.00616116685622484,0.00768404555969937,0.983327103281387,-0.104369727252015,0.983327103279285,-0.104369727255065,0.0061556691649263,0.00769755168094033
11.5,0.00628043692578854,0.00801487688089964,0.982563631782543,-0.108871514943373,0.982563631780317,-0.10887151494657,0.00627449182602921,0.00802895006144233
12,0.00640450391107424,0.00834333047400104,0.981785255691782,-0.113356023777818,0.981785255689424,-0.113356023781148,0.00639808598555186,0.00835796619285345
12.5,0.00653330544626374,0.00866932010038157,0.980992570393964,-0.117824205212386,0.980992570391466,-0.117824205215838,0.00652638866591737,0.00868451398968251
13,0.006666777197842,0.00899276154956485,0.980186053475608,-0.122276984892349,0.980186053472965,-0.12227698489591,0.00665933491737862,0.00900850943197939
13.5,0.00680485294173745,0.00931357269229816,0.979366076898137,-0.12671525389301,0.979366076895344,-0.126715253896666,0.00679685789735173,0.00932987061860313
14,0.00694746464197921,0.00963167353034278,0.978532918899556,-0.131139862132679,0.978532918896611,-0.131139862136413,0.00693888895127228,0.009648517817058
14.5,0.00709454253071987,0.00994698624287338,0.977686775394163,-0.13555161367231,0.977686775391066,-0.135551613676113,0.00708535769480156,0.00996437350981205
15,0.0072460151894579,0.0102594352295031,0.976827770708441,-0.13995126362422,0.97682777070519,-0.139951263628077,0.00723619209721424,0.0102773624371277
15.5,0.00740180963129139,0.0105689471498733,0.975955967548497,-0.144339516408285,0.975955967545094,-0.144339516412183,0.00739131856580248,0.0105874116363087
16,0.00756185138406648,0.0108754509598628,0.975071376140971,-0.148717025115559,0.975071376137418,-0.148717025119485,0.00755066203112569,0.010894450477442
16.5,0.00772606457423305,0.0111788779443147,0.97417396252592,-0.153084391764029,0.974173962522221,-0.153084391767973,0.00771414603294371,0.0111984106955592
17,0.00789437201127804,0.0114791617463688,0.973263656008233,-0.157442168256992,0.973263656004391,-0.157442168260938,0.00788169280666665,0.011499226419255
17.5,0.00806669527255882,0.0117762383933711,0.972340355794627,-0.161790857880171,0.972340355790647,-0.161790857884112,0.00805322337016218,0.0117968341957848
18,0.00824295478840154,0.0120700463193737,0.971403936857719,-0.166130917198086,0.971403936853606,-0.166130917202011,0.00822865761076036,0.0120911730126392
18.5,0.00842306992730935,0.012360526384287,0.970454255078013,-0.170462758232625,0.970454255073775,-0.170462758236523,0.00840791437230382,0.0123821843156682
19,0.00860695908113129,0.0126476218896716,0.9694911517201,-0.174786750827198,0.969491151715743,-0.17478675083106,0.00859091154208497,0.0126698120237294
19.5,0.00879453975005356,0.0129312785912523,0.968514457301693,-0.179103225117759,0.968514457297223,-0.179103225121578,0.00877756613752972,0.0129540025399799
20,0.00898572862727592,0.0132114447081522,0.967523994914261,-0.183412474047723,0.967523994909686,-0.183412474051491,0.00896779439248313,0.0132347047597876
20.5,0.00918044168323787,0.0134880709289638,0.966519583052409,-0.187714755877174,0.966519583047736,-0.187714755880884,0.00916151184295438,0.0135118700754009
21,0.00937859424926363,0.0137611104146584,0.965501038006454,-0.192010296648254,0.965501038001691,-0.192010296651898,0.00935863341219331,0.0137854523773631
21.5,0.00958010110050517,0.0140305187984162,0.964468175869203,-0.196299292578034,0.964468175864359,-0.196299292581609,0.00955907349496271,0.0140554080527959
22,0.00978487653806079,0.0142962541824625,0.96342081420405,-0.200581912358122,0.963420814199133,-0.200581912361622,0.00976274604089522,0.0143216959806018
22.5,0.00999283447015964,0.0145582771319663,0.96235877341743,-0.204858299346621,0.962358773412447,-0.204858299350041,0.00996956463680457,0.0145842775236851
23,0.0102038884922966,0.0148165506660756,0.96128187787459,-0.209128573643281,0.961281877869548,-0.209128573646618,0.0101794425878507,0.0148431165182434
23.5,0.01041795196622,0.0150710402461938,0.960189956793646,-0.213392834042773,0.960189956788556,-0.213392834046022,0.0103922929974462,0.0150981792602543
24,0.0106349380976786,0.0153217137615584,0.959082844949095,-0.217651159864257,0.959082844943964,-0.217651159867416,0.0106080288458103,0.0153494344892344
24.5,0.0108547600128224,0.0155685415122271,0.957960383212382,-0.221903612657902,0.957960383207218,-0.221903612660969,0.0108265630670738,0.0155968533693527
25,0.0110773308331901,0.0158114961895515,0.956822418953864,-0.226150237790894,0.956822418948675,-0.226150237793866,0.0110478086248499,0.0158404094680185
25.5,0.0113025637491879,0.0160505528542507,0.955668806327483,-0.230391065916832,0.955668806322278,-0.230391065919708,0.0112716785861965,0.0160800787320499
26,0.0115303720919994,0.0162856889121632,0.954499406456765,-0.234626114333409,0.95449940645155,-0.234626114336189,0.0114980861938805,0.0163158394614844
26.5,0.0117606694038458,0.0165168840877705,0.9533140875383,-0.238855388233909,0.953314087533085,-0.238855388236589,0.0117269449368959,0.0165476722811799
27,0.0119933695065492,0.0167441203956331,0.952112724876724,-0.243078881858423,0.952112724871514,-0.243078881861005,0.0119581686191643,0.0167755601103026
27.5,0.0122283865683335,0.0169673821097771,0.950895200863237,-0.247296579550951,0.95089520085804,-0.247296579553435,0.012191671426361,0.0169994881297904
28,0.0124656351688131,0.0171866557311808,0.949661404908049,-0.251508456728519,0.949661404902872,-0.251508456730905,0.0124273679908274,0.0172194437479083
28.5,0.0127050303621359,0.0174019299534556,0.948411233335617,-0.255714480768397,0.948411233330467,-0.255714480770685,0.0126651734545191,0.0174354165640256
29,0.0129464877382329,0.0176131956267955,0.947144589250229,-0.259914611819379,0.947144589245114,-0.259914611821571,0.0129050035299571,0.017647398330676
29.5,0.0131899234821428,0.0178204457203248,0.945861382378378,-0.2641088035428,0.945861382373304,-0.264108803544896,0.0131467745591505,0.0178553829140529
30,0.013435254431392,0.0180236752829419,0.944561528893345,-0.268297003788734,0.944561528888317,-0.268297003790735,0.0133904035704708,0.0180593662530197
30.5,0.0136823981313999,0.0182228814027354,0.943244951226587,-0.272479155212554,0.943244951221613,-0.272479155214462,0.0136358083334495,0.0182593463167458
31,0.0139312728889051,0.0184180631651023,0.941911577869767,-0.276655195836651,0.941911577864852,-0.276655195838466,0.0138829074114972,0.0184553230610764
31.5,0.0141817978233804,0.0186092216096414,0.940561343170622,-0.280825059561899,0.940561343165772,-0.280825059563625,0.0141316202125252,0.0186472983837287
32,0.0144338929164628,0.0187963596859291,0.93919418712535,-0.284988676633056,0.939194187120571,-0.284988676634694,0.0143818670374755,0.0188352760784287
32.5,0.0146874790593621,0.0189794822082647,0.937810055169683,-0.289145974062028,0.937810055164979,-0.289145974063582,0.0146335691267534,0.0190192617880636
33,0.0149424780982753,0.01915859580948,0.936408897970453,-0.29329687601265,0.93640889796583,-0.293296876014121,0.014886648704575,0.0191992629569728
33.5,0.0151988128778107,0.019333708893903,0.934990671219113,-0.297441304150287,0.934990671214575,-0.297441304151677,0.0151410290212401,0.019375288782447
34,0.0154564072824204,0.0195048315895554,0.933555335428348,-0.301579177959392,0.9335553354239,-0.301579177960704,0.0153966343933406,0.0195473501655372
34.5,0.015715186275872,0.0196719756996673,0.932102855732729,-0.305710415031805,0.932102855728377,-0.305710415033041,0.0156533902419287,0.0197154596612519
35,0.0159750759387717,0.0198351546536015,0.930633201694103,-0.309834931328419,0.93063320168985,-0.309834931329584,0.015911223128667,0.0198796314282412
35.5,0.0162360035041593,0.0199943834572436,0.929146347112268,-0.31395264141658,0.929146347108119,-0.313952641417675,0.0161700607899856,0.0200398811780285
36,0.0164978973912092,0.0201496786429547,0.927642269841332,-0.318063458685396,0.927642269837291,-0.318063458686425,0.0164298321692762,0.0201962261238746
36.5,0.0167606872370503,0.0203010582191283,0.926120951612021,-0.322167295540945,0.92612095160809,-0.32216729554191,0.0166904674471572,0.0203486849293615
37,0.0170243039267613,0.020448541619454,0.924582377860122,-0.326264063583183,0.924582377856305,-0.326264063584088,0.0169518980698452,0.0204972776567338
37.5,0.0172886796215468,0.020592149651917,0.923026537561152,-0.330353673766221,0.923026537557454,-0.330353673767069,0.0172140567756683,0.0206420257150968
38,0.0175537477851535,0.02073190444761,0.921453423071274,-0.334436036543463,0.921453423067697,-0.334436036544257,0.0174768776197677,0.0207829518085096
38.5,0.0178194432085501,0.0208678294094145,0.919863029974426,-0.338511061998975,0.919863029970972,-0.338511061999719,0.0177402959970217,0.0209200798840405
39,0.0180857020329201,0.0209999491605872,0.918255356935602,-0.342578659966349,0.918255356932274,-0.342578659967045,0.0180042486632445,0.0210534350798361
39.5,0.018352461771002,0.0211282894933278,0.916630405560164,-0.346638740136157,0.916630405556966,-0.346638740136811,0.0182686737547011,0.0211830436732596
40,0.0186196613268233,0.0212528773173275,0.914988180259051,-0.350691212153088,0.914988180255985,-0.350691212153701,0.0185335108059843,0.0213089330291263
40.5,0.0188872410138722,0.0213737406083863,0.913328688119731,-0.354735985703636,0.913328688116798,-0.354735985704212,0.018798700766307,0.0214311315480993
41,0.0191551425717493,0.0214909083570971,0.911651938782713,-0.358772970595241,0.911651938779916,-0.358772970595784,0.019064186014253,0.0215496686152683
41.5,0.0194233091813458,0.0216044105176505,0.909957944323447,-0.362802076827634,0.909957944320788,-0.362802076828147,0.0193299103710407,0.0216645745489508
42,0.0196916854785912,0.0217142779567621,0.908246719139407,-0.366823214657098,0.908246719136887,-0.366823214657584,0.0195958191123449,0.0217758805497326
42.5,0.019960217566818,0.0218205424027815,0.906518279842167,-0.370836294654272,0.906518279839787,-0.370836294654735,0.0198618589787294,0.0218836186497897
43,0.0202288530277872,0.0219232363949591,0.904772645154269,-0.374841227756092,0.904772645152031,-0.374841227756535,0.0201279781847398,0.0219878216624969
43.5,0.0204975409314158,0.022022393232924,0.903009835810688,-0.378837925312379,0.903009835808593,-0.378837925312805,0.0203941264267046,0.0220885231323438
44,0.0207662318442573,0.0221180469263462,0.901229874464691,-0.382826299127574,0.90122987446274,-0.382826299127988,0.0206602548892917,0.02218575728517
44.5,0.0210348778367627,0.0222102321448214,0.899432785597897,-0.386806261498031,0.899432785596091,-0.386806261498434,0.0209263162508723,0.0222795589787235
45,0.0213034324893829,0.0222989841679611,0.89761859543436,-0.390777725245268,0.897618595432698,-0.390777725245665,0.0211922646877326,0.0223699636535519
45.5,0.0215718508975323,0.0223843388356848,0.895787331858466,-0.394740603745557,0.895787331856951,-0.394740603745951,0.0214580558771812,0.0224570072842158
46,0.0218400896754626,0.0224663324987198,0.893939024336497,-0.398694810956139,0.893939024335128,-0.398694810956533,0.0217236469995958,0.0225407263308268
46.5,0.0221081069590749,0.0225450019692863,0.892073703841657,-0.402640261438391,0.892073703840435,-0.402640261438789,0.0219889967394457,0.0226211576908943
47,0.0223758624077079,0.0226203844719595,0.890191402782419,-0.406576870378204,0.890191402781344,-0.406576870378609,0.0222540652853346,0.0226983386514763
47.5,0.0226433172049254,0.0226925175946915,0.888292154934017,-0.410504553603801,0.888292154933087,-0.410504553604216,0.0225188143290928,0.0227723068416057
48,0.0229104340583306,0.0227614392399589,0.886375995372929,-0.414423227601248,0.886375995372146,-0.414423227601675,0.0227832070639586,0.0228431001849785
48.5,0.0231771771984369,0.0228271875760341,0.884442960414225,-0.418332809527824,0.884442960413587,-0.418332809528267,0.0230472081818726,0.0229107568528801
49,0.0234435123765981,0.0228898009883223,0.882493087551607,-0.42223321722346,0.882493087551116,-0.422233217223922,0.0233107838699142,0.0229753152173116
49.5,0.0237094068620263,0.0229493180307537,0.880526415400039,-0.426124369220404,0.880526415399691,-0.426124369220887,0.0235739018059004,0.0230368138042919
50,0.0239748294379012,0.0230057773771873,0.878542983640806,-0.430006184751253,0.878542983640602,-0.430006184751761,0.0238365311531684,0.0230952912473039
50.5,0.0242397503965715,0.0230592177727824,0.876542832968925,-0.43387858375551,0.876542832968864,-0.433878583756045,0.0240986425545499,0.0231507862408281
51,0.0245041415338548,0.0231096779853115,0.874526005042747,-0.437741486884772,0.874526005042827,-0.437741486885337,0.0243602081255518,0.0232033374939431
51.5,0.0247679761424183,0.0231571967563443,0.872492542435664,-0.441594815506681,0.872492542435884,-0.441594815507279,0.0246212014467369,0.0232529836839284
52,0.0250312290042389,0.0232018127522907,0.870442488589829,-0.445438491707721,0.870442488590187,-0.445438491708354,0.0248815975553139,0.0232997634098407
52.5,0.0252938763821118,0.0232435645152235,0.868375887771756,-0.44927243829497,0.868375887772252,-0.449272438295642,0.0251413729359167,0.0233437151459944
53,0.0255558960101817,0.0232824904134493,0.866292785029745,-0.453096578796898,0.866292785030376,-0.45309657879761,0.0254005055105613,0.0233848771953058
53.5,0.0258172670834665,0.0233186285917704,0.864193226153015,-0.456910837463266,0.864193226153779,-0.45691083746402,0.0256589746277585,0.0234232876424433
54,0.0260779702463227,0.0233520169213872,0.862077257632477,-0.46071513926422,0.862077257633373,-0.460715139265018,0.0259167610507492,0.0234589843067263
54.5,0.0263379875798042,0.0233826929493901,0.859944926623066,-0.464509409888637,0.859944926624093,-0.464509409889483,0.0261738469448246,0.023492004694719
55,0.0265973025878447,0.0234106938477867,0.857796280907558,-0.46829357574178,0.857796280908712,-0.468293575742675,0.0264302158636812,0.0235223859524544
55.5,0.0268559001822056,0.0234360563620167,0.855631368861788,-0.472067563942317,0.855631368863067,-0.472067563943262,0.0266858527347572,0.0235501648172372
56,0.0271137666660879,0.0234588167589088,0.853450239421232,-0.475831302318754,0.853450239422634,-0.475831302319754,0.026940743843481,0.0235753775689653
56.5,0.0273708897163371,0.0234790107740275,0.85125294204886,-0.479584719405333,0.851252942050382,-0.479584719406386,0.0271948768163537,0.0235980599809159
57,0.0276272583641081,0.0234966735583694,0.849039526704217,-0.483327744437418,0.849039526705857,-0.483327744438528,0.0274482406027782,0.0236182472699312
57.5,0.0278828629739031,0.0235118396243817,0.84681004381368,-0.487060307346432,0.846810043815435,-0.4870603073476,0.0277008254555372,0.0236359740459711
58,0.0281376952208286,0.0235245427912528,0.84456454424182,-0.490782338754359,0.844564544243686,-0.490782338755585,0.0279526229098012,0.0236512742609633
58.5,0.028391748065946,0.0235348161294688,0.842303079263838,-0.494493769967843,0.842303079265813,-0.49449376996913,0.02820362576055,0.0236641811569256
59,0.0286450157295501,0.0235426919046076,0.840025700539021,-0.498194532971938,0.840025700541103,-0.498194532973286,0.028453828038261,0.023674727213307
59.5,0.0288974936622081,0.0235482015203764,0.837732460085175,-0.50188456042349,0.837732460087359,-0.501884560424902,0.0287032249827222,0.023682944093534
60,0.0291491785133854,0.0235513754608776,0.835423410253983,-0.505563785644226,0.835423410256267,-0.505563785645701,0.0289518130147904,0.0236888625907251
60.5,0.0294000680974478,0.023552243232153,0.833098603707276,-0.509232142613528,0.833098603709655,-0.509232142615068,0.0291995897059242,0.0236925125725709
61,0.0296501613568401,0.0235508333030129,0.83075809339414,-0.512889565960943,0.830758093396612,-0.512889565962548,0.0294465537452945,0.0236939229253842
61.5,0.0298994583222127,0.0235471730452188,0.828401932528867,-0.516535990958429,0.828401932531428,-0.516535990960099,0.0296927049042516,0.0236931214973228
62,0.0301479600692635,0.0235412886730882,0.826030174569683,-0.520171353512365,0.826030174572329,-0.520171353514101,0.0299380439979365,0.0236901350408346
62.5,0.0303956686720329,0.0235332051826143,0.823642873198241,-0.523795590155335,0.823642873200968,-0.523795590157138,0.0301825728437822,0.0236849891543565
63,0.0306425871524106,0.0235229462902259,0.821240082299845,-0.527408638037701,0.82124008230265,-0.52740863803957,0.0304262942166539,0.0236777082233561
63.5,0.0308887194255598,0.0235105343713322,0.818821855944372,-0.531010434918977,0.81882185594725,-0.531010434920913,0.0306692118003564,0.0236683153607998
