"Freq [GHz]","re(St(P1,P1)) []","im(St(P1,P1)) []","re(St(P1,P2)) []","im(St(P1,P2)) []","re(St(P2,P1)) []","im(St(P2,P1)) []","re(St(P2,P2)) []","im(St(P2,P2)) []"
0,0.00375803009762876,0,0.996255952835782,0,0.996255954174558,0,0.00375802947979764,0
0.5,0.00420086084061921,-0.000119532362660379,0.995750551581445,-0.00572970411016627,0.995750551413764,-0.00572970351143454,0.00420087439118078,-0.000119730312587052
1,0.00458938297441591,-0.000797057646021671,0.995208571493485,-0.0108892812099377,0.995208571132206,-0.0108892812890176,0.0045894395137438,-0.000797556468285165
1.5,0.00471463116418391,-0.00166639362946697,0.994762162573354,-0.0161281274634142,0.994762162203349,-0.0161281275405791,0.00471461454457156,-0.00166730223206812
2,0.00474638460931587,-0.00247211994455299,0.994267108515199,-0.0212142409688703,0.994267108161246,-0.0212142410278702,0.00474616329330146,-0.00247343353356655
2.5,0.00474124734118409,-0.003240247484392,0.993769482536059,-0.0261787049286681,0.993769482220655,-0.0261787049668065,0.00474072622237909,-0.00324194586443127
3,0.00471637225192367,-0.00398504151088019,0.993287112569723,-0.0310568257953765,0.993287112306596,-0.0310568258169805,0.00471547079592405,-0.0039871034738308
3.5,0.00467826096537483,-0.00471365804291501,0.992820542158406,-0.0358767097824408,0.992820541952589,-0.0358767097932624,0.00467690562189027,-0.00471606216529352
4,0.00462984956750034,-0.00542978600646293,0.992362551575975,-0.0406574016173646,0.992362551426225,-0.0406574016219334,0.00462797109853019,-0.00543251013629131
4.5,0.00457267411945983,-0.00613536233082357,0.991903691153151,-0.0454107113661184,0.991903691054388,-0.0454107113671807,0.00457020662035568,-0.00613838317777748
5,0.0045076537816513,-0.00683138539564432,0.991434833674952,-0.0501435716612466,0.991434833620034,-0.0501435716601044,0.00450453434424869,-0.00683467831765405
5.5,0.00443541251283408,-0.00751832398034757,0.990948101423581,-0.0548598933526154,0.990948101404456,-0.0548598933497058,0.00443158115215025,-0.00752186291261125
6,0.00435642477690235,-0.00819633584881885,0.990437047969511,-0.0595618025323752,0.99043704797791,-0.0595618025277549,0.00435182447000804,-0.0082000933255042
6.5,0.00427108668915421,-0.00886539126402397,0.989896547455542,-0.0642504012803489,0.989896547483417,-0.064250401274057,0.00426566345984303,-0.00886933849987059
7,0.00417975278511196,-0.00952534627018409,0.989322596028616,-0.0689262140555327,0.989322596068391,-0.0689262140478082,0.00417345580284989,-0.00952945328124155
7.5,0.00408275579793793,-0.0101759880543622,0.988712108335795,-0.0735894412321878,0.988712108380506,-0.0735894412235476,0.00407553747520106,-0.0101802238045687
8,0.00398041753697376,-0.0108170640734571,0.988062737778122,-0.0782400992211141,0.988062737821492,-0.0782400992123833,0.00397223361653987,-0.0108213966381312
8.5,0.00387305487367828,-0.0114483013532629,0.987372726946389,-0.0828780958815525,0.987372726982849,-0.0828780958738458,0.0038638645013187,-0.0114526980932572
9,0.00376098292660598,-0.0120694196167355,0.986640786444588,-0.0875032700194662,0.986640786469263,-0.0875032700141185,0.0037507487067292,-0.0120738473585087
9.5,0.00364451658939824,-0.0126801404057941,0.985865997891539,-0.0921154115695595,0.985865997900216,-0.0921154115680807,0.00363320462248051,-0.0126845656238999
10,0.00352397105415836,-0.0132801935194697,0.985047736688896,-0.0967142718090521,0.985047736677981,-0.0967142718130605,0.00351155095555095,-0.0132845825185015
10.5,0.00342659896746444,-0.0139377258451834,0.984296702562344,-0.101309377417349,0.984296702550974,-0.101309377419775,0.0034148804550419,-0.0139440687432613
11,0.00332482745374563,-0.0145944087922807,0.983529762386218,-0.105885419818131,0.983529762374569,-0.105885419818984,0.00331368109602997,-0.0146029168105031
11.5,0.00321870433307808,-0.0152502274681945,0.982747665585484,-0.110443522249349,0.98274766557372,-0.110443522248661,0.00320797790921074,-0.0152611104400009
12,0.00310827874715541,-0.0159051711600533,0.981951008454044,-0.114984780144985,0.981951008442316,-0.114984780142802,0.0030977965595553,-0.0159186355540912
12.5,0.00299360090980438,-0.0165592336301819,0.981140250583678,-0.119510248322955,0.981140250572121,-0.119510248319335,0.00298316322591005,-0.0165754804193856
13,0.00287472181737852,-0.0172124134121576,0.980315731015617,-0.124020931431297,0.980315731004353,-0.124020931426313,0.00286410446410983,-0.0172316357896385
13.5,0.0027516929155277,-0.0178647141033776,0.97947768372723,-0.128517777210381,0.979477683716368,-0.128517777204109,0.00274064705214169,-0.0178870950484447
14,0.00262456571900846,-0.0185161446494106,0.978626252184766,-0.133001672136711,0.978626252174399,-0.133001672129233,0.00261281781588699,-0.0185418543504099
14.5,0.0024933913815267,-0.019166719614387,0.977761502791306,-0.137473439038577,0.977761502781514,-0.137473439029983,0.00248064343403975,-0.0191959127588506
15,0.002358220212984,-0.0198164594309813,0.976883437137931,-0.141933836309559,0.97688343712878,-0.141933836299939,0.00234415022078187,-0.0198492723781074
15.5,0.00221910114215491,-0.0204653906225367,0.975992003027131,-0.14638355838699,0.975992003018678,-0.146383558376434,0.00220336388496249,-0.020501938477973
16,0.00207608112359725,-0.0211135459889249,0.975087104283186,-0.150823237205781,0.975087104275476,-0.150823237194379,0.00205830926463009,-0.021153919607515
16.5,0.00192920448860433,-0.0217609647469588,0.974168609396737,-0.155253444380551,0.974168609389802,-0.15525344436839,0.00190901003598863,-0.0218052276952081
17,0.00177851224126367,-0.0224076926152428,0.973236359072754,-0.159674693908967,0.97323635906662,-0.159674693896135,0.00175548839610376,-0.022455878131856
17.5,0.00162404130216244,-0.0230537818327621,0.972290172764546,-0.164087445225862,0.97229017275923,-0.164087445212443,0.00159776471902981,-0.023105889832491
18,0.00146582370402934,-0.0236992910998395,0.971329854283407,-0.168492106470027,0.971329854278917,-0.168492106456103,0.00143585718543682,-0.0237552852729945
18.5,0.00130388574554313,-0.0243442854299398,0.970355196575537,-0.172889037853978,0.970355196571877,-0.172889037839625,0.00126978138632391,-0.0244040904969043
19,0.0011382471117892,-0.0249888359006887,0.969365985756465,-0.177278555051128,0.969365985753632,-0.17727855503642,0.00109954990200048,-0.0250523350875369
19.5,0.000968919972191284,-0.0256330192928953,0.968362004489289,-0.181660932535091,0.968362004487272,-0.181660932520098,0.000925171858211227,-0.0257000521002779
20,0.000795908069302353,-0.0262769176071802,0.967343034787621,-0.186036406822798,0.96734303478641,-0.186036406807584,0.000746652462068148,-0.0263472779497587
20.5,0.000619205814423901,-0.026920617449099,0.966308860317794,-0.190405179586784,0.966308860317371,-0.190405179571411,0.000563992521333545,-0.0269940522465135
21,0.000438797408575498,-0.027564209275575,0.965259268268058,-0.194767420613229,0.965259268268402,-0.194767420597754,0.000377187951601021,-0.0276404175777558
21.5,0.000254656009775339,-0.0282077864979127,0.964194050845708,-0.199123270591043,0.964194050846798,-0.199123270575519,0.000186229276936734,-0.0282864192271264
22,6.67429697081279E-005,-0.0288514444398174,0.963113006456385,-0.203472843724338,0.963113006458193,-0.203472843708814,-8.89886930505179E-006,-0.0289321048285776
22.5,-0.000124992835430382,-0.0294952791525258,0.962015940613452,-0.207816230165819,0.962015940615952,-0.207816230150343,-0.000208218235641267,-0.0295775239501586
23,-0.000320615554016523,-0.0301393860935173,0.960902666619502,-0.212153498272707,0.960902666622666,-0.212153498257318,-0.000411757426573844,-0.0302227276042246
23.5,-0.000520202761763455,-0.0307838586800275,0.959773006056621,-0.216484696689764,0.959773006060418,-0.216484696674502,-0.000619552349530594,-0.0308677676816718
24,-0.000723845692497394,-0.0314287867337217,0.958626789117146,-0.220809856266015,0.958626789121547,-0.220809856250915,-0.000831646623434545,-0.0315126963090195
24.5,-0.000931649272862933,-0.0320742548382373,0.957463854802333,-0.225128991813281,0.957463854807304,-0.225128991798373,-0.00104809193682343,-0.0321575651288346
25,-0.00114373193964751,-0.032720340636494,0.956284051012395,-0.229442103715407,0.956284051017906,-0.229442103700719,-0.0012689483427108,-0.0328024245056988
25.5,-0.00136022522235213,-0.0333671130997018,0.955087234548035,-0.233749179397666,0.955087234554053,-0.233749179383224,-0.00149428447694328,-0.0334473226621097
26,-0.00158127307875189,-0.0340146308042892,0.953873271040501,-0.238050194665887,0.953873271046991,-0.238050194651716,-0.00172417768668875,-0.0340923047509158
26.5,-0.0018070309774228,-0.0346629402564851,0.952642034824664,-0.24234511492488,0.952642034831597,-0.242345114910999,-0.00195871405596681,-0.0347374118734032
27,-0.00203766472832145,-0.0353120743065656,0.951393408767326,-0.246633896285397,0.951393408774669,-0.246633896271824,-0.00219798831586032,-0.0353826800546737
27.5,-0.00227334907036575,-0.0359620506956313,0.950127284060968,-0.250916486568609,0.950127284068688,-0.25091648655536,-0.00244210362828778,-0.0360281391905328
28,-0.0025142660331367,-0.0366128707770752,0.94884355999154,-0.255192826216577,0.948843559999608,-0.255192826203665,-0.00269117123397938,-0.0366738119826198
28.5,-0.00276060309801857,-0.0372645184523508,0.947542143687406,-0.259462849116745,0.947542143695789,-0.259462849104181,-0.00294530995762987,-0.0373197128807741
29,-0.0030125511918927,-0.0379169593564086,0.946222949855329,-0.263726483347958,0.946222949863996,-0.263726483335752,-0.0032046455660405,-0.0379658470535955
29.5,-0.00327030255341915,-0.0385701403222174,0.944885900508358,-0.267983651854986,0.94488590051728,-0.267983651843146,-0.00346930997842904,-0.038612209409683
30,-0.00353404851766354,-0.0392239891462765,0.943530924689582,-0.272234273058037,0.94353092469873,-0.272234273046569,-0.00373944033184259,-0.0392587836929494
30.5,-0.003803977268933,-0.0398784146684308,0.942157958194944,-0.276478261403204,0.942157958204289,-0.276478261392114,-0.00401517790870343,-0.0399055416756633
31,-0.00408027161393415,-0.0405333071697165,0.940766943297708,-0.280715527859347,0.940766943307224,-0.280715527848635,-0.00429666693775993,-0.0405524424723285
31.5,-0.00436310682755242,-0.0411885390821929,0.939357828476626,-0.284945980366419,0.939357828486283,-0.284945980356091,-0.0045840532840053,-0.0411994319961271
32,-0.00465264862169518,-0.0418439659948702,0.937930568149392,-0.289169524239837,0.937930568159166,-0.289169524229891,-0.00487748304721264,-0.0418464425773988
32.5,-0.00494905128370615,-0.0424994279307864,0.936485122412633,-0.293386062535075,0.936485122422498,-0.293386062525511,-0.00517710109249026,-0.0424933927605455
33,-0.00525245602516677,-0.0431547508620884,0.935021456789346,-0.297595496376278,0.935021456799277,-0.297595496367095,-0.00548304953941892,-0.0431401872918284
33.5,-0.0055629895746459,-0.0438097484234268,0.933539541984439,-0.301797725252396,0.933539541994412,-0.301797725243591,-0.00579546623881755,-0.0437867173060347
34,-0.00588076303960461,-0.044464223778909,0.932039353648865,-0.30599264728392,0.932039353658858,-0.305992647275491,-0.00611448326770314,-0.0444328607148314
34.5,-0.00620587105364728,-0.0451179715949903,0.930520872152587,-0.310180159463127,0.930520872162576,-0.310180159455068,-0.00644022547360706,-0.0450784827943385
35,-0.00653839121601685,-0.0457707800704725,0.928984082366558,-0.314360157870357,0.928984082376524,-0.314360157862663,-0.00677280909886413,-0.0457234369638635
35.5,-0.00687838382126915,-0.0464224329757863,0.927428973453724,-0.318532537868693,0.927428973463645,-0.318532537861359,-0.00711234051392351,-0.046367565742474
36,-0.00722589186863809,-0.0470727116562388,0.925855538668997,-0.32269719427913,0.925855538678853,-0.32269719427215,-0.00745891508606777,-0.0470107018650698
36.5,-0.00758094133327319,-0.0477213969580668,0.924263775168069,-0.326854021538145,0.924263775177842,-0.326854021531511,-0.00781261620637086,-0.0476526695352475
37,-0.00794354167534367,-0.0483682710414211,0.922653683824882,-0.331002913839382,0.922653683834552,-0.331002913833087,-0.00817351449334824,-0.0482932857886769
37.5,-0.0083136865583085,-0.0490131190505059,0.921025269057516,-0.335143765261007,0.921025269067066,-0.335143765255044,-0.00854166718678562,-0.0489323619380364
38,-0.00869135474436317,-0.0496557306177399,0.919378538662247,-0.339276469880134,0.919378538671662,-0.339276469874493,-0.00891711773991705,-0.0495697050689796
38.5,-0.00907651113329355,-0.0502959011855102,0.91771350365549,-0.343400921875574,0.917713503664752,-0.343400921870246,-0.00929989561261968,-0.050205119556056
39,-0.0094691079105223,-0.0509334331356808,0.916030178123314,-0.347517015620063,0.916030178132409,-0.347517015615041,-0.00969001626293337,-0.0508384085680542
39.5,-0.00986908577090212,-0.0515681367231504,0.914328579078245,-0.351624645762989,0.914328579087158,-0.351624645758261,-0.0100874813291446,-0.0514693755337832
40,-0.0102763751866249,-0.0521998308152507,0.912608726323026,-0.355723707304522,0.912608726331745,-0.35572370730008,-0.010492278990132,-0.0520978255417488
40.5,-0.0106908976902048,-0.0528283434435453,0.910870642321037,-0.359814095662023,0.910870642329547,-0.359814095657856,-0.0109043844877769,-0.0527235666503039
41,-0.0111125671466998,-0.0534535121784712,0.909114352073044,-0.363895706729452,0.909114352081333,-0.363895706725549,-0.0113237607921698,-0.053346411088617
41.5,-0.0115412909928672,-0.0540751843402756,0.907339883000003,-0.367968436930455,0.907339883008059,-0.367968436926805,-0.0117503593880545,-0.0539661763328285
42,-0.0119769714247252,-0.0546932170618979,0.905547264831592,-0.372032183265758,0.905547264839405,-0.372032183262352,-0.0121841211595972,-0.0545826860460519
42.5,-0.0124195065187016,-0.055307477220788,0.903736529500202,-0.376086843355409,0.903736529507761,-0.376086843352236,-0.0126249773499874,-0.0551957708750839
43,-0.0128687912751632,-0.0559178412573378,0.901907711040093,-0.380132315476357,0.901907711047389,-0.380132315473405,-0.0130728505726238,-0.0558052691007711
43.5,-0.0133247185765013,-0.0565241948975941,0.900060845491459,-0.38416849859583,0.900060845498482,-0.384168498593088,-0.0135276558515319,-0.0564110271427021
44,-0.0137871800549632,-0.0571264327975103,0.89819597080913,-0.388195292400903,0.898195970815872,-0.388195292398359,-0.0139893016701606,-0.0570128999222559
44.5,-0.0142560668681253,-0.0577244581250633,0.896313126775678,-0.392212597324639,0.896313126782132,-0.392212597322283,-0.0144576910096307,-0.0576107510908799
45,-0.0147312703821578,-0.0583181820954142,0.894412354918675,-0.396220314569092,0.894412354924833,-0.396220314566913,-0.0149327223597677,-0.0582044531327501
45.5,-0.0152126827649399,-0.0589075234729277,0.892493698431887,-0.40021834612553,0.892493698437742,-0.400218346123515,-0.0154142906887264,-0.0587938873528044
46,-0.0157001974925868,-0.0594924080523194,0.890557202100188,-0.404206594792069,0.890557202105736,-0.404206594790208,-0.0159022883595384,-0.0593789437622951
46.5,-0.0161937097740795,-0.0600727681297242,0.888602912227997,-0.408184964189036,0.888602912233229,-0.408184964187317,-0.0163966059844737,-0.0599595208748314
47,-0.0166931168995521,-0.0606485419728646,0.886630876571016,-0.41215335877221,0.886630876575931,-0.412153358770623,-0.0168971332105246,-0.060535525426096
47.5,-0.0171983185182957,-0.0612196732980765,0.884641144271142,-0.416111683844192,0.884641144275733,-0.416111683842723,-0.017403759431607,-0.0611068720303851
48,-0.0177092168528674,-0.0617861107605056,0.88263376579431,-0.420059845564042,0.882633765798573,-0.420059845562682,-0.0179163744251339,-0.0616734827866352
48.5,-0.0182257168557721,-0.0623478074625312,0.880608792871164,-0.423997750955361,0.880608792875097,-0.423997750954098,-0.0184348689124271,-0.0622352868459424
49,-0.0187477263151177,-0.0629047204842983,0.878566278440373,-0.427925307912967,0.878566278443971,-0.42792530791179,-0.0189591350440059,-0.0627922199517028
49.5,-0.0192751559154615,-0.0634568104391968,0.876506276594436,-0.431842425208274,0.876506276597698,-0.431842425207173,-0.0194890668120683,-0.0633442239624276
50,-0.0198079192597468,-0.0640040410562481,0.874428842527876,-0.435749012493514,0.8744288425308,-0.435749012492478,-0.0200245603935231,-0.0638912463662449
50.5,-0.0203459328578854,-0.0645463787905745,0.872334032487651,-0.4396449803049,0.872334032490236,-0.439644980303917,-0.0205655144277278,-0.0644332397949159
51,-0.0208891160871186,-0.0650837924624657,0.870221903725694,-0.443530240064808,0.870221903727938,-0.443530240063868,-0.0211118302336292,-0.0649701615440634
51.5,-0.0214373911288669,-0.0656162529250663,0.868092514453441,-0.447404704083108,0.868092514455345,-0.447404704082201,-0.0216634119714105,-0.065501973105228
52,-0.0219906828863123,-0.0661437327601979,0.865945923798264,-0.451268285557671,0.865945923799826,-0.451268285556787,-0.022220166753896,-0.0660286397142889
52.5,-0.022548918886548,-0.0666662060015681,0.863782191761681,-0.455120898574164,0.863782191762902,-0.455120898573292,-0.0227820047130511,-0.0665501299198707
53,-0.0231120291706566,-0.0671836478842882,0.861601379179276,-0.458962458105165,0.861601379180157,-0.458962458104296,-0.0233488390268137,-0.0670664151744138
53.5,-0.0236799461747206,-0.0676960346194817,0.85940354768221,-0.462792880008682,0.859403547682753,-0.462792880007806,-0.0239205859113371,-0.0675774694498696
54,-0.0242526046043391,-0.068203343192593,0.857188759660265,-0.466612081026115,0.85718875966047,-0.466612081025222,-0.0244971645834798,-0.0680832688792481
54.5,-0.0248299413048954,-0.0687055511839414,0.854957078226319,-0.470419978779706,0.854957078226188,-0.470419978778787,-0.0250784971980696,-0.0685837914246665
55,-0.0254118951294897,-0.0692026366100145,0.852708567182194,-0.474216491769523,0.852708567181729,-0.474216491768569,-0.0256645087641518,-0.069079016572057
55.5,-0.0259984068061422,-0.0696945777839921,0.850443290985802,-0.478001539370023,0.850443290985007,-0.478001539369025,-0.0262551270440618,-0.0695689250522604
56,-0.0265894188056287,-0.0701813531940033,0.84816131471952,-0.481775041826218,0.848161314718398,-0.481775041825167,-0.0268502824388129,-0.0700534985879023
56.5,-0.0271848752110516,-0.0706629413976568,0.845862704059731,-0.485536920249481,0.845862704058284,-0.48553692024837,-0.0274499078629176,-0.0705327196651897
57,-0.0277847215900585,-0.0711393209314377,0.843547525247478,-0.489287096613026,0.843547525245711,-0.489287096611845,-0.0280539386114088,-0.0710065713295397
57.5,-0.0283889048704199,-0.071610470233632,0.84121584506018,-0.493025493747068,0.841215845058096,-0.49302549374581,-0.0286623122215007,-0.0714750370038357
58,-0.0289973732195382,-0.0720763675795093,0.838867730784346,-0.496752035333718,0.838867730781949,-0.496752035332376,-0.0292749683309937,-0.0719381003279786
58.5,-0.0296100759283069,-0.0725369910275676,0.836503250189245,-0.500466645901607,0.836503250186541,-0.500466645900172,-0.029891848535243,-0.0723957450183527
59,-0.0302269632996238,-0.0729923183757336,0.8341224715015,-0.504169250820263,0.834122471498494,-0.504169250818729,-0.0305128962442346,-0.0728479547457973
59.5,-0.0308479865417737,-0.0734423271264816,0.831725463380533,-0.507859776294274,0.831725463377228,-0.507859776292634,-0.0311380565410602,-0.0732947130306688
60,-0.0314730976667916,-0.0738869944599153,0.829312294894857,-0.511538149357235,0.82931229489126,-0.511538149355482,-0.0317672760428617,-0.0737360031536148
60.5,-0.0321022493938756,-0.0743262972139487,0.826883035499145,-0.515204297865507,0.826883035495261,-0.515204297863635,-0.0324005027651249,-0.0741718080807006
61,-0.0327353950578238,-0.074760211870764,0.824437755012067,-0.51885815049178,0.824437755007904,-0.518858150489784,-0.0330376859899983,-0.0746021104015959
61.5,-0.0333724885224617,-0.0751887145488345,0.821976523594846,-0.522499636718484,0.821976523590408,-0.522499636716357,-0.0336787761391932,-0.0750268922795894
62,-0.0340134840989623,-0.0756117809998391,0.819499411730502,-0.526128686831032,0.819499411725797,-0.526128686828769,-0.034323724651859,-0.0754461354122595
