"Freq [GHz]","re(St(P1,P1)) []","im(St(P1,P1)) []","re(St(P1,P2)) []","im(St(P1,P2)) []","re(St(P2,P1)) []","im(St(P2,P1)) []","re(St(P2,P2)) []","im(St(P2,P2)) []"
0,0.00363280837581215,0,0.996377778981696,0,0.99637777962198,0,0.00363281928696324,0
0.5,0.00401431264447893,0.000759590900951679,0.995900741766214,-0.0059148197597132,0.995900741920167,-0.00591481997629018,0.00401421688498971,0.000760006483048414
1,0.00432959930156684,0.00103153136446466,0.995342043608428,-0.0113080485189592,0.995342043590064,-0.0113080486148505,0.0043293025040434,0.00103250634966301
1.5,0.00414589456980075,0.00141915426278416,0.994869721485337,-0.0167943394768244,0.994869721441624,-0.0167943395945827,0.0041458095984126,0.00142097995847124
2,0.00398071471692329,0.00173954310194091,0.994294887634924,-0.0221265926147289,0.994294887570786,-0.0221265927351517,0.00398066638607819,0.00174227548657058
2.5,0.00384922066414273,0.00202436386237004,0.993666331866452,-0.0273073995473307,0.993666331791691,-0.027307399656344,0.00384909250421916,0.00202795945594403
3,0.00375030053443393,0.00229688916719262,0.993017939188173,-0.032355457250727,0.993017939113155,-0.0323554573405769,0.00375004321151717,0.00230128471673829
3.5,0.00367771087588009,0.00257131382045017,0.992368242831585,-0.0372953969161678,0.992368242764498,-0.0372953969842538,0.00367731580892983,0.00257645965051445
4,0.00362492151574534,0.00285596525877807,0.991723994182039,-0.0421512080068194,0.991723994127956,-0.0421512080539479,0.00362439922211477,0.00286183124510409
4.5,0.0035864901613234,0.00315604607160225,0.991084502357803,-0.0469432130005725,0.991084502318859,-0.0469432130294241,0.00358585859535787,0.00316261859788014
5,0.00355813722577558,0.00347531673388168,0.990445161778343,-0.0516873330229046,0.990445161754443,-0.0516873330369911,0.00355741677788268,0.0034825943584007
5.5,0.0035364623305818,0.00381703475898831,0.989799808638911,-0.0563954631399834,0.989799808628492,-0.0563954631430406,0.0035356743430488,0.00382502476302982
6,0.00351861793718777,0.00418447968997526,0.989142091351648,-0.0610762212011684,0.989142091352318,-0.0610762211968332,0.00351778497007038,0.00419319576187593
6.5,0.00350201710246933,0.00458127075359016,0.98846616516746,-0.0657357121810609,0.988466165176474,-0.0657357121727209,0.00350116414294244,0.00459073159476553
7,0.00348407454857114,0.00501159170908938,0.987766976959711,-0.0703781743502248,0.987766976974282,-0.0703781743409495,0.00348323088668512,0.00502182033228582
7.5,0.00346195781149516,0.00548038511850812,0.987040324517114,-0.075006481328713,0.987040324534603,-0.0750064813212354,0.00346115959560223,0.0054914087055975
8,0.00343231832826429,0.00599355140978552,0.986282804424072,-0.0796225160354975,0.986282804442084,-0.079622516032229,0.00343161200252229,0.00600540171832264
8.5,0.00339096676733591,0.00655817482145871,0.985491713775423,-0.0842274435194605,0.985491713791847,-0.0842274435225008,0.00339041376291049,0.00657088927509975
9,0.00333244708812308,0.00718279131969268,0.984664940459194,-0.0888219083330215,0.984664940472212,-0.0888219083441912,0.00333213034037039,0.00719641512179603
9.5,0.00324944608974825,0.0078777080309651,0.983800858922191,-0.0934061771245061,0.983800858930258,-0.0934061771453614,0.00324947922605681,0.00789229797136226
10,0.00313194516726567,0.00865537491765611,0.982898238478195,-0.0979802419353462,0.982898238480011,-0.0979802419672131,0.00313248559035523,0.00867100612210603
10.5,0.00324022642758347,0.00907389622894605,0.982069487583711,-0.102532136633371,0.982069487583758,-0.102532136663528,0.00323880562357162,0.00908999150085155
11,0.00335401556179347,0.00949028294659371,0.981231711089325,-0.107061287153249,0.981231711087847,-0.107061287181668,0.00335049199121015,0.00950676938441042
11.5,0.00347336186984767,0.00990442320278273,0.980385483382893,-0.111569621031321,0.980385483380118,-0.111569621058001,0.00346758724414125,0.00992121668801271
12,0.00359832162432311,0.0103162044898757,0.979531164108518,-0.116058945397942,0.979531164104655,-0.116058945422898,0.00359014069366815,0.0103332080683884
12.5,0.00372895895273813,0.0107255139447853,0.978668932209298,-0.120530937729157,0.978668932204535,-0.120530937752427,0.00371820937620508,0.0107426159852122
13,0.00386534681707829,0.0111322387309158,0.977798816878007,-0.124987141651116,0.977798816872518,-0.124987141672747,0.0038518591450015,0.0111493108323586
13.5,0.00400756809738575,0.0115362665406078,0.976920725203062,-0.12942896668032,0.976920725196999,-0.12942896670037,0.00399116590378196,0.0115531611595912
14,0.00415571678527515,0.0119374862456882,0.976034466489592,-0.133857690933383,0.976034466483092,-0.133857690951918,0.00413621699807909,0.0119540340105897
14.5,0.00430989929147185,0.0123357887294593,0.975139773370193,-0.138274465992643,0.975139773363376,-0.138274466009734,0.00428711278055444,0.0123517954095664
15,0.00447023586866795,0.0127310679400812,0.97423631990789,-0.142680323259008,0.974236319900861,-0.142680323274729,0.00444396836650096,0.0127463110367203
15.5,0.00463686214671495,0.0131232222129727,0.973323736945664,-0.147076181255002,0.973323736938515,-0.147076181269429,0.00460691559467503,0.0131374471422578
16,0.00480993077102421,0.013512155918602,0.97240162498164,-0.151462853456268,0.972401624974448,-0.151462853469478,0.00477610520610164,0.0135250717604998
16.5,0.00498961312624735,0.0138977815018801,0.971469564854404,-0.155841056328017,0.97146956484724,-0.155841056340086,0.00495170924891969,0.0139090562994566
17,0.00517610111521188,0.014280021990015,0.970527126514982,-0.160211417324774,0.970527126507901,-0.160211417335775,0.00513392370973553,0.0142892775979062
17.5,0.00536960894657579,0.0146588140568991,0.969573876145568,-0.164574482678528,0.969573876138618,-0.164574482688533,0.00532297136015197,0.01466562056138
18,0.00557037486262366,0.0150341117432493,0.968609381863729,-0.168930724853789,0.968609381856951,-0.168930724862868,0.00551910478954146,0.0150379815107837
18.5,0.00577866270963071,0.0154058909414974,0.967633218226985,-0.173280549590124,0.967633218220412,-0.173280549598345,0.00572260956961027,0.0154062724021244
19,0.00599476321570197,0.0157741547615,0.966644969728402,-0.177624302485142,0.966644969722059,-0.177624302492568,0.00593380746023642,0.0157704261025318
19.5,0.00621899479340024,0.0161389398946112,0.965644233450105,-0.181962275095408,0.965644233444013,-0.181962275102101,0.00615305951611256,0.0161304029344924
20,0.00645170362527547,0.0165003240861141,0.964630621019396,-0.186294710550964,0.964630621013572,-0.18629471055698,0.00638076888597197,0.0164861987242833
20.5,0.00669326271875939,0.0168584348041994,0.963603759991732,-0.190621808692149,0.963603759986186,-0.190621808697543,0.00661738300609657,0.0168378546071462
21,0.00694406953283827,0.0172134591508808,0.962563294766418,-0.194943730746481,0.96256329476116,-0.194943730751304,0.00686339477280304,0.0171854688432398
21.5,0.00720454168476803,0.0175656549874472,0.961508887124648,-0.199260603569401,0.96150888711968,-0.199260603573701,0.00711934213054799,0.0175292108737324
22,0.00747511014618168,0.0179153631338731,0.960440216465175,-0.203572523476196,0.960440216460501,-0.203572523480018,0.00738580533119637,0.0178693377797057
22.5,0.00775620924476639,0.018263020335378,0.959356979800608,-0.207879559694438,0.959356979796226,-0.207879559697823,0.00766340090797529,0.0182062131756577
23,0.00804826271779835,0.0186091724584529,0.958258891566617,-0.212181757466705,0.958258891562525,-0.212181757469693,0.0079527711749468,0.0185403283468402
23.5,0.00835166504407564,0.0189544870730849,0.957145683287307,-0.216479140833137,0.9571456832835,-0.216479140835764,0.00825456783268819,0.0188723250912055
24,0.00866675734921413,0.0192997641958028,0.956017103132282,-0.220771715122315,0.956017103128754,-0.220771715124615,0.00856942807655531,0.0192030192172932
24.5,0.00899379738526346,0.0196459435212455,0.954872915394415,-0.225059469177595,0.954872915391159,-0.2250594691796,0.00889794153633255,0.0195334229486432
25,0.0093329234869674,0.0199941059939137,0.953712899911913,-0.229342377344345,0.953712899908922,-0.229342377346083,0.00924060653063374,0.0198647635840861
25.5,0.0096841130611488,0.0203454671359942,0.952536851453666,-0.233620401241726,0.95253685145093,-0.233620401243224,0.00959777463748818,0.0201984946954623
26,0.0100471371131016,0.02070135926449,0.9513445790831,-0.23789349134086,0.951344579080611,-0.237893491342143,0.00996958363059858,0.0205362950199028
26.5,0.0104215135510967,0.021063199759263,0.950135905512598,-0.242161588369302,0.950135905510344,-0.242161588370393,0.0103558805677683,0.020880049244727
27,0.0108064634556955,0.0214324430736934,0.948910666457951,-0.246424624560049,0.948910666455922,-0.246424624560968,0.0107561393298891,0.021231804451008
27.5,0.0112008759595897,0.0218105153984911,0.947668710000199,-0.250682524761545,0.947668709998384,-0.250682524762312,0.011169380107522,0.0215936965723611
28,0.0116032885281954,0.0221987329138083,0.946409895960427,-0.254935207423618,0.946409895958815,-0.254935207424251,0.0115941018314829,0.0219678433926562
28.5,0.0120118898193203,0.0225982073525792,0.945134095291705,-0.259182585472731,0.945134095290287,-0.259182585473247,0.0120282415602818,0.0223562047860213
29,0.0124245514573946,0.0230097458537688,0.943841189491196,-0.263424567088635,0.943841189489958,-0.263424567089048,0.0124691761960857,0.0227604171291813
29.5,0.0128388926299321,0.0234337552140189,0.942531070034499,-0.267661056393215,0.942531070033431,-0.267661056393538,0.012913780251488,0.0231816164018281
30,0.0132523773654274,0.0238701628087852,0.94120363783361,-0.271891954061196,0.941203637832702,-0.271891954061441,0.0133585476848821,0.0236202718263805
30.5,0.0136624391367896,0.0243183667539129,0.939858802719231,-0.276117157861371,0.93985880271847,-0.27611715786155,0.0137997759840337,0.0240760566057947
31,0.0140666220361466,0.0247772256780268,0.938496482947731,-0.280336563136021,0.938496482947109,-0.280336563136145,0.0142337981623726,0.0245477819125841
31.5,0.0144627235208808,0.0252450937276087,0.937116604732691,-0.284550063225445,0.937116604732194,-0.28455006322552,0.014657236182869,0.0250334132580485
32,0.0148489219292774,0.02571989986259,0.935719101800677,-0.288757549843658,0.935719101800296,-0.288757549843696,0.0150672413910584,0.0255301752575023
32.5,0.0152238733714941,0.0261992635344244,0.934303914970683,-0.292958913410778,0.934303914970409,-0.292958913410785,0.015461686993234,0.0260347345307252
33,0.015586767098385,0.0266806331591554,0.932870991756539,-0.297154043346866,0.93287099175636,-0.297154043346849,0.0158392854150852,0.0265434355745005
33.5,0.0159373350024509,0.0271614307926646,0.931420285991436,-0.301342828331579,0.931420285991343,-0.301342828331543,0.01619961757394,0.0270525553230567
34,0.0162758179013286,0.0276391866902255,0.929951757473689,-0.305525156533446,0.929951757473672,-0.305525156533395,0.0165430775192088,0.0275585412138089
34.5,0.0166028970684392,0.0281116506428918,0.928465371632778,-0.309700915812142,0.928465371632829,-0.309700915812083,0.0168707498706832,0.0280582044533793
35,0.0169196029900179,0.0285768720393931,0.926961099214697,-0.313869993896829,0.926961099214806,-0.313869993896765,0.0171842456911169,0.0285488519493831
35.5,0.0172272142013656,0.0290332461191518,0.925438915985631,-0.318032278543183,0.925438915985788,-0.318032278543117,0.0174855238997194,0.0290283531653175
36,0.0175271576690809,0.0294795286484923,0.923898802452988,-0.322187657671547,0.923898802453187,-0.322187657671482,0.0177767212836749,0.029495148677819
36.5,0.0178209193610341,0.029914824531684,0.92234074360284,-0.326336019488273,0.922340743603072,-0.326336019488211,0.0180600070128609,0.0299482136972302
37,0.0181099702973084,0.0303385574650488,0.92076472865283,-0.330477252592164,0.920764728653086,-0.330477252592108,0.0183374697933145,0.0303869920932891
37.5,0.0183957102480563,0.0307504278816368,0.919170750819651,-0.334611246067676,0.919170750819925,-0.334611246067627,0.0186110391947625,0.0308113154867662
38,0.0186794287885511,0.0311503655630092,0.917558807100242,-0.338737889566346,0.917558807100526,-0.338737889566305,0.0188824381066972,0.0312213190825648
38.5,0.0189622817972628,0.0315384818969318,0.915928898065859,-0.342857073377766,0.915928898066146,-0.342857073377734,0.0191531607828469,0.0316173623747213
39,0.0192452806364851,0.0319150252341183,0.91428102766825,-0.346968688491293,0.914281027668533,-0.34696868849127,0.0194244701281009,0.0319999595166944
39.5,0.0195292910187092,0.0322803414087869,0.912615203057166,-0.351072626649488,0.912615203057439,-0.351072626649476,0.0196974082051523,0.0323697214750651
40,0.0198150387345497,0.0326348403720846,0.91093143440852,-0.355168780394257,0.910931434408778,-0.355168780394254,0.0199728148679493,0.0327273102011956
40.5,0.0201031198175894,0.0329789690811033,0.909229734762516,-0.359257043106454,0.909229734762751,-0.359257043106461,0.0202513505730436,0.0330734038958727
41,0.0203940132091985,0.0333131902641908,0.907510119871107,-0.363337309039737,0.907510119871314,-0.363337309039752,0.0205335205304615,0.0334086718500268
41.5,0.0206880944705014,0.0336379663914976,0.905772608054213,-0.367409473349263,0.905772608054387,-0.367409473349286,0.0208196983055633,0.033733757147951
42,0.0209856495176568,0.0339537480564085,0.904017220064114,-0.37147343211584,0.90401722006425,-0.37147343211587,0.0211101477285275,0.0340492655682396
42.5,0.0212868877085143,0.0342609659628479,0.902243978957516,-0.375529082366025,0.90224397895761,-0.37552908236606,0.0214050425137962,0.0343557591982366
43,0.0215919538803728,0.0345600257702086,0.900452909974789,-0.379576322088624,0.900452909974835,-0.379576322088664,0.0217044833670392,0.0346537535128071
43.5,0.0219009391374942,0.0348513051390065,0.898644040425916,-0.383615050248002,0.898644040425911,-0.383615050248045,0.022008512598542,0.0349437169098068
44,0.0222138903252625,0.0351351524239634,0.896817399582734,-0.387645166794559,0.896817399582672,-0.387645166794603,0.0223171264045889,0.0352260719166462
44.5,0.0225308182184643,0.0354118865633402,0.894973018577052,-0.391666572672688,0.894973018576932,-0.391666572672733,0.0226302850522293,0.0355011974729511
45,0.0228517045062236,0.0356817978064157,0.893110930304288,-0.395679169826502,0.893110930304104,-0.395679169826545,0.0229479212310392,0.0357694318506421
45.5,0.023176507685664,0.0359451490014389,0.891231169332247,-0.399682861203579,0.891231169331996,-0.399682861203617,0.023269946835296,0.0360310758964659
46,0.0235051679885569,0.0362021772335432,0.889333771814747,-0.403677550756949,0.889333771814427,-0.403677550756983,0.0235962584234087,0.0362863963773629
46.5,0.0238376114660188,0.0364530956564083,0.887418775409762,-0.407663143445531,0.887418775409369,-0.407663143445555,0.0239267415765801,0.0365356292807765
47,0.0241737533502128,0.0366980954045198,0.885486219201805,-0.411639545233166,0.885486219201337,-0.411639545233181,0.0242612743507098,0.0367789829748445
47.5,0.0245135008020501,0.036937347506239,0.88353614362829,-0.415606663086459,0.883536143627745,-0.415606663086462,0.024599729987637,0.0370166411715508
48,0.0248567551421709,0.0371710047433703,0.881568590409621,-0.419564404971501,0.881568590408996,-0.419564404971489,0.0249419790257256,0.0372487656628291
48.5,0.025203413650371,0.0373992034219635,0.879583602482771,-0.423512679849654,0.879583602482063,-0.423512679849625,0.0252878909263942,0.0374754988181727
49,0.0255533710069228,0.037622065033145,0.877581223938153,-0.42745139767247,0.877581223937362,-0.427451397672422,0.0256373353127806,0.0376969658446829
49.5,0.0259065204384261,0.0378396977929264,0.875561499959564,-0.431380469375866,0.875561499958687,-0.431380469375797,0.0259901828992899,0.0379132768184325
50,0.0262627546210943,0.0380521980571005,0.873524476767023,-0.435299806873626,0.87352447676606,-0.435299806873534,0.0263463061760998,0.0381245285008082
50.5,0.0266219663858513,0.0382596516123076,0.871470201562331,-0.439209323050313,0.871470201561281,-0.439209323050194,0.0267055799004738,0.0383308059560367
51,0.0269840492622035,0.0384621348475964,0.869398722477187,-0.443108931753658,0.869398722476046,-0.443108931753511,0.0270678814366562,0.0385321839871795
51.5,0.027348897891552,0.0386597158128776,0.867310088523701,-0.446998547786493,0.867310088522471,-0.446998547786314,0.0274330909778726,0.0387287284079098
52,0.0277164083352411,0.0388524551718634,0.865204349547186,-0.450878086898263,0.865204349545866,-0.450878086898052,0.0278010916772348,0.0389204971668212
52.5,0.0280864782981626,0.0390404070576027,0.863081556181068,-0.454747465776197,0.863081556179656,-0.45474746577595,0.0281717697088976,0.039107541340022
53,0.0284590072849488,0.039223619838886,0.860941759803807,-0.458606602036132,0.860941759802304,-0.458606602035848,0.028545014276423,0.0392899060065989
53.5,0.0288338967026995,0.0394021368055997,0.858785012497721,-0.462455414213081,0.858785012496126,-0.462455414212758,0.0289207175817558,0.0394676310202646
54,0.0292110499215808,0.0395759967807634,0.856611367009584,-0.466293821751539,0.856611367007898,-0.466293821751173,0.0292987747653727,0.0396407516892129
54.5,0.0295903723025085,0.0397452346665165,0.854420876712925,-0.47012174499556,0.854420876711147,-0.47012174499515,0.0296790838258991,0.0398092993749729
55,0.0299717711993765,0.0399098819307867,0.852213595571912,-0.47393910517866,0.852213595570043,-0.473939105178204,0.0300615455256545,0.0399733020198838
55.5,0.0303551559418496,0.0400699670408301,0.849989578106745,-0.477745824413527,0.849989578104785,-0.477745824413023,0.0304460632871486,0.0401327846117254
56,0.030740437803573,0.0402255158492701,0.847748879360481,-0.481541825681588,0.847748879358431,-0.481541825681033,0.0308325430843981,0.0402877695930679
56.5,0.0311275299596663,0.0403765519377407,0.845491554867205,-0.485327032822432,0.845491554865066,-0.485327032821826,0.0312208933320083,0.0404382772219911
57,0.0315163474366133,0.0405230969227158,0.843217660621484,-0.489101370523128,0.843217660619256,-0.489101370522467,0.0316110247742474,0.0405843258900441
57.5,0.0319068070570045,0.0406651707276771,0.840927253049032,-0.492864764307412,0.840927253046717,-0.492864764306696,0.0320028503757809,0.0407259324026094
58,0.0322988273810673,0.040802791825286,0.838620388978533,-0.496617140524798,0.838620388976132,-0.496617140524024,0.0323962852152595,0.0408631122261796
58.5,0.0326923286465184,0.0409359774528709,0.836297125614557,-0.500358426339593,0.836297125612071,-0.50035842633876,0.0327912463826263,0.040995879706537
59,0.0330872327079118,0.0410647438041631,0.833957520511516,-0.504088549719839,0.833957520508945,-0.504088549718945,0.033187652880719,0.0411242482612995
59.5,0.0334834629763924,0.041189106199899,0.831601631548612,-0.507807439426182,0.83160163154596,-0.507807439425225,0.0335854255315445,0.0412482305499045
60,0.0338809443605488,0.0413090792396119,0.829229516905734,-0.511515025000681,0.829229516903002,-0.511515024999661,0.0339844868874215,0.0413678386236858
60.5,0.0342796032088668,0.0414246769366747,0.826841235040251,-0.515211236755565,0.82684123503744,-0.515211236754479,0.0343847611470829,0.0414830840584055
61,0.0346793672541603,0.0415359128384303,0.824436844664662,-0.518896005761925,0.824436844661775,-0.518896005760774,0.0347861740767174,0.0415939780712895
61.5,0.035080165560236,0.0416428001330367,0.822016404725077,-0.522569263838377,0.822016404722115,-0.522569263837159,0.0351886529358749,0.0417005316243728
62,0.0354819284709549,0.0417453517444664,0.819579974380471,-0.526230943539663,0.819579974377436,-0.526230943538377,0.0355921264080986,0.041802755515741
62.5,0.035884587561789,0.0418435804169448,0.817127612982701,-0.529880978145227,0.817127612979596,-0.52988097814387,0.0359965245361153,0.0419006604600528
63,0.0362880755939205,0.041937498789955,0.814659380057237,-0.533519301647741,0.814659380054064,-0.533519301646315,0.0364017786613946,0.0419942571595726
63.5,0.0366923264708802,0.0420271194648328,0.812175335284584,-0.537145848741613,0.812175335281346,-0.537145848740116,0.0368078213678658,0.0420835563667826
