"Freq [GHz]","re(St(P1,P1)) []","im(St(P1,P1)) []","re(St(P1,P2)) []","im(St(P1,P2)) []","re(St(P2,P1)) []","im(St(P2,P1)) []","re(St(P2,P2)) []","im(St(P2,P2)) []"
0,0.00386544758038099,0,0.996149732774938,0,0.996149732382037,0,0.00386544531124855,0
0.5,0.00438824981162611,-0.00120704182644715,0.995568607709636,-0.00619722166181447,0.995568607815919,-0.0061972218323838,0.00438815176639906,-0.00120675978523366
1,0.00486548300446188,-0.00308308672568103,0.994949549862397,-0.011723101832704,0.99494954981769,-0.011723101833546,0.00486525312426878,-0.00308243298817246
1.5,0.00511836838822077,-0.00513774568959491,0.994424837751396,-0.0172617732436784,0.994424837707921,-0.0172617732390954,0.00511775843302686,-0.00513694004015619
2,0.00521147571510028,-0.00720139737320125,0.993912135241326,-0.0226358843552248,0.993912135203399,-0.0226358843464034,0.00521050136955914,-0.00720016213212205
2.5,0.00521985572401462,-0.00924234344370589,0.993437794307274,-0.0279171634826199,0.993437794276719,-0.0279171634721322,0.00521858739870495,-0.00924057916166632
3,0.00517790106074223,-0.011261560476715,0.992993012773312,-0.0331516682824251,0.992993012750123,-0.0331516682724136,0.00517638157957379,-0.0112592322224643
3.5,0.00510132631214333,-0.0132639592534325,0.992560664288206,-0.0383629192877706,0.992560664271537,-0.0383629192794643,0.00509957433483343,-0.0132610508945952
4,0.00499782186468334,-0.0152536351068875,0.992125098800612,-0.0435611913480134,0.992125098789372,-0.0435611913419258,0.00499584126590147,-0.0152501342035638
4.5,0.00487143943435342,-0.0172334828558398,0.991674204120798,-0.0487500476521898,0.99167420411387,-0.048750047648376,0.00486922556845304,-0.0172293757607012
5,0.0047244605115635,-0.0192054758037159,0.991199063966149,-0.0539299126401129,0.991199063962464,-0.0539299126383632,0.00472200389157207,-0.0192007461298278
5.5,0.00455824675311023,-0.0211709517862442,0.990693166282975,-0.0590998560593512,0.990693166281534,-0.0590998560593174,0.00455553520404139,-0.0211655800112922
6,0.00437365364888276,-0.0231308188197623,0.990151708510867,-0.0642584476038266,0.990151708510724,-0.0642584476051127,0.00437067360664178,-0.0231247822729905
6.5,0.00417124420589232,-0.0250856923144447,0.989571090480754,-0.0694041532619281,0.989571090480998,-0.0694041532641272,0.00416798153413023,-0.0250789652831411
7,0.00395140529534732,-0.0270359854572817,0.988948566725369,-0.0745355097068998,0.988948566725129,-0.0745355097096549,0.00394784582350471,-0.0270285393202592
7.5,0.00371441397046723,-0.0289819691933406,0.988282012825635,-0.0796511920297629,0.988282012824067,-0.0796511920327561,0.00371054386564729,-0.0289737725501471
8,0.00346047680611306,-0.0309238126276661,0.98756976841673,-0.0847500308315645,0.98756976841302,-0.0847500308345417,0.0034562828428899,-0.0309148314148224
8.5,0.00318975406359678,-0.0328616107153206,0.986810530496461,-0.0898310060176808,0.98681053048982,-0.0898310060204466,0.00318522382923714,-0.032851808308795
9,0.00290237499643764,-0.0347954035795013,0.986003279497654,-0.0948932307187658,0.986003279487326,-0.094893230721194,0.0028974970540705,-0.0347847408852662
9.5,0.00259844781121465,-0.0367251902237271,0.985147226732023,-0.0999359319354882,0.98514722671729,-0.0999359319375088,0.00259321183484529,-0.036713625758769
10,0.00227806630772154,-0.0386509384259988,0.984241775875637,-0.104958431111107,0.984241775855816,-0.104958431112709,0.00227246319787311,-0.0386384283920433
10.5,0.00191256676586193,-0.0405281040237657,0.98337679009341,-0.109995283686473,0.983376790073411,-0.109995283687462,0.00191082080882499,-0.0405213122625394
11,0.00153339888595627,-0.042396924505943,0.982486070011496,-0.115013407229632,0.982486069991388,-0.115013407230001,0.0015350486708523,-0.04239706784095
11.5,0.00114153277091378,-0.0442570966810107,0.981570316518072,-0.120013497697708,0.981570316497921,-0.120013497697461,0.00114589270929721,-0.0442654847550061
12,0.000738084986049325,-0.046108411879155,0.98063011313001,-0.124996240348196,0.980630113109877,-0.124996240347346,0.000744193251494496,-0.0461264273179562
12.5,0.000324329954714375,-0.0479507952706024,0.979665937371574,-0.129962298890471,0.979665937351515,-0.129962298889034,0.00033088956780053,-0.0479798594946104
13,-9.82941174088592E-005,-0.0497843560496953,0.978678172230724,-0.1349123070628,0.978678172210791,-0.134912307060796,-9.29792382271533E-005,-0.0498258756009351
13.5,-0.000528188932269913,-0.0516094498559534,0.977667117369988,-0.139846862353262,0.977667117350229,-0.13984686235072,-0.000526279125275309,-0.051664737220781
14,-0.000963615173399657,-0.0534267539108946,0.976632999853508,-0.144766521575645,0.976632999833963,-0.144766521572591,-0.000967794621635265,-0.0534969163600119
14.5,-0.00140273454946133,-0.0552373535561461,0.975575984224575,-0.149671798018315,0.975575984205282,-0.14967179801478,-0.0014162545103093,-0.0553231440302513
15,-0.00184368406019553,-0.0570428357821262,0.974496181828379,-0.154563159900823,0.97449618180937,-0.154563159896835,-0.0018703739175886,-0.057144462125656
15.5,-0.00228469257744168,-0.0588453805616753,0.973393659323316,-0.159441029895816,0.973393659304618,-0.15944102989141,-0.00232891737584584,-0.0589622745029912
16,-0.00272424870937243,-0.0606478342229488,0.9722684463621,-0.164305785500228,0.972268446343738,-0.164305785495436,-0.00279078708758407,-0.0607783905480082
16.5,-0.00316132422334975,-0.0624537412265864,0.971120542452514,-0.169157760066747,0.971120542434507,-0.169157760061599,-0.00325513906403652,-0.0625950513377314
17,-0.00359564726127132,-0.0642673032637822,0.969949923028203,-0.173997244333584,0.969949923010568,-0.173997244328114,-0.00372152643961138,-0.0644149252446358
17.5,-0.00402800305915507,-0.0660932309692175,0.968756544774036,-0.178824488315851,0.968756544756786,-0.178824488310092,-0.00419006355634283,-0.0662410574120447
18,-0.00446051789058177,-0.0679364588032634,0.967540350259361,-0.183639703445081,0.967540350242505,-0.183639703439062,-0.00466159629350452,-0.0680767574562218
18.5,-0.00489685946025445,-0.069801713147299,0.966301271937313,-0.188443064864241,0.966301271920859,-0.188443064857994,-0.00513785444714929,-0.0699254139044525
19,-0.00534227382351807,-0.0716929597481735,0.965039235569958,-0.193234713803803,0.965039235553911,-0.193234713797353,-0.00562155301987599,-0.0717902339381573
19.5,-0.00580338782411918,-0.0736128042345752,0.963754163138532,-0.198014759980081,0.963754163122895,-0.198014759973459,-0.00611640484143863,-0.0736739233541917
20,-0.00628774628267931,-0.0755619630375981,0.962445975295812,-0.202783283970466,0.962445975280586,-0.202783283963695,-0.00662701147557249,-0.0755783420554375
20.5,-0.00680312153601789,-0.0775389389850014,0.961114593414452,-0.207540339531263,0.961114593399635,-0.207540339524367,-0.00715861605870519,-0.0775041892634141
21,-0.00735670845751168,-0.0795400074933625,0.959759941281244,-0.212285955833037,0.959759941266835,-0.212285955826042,-0.00771672980564092,-0.0794507820354795
21.5,-0.00795436791332682,-0.081559545674049,0.958381946482985,-0.21702013959602,0.95838194646898,-0.217020139588947,-0.00830667693587245,-0.0814159833411692
22,-0.0086000786396479,-0.08359064272463,0.956980541525403,-0.22174287711392,0.956980541511798,-0.221742877106789,-0.00893312957085379,-0.0833963098108859
22.5,-0.00929569891260784,-0.0856258548873146,0.955555664722222,-0.226454136159568,0.955555664709011,-0.226454136152401,-0.00959971341194191,-0.0853872102739603
23,-0.0100410504325643,-0.0876579428816346,0.954107260887456,-0.231153867769336,0.954107260874634,-0.231153867762148,-0.0103087512776259,-0.0873834670923821
23.5,-0.0108342558192505,-0.089680458897258,0.952635281860109,-0.235842007906282,0.952635281847669,-0.235842007899091,-0.0110611789015459,-0.0893796469106261
24,-0.0116722167815701,-0.0916881132020846,0.951139686886935,-0.240518479004089,0.951139686874868,-0.24051847899691,-0.0118566276799918,-0.0913705238527891
24.5,-0.0125511188139658,-0.0936769167255394,0.949620442885645,-0.24518319139546,0.949620442873944,-0.245183191388309,-0.0126936360252233,-0.0933514151323678
25,-0.0134668774070854,-0.0956441428340034,0.948077524608051,-0.249836044629761,0.948077524596708,-0.249836044622648,-0.0135699336881794,-0.0953183976516381
25.5,-0.0144154805862372,-0.0975881714323799,0.946510914719958,-0.254476928685385,0.946510914708964,-0.254476928678324,-0.014482743293383,-0.0972684033575
26,-0.0153932175253632,-0.0995082763967594,0.94492060381233,-0.259105725082887,0.944920603801677,-0.259105725075887,-0.0154290556030722,-0.0991992126374557
26.5,-0.0163968058118329,-0.101404403101485,0.943306590356162,-0.263722307905011,0.943306590345841,-0.263722307898085,-0.016405852505055,-0.101109375737102
27,-0.0174234404602518,-0.103276965428077,0.941668880611684,-0.268326544729954,0.941668880601687,-0.268326544723112,-0.0174102682557662,-0.102998093296867
27.5,-0.0184707893514752,-0.105126676604583,0.940007488500959,-0.272918297483957,0.940007488491276,-0.272918297477205,-0.0184396916637437,-0.104865082082939
28,-0.0195369564032064,-0.106954417609182,0.938322435451521,-0.27749742321932,0.938322435442145,-0.277497423212667,-0.0194918188436438,-0.10671044442524
28.5,-0.0206204285823856,-0.108761140604406,0.936613750217556,-0.282063774823551,0.936613750208476,-0.282063774817004,-0.0205646687372497,-0.108534552391446
29,-0.0217200177285752,-0.110547801927055,0.934881468684036,-0.286617201665207,0.934881468675244,-0.28661720165877,-0.0216565732432737,-0.110337951702963
29.5,-0.0228348039324439,-0.112315318366796,0.933125633658398,-0.291157550181548,0.933125633649887,-0.29115755017523,-0.0227661519144106,-0.112121286239377
30,-0.0239640841201562,-0.11406454085852,0.93134629465353,-0.295684664412944,0.93134629464529,-0.295684664406747,-0.0238922787896587,-0.113885241510152
30.5,-0.0251073274233907,-0.11579624062829,0.929543507665218,-0.300198386488495,0.929543507657241,-0.300198386482424,-0.0250340466425971,-0.115630504286867
31,-0.0262641376395689,-0.117511103876602,0.927717334946653,-0.304698557067139,0.927717334938931,-0.304698557061198,-0.0261907320277805,-0.117357735253569
31.5,-0.0274342223748519,-0.119209732052544,0.925867844782085,-0.309185015738108,0.925867844774611,-0.309185015732299,-0.0273617630738083,-0.119067551689963
32,-0.0286173681199347,-0.120892645585535,0.923995111261371,-0.313657601384321,0.923995111254137,-0.31365760137865,-0.0285466909673473,-0.120760517598103
32.5,-0.0298134203925817,-0.122560289580822,0.922099214056751,-0.318116152512049,0.922099214049749,-0.318116152506516,-0.0297451654162155,-0.122437139157227
33,-0.0310222680927774,-0.124213040465839,0.920180238202981,-0.322560507549817,0.920180238196204,-0.322560507544425,-0.0309569139825449,-0.12409786385221
33.5,-0.0322438312932929,-0.125851212924493,0.918238273881649,-0.326990505119378,0.918238273875091,-0.326990505114129,-0.0321817249607819,-0.125743082025678
34,-0.0334780517917728,-0.127475066703776,0.916273416210326,-0.331405984281227,0.916273416203979,-0.33140598427612,-0.0334194333778208,-0.127373129936935
34.5,-0.0347248858583066,-0.129084813047848,0.914285765037038,-0.335806784757012,0.914285765030897,-0.335806784752049,-0.034669909668795,-0.128988293673398
35,-0.0359842987134257,-0.130680620629442,0.912275424740406,-0.340192747130907,0.912275424734462,-0.340192747126089,-0.0359330506005912,-0.130588813460542
35.5,-0.0372562603604504,-0.132262620923547,0.910242504035665,-0.344563713031868,0.910242504029914,-0.344563713027195,-0.0372087720554177,-0.132174888065145
36,-0.0385407424716052,-0.133830913015831,0.908187115786725,-0.34891952529852,0.90818711578116,-0.348919525293992,-0.0384970033358543,-0.13374667909463
36.5,-0.0398377160897949,-0.1353855678668,0.906109376824302,-0.353260028128235,0.906109376818917,-0.353260028123853,-0.0397976827030454,-0.135304315072058
37,-0.0411471499586885,-0.136926632068783,0.904009407770134,-0.35758506721186,0.904009407764926,-0.357585067207623,-0.0411107539069697,-0.136847895219808
37.5,-0.0424690093344718,-0.138454131140452,0.901887332867234,-0.361894489855339,0.901887332862195,-0.361894489851245,-0.0424361635098818,-0.138377492921181
38,-0.0438032551650179,-0.139968072406219,0.89974327981605,-0.366188145089486,0.899743279811176,-0.366188145085535,-0.043773858840604,-0.139893158853223
38.5,-0.0451498435477273,-0.141468447506963,0.897577379616468,-0.370465883768907,0.897577379611754,-0.370465883765099,-0.0451237864481294,-0.141394923799154
39,-0.0465087253973769,-0.142955234586108,0.895389766415453,-0.374727558661075,0.895389766410895,-0.374727558657409,-0.0464858909487493,-0.142882801158056
39.5,-0.0478798462709538,-0.144428400191388,0.893180577360205,-0.378973024526419,0.893180577355797,-0.378973024522892,-0.0478601141819297,-0.144356789174328
40,-0.0492631463086828,-0.145887900928777,0.890949952456625,-0.383202138190236,0.890949952452365,-0.383202138186848,-0.0492463946073897,-0.145816872911656
40.5,-0.050658560259945,-0.147333684900984,0.88869803443294,-0.387414758607126,0.888698034428823,-0.387414758603875,-0.0506446668896676,-0.147263025996607
41,-0.0520660175701404,-0.148765692959147,0.886424968608252,-0.39161074691862,0.886424968604274,-0.391610746915505,-0.052054861627654,-0.148695212156151
41.5,-0.053485442510269,-0.150183859792727,0.884130902765866,-0.395789966504576,0.884130902762024,-0.395789966501595,-0.0534769051954782,-0.150113386572057
42,-0.054916754335397,-0.151588114879428,0.881815987031175,-0.399952283028885,0.881815987027465,-0.399952283026037,-0.0549107196682792,-0.151517497073213
42.5,-0.0563598674615826,-0.152978383314037,0.879480373753922,-0.404097564479979,0.87948037375034,-0.40409756447726,-0.0563562228120572,-0.152907485185099
43,-0.0578146916534669,-0.154354586532566,0.877124217394658,-0.408225681206553,0.877124217391201,-0.408225681203964,-0.0578133281213044,-0.154283287053608
43.5,-0.0592811322167474,-0.155716642945817,0.874747674415206,-0.412336505948939,0.874747674411871,-0.412336505946476,-0.0592819448916955,-0.155644834258595
44,-0.0607590901912946,-0.157064468494548,0.872350903172957,-0.416429913866456,0.872350903169742,-0.416429913864119,-0.0607619783179211,-0.156992054530759
44.5,-0.0622484625418669,-0.158397977136748,0.869934063818831,-0.420505782561088,0.869934063815733,-0.420505782558873,-0.0622533296089921,-0.158324872383848
45,-0.0637491423442692,-0.159717081276061,0.867497318198736,-0.424563992097764,0.867497318195752,-0.424563992095669,-0.0637558961151057,-0.159643209672743
45.5,-0.0652610189655171,-0.161021692139144,0.865040829758359,-0.428604425021542,0.865040829755486,-0.428604425019565,-0.0652695714615344,-0.160946986086663
46,-0.0667839782370336,-0.162311720108671,0.862564763451156,-0.432626966371908,0.862564763448392,-0.432626966370048,-0.0667942456860966,-0.162236119585568
46.5,-0.0683179026203586,-0.163587075017768,0.860069285649378,-0.436631503694438,0.860069285646722,-0.436631503692692,-0.0683298053776258,-0.163510526786821
47,-0.0698626713650783,-0.164847666410851,0.85755456405801,-0.440617927050003,0.857554564055458,-0.44061792704837,-0.0698761338135117,-0.164770123308289
47.5,-0.0714181606589517,-0.166093403775191,0.855020767631475,-0.444586129021726,0.855020767629026,-0.444586129020203,-0.0714331110949189,-0.16601482407322
48,-0.0729842437703164,-0.167324196746902,0.852468066492995,-0.448536004719838,0.852468066490648,-0.448536004718423,-0.0730006142786868,-0.167244543581637
48.5,-0.074560791182992,-0.168539955294576,0.84989663185649,-0.452467451784594,0.849896631854242,-0.452467451783285,-0.0745785175052334,-0.168459196152268
49,-0.0761476707239667,-0.169740589883333,0.847306635950883,-0.456380370387391,0.847306635948732,-0.456380370386184,-0.07616669212202,-0.169658696138637
49.5,-0.07774474768421,-0.170926011621717,0.84469825194673,-0.460274663230204,0.844698251944675,-0.4602746632291,-0.077765006802334,-0.170842958122378
50,-0.0793518849329525,-0.172096132393487,0.842071653885064,-0.464150235543478,0.842071653883104,-0.464150235542473,-0.0793733276592609,-0.172011897086508
50.5,-0.0809689430258335,-0.17325086497616,0.839427016608357,-0.468006995082549,0.83942701660649,-0.468006995081641,-0.0809915183548491,-0.173165428571009
51,-0.0825957803072883,-0.174390123147845,0.83676451569351,-0.471844852122727,0.836764515691735,-0.471844852121914,-0.0826194402045375,-0.174303468812806
51.5,-0.0842322530075456,-0.175513821783754,0.834084327386795,-0.475663719453095,0.83408432738511,-0.475663719452376,-0.0842569522769567,-0.175425934871925
52,-0.0858782153346151,-0.176621876943595,0.831386628540661,-0.479463512369146,0.831386628539066,-0.479463512368518,-0.0859039114892907,-0.176532744745433
52.5,-0.0875335195616107,-0.177714205950857,0.828671596552334,-0.483244148664288,0.828671596550827,-0.483244148663747,-0.087560172698366,-0.177623817470534
53,-0.0891980161097495,-0.17879072746493,0.825939409304137,-0.487005548620316,0.825939409302717,-0.487005548619862,-0.0892255887877011,-0.178699073218036
53.5,-0.0908715536273454,-0.179851361546831,0.823190245105466,-0.490747634996915,0.823190245104132,-0.490747634996545,-0.0909000107507097,-0.179758433377251
54,-0.0925539790651069,-0.180896029719249,0.820424282636363,-0.49447033302023,0.820424282635114,-0.494470333019943,-0.0925832877702983,-0.18080182063327
54.5,-0.09424513774801,-0.181924655021491,0.817641700892614,-0.498173570370581,0.81764170089145,-0.498173570370376,-0.0942752672950635,-0.181829159037414
55,-0.0959448734440216,-0.182937162059904,0.814842679132341,-0.501857277169356,0.81484267913126,-0.501857277169229,-0.0959757951123096,-0.182840374071615
55.5,-0.0976530284299186,-0.183933477054199,0.812027396824001,-0.505521385965139,0.812027396823003,-0.505521385965088,-0.0976847154180995,-0.183835392707329
56,-0.0993694435544291,-0.184913527880119,0.809196033595784,-0.509165831719111,0.809196033594867,-0.509165831719136,-0.0994018708845301,-0.184814143459557
56.5,-0.101093958298909,-0.185877244108801,0.806348769186321,-0.512790551789763,0.806348769185485,-0.512790551789861,-0.101127102724434,-0.185776556436465
57,-0.10282641083576,-0.186824557043149,0.803485783396701,-0.516395485916964,0.803485783395946,-0.516395485917133,-0.102860250753684,-0.186722563385037
57.5,-0.104566638084757,-0.187755399751508,0.800607256043716,-0.51998057620541,0.80060725604304,-0.519980576205648,-0.104601153451272,-0.187652097733147
58,-0.106314475767469,-0.188669707098881,0.79771336691433,-0.523545767107493,0.797713366913734,-0.5235457671078,-0.106349648017331,-0.188565094628385
58.5,-0.108069758459911,-0.189567415775901,0.794804295721308,-0.527091005405622,0.794804295720789,-0.527091005405993,-0.108105570429242,-0.189461490973937
59,-0.109832319643597,-0.190448464325768,0.791880222059987,-0.530616240194012,0.791880222059546,-0.530616240194447,-0.109868755495981,-0.1903412254618
59.5,-0.111601991755092,-0.19131279316931,0.788941325366156,-0.534121422859989,0.788941325365792,-0.534121422860487,-0.111639036910824,-0.191204238603539
60,-0.113378606234212,-0.192160344628315,0.785987784875006,-0.537606507064811,0.785987784874718,-0.537606507065369,-0.113416247302544,-0.192050472758822
60.5,-0.115161993570967,-0.192991062947285,0.783019779581125,-0.54107144872405,0.783019779580912,-0.541071448724668,-0.115200218285216,-0.192879872161904
61,-0.116951983351366,-0.193804894313706,0.780037488199515,-0.544516205987552,0.780037488199377,-0.544516205988227,-0.116990780506729,-0.193692382946226
61.5,-0.118748404302154,-0.194601786876967,0.777041089127599,-0.547940739218984,0.777041089127535,-0.547940739219715,-0.11878776369611,-0.194487953167279
62,-0.120551084334584,-0.195381690765992,0.7740307604082,-0.551345010975004,0.77403076040821,-0.551345010975789,-0.120590996709741,-0.195266532823851
62.5,-0.122359850587312,-0.196144558105695,0.771006679693459,-0.554728985984073,0.771006679693542,-0.554728985984909,-0.122400307576579,-0.196028073877799
63,-0.124174529468451,-0.196890343032306,0.767969024209684,-0.558092631124906,0.767969024209839,-0.558092631125794,-0.12421552354242,-0.196772530272409
