"Freq [GHz]","re(St(P1,P1)) []","im(St(P1,P1)) []","re(St(P1,P2)) []","im(St(P1,P2)) []","re(St(P2,P1)) []","im(St(P2,P1)) []","re(St(P2,P2)) []","im(St(P2,P2)) []"
0,0.00498408138849982,0,0.995029479192453,0,0.995029477489879,0,0.00498407859606687,0
0.5,0.0053682584828465,0.00166500941952563,0.994555007208337,-0.007096807179515,0.994555007199484,-0.00709680729559636,0.00536829623549906,0.00166484561641767
1,0.00569413752400294,0.00286452332974108,0.993996589623084,-0.0137015805343665,0.993996589585716,-0.0137015804403511,0.0056942595456384,0.0028641579500821
1.5,0.0055895699858306,0.00396808907757062,0.993457425562825,-0.0203729246931523,0.993457425564019,-0.0203729245840201,0.0055901939042533,0.0039668578225438
2,0.0055679792140646,0.00510539397254561,0.992804607373054,-0.026886995157426,0.992804607405738,-0.0268869950538679,0.00556892252389929,0.00510375624835291
2.5,0.00558388007812738,0.00627028273732932,0.992091093189551,-0.0332535497286255,0.99209109324033,-0.0332535496431134,0.00558499481153207,0.00626834404943288
3,0.00562205611637534,0.00745568328791713,0.991350613488187,-0.0394966650694535,0.99135061354347,-0.0394966650064656,0.00562325766329863,0.00745345954714871
3.5,0.00567665781728954,0.00865775506070143,0.990599366292913,-0.0456429706993706,0.99059936634225,-0.0456429706580916,0.0056778958112278,0.0086552366151853
4,0.00574520994249506,0.00987475872405685,0.989841409413767,-0.0517154410206855,0.989841409450701,-0.0517154409977652,0.00574645146305408,0.00987192725945807
4.5,0.00582664583305559,0.0111061612898071,0.989073871187782,-0.0577314732601932,0.989073871209392,-0.0577314732516037,0.00582786703500382,0.0111029946572101
5,0.00592056887799619,0.0123521380852925,0.988290643786764,-0.0637031926555736,0.988290643792797,-0.0637031926576093,0.00592175070184564,0.0123486116562388
5.5,0.00602694271096882,0.0136133037265651,0.98748459067619,-0.0696385419148013,0.987484590668222,-0.0696385419244328,0.00602806854711457,0.0136093906574475
6,0.00614594981076305,0.0148905639324468,0.98664870559031,-0.0755424350481153,0.986648705571081,-0.0755424350630314,0.00614700413338953,0.0148862350669594
6.5,0.00627792305158598,0.0161850318299699,0.985776639531759,-0.0814177112039811,0.985776639504697,-0.0814177112224916,0.00627889055392705,0.0161802554774413
7,0.00642331161298004,0.0174979798930508,0.984862884242581,-0.0872658411587199,0.984862884211478,-0.0872658411795877,0.00642417660988376,0.0174927215618697
7.5,0.00658266434175259,0.0188308123863301,0.983902785127649,-0.0930874198515754,0.983902785096438,-0.0930874198738803,0.00658341031629225,0.018825034497163
8,0.00675662265543606,0.0201850501185978,0.982892478666468,-0.0988824968892752,0.98289247863908,-0.0988824969122892,0.00675723188095828,0.0201787117026973
8.5,0.00694591908942865,0.0215623229159942,0.981828803083617,-0.10465079227989,0.981828803063885,-0.104650792302982,0.00694637228649292,0.021555379297026
9,0.00715137949587216,0.0229643671666158,0.980709205582804,-0.110391833972163,0.980709205574398,-0.110391833994738,0.00715165549834366,0.0229567696219544
9.5,0.00737392786088889,0.0243930268703241,0.979531656185564,-0.116105043467886,0.979531656191952,-0.116105043489341,0.00737400327344873,0.0243847222669937
10,0.00761459321659545,0.0258502572512573,0.978294571656887,-0.121789787624956,0.978294571681309,-0.121789787644657,0.00761444205010511,0.025841187651408
10.5,0.00795502108964626,0.0271098096268734,0.977129355822794,-0.127510421134562,0.97712935584631,-0.127510421154967,0.00795454206490712,0.0271003242160335
11,0.00831152429659607,0.028364577568698,0.975938212023821,-0.133200465506229,0.975938212046402,-0.133200465527274,0.00831070180951382,0.0283546818709675
11.5,0.00868402771876171,0.0296143425036681,0.974722369712539,-0.138861481521541,0.974722369734163,-0.138861481543162,0.00868284622220677,0.0296040423086894
12,0.00907245291149437,0.0308588871370334,0.973482831902515,-0.144495002518907,0.973482831923167,-0.144495002541038,0.00907089691825469,0.0308481885002592
12.5,0.00947671812687692,0.0320979955074168,0.972220397707736,-0.150102514192432,0.972220397727406,-0.150102514215011,0.00947477221265064,0.0320869047503614
13,0.00989673833738744,0.033331453041467,0.97093568486036,-0.155685439084263,0.970935684879044,-0.155685439107224,0.00989438714380964,0.0333199767519643
13.5,0.0103324252605209,0.0345590466080745,0.969629151602028,-0.161245125196721,0.969629151619726,-0.161245125220002,0.010329653498228,0.0345471916405131
14,0.0107836873843549,0.0357805645721481,0.968301117510119,-0.166782838144053,0.968301117526838,-0.166782838167596,0.010780479836084,0.0357683380477059
14.5,0.0112504299940654,0.0369957968479349,0.966951782961459,-0.172299756283884,0.966951782977207,-0.17229975630763,0.0112467715177914,0.0369832061547877
15,0.0117325551993694,0.0382045349518316,0.965581247051916,-0.177796968306818,0.965581247066708,-0.177796968330709,0.011728430731478,0.0381915877453562
15.5,0.0122299619629028,0.0394065720547343,0.96418952388272,-0.18327547281161,0.964189523896573,-0.183275472835598,0.0122253565213991,0.0393932762576847
16,0.0127425461295082,0.0406017030338313,0.962776557195321,-0.188736179447786,0.962776557208255,-0.188736179471817,0.0127374448172608,0.0405880668365053
16.5,0.0132702004564441,0.0417897245238921,0.96134223338939,-0.194179911262975,0.961342233401429,-0.194179911287007,0.0132645884644602,0.0417757563842578
17,0.0138128146444809,0.0429704349679663,0.959886392995826,-0.199607407946154,0.959886393006995,-0.199607407970141,0.0138066772552182,0.0429561436117878
17.5,0.0143702753698974,0.0441436346675346,0.958408840701476,-0.205019329708136,0.958408840711801,-0.205019329732038,0.0143635979606072,0.044129029088452
18,0.0149424663173544,0.045309125832063,0.956909354037122,-0.210416261586284,0.956909354046632,-0.210416261610063,0.0149352343634537,0.0452942152916538
18.5,0.0155292682136372,0.0464667126279308,0.955387690847593,-0.215798718000888,0.955387690856317,-0.215798718024511,0.0155214672921114,0.0464515066557392
19,0.0161305588622585,0.0476162012267356,0.953843595664357,-0.221167147425719,0.953843595672327,-0.221167147449154,0.0161221746550883,0.0476007096202744
19.5,0.0167462131789055,0.0487573998529682,0.952276805098465,-0.226521937065395,0.952276805105711,-0.226521937088613,0.0167372314765232,0.0487416326776826
20,0.0173761032277219,0.0498901188309842,0.950687052366271,-0.231863417457553,0.950687052372825,-0.231863417480528,0.017366509932488,0.0498740864201874
20.5,0.0180200982584129,0.0510141706313241,0.949074071053227,-0.237191866938789,0.94907407105912,-0.237191866961498,0.0180098793881137,0.0509978835860907
21,0.0186780647441554,0.0521293699163095,0.947437598212734,-0.242507515930658,0.947437598217999,-0.242507515953081,0.0186672064355178,0.052112839105342
21.5,0.0193498664203038,0.0532355335849242,0.945777376888376,-0.247810551015956,0.945777376893046,-0.247810551038073,0.019338354932527,0.0532187701443763
22,0.0200353643238726,0.0543324808169516,0.944093158139013,-0.253101118786639,0.944093158143117,-0.253101118808434,0.0200231860421705,0.0543154961502159
22.5,0.0207344168337835,0.0554200331163592,0.942384702637732,-0.258379329453518,0.942384702641303,-0.258379329474978,0.0207215582729374,0.0554028388938193
23,0.0214468797118594,0.0564980143538945,0.940651781907518,-0.263645260214646,0.940651781910587,-0.263645260235758,0.021433327519775,0.0564806225126351
23.5,0.022172606144551,0.057566250808897,0.938894179248936,-0.268898958384411,0.938894179251533,-0.268898958405164,0.0221583471058167,0.0575486735523831
24,0.0229114467853702,0.0586245712102915,0.93711169040821,-0.274140444289233,0.937111690410366,-0.274140444309619,0.0228964678248169,0.0586068210080031
24.5,0.0236632497980248,0.0596728067767469,0.935304124027774,-0.279369713938441,0.935304124029517,-0.279369713958452,0.0236475379842747,0.0596548963637831
25,0.0244278609002239,0.0607107912559939,0.933471301915708,-0.284586741480767,0.933471301917067,-0.284586741500398,0.0244114034492344,0.0606927336326379
25.5,0.0252051234081407,0.0617383609632658,0.931613059165457,-0.289791481458149,0.93161305916646,-0.289791481477395,0.0251879076867292,0.0617201693945253
26,0.0259948782815084,0.0627553548188622,0.92972924415275,-0.294983870869152,0.929729244153425,-0.294983870888011,0.0259768918108596,0.0627370428339644
26.5,0.0267969641693303,0.0637616143848094,0.92781971843273,-0.300163831054582,0.927819718433102,-0.300163831073051,0.0267781946284806,0.0637431957766788
27,0.027611217456176,0.0647569839005941,0.925884356556872,-0.305331269417863,0.925884356556968,-0.305331269435943,0.0275916526854665,0.0647384727253
27.5,0.0284374723090495,0.0657413103179727,0.923923045826297,-0.310486080992437,0.92392304582614,-0.310486081010127,0.0284171003135452,0.0657227208941542
28,0.0292755607247908,0.0667144433348146,0.921935685995454,-0.315628149868044,0.92193568599507,-0.315628149885346,0.0292543696776617,0.066695790243088
28.5,0.0301253125780012,0.0676762354279854,0.91992218893799,-0.320757350487201,0.919922188937402,-0.320757350504117,0.0301032908238547,0.0676575335103367
29,0.0309865556694476,0.0686265418852368,0.917882478284615,-0.325873548822574,0.917882478283845,-0.325873548839106,0.0309636917276137,0.0686078062444055
29.5,0.0318591157749332,0.0695652208360957,0.915816489041182,-0.330976603445308,0.915816489040251,-0.33097660346146,0.0318353983426889,0.069546466834959
30,0.0327428166945961,0.070492133281737,0.913724167193768,-0.336066366493698,0.913724167192699,-0.336066366509476,0.0327182346503279,0.0704733765426937
30.5,0.0336374803026022,0.071407143123815,0.911605469306348,-0.341142684550943,0.91160546930516,-0.34114268456635,0.0336120227089012,0.0713883995281845
31,0.0345429265972098,0.0723101171922529,0.909460362115617,-0.346205399440015,0.909460362114329,-0.346205399455057,0.0345165827038874,0.072291402879693
31.5,0.0354589737511626,0.0732009252719585,0.907288822126667,-0.351254348943136,0.907288822125299,-0.351254348957821,0.0354317329981879,0.0731822566399152
32,0.0363854381623777,0.0740794401284692,0.905090835212503,-0.356289367452665,0.905090835211072,-0.356289367466997,0.0363572901827222,0.0740608338316637
32.5,0.0373221345048921,0.0749455375324954,0.90286639621972,-0.361310286559663,0.902866396218243,-0.36131028657365,0.037293069127283,0.0749270104824664
33,0.0382688757800266,0.0757990962833601,0.900615508582215,-0.36631693558591,0.900615508580708,-0.366316935599559,0.0382388830315943,0.0757806656480677
33.5,0.0392254733677245,0.0766399982313172,0.898338183944318,-0.371309142064553,0.898338183942798,-0.371309142077871,0.0391945434765449,0.0766216814348287
34,0.0401917370780209,0.0774681282987326,0.896034441794391,-0.376286732174204,0.896034441792873,-0.3762867321872,0.0401598604755408,0.0774499430210003
34.5,0.0411674752025991,0.07828337450012,0.893704309109659,-0.381249531130799,0.893704309108157,-0.381249531143482,0.0411346425259379,0.0782653386768745
35,0.0421524945663765,0.0790856279610236,0.89134782001275,-0.386197363541186,0.891347820011278,-0.386197363553563,0.0421186966605033,0.0790677597837967
35.5,0.0431466005790762,0.0798747829357234,0.888965015440271,-0.391130053722009,0.888965015438843,-0.39113005373409,0.0431118284988503,0.0798571008520206
36,0.044149597286723,0.0806507368237641,0.886555942823541,-0.396047425987157,0.886555942822169,-0.39604742599895,0.0441138422987914,0.0806332595374161
36.5,0.0451612874230052,0.0814133901853034,0.884120655781482,-0.400949304906708,0.884120655780178,-0.400949304918223,0.0451245410075578,0.0813961366570125
37,0.0461814724604411,0.0821626467552486,0.881659213825583,-0.405835515540059,0.881659213824357,-0.405835515551305,0.0461437263128112,0.0821456362033662
37.5,0.0472099526612799,0.0828984134562023,0.879171682076725,-0.410705883645648,0.879171682075589,-0.410705883656634,0.0471711986933877,0.082881665357763
38,0.0482465271280641,0.0836206004101892,0.876658130993643,-0.415560235869459,0.876658130992608,-0.415560235880194,0.0482067574696993,0.0836041345022329
38.5,0.0492909938537806,0.0843291209491719,0.87411863611269,-0.420398399914297,0.874118636111764,-0.420398399924791,0.0492502008537205,0.0843129572303961
39,0.050343149771512,0.085023891624351,0.871553277798592,-0.42522020469162,0.871553277797785,-0.425220204701884,0.0503013259984713,0.085008050357126
39.5,0.0514027908034999,0.0857048322142357,0.868962141005812,-0.430025480457561,0.868962141005132,-0.430025480467603,0.0513599290469112,0.0856893339270337
40,0.0524697119095267,0.0863718657315128,0.866345315050138,-0.434814058934576,0.866345315049595,-0.434814058944407,0.0524258051801514,0.0863567312217887
40.5,0.0535437071345057,0.087024918428682,0.863702893390114,-0.439585773420088,0.863702893389714,-0.439585773429717,0.053498748664876,0.0870101687662694
41,0.0546245696551713,0.0876639198024968,0.861034973417892,-0.444340458883287,0.861034973417642,-0.444340458892723,0.0545785528998678,0.0876495763335685
41.5,0.0557120918257444,0.0882888025971985,0.858341656259126,-0.449077952051187,0.858341656259033,-0.449077952060441,0.055665010461511,0.0882748869488563
42,0.0568060652224383,0.088899502806565,0.855623046581504,-0.453798091484922,0.855623046581575,-0.453798091494004,0.056757913148148,0.0888860368921318
42.5,0.0579062806866606,0.0894959596747907,0.852879252411523,-0.458500717647159,0.852879252411763,-0.458500717656078,0.0578570520231368,0.0894829656998736
43,0.0590125283667522,0.0900781156962199,0.850110384959136,-0.463185672961432,0.85011038495955,-0.463185672970198,0.0589622174564651,0.0900656161656347
43.5,0.0601245977580873,0.090645916613963,0.847316558449895,-0.467852801864127,0.847316558450488,-0.46785280187275,0.0600731991647409,0.0906339343396099
44,0.0612422777413399,0.091199311417431,0.844497889964233,-0.472501950849763,0.844497889965011,-0.472501950858252,0.0611897862493769,0.0911878695272175
44.5,0.0623653566187153,0.0917382523388315,0.84165449928355,-0.477132968510177,0.841654499284516,-0.477132968518541,0.0623117672327663,0.0917273742867616
45,0.0634936221479007,0.0922626948486823,0.83878650874275,-0.481745705568131,0.838786508743908,-0.481745705576381,0.0634389300922185,0.0922524044262288
45.5,0.0646268615734882,0.0927725976504085,0.835894043088933,-0.486340014905853,0.835894043090286,-0.486340014913997,0.0645710622914117,0.092762918999306
46,0.0657648616555819,0.0932679226741046,0.832977229345934,-0.490915751588919,0.832977229347486,-0.490915751596966,0.0657079508090861,0.0932588803007077
46.5,0.066907408695271,0.0937486350695517,0.830036196684409,-0.495472772885904,0.830036196686161,-0.495472772893864,0.0668493821646672,0.0937402538609304
47,0.0680542885566202,0.0942147031986182,0.827071076297204,-0.500010938284153,0.82707107629916,-0.500010938292035,0.0679951424404957,0.0942070084405614
47.5,0.0692052866847888,0.0946660986271751,0.824082001279747,-0.50453010950199,0.824082001281908,-0.504530109509803,0.0691450173002773,0.0946591160243099
48,0.070360188119834,0.0951027961166983,0.8210691065152,-0.509030150497677,0.821069106517567,-0.50903015050543,0.0702987920033393,0.0950965518149387
48.5,0.0715187775057209,0.0955247736157618,0.818032528564155,-0.513510927475382,0.818032528566732,-0.513510927483084,0.0714562514142345,0.0955192942273382
49,0.0726808390939857,0.0959320122516646,0.814972405558643,-0.517972308888407,0.814972405561429,-0.517972308896066,0.0726171800071663,0.0959273248829932
49.5,0.0738461567414418,0.0963244963224876,0.811888877100234,-0.522414165439893,0.811888877103229,-0.522414165447517,0.0737813618646634,0.0963206286051799
50,0.0750145139012464,0.0967022132899283,0.808782084162052,-0.526836370081202,0.808782084165258,-0.5268363700888,0.0749485806698517,0.0966991934152723
50.5,0.0761856936065461,0.09706515377334,0.805652168994502,-0.531238798008174,0.805652168997918,-0.531238798015753,0.0761186196915949,0.0970630105306056
51,0.0773594784458382,0.0974133115454906,0.802499275034532,-0.535621326655399,0.802499275038158,-0.535621326662969,0.0772912617617009,0.0974120743644565
51.5,0.078535650529065,0.0977466835306486,0.79932354681827,-0.539983835688686,0.799323546822107,-0.539983835696253,0.078466289243263,0.0977463825287948
52,0.0797139914433364,0.0980652698057454,0.796125129896875,-0.54432620699584,0.796125129900921,-0.544326207003413,0.0796434839891254,0.0980659358405797
52.5,0.0808942821970313,0.098369073605505,0.792904170755448,-0.548648324675897,0.792904170759703,-0.548648324683484,0.0808226272893086,0.0983707383325578
53,0.0820763031508678,0.0986581013326397,0.789660816734878,-0.552950075026907,0.78966081673934,-0.552950075034514,0.0820034998061062,0.098660797269695
53.5,0.0832598339343523,0.098932362574407,0.786395215956471,-0.557231346532395,0.786395215961139,-0.557231346540029,0.0831858814953886,0.0989361231725927
54,0.0844446533458084,0.0991918701271478,0.783107517249262,-0.561492029846574,0.783107517254135,-0.561492029854243,0.0843695515124883,0.0991967298495626
54.5,0.0856305392339523,0.0994366400307253,0.779797870079869,-0.565732017778411,0.779797870084945,-0.565732017786121,0.0855542881008232,0.0994426344393294
55,0.0868172683587325,0.0996666916152451,0.776466424484801,-0.569951205274626,0.776466424490077,-0.569951205282384,0.0867398684612073,0.0996738574667828
55.5,0.0880046162288459,0.0998820475629302,0.7731133310051,-0.574149489401682,0.773113331010574,-0.574149489409494,0.0879260685995538,0.0998904229147023
56,0.0891923569130409,0.100082733988679,0.769738740623233,-0.578326769326857,0.769738740628904,-0.57832676933473,0.0891126631504089,0.100092358315013
56.5,0.0903802628219586,0.100268780543621,0.766342804702133,-0.582482946298439,0.766342804707997,-0.582482946306379,0.0902994251734872,0.10027969486389
57,0.0915681044568957,0.100440220546973,0.76292567492631,-0.586617923625115,0.762925674932364,-0.586617923633127,0.0914861259200755,0.100452467566005
57.5,0.0927556501214757,0.100597091152683,0.759487503244947,-0.59073160665459,0.759487503251189,-0.590731606662681,0.0926725345658931,0.100610715414351
58,0.0939426655918242,0.10073943355891,0.756028441816907,-0.594823902751514,0.756028441823332,-0.594823902759688,0.0938584179067113,0.100754481613556
58.5,0.0951289137404532,0.100867293270198,0.752548642957578,-0.598894721274718,0.752548642964186,-0.598894721282981,0.0950435400127998,0.100883813856356
59,0.0963141541087293,0.100980720424582,0.749048259087498,-0.602943973553844,0.749048259094283,-0.602943973562202,0.0962276618381054,0.100998764665145
59.5,0.0974981424225672,0.10107977020077,0.745527442682673,-0.606971572865378,0.745527442689632,-0.606971572873835,0.0974105407800365,0.101099391813227
60,0.0986806300459394,0.101164503324142,0.741986346226561,-0.61097743440813,0.74198634623369,-0.610977434416691,0.0985919301859226,0.101185758843805
60.5,0.0998613633670375,0.101234986694894,0.738425122163638,-0.614961475278201,0.738425122170934,-0.61496147528687,0.0997715788027296,0.101257935708965
61,0.101040083112638,0.101291294167275,0.734843922854513,-0.618923614443452,0.734843922861971,-0.618923614452233,0.100949230167661,0.101315999556105
61.5,0.102216523587697,0.101333507515952,0.731242900532526,-0.622863772717521,0.731242900540142,-0.622863772726419,0.102124621939071,0.101360035695728
62,0.103390411839731,0.101361717634336,0.727622207261794,-0.626781872733403,0.727622207269565,-0.626781872742421,0.10329748517004,0.101390138792481
62.5,0.104561466751792,0.101376026020626,0.723981994896661,-0.630677838916619,0.723981994904581,-0.63067783892576,0.104467543531579,0.10140641433111
63,0.105729398074469,0.101376546620827,0.720322415042499,-0.634551597458,0.720322415050564,-0.634551597467269,0.105634512499325,0.101408980420968
63.5,0.106893905417596,0.101363408114586,0.716643619017833,-0.638403076286117,0.716643619026039,-0.638403076295516,0.106798098528074,0.101397970017267
64,0.10805467723778,0.101336756749843,0.71294575781775,-0.642232205039349,0.712945757826091,-0.642232205048881,0.107957998253744,0.101373533654597
