"Freq [GHz]","re(St(P1,P1)) []","im(St(P1,P1)) []","re(St(P1,P2)) []","im(St(P1,P2)) []","re(St(P2,P1)) []","im(St(P2,P1)) []","re(St(P2,P2)) []","im(St(P2,P2)) []"
0,0.0040463088602678,0,0.995964227011427,0,0.995964230838581,0,0.00404633105910079,0
0.5,0.00445923155062644,0.000229612248944022,0.995446354998506,-0.00705920551341421,0.995446356036602,-0.00705920547924777,0.00445938833419746,0.000228992641204684
1,0.00478482028355032,-5.34121451991609E-005,0.994849044529271,-0.0135715093072193,0.994849044531072,-0.0135715092107205,0.00478518219353674,-5.48198411571832E-005
1.5,0.00446167679142917,-0.000149202622527156,0.994293023358049,-0.0201668794481158,0.994293023390108,-0.020166879335406,0.0044552624429155,-0.00017751389153986
2,0.00402763923782867,-0.000467362865766319,0.993622150848855,-0.0265948348175122,0.993622150901248,-0.0265948347091118,0.00405414163927897,-0.00052303796278963
2.5,0.00376250033337477,-0.00104627370589583,0.992892567835841,-0.0328652489040309,0.992892567893076,-0.0328652488120529,0.00382929310373825,-0.00107350660777605
3,0.00379182571364955,-0.00157551938177924,0.992140205463534,-0.0390034317044652,0.992140205510892,-0.0390034316329526,0.00384594373556091,-0.00156356196904106
3.5,0.00390310021237417,-0.00189904553302434,0.991382411708039,-0.0450376943014401,0.991382411734908,-0.0450376942492809,0.00393017207122215,-0.00188024839539658
4,0.00396646286984859,-0.00209038340604728,0.990623568880975,-0.0509926919452539,0.990623568881551,-0.0509926919090127,0.00397764226514363,-0.00207943234899055
4.5,0.0039690877228562,-0.00222078519056268,0.989860601552409,-0.0568872911477296,0.989860601525059,-0.0568872911235374,0.00397347513795299,-0.00221893960222097
5,0.00392630347920475,-0.00232239173527837,0.989086920671918,-0.0627348222204542,0.989086920618119,-0.0627348222049289,0.00392828831767811,-0.0023276101065095
5.5,0.00385280580380265,-0.00240749199503743,0.988294803641808,-0.068544192411955,0.988294803565143,-0.0685441924024701,0.00385419581154078,-0.00241767393479808
6,0.00375899155665949,-0.00248064372430168,0.987476657081767,-0.0743210875622644,0.987476656987138,-0.0743210875569247,0.0037604447516667,-0.00249420812690104
6.5,0.00365192179599827,-0.00254359516110458,0.986625598891129,-0.0800689728223567,0.986625598784181,-0.0800689728198067,0.00365361827723509,-0.00255943271057646
7,0.00353647160315368,-0.00259713228514347,0.985735666022122,-0.0857898363728067,0.985735665908845,-0.0857898363720473,0.00353840497919566,-0.00261447280598137
7.5,0.00341610272689141,-0.00264176028253083,0.984801833705698,-0.0914847086013886,0.98480183359215,-0.0914847086016017,0.00341820371397439,-0.00266006436178756
8,0.00329333606819249,-0.00267794541244815,0.98381994931856,-0.097154010599243,0.983819949210679,-0.0971540105996542,0.00329552362638269,-0.00269682985720987
8.5,0.00317004010808947,-0.00270618911234521,0.982786634585059,-0.102797781725656,0.98278663448854,-0.102797781725463,0.00317224123208557,-0.00272537786076565
9,0.00304761243224191,-0.00272703866334911,0.981699182296832,-0.108415824972089,0.981699182217044,-0.108415824970399,0.00304976841239063,-0.00274633056248419
9.5,0.00292709907307413,-0.00274107560247128,0.980555459232873,-0.11400779798368,0.98055545917481,-0.114007797979497,0.00292916606302558,-0.00276032298283724
10,0.00280927678226406,-0.00274889835702385,0.979353819670336,-0.119573268919853,0.979353819638588,-0.119573268912073,0.00281122415797312,-0.00276799249984538
10.5,0.00276562104916925,-0.00287732351132597,0.978244460939433,-0.125153692278067,0.978244460908041,-0.125153692267908,0.00276671894469196,-0.00289664490705954
11,0.00271974215825606,-0.00300419870491142,0.977115975857963,-0.130705657926777,0.977115975827165,-0.130705657914338,0.00271998682037332,-0.00302362918450649
11.5,0.00267164121544523,-0.00312939037082671,0.975969221276496,-0.136231196511975,0.975969221246503,-0.136231196497375,0.0026710372149886,-0.00314880371096482
12,0.00262132395889957,-0.00325275502437039,0.974804805948666,-0.141732233672596,0.974804805919663,-0.141732233655973,0.00261988539664898,-0.00327201679505684
12.5,0.00256880184195812,-0.00337413849651558,0.973623125394804,-0.147210575374093,0.97362312536695,-0.147210575355598,0.00256655370879415,-0.00339310597816311
13,0.00251409329697774,-0.00349337515288939,0.972424394380223,-0.152667898982742,0.972424394353653,-0.152667898962532,0.00251107300328968,-0.00351189734690349
13.5,0.00245722520748137,-0.00361028711110656,0.971208676590103,-0.158105748989394,0.971208676564926,-0.15810574896763,0.00245348429672004,-0.00362820487342264
14,0.00239823461925887,-0.00372468347409383,0.969975911303106,-0.163525536401425,0.969975911279411,-0.163525536378268,0.00239384067972714,-0.00374182980753091
14.5,0.00233717072441736,-0.0038363596032629,0.968725937030891,-0.168928540946474,0.968725937008746,-0.168928540922085,0.00233220951162405,-0.00385256015211155
15,0.00227409715554894,-0.00394509646321861,0.967458512208487,-0.174315915359254,0.967458512187943,-0.17431591533379,0.00226867493435517,-0.00396017026218898
15.5,0.00220909463004301,-0.0040506600793293,0.966173333099874,-0.179688691145036,0.966173333080963,-0.179688691118651,0.00220334074091702,-0.00406442061898105
16,0.00214226398662826,-0.00415280116157701,0.964870049132037,-0.185047785325881,0.964870049114777,-0.185047785298722,0.00213633363304494,-0.00416505784357657
16.5,0.00207372965709757,-0.00425125496273226,0.963548275896581,-0.190394007775324,0.963548275880979,-0.190394007747531,0.00206780690068703,-0.00426181503056711
17,0.00200364361500982,-0.00434574145667765,0.962207606066699,-0.195728068833449,0.962207606052747,-0.195728068805155,0.00199794455065522,-0.00435441250064983
17.5,0.00193218983911117,-0.00443596594393947,0.960847618474007,-0.201050586967082,0.960847618461691,-0.201050586938412,0.00192696590272814,-0.00444255909257496
18,0.00185958932091534,-0.00452162021635028,0.959467885578452,-0.206362096300201,0.959467885567745,-0.206362096271274,0.00185513065697918,-0.00452595413918866
18.5,0.00178610563173454,-0.00460238444149885,0.958067979548081,-0.211663053888809,0.958067979538952,-0.211663053859735,0.00178274441443038,-0.0046042902989214
19,0.00171205104231803,-0.00467792995979854,0.956647477146444,-0.216953846653881,0.956647477138856,-0.216953846624762,0.00171016460221268,-0.0046772574423164
19.5,0.00163779315555351,-0.00474792322196205,0.955205963605148,-0.222234797916971,0.955205963599059,-0.222234797887899,0.00163780671178987,-0.00474454782124578
20,0.00156376196644686,-0.00481203113063566,0.953743035639008,-0.227506173507059,0.953743035634371,-0.227506173478123,0.00156615070186633,-0.00480586277378814
20.5,0.0014904572002008,-0.00486992808435049,0.952258303741878,-0.232768187425452,0.952258303738642,-0.232768187396731,0.00149574734368868,-0.00486092123648696
21,0.00141845569527077,-0.00492130505016375,0.950751393883217,-0.238021007069041,0.950751393881329,-0.238021007040606,0.00142722419333358,-0.00490947034209199
21.5,0.00134841849016282,-0.00496588100707496,0.949221948708953,-0.243264758022029,0.949221948708359,-0.243264757993947,0.00136129076199615,-0.00495129836737118
22,0.00128109713824942,-0.00500341709629959,0.94766962833532,-0.248499528433069,0.947669628335965,-0.248499528405401,0.00129874232193972,-0.0049862502522684
22.5,0.00121733861355983,-0.00503373377447924,0.946094110811199,-0.25372537299923,0.946094110813025,-0.253725372972027,0.00124046163650637,-0.00501424582631937
23,0.00115808798586214,-0.00505673117668071,0.94449509231283,-0.258942316580965,0.94449509231578,-0.258942316554275,0.00118741774610215,-0.00503530073717107
23.5,0.00110438784455286,-0.00507241273923231,0.942872287124708,-0.264150357473667,0.942872287128724,-0.264150357447535,0.0011406607936576,-0.00504954986492967
24,0.00105737325573269,-0.00508091188878645,0.941225427451684,-0.269349470361801,0.94122542745671,-0.269349470336264,0.00110131175656558,-0.00505727271280088
24.5,0.00101826087423873,-0.0050825212554364,0.939554263099816,-0.274539608981271,0.939554263105796,-0.274539608956363,0.00107054590108208,-0.00505891988274776
25,0.000988330744666976,-0.00507772340315116,0.937858561057068,-0.279720708514889,0.937858561063943,-0.279720708490637,0.00104956883286966,-0.00505513927967516
25.5,0.000968899368729459,-0.00506722149273853,0.936138104999482,-0.284892687744656,0.936138105007199,-0.284892687721086,0.0010395842339691,-0.00504680016205383
26,0.000961282858034151,-0.00505196762677307,0.934392694743897,-0.290055450983185,0.934392694752401,-0.290055450960317,0.00104175280284391,-0.00503501261861028
26.5,0.000966749501685127,-0.00503318593176694,0.93262214566429,-0.295208889805119,0.932622145673528,-0.295208889782972,0.00105714259012291,-0.00502113957819827
27,0.000986461914957049,-0.00501238681145222,0.930826288085658,-0.300352884597838,0.930826288095578,-0.300352884576426,0.00108667186115974,-0.00500679816169769
27.5,0.0010214101214171,-0.00499136840129388,0.929004966666532,-0.30548730594925,0.929004966677083,-0.305487305928585,0.00113104678354281,-0.00499384719263207
28,0.00107233841549548,-0.00497220124710362,0.927158039779005,-0.310612015888936,0.927158039790138,-0.310612015869026,0.0011906975341846,-0.00498435813090659
28.5,0.00113967052397818,-0.00495719280456974,0.925285378893243,-0.315726868997479,0.92528537890491,-0.31572686897833,0.0012657176723132,-0.00498056768550437
29,0.00122343919527884,-0.00494882965508858,0.923386867971872,-0.320831713397483,0.923386867984027,-0.3208317133791,0.00135581259009532,-0.00498481192739653
29.5,0.00132322756122877,-0.00494969739572104,0.921462402878386,-0.325926391638477,0.921462402890984,-0.325926391620862,0.00146026325588716,-0.00499944377804917
30,0.00143813005737292,-0.00496238086151224,0.919511890802629,-0.331010741486754,0.919511890815627,-0.331010741469905,0.00157791105634669,-0.00502673806526244
30.5,0.0015667400176092,-0.00498935034867953,0.917535249705579,-0.336084596630075,0.917535249718935,-0.336084596613991,0.00170716817694117,-0.00506879055682097
31,0.00170716909883123,-0.00503284231472212,0.915532407784935,-0.341147787306223,0.915532407798608,-0.3411477872909,0.00184605566804064,-0.00512741906592273
31.5,0.00185710052681848,-0.00509474502681129,0.913503302962474,-0.346200140863409,0.913503302976425,-0.346200140848842,0.00199226837748728,-0.00520407545271628
32,0.00201387418613347,-0.00517650025763605,0.911447882393676,-0.351241482259798,0.911447882407869,-0.35124148224598,0.00214326274255072,-0.00529977684512306
32.5,0.00217459747433835,-0.00527903106149386,0.909366101999766,-0.356271634508573,0.909366102014164,-0.356271634495496,0.0022963605906518,-0.0054150626297369
33,0.00233627239858297,-0.00540270293926226,0.907257926022041,-0.361290419074386,0.907257926036609,-0.361290419062041,0.00244886014151574,-0.00554998096135639
33.5,0.00249592731734483,-0.00554732175200789,0.905123326598135,-0.366297656226336,0.905123326612841,-0.366297656214713,0.0025981447073134,-0.00570410518666375
34,0.00265074143755872,-0.00571216730514545,0.90296228335971,-0.371293165352148,0.902962283374521,-0.371293165341235,0.00274178025537947,-0.00587657727430146
34.5,0.00279815167353598,-0.00589605744016963,0.900774783050933,-0.376276765237667,0.90077478306582,-0.376276765227454,0.00287759484213279,-0.00606617265740228
35,0.00293593436649775,-0.00609743445918798,0.898560819167016,-0.381248274315407,0.89856081918195,-0.38124827430588,0.00300373553186939,-0.00627137922187693
35.5,0.00306225799451793,-0.00631446418937109,0.896320391612032,-0.386207510885429,0.896320391626985,-0.386207510876573,0.00311870126099911,-0.00649048266299079
36,0.00317570664675698,-0.00654513802228851,0.894053506375193,-0.391154293311526,0.894053506390138,-0.391154293303328,0.00322135270944218,-0.00672165098523037
36.5,0.00327527708711273,-0.00678736956703863,0.891760175224726,-0.39608844019535,0.891760175239639,-0.396088440187795,0.00331090224357405,-0.00696301225709806
37,0.00336035432263887,-0.00703907967168016,0.889440415418523,-0.401009770530825,0.889440415433379,-0.401009770523897,0.00338688822949834,-0.00721272149188334
37.5,0.003430671618596,-0.00729826598538708,0.887094249430692,-0.405918103840958,0.887094249445469,-0.405918103834642,0.00344913848530981,-0.00746901435959302
38,0.00348626098042021,-0.00756305552132819,0.884721704693205,-0.410813260298931,0.884721704707882,-0.41081326029321,0.00349772747688459,-0.0077302470748668
38.5,0.00352739950004105,-0.00783174054966529,0.882322813351805,-0.415695060835126,0.882322813366361,-0.415695060829984,0.00353293125802462,-0.00799492308957017
39,0.00355455592792148,-0.00810279946967163,0.879897612035401,-0.420563327231607,0.879897612049818,-0.420563327227027,0.00355518331568966,-0.00826170808873927
39.5,0.00356834064375072,-0.00837490507747596,0.87744614163819,-0.425417882205366,0.877446141652449,-0.425417882201332,0.00356503357717292,-0.00852943526607319
40,0.00356946105377576,-0.00864692294347558,0.874968447113764,-0.430258549481557,0.874968447127849,-0.43025854947805,0.00356311199258558,-0.00879710300958836
40.5,0.00355868346211624,-0.0089179025619095,0.872464577280532,-0.435085153857737,0.872464577294425,-0.435085153854741,0.00355009739577627,-0.00906386704790751
41,0.0035368017013791,-0.00918706365985678,0.869934584637756,-0.439897521260116,0.869934584651443,-0.439897521257612,0.00352669179970072,-0.00932902888039078
41.5,0.00350461226994481,-0.00945377966195171,0.867378525191611,-0.44469547879262,0.867378525205079,-0.444695478790591,0.00349359989719483,-0.00959202201303466
42,0.00346289538446448,-0.00971755988191736,0.864796458290637,-0.449478854779547,0.864796458303872,-0.449478854777975,0.00345151329536614,-0.00985239720171993
42.5,0.00341240117755276,-0.00997803160661881,0.862188446470036,-0.454247478802493,0.862188446483026,-0.454247478801359,0.00340109888327367,-0.0101098076009487
43,0.00335384021018542,-0.0102349228833606,0.859554555304278,-0.459001181732138,0.859554555317012,-0.459001181731426,0.00334299068862304,-0.0103639944502389
43.5,0.00328787748771614,-0.0104880465296114,0.856894853267505,-0.46373979575545,0.856894853279973,-0.463739795755142,0.00327778459295863,-0.0106147737106581
44,0.00321512923639949,-0.0107372856574256,0.854209411601267,-0.468463154398774,0.854209411613459,-0.468463154398851,0.00320603532439129,-0.0108620238912078
44.5,0.00313616179015935,-0.010982580836932,0.85149830418914,-0.473171092547244,0.851498304201048,-0.473171092547688,0.00312825521534899,-0.0111056751752602
45,0.00305149203865918,-0.0112239189053308,0.84876160743781,-0.477863446460903,0.848761607449427,-0.477863446461699,0.00304491428838527,-0.0113456998645853
45.5,0.00296158898679255,-0.0114613233499881,0.845999400164225,-0.482540053787881,0.845999400175543,-0.482540053789009,0.00295644130780981,-0.0115821040958585
46,0.00286687606638203,-0.0116948461470257,0.843211763488453,-0.487200753574919,0.843211763499465,-0.487200753576362,0.0028632255041447,-0.0118149207451723
46.5,0.00276773392012086,-0.0119245609121562,0.840398780731894,-0.491845386275538,0.840398780742596,-0.491845386277279,0.00276561873967823,-0.0120442034140957
47,0.00266450344467151,-0.0121505572115698,0.837560537320531,-0.496473793756084,0.837560537330917,-0.496473793758106,0.00266393793582348,-0.0122700213813589
47.5,0.00255748893479951,-0.0123729358823423,0.8346971206929,-0.501085819299874,0.834697120702968,-0.50108581930216,0.00255846762664375,-0.0124924554032931
48,0.00244696121449745,-0.0125918052200755,0.831808620212527,-0.505681307609636,0.831808620222271,-0.505681307612169,0.00244946253846401,-0.0127115942508383
48.5,0.00233316067570821,-0.0128072779034406,0.828895127084516,-0.510260104808422,0.828895127093935,-0.510260104811186,0.00233715012386765,-0.0129275318789092
49,0.00221630017200058,-0.0130194685390393,0.825956734276103,-0.514822058439153,0.825956734285195,-0.514822058442131,0.00222173300063871,-0.0131403651336928
49.5,0.00209656773474304,-0.0132284917241176,0.822993536440887,-0.519367017462923,0.82299353644965,-0.5193670174661,0.0021033912633604,-0.013350191913874
50,0.00197412909434813,-0.0134344605383522,0.820005629846554,-0.523894832256212,0.820005629854988,-0.523894832259572,0.00198228464836475,-0.0135571097121387
50.5,0.00184913000002113,-0.0136374853886612,0.816993112305883,-0.528405354607092,0.816993112313987,-0.528405354610619,0.00185855454236877,-0.013761214473156
51,0.00172169833912755,-0.0138376731425173,0.813956083110837,-0.532898437710549,0.813956083118611,-0.532898437714228,0.00173232583214733,-0.0139625997132857
51.5,0.00159194606255003,-0.0140351264954501,0.810894642969577,-0.537373936162993,0.810894642977023,-0.53737393616681,0.00160370859753212,-0.0141613558554331
52,0.00145997092578354,-0.0142299435273521,0.807808893946216,-0.541831705956057,0.807808893953335,-0.541831705959997,0.0014727996534209,-0.014357569739661
52.5,0.00132585805757202,-0.0144222174098587,0.804698939403171,-0.546271604469727,0.804698939409965,-0.546271604473775,0.00133968394865724,-0.0145513242765019
53,0.00118968136893272,-0.0146120362336585,0.801564883945964,-0.5506934904649,0.801564883952435,-0.550693490469043,0.0012044358309462,-0.0147426982153239
53.5,0.00105150481574479,-0.0147994829301042,0.798406833370332,-0.555097224075399,0.798406833376482,-0.555097224079623,0.001067120187624,-0.0149317660047905
54,0.000911383527951504,-0.0149846352661807,0.795224894611531,-0.559482666799514,0.795224894617365,-0.559482666803806,0.000927793472278615,-0.0151185977263919
54.5,0.000769364817936713,-0.0151675658957582,0.792019175695707,-0.563849681491109,0.792019175701228,-0.563849681495456,0.000786504627081908,-0.0153032590853917
55,0.000625489079951302,-0.0153483424533167,0.788789785693222,-0.56819813235033,0.788789785698434,-0.568198132354719,0.000643295910324693,-0.0154858114463352
55.5,0.000479790591678131,-0.0155270276789911,0.785536834673842,-0.57252788491396,0.78553683467875,-0.572527884918379,0.000498203638151784,-0.0156663119026237
56,0.000332298228151673,-0.0157036795659967,0.782260433663681,-0.576838806045445,0.78226043366829,-0.576838806049883,0.00035125884890469,-0.0158448133716136
56.5,0.000183036097384848,-0.0158783515233221,0.778960694603814,-0.581130763924633,0.778960694608129,-0.581130763929078,0.000202487897845716,-0.0160213647083438
57,3.2024106197126E-005,-0.0160510925480383,0.775637730310477,-0.585403628037228,0.775637730314504,-0.585403628041669,5.19129894247516E-005,-0.0161960108323224
57.5,-0.000120721536075064,-0.0162219474028082,0.772291654436771,-0.589657269164009,0.772291654440516,-0.589657269168436,-0.000100447346410848,-0.0163687928629341
58,-0.00027518786908598,-0.0163909567951441,0.768922581435802,-0.593891559369819,0.768922581439272,-0.593891559374221,-0.000254577827921987,-0.016539748259932
58.5,-0.000431364781997623,-0.0165581575557708,0.765530626525183,-0.598106371992344,0.765530626528384,-0.598106371996711,-0.000410466039968527,-0.0167089109662328
59,-0.000589244657488996,-0.0167235828140958,0.762115905652833,-0.602301581630701,0.762115905655773,-0.602301581635024,-0.000568102092247891,-0.0168763115508491
59.5,-0.000748822054302156,-0.0168872621692953,0.75867853546402,-0.606477064133853,0.758678535466705,-0.606477064138124,-0.000727478313059859,-0.0170419773502913
60,-0.000910093423934666,-0.0170492218559508,0.755218633269581,-0.610632696588856,0.75521863327202,-0.610632696593066,-0.000888588974709337,-0.0172059326071673
60.5,-0.00107305685757553,-0.017209484903503,0.751736317015279,-0.614768357308953,0.751736317017479,-0.614768357313095,-0.00105143004707697,-0.0173681986050609
61,-0.00123771185980731,-0.0173680712890267,0.748231705252234,-0.618883925821536,0.748231705254202,-0.618883925825601,-0.00121599897624902,-0.0175287937990024
61.5,-0.00140405914600056,-0.0175249980830745,0.74470491710839,-0.622979282855964,0.744704917110136,-0.622979282859944,-0.00138229448544386,-0.017687733941087
62,-0.00157210046067729,-0.0176802795884635,0.741156072260978,-0.627054310331264,0.74115607226251,-0.627054310335154,-0.00155031639576009,-0.0178450322009415
