"Freq [GHz]","re(St(P1,P1)) []","im(St(P1,P1)) []","re(St(P1,P2)) []","im(St(P1,P2)) []","re(St(P2,P1)) []","im(St(P2,P1)) []","re(St(P2,P2)) []","im(St(P2,P2)) []"
0,0.00623878075560924,0,0.993775180642842,0,0.993775168870343,0,0.00623876920627708,0
0.5,0.00662980674865921,0.00219227454589443,0.993315687835,-0.00702400354557753,0.993315687942744,-0.0070240057383586,0.00662984398881505,0.00219200948621889
1,0.00697881860577176,0.00392319603515645,0.992797283530686,-0.0135699839994814,0.992797283114152,-0.0135699836353993,0.00697892664219424,0.00392263228575729
1.5,0.0071078285533277,0.00548262031989388,0.992294569802925,-0.0201750920423081,0.992294569559656,-0.0201750916289782,0.00710786512897243,0.00548172081718512
2,0.00720508705835154,0.007111470263931,0.991700002412347,-0.026633915580085,0.991700002314567,-0.0266339151950188,0.00720517268936227,0.00711029263666418
2.5,0.00730567308132501,0.00877360564455287,0.991061932580095,-0.0329654107917676,0.991061932578667,-0.0329654104759403,0.0073058729142339,0.00877215701699363
3,0.00741916941089205,0.0104547131834671,0.990406025589234,-0.039198071011759,0.990406025637535,-0.0391980707758481,0.00741953049368504,0.0104529925547361
3.5,0.00754909556852401,0.012148394351204,0.989740818177957,-0.0453581985261691,0.989740818241713,-0.0453581983635623,0.00754965822876352,0.0121463990955748
4,0.00769706492074151,0.0138515326793796,0.989064999805295,-0.0514656233278439,0.98906499986325,-0.0514656232250186,0.00769786676773077,0.0138492597866415
4.5,0.00786397655136217,0.015562550256826,0.988372795303054,-0.0575336139885358,0.988372795344131,-0.0575336139310245,0.0078650541251557,0.0155599965536561
5,0.00805043188802324,0.0172806633894051,0.98765707358833,-0.0635702801026587,0.987657073608376,-0.0635702800777054,0.00805182144109073,0.0172778255349133
5.5,0.00825690282213098,0.019005530533069,0.986910859909534,-0.0695801258288169,0.986910859908724,-0.0695801258261621,0.00825864074098459,0.0190024049651827
6,0.00848380745693689,0.0207370715272486,0.986127943252707,-0.0755653005040786,0.986127943233757,-0.0755653005159029,0.00848593051962016,0.0207336544019316
6.5,0.00873154743273091,0.0224753683838976,0.985303035737715,-0.0815264860104934,0.985303035704739,-0.081526486031029,0.00873409298580907,0.0224716555162745
7,0.00900052779774924,0.0242206077438292,0.984431736741504,-0.0874634873831361,0.984431736699304,-0.0874634874082174,0.0090035338915852,0.0242165945518718
7.5,0.00929116837317384,0.0259730458991916,0.983510427307316,-0.0933756115235718,0.983510427260975,-0.0933756115502353,0.00929467387477978,0.0259687273486744
8,0.00960391073342753,0.027732986646956,0.982536151659885,-0.0992619038612346,0.982536151614517,-0.0992619038873808,0.0096079554270414,0.0277283571961977
8.5,0.00993922282433556,0.0295007667428102,0.981506508531989,-0.105121292858256,0.981506508492596,-0.10512129288239,0.00994384750537675,0.0294958202858511
9,0.0102976022669021,0.0312767460145218,0.980419559228498,-0.110952675818646,0.980419559199901,-0.110952675839689,0.0103028488325857,0.0312714758216353
9.5,0.0106795789154115,0.0330613004147384,0.979273752653228,-0.116754967760484,0.979273752640017,-0.116754967777621,0.0106854904540153,0.0330556990693642
10,0.0110857169915987,0.0348548169711931,0.978067865083255,-0.12252712729268,0.97806786508977,-0.122527127305263,0.0110923378716408,0.0348488763024708
10.5,0.0115638069999933,0.0365438663749802,0.976912631093225,-0.128359188557809,0.976912631099082,-0.128359188570513,0.0115711199365595,0.0365375076915964
11,0.0120640624391982,0.0382251972861427,0.975723426809474,-0.13416243567575,0.975723426814687,-0.13416243568853,0.0120720979396253,0.0382184033726074
11.5,0.012586323106323,0.0398984745659501,0.974501601048066,-0.139937632177662,0.974501601052653,-0.139937632190481,0.0125951112352874,0.0398912274999197
12,0.0131304224669444,0.0415633673942857,0.973248351825864,-0.145685583724087,0.973248351829845,-0.145685583736907,0.0131399928307566,0.0415556485612174
12.5,0.0136961877984473,0.0432195494212992,0.971964733350843,-0.151407120526327,0.971964733354237,-0.151407120539116,0.0137065695299432,0.0432113395295195
13,0.014283440337739,0.0448666989135575,0.97065166437572,-0.157103082064016,0.97065166437855,-0.157103082076743,0.014294662081795,0.0448579780097296
13.5,0.0148919954331204,0.0465044988945875,0.969309937486643,-0.162774304039217,0.969309937488931,-0.162774304051853,0.0149040853327976,0.0464952463795481
14,0.01552166270007,0.0481326372796667,0.967940228956815,-0.168421607454294,0.967940228958586,-0.168421607466813,0.0155346483833988,0.0481228319246023
14.5,0.016172246180702,0.0497508070047603,0.966543108853691,-0.174045789663475,0.966543108854969,-0.174045789675854,0.0161861547481171,0.049740426967686
15,0.01684354450665,0.0513587061494651,0.965119051144798,-0.17964761722447,0.965119051145607,-0.179647617236689,0.0168584025190874,0.0513477289919924
15.5,0.0175353510651338,0.0529560380538996,0.963668443599676,-0.185227820364187,0.96366844360004,-0.185227820376225,0.0175511845327906,0.0529444407582411
16,0.0182474541679609,0.0545425114294329,0.962191597332562,-0.190787088869324,0.962191597332508,-0.190787088881166,0.0182642885397292,0.054530270415637
16.5,0.0189796372232083,0.0561178404631921,0.960688755871774,-0.196326069216148,0.960688755871326,-0.196326069227779,0.0189974973767797,0.0561049316065558
17,0.0197316789093274,0.057681744916263,0.959160103677083,-0.201845362762368,0.959160103676266,-0.201845362773776,0.0197505891419775,0.0576681435649082
17.5,0.0205033533514321,0.0592339502155645,0.957605774055936,-0.207345524835934,0.957605774054774,-0.207345524847107,0.0205233373714823,0.059219631208141
18,0.0212944302995051,0.0607741875393275,0.956025856453472,-0.212827064569697,0.956025856451988,-0.212827064580625,0.0213155112184583,0.0607591252228115
18.5,0.0221046753082695,0.0623021938961652,0.954420403110528,-0.218290445345934,0.954420403108747,-0.21829044535661,0.0221268756336248,0.0622863621437295
19,0.0229338499184867,0.0638177121977161,0.952789435098724,-0.223736085730167,0.952789435096667,-0.223736085740584,0.0229571915472208,0.0638010844266343
19.5,0.0237817118394097,0.0653204913248304,0.951132947752863,-0.229164360788713,0.951132947750553,-0.229164360798865,0.023806216052128,0.0653030405143973
20,0.0246480151321597,0.0668102861873376,0.949450915528987,-0.234575603698741,0.949450915526446,-0.234575603708627,0.0246737025879046,0.066791984896762
20.5,0.0255325103937718,0.068286857777373,0.947743296321811,-0.239970107572923,0.94774329631906,-0.239970107582536,0.0255594011254862,0.068267678163636
21,0.0264349449416663,0.0697499732163076,0.946010035278652,-0.245348127432885,0.946010035275711,-0.245348127442225,0.026463058352296,0.0697298870519298
21.5,0.0273550629983039,0.0711994057953089,0.944251068148624,-0.250709882276623,0.944251068145512,-0.250709882285688,0.0273844178575414,0.0711783844860341
22,0.0282926058757927,0.0726349350095645,0.942466324206264,-0.256055557194695,0.942466324203001,-0.256055557203486,0.0283232203174358,0.0726129496119052
22.5,0.0292473121602102,0.0740563465862372,0.940655728788161,-0.26138530549848,0.940655728784765,-0.261385305506996,0.0292792036801338,0.0740333678248744
23,0.0302189178954074,0.0754634325061965,0.938819205479839,-0.266699250831151,0.938819205476327,-0.266699250839395,0.030252103350132,0.0754394307911952
23.5,0.0312071567660783,0.0768559910195998,0.936956677988341,-0.271997489238308,0.936956677984732,-0.271997489246281,0.0312416523719216,0.0768309364634336
24,0.0322117602798745,0.0782338266554059,0.935068071733838,-0.277280091180528,0.935068071730148,-0.277280091188233,0.0322475816126664,0.0782076890897532
24.5,0.0332324579483455,0.0795967502249044,0.93315331519122,-0.282547103474653,0.933153315187463,-0.282547103482092,0.033269619943697,0.079569499217198
25,0.0342689774665005,0.0809445788193375,0.93121234101023,-0.287798551154331,0.931212341006421,-0.287798551161508,0.034307494420605,0.0809161836890548
25.5,0.0353210448907954,0.0822771358017478,0.929245086940285,-0.293034439243429,0.92924508693644,-0.293034439250347,0.0353609304617422,0.082247565636409
26,0.0363883848153335,0.0835942507931198,0.92725149658372,-0.29825475443848,0.927251496579852,-0.298254754445146,0.0364296520249217,0.0835634744639857
26.5,0.0374707205461081,0.0848957596529598,0.925231519998928,-0.303459466698356,0.925231519995049,-0.303459466704771,0.0375133817821348,0.0848637458304082
27,0.0385677742730938,0.0861815044544227,0.923185114172715,-0.308648530740935,0.923185114168839,-0.308648530747107,0.038611841292098,0.0861482216229807
27.5,0.0396792672400079,0.0874513334540978,0.921112243379135,-0.313821887447909,0.921112243375275,-0.313821887453842,0.0397247511704514,0.0874167499271281
28,0.0408049199115826,0.0887051010566144,0.919012879440237,-0.318979465179707,0.919012879436402,-0.318979465185406,0.0408518312574447,0.088669184990626
28.5,0.0419444521381755,0.0899426677741739,0.916887001902371,-0.324121181003391,0.916887001898574,-0.324121181008862,0.041992800782942,0.0899053871827535
29,0.0430975833175716,0.0911639001811639,0.91473459814021,-0.329246941836802,0.914734598136461,-0.329246941842051,0.0431473785285895,0.0911252229485124
29.5,0.0442640325538188,0.0923686708639981,0.912555663399123,-0.334356645512673,0.912555663395431,-0.334356645517707,0.0443152829870054,0.0923285647580627
30,0.0454435188129699,0.093556858366326,0.910350200785325,-0.339450181766604,0.910350200781698,-0.339450181771428,0.0454962325178399,0.0935152910515198
30.5,0.0466357610755836,0.0947283471297697,0.908118221212019,-0.344527433152978,0.908118221208469,-0.3445274331576,0.0466899455005816,0.0946852861792595
31,0.0478404784858675,0.0958830274303387,0.905859743308747,-0.349588275892889,0.90585974330528,-0.349588275897314,0.0478961404839791,0.0958384403379107
31.5,0.0490573904973416,0.0970207953106802,0.903574793300193,-0.354632580658158,0.903574793296818,-0.354632580662393,0.0491145363319577,0.0969746495021627
32,0.0502862170149133,0.0981415525083352,0.90126340485993,-0.359660213295439,0.901263404856654,-0.35966021329949,0.0503448523659264,0.098093815352581
32.5,0.0515266785332536,0.0992452063801454,0.898925618943813,-0.36467103549428,0.898925618940643,-0.364671035498155,0.0515868085033623,0.0991958451995635
33,0.0527784962713886,0.100331669822993,0.896561483607107,-0.369664905402892,0.896561483604049,-0.369664905406597,0.0528401253925859,0.100280651903635
33.5,0.0540413923034035,0.101400861191024,0.894171053808868,-0.3746416781952,0.894171053805929,-0.374641678198741,0.054104524543627,0.101348153792217
34,0.0553150896851928,0.102452704209531,0.891754391206614,-0.379601206592584,0.8917543912038,-0.379601206595969,0.0553797284551094,0.102398274573058
34.5,0.0565993125771641,0.103487127885663,0.889311563943841,-0.384543341343535,0.889311563941156,-0.38454334134677,0.0566654607370726,0.103430943244488
35,0.0578937863628424,0.104504066416119,0.886842646432618,-0.38946793166427,0.886842646430067,-0.389467931667362,0.0579614462296653,0.104446094002667
35.5,0.0591982377633039,0.105503459092005,0.884347719133111,-0.394374825643158,0.884347719130699,-0.394374825646114,0.0592674111176482,0.105443666145993
36,0.0605123949473879,0.106485250201019,0.88182686833163,-0.399263870611653,0.881826868329361,-0.39926387061448,0.0605830830406528,0.106423603976839
36.5,0.061835987637642,0.107449388927127,0.879280185918516,-0.404134913484211,0.879280185916393,-0.404134913486915,0.0619081911991491,0.107385856700789
37,0.0631687472119481,0.108395829247894,0.876707769166985,-0.408987801069548,0.876707769165012,-0.408987801072136,0.0632424664560775,0.108330378323541
37.5,0.0645104068008097,0.109324529829657,0.874109720513853,-0.413822380355396,0.874109720512033,-0.413822380357876,0.0645856414341142,0.10925712754564
38,0.0658607013802543,0.11023545392066,0.871486147342882,-0.418638498768784,0.871486147341218,-0.418638498771161,0.0659374506085362,0.110166067655207
38.5,0.0672193678603412,0.111128569242375,0.868837161771381,-0.423436004413692,0.868837161769876,-0.423436004415973,0.0672976303956686,0.111057166418834
39,0.0685861451692462,0.112003847879104,0.866162880440552,-0.428214746287847,0.866162880439206,-0.428214746290038,0.0686659192368915,0.111930395970796
39.5,0.069960774332918,0.112861266166083,0.863463424309956,-0.432974574480221,0.863463424308772,-0.432974574482328,0.0700420576781965,0.11278573270075
40,0.0713429985502959,0.113700804576199,0.860738918456432,-0.437715340350742,0.860738918455412,-0.437715340352772,0.0714257884452884,0.113623157140074
40.5,0.0727325632640873,0.1145224476055,0.857989491877669,-0.442436896693578,0.857989491876813,-0.442436896695536,0.072816856514227,0.114442653847011
41,0.0741292162271077,0.115326183657645,0.8552152773006,-0.447139097885239,0.855215277299909,-0.447139097887134,0.074215009177617,0.115244211290754
41.5,0.0755327075641907,0.116112004927446,0.852416410994743,-0.451821800018695,0.852416410994217,-0.45182180002053,0.0756199961063473,0.116027821734649
42,0.0769427898296825,0.116879907283653,0.849593032590525,-0.456484861024535,0.849593032590165,-0.456484861026318,0.077031569406903,0.116793481118641
42.5,0.0783592180605341,0.117629890151116,0.846745284902642,-0.461128140780205,0.846745284902448,-0.46112814078194,0.0784494836742561,0.11754118894113
43,0.0797817498250104,0.118361956392486,0.843873313758427,-0.465751501208195,0.843873313758399,-0.465751501209889,0.0798734960403619,0.11827094814036
43.5,0.0812101452670478,0.119076112189585,0.840977267831205,-0.470354806364036,0.840977267831342,-0.470354806365693,0.0813033662182887,0.118982764975508
44,0.0826441671462789,0.119772366924576,0.838057298478577,-0.474937922514869,0.838057298478878,-0.474937922516496,0.0827388565420027,0.119676648907584
44.5,0.0840835808737634,0.120450733061089,0.835113559585565,-0.479500718209296,0.835113559586029,-0.479500718210897,0.0841797320018459,0.120352612480304
45,0.085528154543455,0.121111226025409,0.832146207412528,-0.48404306433917,0.832146207413153,-0.484043064340751,0.0856257602757385,0.121010671201043
45.5,0.0869776589594451,0.121753864087883,0.829155400447762,-0.488564834193921,0.829155400448548,-0.488564834195487,0.0870767117561509,0.121650843422019
46,0.0884318676590197,0.122378668244645,0.826141299264668,-0.493065903507977,0.826141299265611,-0.493065903509532,0.0885323595728752,0.122273150221827
46.5,0.0898905569315798,0.122985662099805,0.823104066383385,-0.497546150501783,0.823104066384484,-0.497546150503331,0.0899924796116555,0.122877615287437
47,0.0913535058334659,0.123574871748212,0.820043866136783,-0.502005455916889,0.820043866138036,-0.502005455918436,0.0914568505287099,0.123464264796803
47.5,0.0928204961987339,0.124146325658904,0.816960864540672,-0.50644370304555,0.816960864542077,-0.506443703047098,0.0929252537612016,0.124033127302166
48,0.0942913126459354,0.124700054559377,0.813855229168146,-0.510860777755211,0.813855229169699,-0.510860777756766,0.0943974735337076,0.124584233614198
48.5,0.0957657425809571,0.125236091320765,0.810727129027903,-0.515256568508274,0.810727129029601,-0.515256568509841,0.0958732968607384,0.125117616687083
49,0.0972435761959674,0.125754470844057,0.807576734446458,-0.519630966377463,0.807576734448298,-0.519630966379044,0.0973525135453627,0.125633311504646
49.5,0.0987246064645294,0.126255229947445,0.804404216954106,-0.5239838650571,0.804404216956086,-0.5239838650587,0.098834916173997,0.126131354967638
50,0.100208629132937,0.12673840725492,0.801209749174539,-0.5283151608706,0.801209749176654,-0.528315160872221,0.100320300107415,0.126611785782293
50.5,0.101695442707837,0.127204043086202,0.797993504717986,-0.532624752774419,0.797993504720232,-0.532624752776064,0.101808463468037,0.127074644350229
51,0.103184848440185,0.127652179348121,0.794755658077779,-0.53691254235873,0.794755658080152,-0.536912542360403,0.103299207123565,0.127519972659833
51.5,0.104676650305618,0.128082859427532,0.791496384530234,-0.54117843384503,0.79149638453273,-0.541178433846733,0.104792334667017,0.127947814179189
52,0.106170654981279,0.128496128085854,0.788215860037739,-0.545422334080901,0.788215860040354,-0.545422334082638,0.106287652393235,0.128358213750668
52.5,0.10766667181918,0.128892031355361,0.784914261154952,-0.549644152532117,0.784914261157681,-0.549644152533889,0.107784969271915,0.12875121748726
53,0.109164512816154,0.129270616437259,0.781591764938007,-0.553843801272265,0.781591764940846,-0.553843801274075,0.109284096917248,0.129126872670749
53.5,0.110663992580473,0.12963193160168,0.77824854885664,-0.558021194970067,0.778248548859584,-0.558021194971917,0.110784849554211,0.129485227651803
54,0.112164928295179,0.129976026089675,0.774884790709138,-0.562176250874532,0.774884790712181,-0.562176250876422,0.112287043981599,0.129826331752087
54.5,0.113667139678213,0.130302950017266,0.771500668540024,-0.566308888798097,0.771500668543162,-0.566308888800031,0.113790499531843,0.130150235168459
55,0.115170448939404,0.130612754281668,0.768096360560403,-0.570419031097894,0.76809636056363,-0.570419031099872,0.115295038027705,0.130456988879352
55.5,0.11667468073438,0.130905490469745,0.764672045070874,-0.574506602655241,0.764672045074184,-0.574506602657264,0.116800483735901,0.130746644553419
56,0.118179662115477,0.131181210768791,0.761227900386939,-0.578571530853501,0.761227900390327,-0.578571530855571,0.11830666331773,0.13101925446051
56.5,0.119685222479704,0.131439967879703,0.757764104766842,-0.582613745554401,0.757764104770302,-0.582613745556516,0.119813405776778,0.131274871385069
57,0.121191193513854,0.131681814932643,0.754280836341747,-0.586633179072899,0.754280836345274,-0.586633179075062,0.121320542403765,0.131513548542034
57.5,0.122697409136808,0.131906805405235,0.750778273048206,-0.590629766150727,0.750778273051793,-0.590629766152937,0.122827906718609,0.1317353394953
58,0.12420370543912,0.132114993043412,0.747256592562845,-0.59460344392865,0.747256592566485,-0.594603443930907,0.124335334409783,0.131940298078837
58.5,0.125709920619944,0.132306431784952,0.743715972239201,-0.598554151917565,0.743715972242889,-0.598554151919868,0.125842663271023,0.132128478320525
59,0.127215894921381,0.132481175685801,0.740156589046662,-0.602481831968478,0.740156589050391,-0.602481831970827,0.127349733135481,0.132299934368788
59.5,0.128721470560325,0.132639278849246,0.736578619511437,-0.606386428241468,0.7365786195152,-0.606386428243862,0.128856385807381,0.132454720422097
60,0.130226491657862,0.132780795358013,0.732982239659521,-0.610267887173666,0.732982239663312,-0.610267887176103,0.130362464991258,0.132592890661417
60.5,0.131730804166322,0.132905779209367,0.729367624961581,-0.61412615744634,0.729367624965393,-0.614126157448819,0.131867816218863,0.132714499185663
61,0.133234255794044,0.133014284253279,0.725734950279735,-0.617961189951132,0.725734950283561,-0.617961189953651,0.133372286773799,0.132819599950248
61.5,0.134736695927934,0.133106364133742,0.72208438981616,-0.621772937755503,0.722084389819992,-0.621772937758061,0.134875725613974,0.132908246708787
62,0.136237975553901,0.1331820722333,0.718416117063487,-0.62556135606744,0.71841611706732,-0.625561356070034,0.136377983291952,0.132980492958031
62.5,0.137737947175241,0.133241461620869,0.714730304756952,-0.629326402199473,0.714730304760778,-0.629326402202101,0.137878911873275,0.133036391886099
63,0.139236464729059,0.133284585002912,0.711027124828236,-0.633068035532048,0.711027124832048,-0.633068035534706,0.13937836485285,0.133075996324093
63.5,0.140733383500814,0.133311494678061,0.707306748360982,-0.636786217476301,0.707306748364771,-0.636786217478986,0.140876197069473,0.133099358701144
64,0.142228560037055,0.133322242495233,0.703569345547927,-0.640480911436268,0.703569345551687,-0.640480911438977,0.142372264618581,0.133106531002982
64.5,0.143721852056463,0.133316879815327,0.69981508564963,-0.644152082770583,0.699815085653354,-0.644152082773312,0.143866424763332,0.133097564734096
