"Freq [GHz]","re(St(P1,P1)) []","im(St(P1,P1)) []","re(St(P1,P2)) []","im(St(P1,P2)) []","re(St(P2,P1)) []","im(St(P2,P1)) []","re(St(P2,P2)) []","im(St(P2,P2)) []"
0,0.00502079611629824,0,0.994992604159052,0,0.994992604420986,0,0.00502079670553712,0
0.5,0.00542470286776364,0.00145548987902799,0.9945047520924,-0.00699907827993229,0.994504751664209,-0.00699907854340154,0.0054247988541718,0.0014550961811679
1,0.0057709767383507,0.00242020040675328,0.993944190159969,-0.0134836949419501,0.993944189912135,-0.0134836948808825,0.0057712473435263,0.00241929213293091
1.5,0.00572204862925396,0.00323009101343175,0.993414775672936,-0.0200384553399111,0.993414775458342,-0.0200384552637516,0.00572244362192365,0.00322845912917913
2,0.00572436528862941,0.00411457333683707,0.9927834802994,-0.0264349062242495,0.99278348012036,-0.0264349061441891,0.00572484550949603,0.00411230184375988
2.5,0.00574796569363301,0.00503482442636205,0.992103217411145,-0.0326880455648251,0.992103217265615,-0.0326880454890315,0.00574852608041665,0.00503193801623603
3,0.00578506175066984,0.00597672507328006,0.991404935572233,-0.0388255295218887,0.991404935456215,-0.038825529455119,0.00578570855788607,0.0059732345285326
3.5,0.00583302976390909,0.00693446643618501,0.9907013216848,-0.0448752569816513,0.990701321593879,-0.0448752569258684,0.00583377388251916,0.00693037797189433
4,0.00589088825622319,0.00790559512452838,0.989993481751442,-0.0508597860665683,0.989993481681509,-0.0508597860218876,0.0058917429848484,0.00790091317268438
4.5,0.00595830421079069,0.00888922097124656,0.989276560496721,-0.05679526738201,0.989276560444164,-0.0567952673474412,0.00595928443112537,0.00888394923918057
5,0.00603525008038364,0.00988526945881407,0.988543346755387,-0.0626923643942536,0.988543346717069,-0.0626923643682398,0.00603637195143147,0.00987941141055426
5.5,0.00612186780705315,0.0108941347207532,0.987786233863129,-0.068557666597429,0.987786233836285,-0.0685576665781928,0.00612314867969599,0.0108876938309503
6,0.00621840963175824,0.0119165051271581,0.986998140391538,-0.0743949665459498,0.98699814037367,-0.0743949665316954,0.00621986807007024,0.0119094850346082
6.5,0.00632521100480521,0.0129532704326456,0.986172859859142,-0.0802062303180859,0.986172859847938,-0.0802062303071178,0.00632686686688516,0.0129456750459829
7,0.00644267833018503,0.0140054705004307,0.985305128327327,-0.0859922752934859,0.98530512832061,-0.0859922752842781,0.00644455288778784,0.0139973040802417
7.5,0.00657128422997261,0.0150742666263559,0.984390567954481,-0.0917532209384033,0.984390567950177,-0.0917532209296317,0.00657340031788617,0.0150655338558732
8,0.00671156700427514,0.0161609258706514,0.983425586077044,-0.0974887789265111,0.983425586073166,-0.097488778917068,0.00671394919600615,0.0161516319215647
8.5,0.00686413269841812,0.0172668132910569,0.982407266781338,-0.103198434937405,0.982407266775984,-0.103198434926399,0.00686680750769852,0.0172569638883013
9,0.00702965900088308,0.0183933892427102,0.981333270319368,-0.108881559535235,0.981333270310721,-0.108881559521985,0.0070326551103061,0.0183829907305126
9.5,0.00720890060158381,0.0195422101191731,0.980201745404313,-0.114537473569107,0.980201745390648,-0.114537473553119,0.00721224912088955,0.0195312695299208
10,0.00740269585794891,0.0207149315817796,0.979011254852266,-0.120165484938547,0.979011254831954,-0.120165484919502,0.0074064306154645,0.0207034567087105
10.5,0.00768362295534795,0.0217218536571684,0.977893437967474,-0.125829120654685,0.97789343794808,-0.125829120634806,0.00768767207159914,0.0217097844088636
11,0.00797774355839515,0.0227246009183615,0.976749889625577,-0.131463741554793,0.976749889607151,-0.131463741534148,0.00798212335119824,0.0227119339244179
11.5,0.00828498576220028,0.0237229848228395,0.975581817094063,-0.137070780919202,0.975581817076645,-0.137070780897863,0.00828971267078528,0.0237097164715396
12,0.00860527454519829,0.0247168182346842,0.974390216122315,-0.142651655802159,0.974390216105939,-0.142651655780202,0.00861036513154868,0.0247029446626086
12.5,0.00893853179950814,0.0257059154829506,0.973175890643096,-0.148207747383972,0.973175890627787,-0.148207747361472,0.00894400274915158,0.025691432564324
13,0.00928467636249539,0.0266900924193259,0.971939472720292,-0.15374038558632,0.971939472706069,-0.153740385563353,0.00929054448472838,0.0266749957551027
13.5,0.00964362404950392,0.0276691664750262,0.970681442162584,-0.159250837474104,0.970681442149456,-0.159250837450748,0.00964990627703732,0.0276534513817612
14,0.0100152876877507,0.0286429567169306,0.969402145370013,-0.164740298949476,0.969402145357984,-0.164740298925805,0.0100220010757605,0.028626618215454
14.5,0.0103995771513546,0.0296112839029097,0.968101813107815,-0.170209889251576,0.968101813096882,-0.170209889227663,0.0104067388759236,0.029594316706814
15,0.0107963993974833,0.0305739705363308,0.966780577008523,-0.17566064780125,0.96678057699868,-0.175660647777165,0.0108040267534248,0.0305563690403345
15.5,0.0112056585035891,0.031530840919709,0.965438484689852,-0.181093532967326,0.965438484681083,-0.181093532943136,0.0112137689016374,0.0315125991878906
16,0.0116272557057174,0.0324817212074939,0.964075513443898,-0.186509422374616,0.964075513436185,-0.186509422350387,0.0116358666690804,0.0324628329614436
16.5,0.0120610894378617,0.0334264394579429,0.962691582504962,-0.191909114420134,0.962691582498283,-0.191909114395926,0.0120702185981226,0.0334068980648548
17,0.0125070553723395,0.0343648256840949,0.96128656394109,-0.197293330709822,0.96128656393542,-0.197293330685693,0.0125167204647023,0.0343446241448317
17.5,0.0129650464611686,0.0352967119037852,0.959860292240717,-0.202662719172012,0.959860292236027,-0.202662719148015,0.0129752653190386,0.0352758428409403
18,0.0134349529784153,0.0362219321887094,0.958412572682768,-0.208017857644138,0.958412572679025,-0.208017857620323,0.013445743527311,0.0362003878347048
18.5,0.0139166625634847,0.0371403227124951,0.956943188588204,-0.213359257765616,0.956943188585375,-0.213359257742028,0.0139280428142799,0.0371180948977354
19,0.0144100602653406,0.0380517217977809,0.955451907555072,-0.218687369041884,0.955451907553122,-0.218687369018568,0.0144220483068244,0.0380288019389052
19.5,0.0149150285876062,0.0389559699622637,0.953938486778978,-0.224002582972337,0.953938486777871,-0.22400258294933,0.0149276425783726,0.0389323490505185
20,0.0154314475345438,0.0398529099637153,0.95240267755789,-0.229305237158594,0.952402677557587,-0.229305237135932,0.0154447056941941,0.0398285785534811
20.5,0.0159591946578593,0.0407423868439341,0.950844229075043,-0.234595619329452,0.950844229075505,-0.234595619307168,0.0159731152575344,0.0407173350414431
21,0.0164981451043242,0.0416242479716356,0.94926289154743,-0.239873971235445,0.949262891548619,-0.239873971213566,0.0165127464565563,0.041598465423901
21.5,0.017048171664176,0.0424983430842409,0.947658418820272,-0.245140492379446,0.947658418822148,-0.245140492358,0.0170634721120659,0.0424718189682418
22,0.0176091448202622,0.0433645243285672,0.946030570480549,-0.25039534356076,0.946030570483072,-0.250395343539768,0.017625162725991,0.0433372473407121
22.5,0.0181809327979172,0.0442226463004134,0.944379113555387,-0.25563865021885,0.944379113558518,-0.255638650198332,0.018197686530589,0.0441946046463189
23,0.0187634016155146,0.0450725660829958,0.942703823854011,-0.26087050556982,0.942703823857711,-0.260870505549792,0.0187809095383478,0.0450437474676084
23.5,0.0193564151356918,0.0459141432842598,0.941004487005326,-0.266090973534018,0.941004487009557,-0.266090973514497,0.019374695592551,0.0458845349023562
24,0.0199598351171955,0.0467472400730302,0.939280899236971,-0.271300091457232,0.939280899241693,-0.271300091438228,0.0199789064184874,0.0467168286001294
24.5,0.0205735212673223,0.0475717212140074,0.937532867935976,-0.276497872630913,0.937532867941153,-0.276497872612437,0.0205934016752598,0.0475404927977172
25,0.021197331294929,0.0483874541015867,0.935760212026042,-0.281684308619044,0.935760212031637,-0.281684308601104,0.0212180390081716,0.0483553943534305
25.5,0.0218311209639728,0.0491943087925051,0.93396276219175,-0.286859371400706,0.933962762197726,-0.286859371383308,0.0218526741016581,0.0491614027802445
26,0.0224747441475517,0.0499921580373031,0.932140360975923,-0.292023015338349,0.932140360982246,-0.292023015321498,0.0224971607327304,0.0499583902778016
26.5,0.0231280528824095,0.0507808773105918,0.930292862772666,-0.297175178982293,0.930292862779302,-0.29717517896599,0.0231513508249009,0.0507462317632448
27,0.0237908974238791,0.0515603448401323,0.928420133735382,-0.302315786722153,0.928420133742298,-0.302315786706399,0.0238150945025559,0.0515248049008905
27.5,0.0244631263012227,0.0523304416347199,0.926522051616231,-0.307444750295856,0.926522051623393,-0.307444750280651,0.0244882401457487,0.052293990130746
28,0.0251445863733427,0.05309105151086,0.924598505551026,-0.312561970166685,0.924598505558404,-0.312561970152025,0.0251706344453732,0.053053670695842
28.5,0.0258351228848222,0.0538420611182537,0.922649395801423,-0.317667336778383,0.922649395808986,-0.317667336764266,0.025862122458693,0.0538037326684095
29,0.0265345795222643,0.0545833599640786,0.920674633464366,-0.322760731697977,0.920674633472085,-0.3227607316844,0.0265625476651858,0.0545440649748801
29.5,0.0272427984709052,0.0553148404360764,0.918674140157204,-0.327842028655385,0.918674140165051,-0.32784202864234,0.0272717520226745,0.0552745594197277
30,0.0279596204714436,0.0560363978244434,0.91664784768545,-0.332911094488393,0.916647847693398,-0.332911094475875,0.0279895760237129,0.0559951107081347
30.5,0.0286848848770829,0.0567479303425367,0.914595697699022,-0.337967790001012,0.914595697707045,-0.337967789989013,0.0287158587521875,0.0567056164675142
31,0.029418429710723,0.0574493391463937,0.912517641341767,-0.343011970742647,0.912517641349839,-0.343011970731159,0.0294504379401067,0.0574059772678657
31.5,0.0301600917222857,0.0581405283530732,0.910413638898198,-0.348043487715016,0.910413638906295,-0.34804348770403,0.0301931500245402,0.0580960966409947
32,0.0309097064461331,0.0588214050578406,0.908283659440686,-0.353062188013163,0.908283659448786,-0.35306218800267,0.0309438302046796,0.0587758810985906
32.5,0.0316671082585417,0.0594918793501857,0.906127680479668,-0.358067915406463,0.906127680487748,-0.358067915396452,0.0317023124989835,0.0594452401491812
33,0.0324321304352037,0.060151864328708,0.903945687618946,-0.363060510865,0.903945687626986,-0.36306051085546,0.0324684298023683,0.0601040863139739
33.5,0.0332046052087156,0.0608012761148597,0.90173767421771,-0.36803981303626,0.90173767422569,-0.36803981302718,0.033242013943432,0.0607523351416059
34,0.0339843638260213,0.0614400338656036,0.899503641060519,-0.373005658676673,0.899503641068418,-0.373005658668041,0.0340228957416348,0.0613899052217863
34.5,0.034771236605778,0.0620680597849338,0.897243596036192,-0.377957883042111,0.897243596043993,-0.377957883033914,0.0348109050644664,0.0620167181979119
35,0.035565052995604,0.0626852791343607,0.894957553826294,-0.382896320241122,0.894957553833981,-0.382896320233348,0.0356058708845027,0.0626326987786106
35.5,0.0363656416291836,0.0632916202423215,0.892645535603682,-0.387820803554328,0.892645535611237,-0.387820803546965,0.0364076213363604,0.0632377747482695
36,0.037172830383184,0.0638870145125697,0.890307568741397,-0.392731165723101,0.890307568748804,-0.392731165716134,0.0372159837735019,0.0638318769765743
36.5,0.0379864464339634,0.064471396431565,0.887943686532066,-0.397627239210345,0.887943686539312,-0.397627239203762,0.0380307848248603,0.0644149394270719
37,0.0388063163140241,0.0650447035748802,0.885553927917833,-0.402508856435986,0.885553927924904,-0.402508856429772,0.0388518504512532,0.0649868991647935
37.5,0.0396322659681846,0.0656068766126802,0.88313833723075,-0.407375849989481,0.883138337237632,-0.407375849983624,0.0396790060015513,0.065547696362976
38,0.0404641208094404,0.0661578593142852,0.880696963943505,-0.412228052821484,0.880696963950187,-0.412228052815968,0.0405120762685767,0.0660972743089059
38.5,0.0413017057744705,0.0666975985518682,0.878229862430271,-0.417065298416579,0.878229862436741,-0.417065298411392,0.0413508855446919,0.0666355794089325
39,0.0421448453787736,0.0672260443033298,0.875737091737436,-0.421887420948847,0.875737091743685,-0.421887420943974,0.0421952576770597,0.0671625611926971
39.5,0.0429933637713869,0.0677431496543809,0.873218715363946,-0.42669425542182,0.873218715369963,-0.426694255417246,0.0430450161225358,0.0676781723166051
40,0.0438470847891684,0.0682488707998964,0.870674801050925,-0.431485637794274,0.8706748010567,-0.431485637789985,0.0438999840021763,0.0681823685666131
40.5,0.0447058320106072,0.0687431670445829,0.868105420580288,-0.436261405093154,0.868105420585815,-0.436261405089137,0.0447599841553208,0.0686751088603719
41,0.0455694288091376,0.0692260008030204,0.865510649581982,-0.441021395514803,0.865510649587253,-0.441021395511042,0.0456248391932404,0.0691563552487827
41.5,0.0464376984059237,0.069697337599138,0.862890567349534,-0.445765448515555,0.862890567354542,-0.445765448512037,0.0464943715523137,0.0696260729170389
42,0.047310463922094,0.0701571460651904,0.860245256663545,-0.450493404892675,0.860245256668284,-0.450493404889386,0.0473684035467166,0.0700842301852125
42.5,0.0481875484303985,0.0706053979403053,0.85757480362282,-0.455205106856495,0.857574803627284,-0.455205106853421,0.0482467574206024,0.0705307985084652
43,0.0490687750062649,0.0710420680686809,0.85487929748276,-0.459900398094552,0.854879297486945,-0.459900398091679,0.0491292553997563,0.0709657524769632
43.5,0.0499539667782324,0.0714671343975166,0.852158830500727,-0.464579123828442,0.852158830504628,-0.464579123825755,0.0500157197427049,0.071389069815578
44,0.0508429469777469,0.071880577974772,0.849413497788024,-0.469241130864035,0.849413497791638,-0.469241130861521,0.0509059727912725,0.0718007313834781
44.5,0.0517355389882978,0.0722823829468436,0.846643397168211,-0.473886267635641,0.846643397171536,-0.473886267633288,0.0517998370205753,0.0722007211737037
45,0.0526315663938848,0.0726725365562794,0.843848629041435,-0.478514384244668,0.843848629044467,-0.47851438424246,0.0526971350884429,0.07258902631284
45.5,0.053530853026808,0.0730510291396432,0.841029296254491,-0.483125332493228,0.841029296257228,-0.483125332491154,0.0535976898842757,0.0729656370609135
46,0.0544332230147691,0.0734178541256494,0.83818550397634,-0.487718965913172,0.838185503978782,-0.487718965911218,0.0545013245773344,0.0733305468116351
46.5,0.055338500827287,0.073773008033719,0.835317359578812,-0.492295139790904,0.835317359580958,-0.492295139789057,0.0554078626644804,0.0736837520931393
47,0.0562465113214364,0.0741164904731024,0.832424972522245,-0.496853711188369,0.832424972524095,-0.496853711186616,0.0563171280173786,0.074025252569373
47.5,0.057157079786911,0.0744483041427311,0.829508454245812,-0.501394538960525,0.829508454247365,-0.501394538958856,0.0572289449291969,0.074355051042299
48,0.0580700319904413,0.0747684548319849,0.826567918062301,-0.5059174837696,0.826567918063559,-0.505917483768001,0.0581431381608309,0.0746731534551103
48.5,0.0589851942195876,0.0750769514225715,0.823603479057153,-0.510422408096393,0.823603479058117,-0.510422408094852,0.0590595329867113,0.0749795688966433
49,0.0599023933259508,0.0753738058917277,0.820615253991507,-0.514909176248884,0.820615253992179,-0.51490917624739,0.059977955240244,0.0752743096072147
49.5,0.0608214567678497,0.0756590333169876,0.817603361209099,-0.519377654368354,0.817603361209482,-0.519377654366896,0.0608982313589673,0.0755573909861265
50,0.0617422126525314,0.0759326518827744,0.814567920546796,-0.523827710433226,0.814567920546891,-0.523827710431793,0.061820188429519,0.0758288316010941
50.5,0.0626644897779999,0.0761946828890966,0.811509053248599,-0.52825921426081,0.81150905324841,-0.52825921425939,0.0627436542325262,0.0760886531998884
51,0.0635881176745604,0.0764451507626692,0.808426881882956,-0.532672037507113,0.808426881882487,-0.532672037505697,0.0636684572875564,0.0763368807245007
51.5,0.0645129266462109,0.0766840830707998,0.805321530263209,-0.537066053664876,0.805321530262463,-0.537066053663453,0.0645944268983031,0.0765735423281784
52,0.0654387478120295,0.0769115105384105,0.802193123371032,-0.541441138059965,0.802193123370014,-0.541441138058525,0.0655213931982,0.0767986693956995
52.5,0.066365413147751,0.0771274670686326,0.799041787282738,-0.545797167846245,0.799041787281452,-0.54579716784478,0.0664491871967073,0.0770122965673002
53,0.0672927555277562,0.0773319897674091,0.795867649098284,-0.550134021999056,0.795867649096735,-0.550134021997557,0.0673776408265586,0.0772144617667042
53.5,0.0682206087677377,0.0775251189726224,0.792670836872883,-0.554451581307391,0.792670836871077,-0.554451581305848,0.0683065869922959,0.0774052062337344
54,0.0691488076683809,0.0777068982883042,0.78945147955109,-0.558749728364869,0.789451479549033,-0.558749728363274,0.0692358596205101,0.0775845745620538
54.5,0.0700771880604387,0.0778773746245345,0.786209706903247,-0.563028347559594,0.786209706900944,-0.563028347557938,0.0701652937122483,0.0777526147426152
55,0.0710055868516687,0.0780365982437056,0.782945649464188,-0.567287325062979,0.782945649461646,-0.567287325061255,0.0710947253981559,0.077909378213449
55.5,0.0719338420761892,0.0781846228138936,0.77965943847411,-0.571526548817611,0.779659438471335,-0.571526548815812,0.0720239919970156,0.0780549199164983
56,0.0728617929469084,0.0783215054701571,0.776351205821502,-0.575745908524208,0.776351205818502,-0.575745908522327,0.0729529320784634,0.0781892983622355
56.5,0.0737892799118223,0.0784473068846502,0.773021083988061,-0.579945295627753,0.773021083984842,-0.579945295625782,0.0738813855308054,0.0783125757028978
57,0.0747161447151072,0.0785620913465469,0.769669205995498,-0.584124603302836,0.769669205992068,-0.584124603300771,0.0748091936350254,0.0784248178152043
57.5,0.0756422304641328,0.078665926852837,0.766295705354169,-0.588283726438278,0.766295705350536,-0.588283726436112,0.0757361991462603,0.0785260943935192
58,0.0765673817037095,0.0787588852111825,0.76290071601345,-0.592422561621064,0.762900716009622,-0.592422561618791,0.0766622463842612,0.0786164790544661
58.5,0.0774914444991583,0.0788410421561028,0.759484372313786,-0.596541007119643,0.75948437230977,-0.596541007117259,0.0775871813346182,0.0786960494540814
59,0.0784142665300654,0.0789124774798798,0.756046808940359,-0.600638962866626,0.756046808936164,-0.600638962864126,0.07851085176285,0.0787648874186403
59.5,0.0793356971969729,0.0789732751796676,0.752588160878301,-0.604716330440925,0.752588160873936,-0.604716330438304,0.0794331073438343,0.0788230790903459
60,0.0802555877436449,0.0790235236224054,0.749108563369409,-0.60877301304936,0.749108563364883,-0.608773013046616,0.0803537998094969,0.0788707150890979
60.5,0.0811737913980849,0.0790633157292193,0.745608151870294,-0.612808915507776,0.745608151865614,-0.612808915504904,0.0812727831181923,0.078907890691572
61,0.0820901635360582,0.0790927491810827,0.742087062011921,-0.616823944221681,0.742087062007099,-0.616823944218679,0.082189913649828,0.0789347060288086
61.5,0.083004561871613,0.0791119266475446,0.738545429560499,-0.620818007166455,0.738545429555542,-0.620818007163321,0.0831050504314952,0.0789512663034393
62,0.0839168466799251,0.0791209560403575,0.734983390379655,-0.62479101386714,0.734983390374572,-0.624791013863869,0.084018055399221,0.0789576820275282
62.5,0.0848268810588211,0.0791199507937668,0.731401080393873,-0.628742875377828,0.731401080388675,-0.628742875374421,0.0849287937024292,0.0789540692817811
63,0.085734531236534,0.0791090301730957,0.727798635553148,-0.6326735042607,0.727798635547844,-0.632673504257155,0.0858371340588631,0.0789405499964942
63.5,0.0866396669346725,0.0790883196129691,0.72417619179881,-0.636582814564689,0.724176191793409,-0.636582814561004,0.0867429491690556,0.0789172522541103
64,0.0875421617970741,0.0790579510860918,0.720533885030497,-0.640470721803833,0.72053388502501,-0.64047072180001,0.0876461162009797,0.0788843106124685
