"Freq [GHz]","re(St(P1,P1)) []","im(St(P1,P1)) []","re(St(P1,P2)) []","im(St(P1,P2)) []","re(St(P2,P1)) []","im(St(P2,P1)) []","re(St(P2,P2)) []","im(St(P2,P2)) []"
0,0.0039629156809724,0,0.996048433997203,0,0.99604843648558,0,0.00396283545057941,0
0.5,0.00436202855791379,0.000332630410678547,0.995519822364031,-0.00721582745321214,0.995519822050515,-0.00721582613572735,0.00436219535516358,0.000332064600247151
1,0.00466535884384811,0.000149821320679422,0.994886863845791,-0.0138749113840504,0.994886864008768,-0.0138749114117083,0.00466576638364202,0.000148472954908385
1.5,0.00469504514396135,0.00020397832108543,0.994289593710192,-0.0206197650007134,0.994289593854239,-0.0206197650348621,0.00469643789187479,0.000201691863779274
2,0.00473716778693856,0.000228552407280702,0.993556554546045,-0.0271875763465346,0.993556554669112,-0.0271875763816514,0.00473988596200225,0.000224920810568463
2.5,0.00478813399261258,0.000204994145532211,0.992746862172252,-0.0335810353124053,0.99274686227486,-0.0335810353443371,0.00479233287259184,0.000199332525841811
3,0.00483333382096074,0.000107043740090518,0.991902425572915,-0.0398211247253144,0.991902425657021,-0.0398211247517519,0.00483865345895884,9.83708310418052E-005
3.5,0.00483184135367587,-9.43086615521338E-005,0.991047062985841,-0.0459353661012223,0.991047063053924,-0.0459353661214621,0.00483683970509974,-0.000106866944177497
4,0.00469852643584434,-0.000400735222743975,0.990190409369558,-0.0519502414280311,0.990190409424096,-0.0519502414424959,0.00470055881589171,-0.000416481049752448
4.5,0.00433195721034796,-0.000718338079265024,0.989332860379143,-0.0578877635032864,0.989332860422406,-0.057887763513067,0.00432965522203288,-0.000733463011512114
5,0.00375216632005237,-0.000851419432574829,0.988469681821544,-0.0637647300349782,0.988469681855552,-0.0637647300414663,0.00374901854490517,-0.000862420259965191
5.5,0.0031637894307075,-0.000702950086081344,0.987593823888329,-0.069593270349614,0.987593823914877,-0.069593270354261,0.00316407041125888,-0.000711799760846787
6,0.00273625367584907,-0.000385718506146659,0.986697619958883,-0.0753818101381896,0.98669761997959,-0.0753818101423578,0.00273974290169277,-0.000395981279527113
6.5,0.00247642380531454,-4.59530927736651E-005,0.98577370663482,-0.0811360271333097,0.985773706651163,-0.0811360271381973,0.00248098842731387,-5.8635610833413E-005
7,0.00232362853457546,0.00024899584479865,0.984815459737096,-0.0868596401208199,0.984815459750441,-0.086859640127428,0.00232791085413614,0.000234509998484178
7.5,0.00222657710125068,0.000487444345494303,0.983817152966079,-0.0925550047464538,0.983817152977694,-0.0925550047555728,0.00223013497912544,0.000471995765042088
8,0.00215575852153538,0.00067689849009156,0.982773968908621,-0.0982235410056838,0.982773968919681,-0.0982235410179078,0.00215859471305555,0.000661104780263599
8.5,0.00209634196734518,0.000827864399487233,0.981681938296346,-0.103866030435314,0.981681938307935,-0.10386603045105,0.00209860296007405,0.000812107677561791
9,0.00204133531521196,0.000949267060371461,0.980537849674961,-0.109482818615076,0.980537849688073,-0.109482818634572,0.00204318505416107,0.000933767918256834
9.5,0.00198762940127148,0.00104783841780698,0.979339151754408,-0.115073951444466,0.979339151769947,-0.115073951467833,0.00198920806140937,0.00103271915493952
10,0.0019339858582155,0.00112849986523722,0.978083859472247,-0.120639266257605,0.978083859491025,-0.12063926628484,0.0019354017621663,0.00111382521163872
10.5,0.00193231151276909,0.00137467365429478,0.976958064572908,-0.126154862654455,0.976958064588116,-0.126154862681791,0.00193421833120256,0.00135944449965963
11,0.00194416046416691,0.00161482320497663,0.97582230114348,-0.131648415461228,0.975822301155283,-0.131648415488186,0.00194655395378277,0.00159900007129998
11.5,0.00196817641998995,0.00184876491400843,0.974675751529055,-0.137122401990598,0.974675751537674,-0.137122402016765,0.0019710519803705,0.00183231587812438
12,0.00200317645661081,0.00207640367736506,0.973517487845393,-0.142578937630052,0.973517487851089,-0.14257893765508,0.00200652992177064,0.00205930306445179
12.5,0.0020481259163348,0.00229770674961127,0.972346521367998,-0.148019813902321,0.972346521371057,-0.148019813925925,0.0020519540718999,0.00227993401870696
13,0.00210211656514639,0.00251268480352129,0.971161840031099,-0.153446535926155,0.971161840031821,-0.153446535948112,0.0021064174720225,0.00249422360505402
13.5,0.00216434783298372,0.0027213782581228,0.969962436244513,-0.158860357955787,0.969962436243202,-0.158860357975931,0.00216912101547342,0.00270221564107809
14,0.00223411083826533,0.00292384745527752,0.968747326962373,-0.164262316232112,0.968747326959331,-0.164262316250325,0.00223935737795808,0.00290397320213875
14.5,0.00231077485834191,0.00312016564390838,0.967515567647811,-0.169653258770876,0.967515567643329,-0.16965325878709,0.00231649742315163,0.00309957171340791
15,0.00239377591079346,0.00331041400974108,0.966266261499807,-0.175033871980595,0.966266261494164,-0.17503387199478,0.00239997873992823,0.00328909406995326
15.5,0.00248260713521456,0.00349467819274096,0.96499856505701,-0.180404704177291,0.964998565050467,-0.180404704189451,0.0024892959947492,0.00347262722954245
16,0.00257681069893623,0.00367304588397577,0.963711691074663,-0.185766186169948,0.963711691067461,-0.185766186180116,0.00258399281829996,0.00365025987225565
16.5,0.00267597098611069,0.00384560520293054,0.962404909385694,-0.191118649150009,0.962404909378053,-0.191118649158244,0.0026836549827032,0.00382208083005109
17,0.00277970886410861,0.00401244363637199,0.961077546303719,-0.196462340144976,0.961077546295838,-0.196462340151358,0.0027879046610598,0.00398817806916529
17.5,0.00288767685257846,0.00417364737842885,0.959728983000685,-0.201797435301455,0.95972898299274,-0.201797435306079,0.00289639559311453,0.00414863806654786
18,0.00299955504812438,0.0043293009545593,0.95835865319128,-0.207124051254727,0.958358653183424,-0.207124051257697,0.00300880900890355,0.00430354546426104
18.5,0.00311504768134779,0.00447948704357914,0.956966040376226,-0.212442254825571,0.956966040368591,-0.212442254827004,0.00312485018635578,0.00445298291709229
19,0.00323388020324422,0.0046242864351842,0.955550674833459,-0.217752071264557,0.955550674826156,-0.217752071264576,0.00324424553930036,0.00459703107165721
19.5,0.0033557968149629,0.0047637780774239,0.954112130496888,-0.223053491241844,0.954112130490009,-0.223053491240573,0.00336674014950994,0.00473576863214698
20,0.00348055836923283,0.00489803918121545,0.952650021824208,-0.228346476758232,0.952650021817826,-0.228346476755799,0.00349209567081998,0.00486927248041047
20.5,0.00360794058362879,0.00502714535822313,0.951164000725792,-0.233630966132063,0.951164000719964,-0.233630966128594,0.00362008854532481,0.00499761782713826
21,0.00373773251578252,0.00515117077528338,0.949653753604284,-0.23890687819675,0.94965375359905,-0.238906878192368,0.00375050848163261,0.00512087837773123
21.5,0.00386973525885637,0.00527018831359949,0.948118998537469,-0.244174115825864,0.948118998532855,-0.244174115820691,0.00388315715341092,0.00523912650136982
22,0.00400376082243736,0.00538426972461736,0.94655948262433,-0.249432568886663,0.946559482620349,-0.249432568880813,0.00401784708334169,0.00535243339546643
22.5,0.00413963116969956,0.00549348577722153,0.944974979504721,-0.254682116708808,0.944974979501372,-0.254682116702392,0.00415440068328821,0.00546086924033284
23,0.0042771773863966,0.00559790639285418,0.943365287056223,-0.259922630142609,0.943365287053499,-0.259922630135732,0.00429264942622437,0.00556450334083514
23.5,0.00441623896117849,0.00569760076662607,0.941730225266831,-0.265153973270336,0.941730225264711,-0.265153973263094,0.00443243312941072,0.00566340425325462
24,0.00455666316002173,0.00579263747350578,0.940069634278614,-0.27037600482479,0.940069634277072,-0.270376004817275,0.0045735993315934,0.00575763989654154
24.5,0.0046983044802687,0.00588308455939401,0.938383372595227,-0.275588579361318,0.938383372594229,-0.275588579353612,0.00471600274973782,0.00584727764786885
25,0.00484102417209098,0.00596900961742675,0.936671315444613,-0.280791548222488,0.936671315444121,-0.280791548214667,0.00485950480308922,0.00593238442290644
25.5,0.00498468981707267,0.00605047985018659,0.934933353287396,-0.285984760328751,0.934933353287364,-0.285984760320883,0.00500397319428347,0.00601302674155124
26,0.00512917495525372,0.00612756211870824,0.933169390461055,-0.291168062823352,0.933169390461436,-0.291168062815498,0.00514928153883293,0.00608927078006638
26.5,0.00527435875328458,0.00620032297933149,0.931379343949911,-0.296341301595419,0.931379343950655,-0.296341301587633,0.00529530903565151,0.00616118241071595
27,0.00542012570751121,0.00626882870949386,0.929563142271117,-0.301504321701482,0.929563142272169,-0.30150432169381,0.0054419401724351,0.00622882723003126
27.5,0.0055663653767466,0.00633314532359885,0.927720724467158,-0.306656967702548,0.927720724468465,-0.306656967695028,0.00558906446066038,0.00629227057687287
28,0.00571297214030375,0.00639333858007318,0.925852039195855,-0.311799083931169,0.925852039197361,-0.311799083923837,0.00573657619577339,0.00635157754143068
28.5,0.00585984497753395,0.00644947398069284,0.923957043909297,-0.31693051470072,0.923957043910947,-0.316930514693602,0.00588437423882415,0.00640681296627243
29,0.0060068872657188,0.00650161676322059,0.922035704113746,-0.322051104467102,0.922035704115485,-0.322051104460218,0.00603236181638189,0.00645804144048912
29.5,0.00615400659362503,0.00654983188831637,0.920087992703058,-0.327160697951546,0.92008799270483,-0.32716069794491,0.00618044633605197,0.00650532728792785
30,0.00630111458845789,0.00659418402163481,0.91811388935873,-0.332259140231725,0.918113889360483,-0.332259140225349,0.00632853921532911,0.00654873455043914
30.5,0.00644812675431189,0.00663473751194488,0.916113380010259,-0.337346276807264,0.916113380011941,-0.337346276801152,0.00647655572188482,0.00658832696699574
31,0.0065949623205005,0.00667155636603844,0.914086456349951,-0.342421953644706,0.914086456351511,-0.342421953638858,0.00662441482366399,0.00662416794944387
31.5,0.00674154409840344,0.00670470422112768,0.912033115396885,-0.347486017206179,0.912033115398278,-0.347486017200593,0.00677203904744766,0.00665632055561693
32,0.00688779834570186,0.00673424431536573,0.90995335910515,-0.35253831446526,0.909953359106328,-0.352538314459928,0.0069193543447274,0.00668484746045039
32.5,0.00703365463702732,0.00676023945705451,0.907847194011923,-0.357578692912971,0.907847194012844,-0.357578692907883,0.00706628996394321,0.00670981092566914
33,0.00717904574023592,0.00678275199305056,0.905714630921385,-0.362607000556302,0.905714630922008,-0.362607000551444,0.00721277832827305,0.00673127276856689
33.5,0.00732390749762607,0.00680184377681914,0.903555684620794,-0.367623085911235,0.903555684621082,-0.367623085906591,0.00735875491830967,0.00674929433034466
34,0.00746817871154654,0.00681757613652367,0.901370373625437,-0.372626797991898,0.901370373625356,-0.372626797987448,0.0075041581590628,0.00676393644439433
34.5,0.00761180103392939,0.00683000984351589,0.899158719949456,-0.377617986297137,0.899158719948974,-0.377617986292861,0.0076489293108189,0.00677525940490353
35,0.00775471885936135,0.00683920508151292,0.896920748899856,-0.382596500795587,0.896920748898943,-0.382596500791464,0.00779301236348645,0.00678332293607409
35.5,0.00789687922137799,0.00684522141672406,0.894656488891246,-0.387562191910069,0.894656488889877,-0.387562191906073,0.00793635393409603,0.00678818616222521
36,0.00803823169172663,0.00684811776915106,0.89236597127915,-0.392514910501976,0.892365971277303,-0.392514910498083,0.008078903167202,0.0067899075790121
36.5,0.00817872828236971,0.00684795238524227,0.890049230209877,-0.397454507856177,0.89004923020753,-0.397454507852361,0.0082206116379786,0.00678854502594195
37,0.0083183233500766,0.00684478281206036,0.887706302485197,-0.402380835666818,0.887706302482333,-0.402380835663052,0.00836143325782979,0.00678415566035429
37.5,0.00845697350344854,0.00683866587308368,0.885337227440226,-0.407293746024311,0.885337227436831,-0.407293746020568,0.00850132418238031,0.00677679593299585
38,0.00859463751226969,0.00682965764573495,0.882942046833081,-0.412193091403728,0.882942046829143,-0.41219309139998,0.00864024272173636,0.00676652156528434
38.5,0.00873127621909925,0.00681781344073129,0.880520804745033,-0.41707872465472,0.880520804740542,-0.417078724650941,0.00877814925292325,0.00675338752835142
39,0.00886685245302421,0.00680318778327749,0.878073547489989,-0.421950498993067,0.878073547484938,-0.421950498989229,0.00891500613443441,0.00673744802391485
39.5,0.00900133094552796,0.00678583439617841,0.875600323532302,-0.426808267993865,0.875600323526687,-0.426808267989942,0.00905077762283885,0.0067187564670308
40,0.00913467824841918,0.00676580618485534,0.87310118341196,-0.431651885586374,0.87310118340578,-0.43165188558234,0.00918542979139736,0.00669736547073729
40.5,0.00926686265379462,0.00674315522428615,0.870576179676349,-0.4364812060505,0.870576179669602,-0.436481206046328,0.00931893045065868,0.00667332683260102
41,0.00939785411600541,0.00671793274787014,0.868025366817845,-0.441296084014835,0.868025366810533,-0.441296084010501,0.00945124907101308,0.00664669152317365
41.5,0.00952762417560576,0.00669018913817976,0.865448801216589,-0.446096374456226,0.865448801208717,-0.446096374451706,0.00958235670717555,0.00661750967632591
42,0.00965614588526426,0.00665997391958095,0.86284654108785,-0.450881932700768,0.862846541079424,-0.450881932696038,0.00971222592458981,0.00658583058144258
42.5,0.00978339373762915,0.00662733575269647,0.860218646433467,-0.455652614426138,0.860218646424494,-0.455652614421176,0.00984083072773684,0.00655170267745264
43,0.00990934359512752,0.00659232243064778,0.85756517899689,-0.460408275665188,0.857565178987379,-0.460408275659974,0.00996814649033789,0.00651517354863573
43.5,0.0100339726216918,0.00655498087704132,0.854886202221425,-0.465148772810694,0.854886202211386,-0.465148772805207,0.0100941498874436,0.00647628992217553
44,0.0101572592164065,0.00651535714564788,0.852181781211307,-0.469873962621155,0.852181781200752,-0.469873962615376,0.0102188188293971,0.00643509766740125
44.5,0.010279182949049,0.00647349642170281,0.849451982695279,-0.474583702227567,0.849451982684221,-0.47458370222148,0.0103421323976654,0.00639164179666163
45,0.0103997244975353,0.00642944302478721,0.846696874992386,-0.479277849141052,0.846696874980839,-0.47927784913464,0.0104640707825292,0.00634596646777807
45.5,0.01051886558724,0.00638324041321114,0.843916527979737,-0.483956261261267,0.843916527967717,-0.483956261254516,0.0105846152226169,0.00629811498800781
46,0.0106365889321868,0.00633493118984441,0.841111013061995,-0.488618796885491,0.841111013049518,-0.488618796878389,0.010703747946279,0.00624812981946787
46.5,0.0107528781780933,0.00628455710932663,0.838280403142409,-0.493265314718317,0.838280403129491,-0.49326531471085,0.0108214521147832,0.00619605258594191
47,0.0108677178472584,0.00623215908659247,0.835424772595204,-0.497895673881846,0.835424772581862,-0.497895673874005,0.0109377117673228,0.00614192408101721
47.5,0.0109810932852655,0.00617777720664492,0.832544197239176,-0.502509733926337,0.832544197225427,-0.502509733918112,0.0110525117678186,0.00608578427747619
48,0.0110929906095038,0.00612145073551973,0.829638754312355,-0.507107354841206,0.82963875429822,-0.50710735483259,0.0111658377535065,0.00602767233789647
48.5,0.0112033966594635,0.00606321813235577,0.826708522447621,-0.51168839706633,0.826708522433116,-0.511688397057317,0.0112776760852809,0.00596762662637174
49,0.0113122989488089,0.00600311706253842,0.823753581649144,-0.516252721503582,0.82375358163429,-0.516252721494166,0.0113880137997928,0.00590568472131425
49.5,0.011419685619193,0.00594118441182778,0.820774013269602,-0.520800189528542,0.820774013254417,-0.52080018951872,0.0114968385632657,0.00584188342925662
50,0.0115255453957998,0.005877456301422,0.817769899988034,-0.525330663002323,0.817769899972538,-0.525330662992092,0.0116041386270241,0.00577625879961352
50.5,0.0116298675445869,0.00581196810389606,0.814741325788319,-0.529844004283466,0.814741325772531,-0.529844004272825,0.0117099027847034,0.0057088461403233
51,0.0117326418312095,0.0057447544599567,0.811688375938172,-0.534340076239871,0.811688375922111,-0.534340076228821,0.0118141203311202,0.0056396800343248
51.5,0.011833858481598,0.00567584929595599,0.808611136968626,-0.53881874226069,0.80861113695231,-0.538818742249231,0.0119167810227929,0.00556879435681701
52,0.011933508144166,0.00560528584211406,0.805509696653951,-0.543279866268174,0.8055096966374,-0.543279866256311,0.012017875040067,0.0054962222932311
52.5,0.0120315818536253,0.00553309665139068,0.802384143991967,-0.547723312729433,0.802384143975198,-0.547723312717167,0.0121173929508409,0.0054219963578791
53,0.01212807099638,0.00545931361896801,0.79923456918471,-0.552148946668057,0.799234569167743,-0.552148946655394,0.0122153256758613,0.00534614841322334
53.5,0.0122229672774732,0.00538396800227869,0.796061063619436,-0.556556633675605,0.796061063602288,-0.55655663366255,0.0123116644555582,0.00526870968971149
54,0.0123162626890678,0.00530709044154831,0.792863719849919,-0.560946239922902,0.792863719832607,-0.560946239909462,0.0124064008184068,0.00518971080614294
54.5,0.0124079494804266,0.00522871098079947,0.789642631578034,-0.565317632171152,0.789642631560575,-0.565317632157335,0.0124995265507807,0.00510918179050923
55,0.0124980201293675,0.00514885908927176,0.786397893635603,-0.569670677782821,0.786397893618014,-0.569670677768636,0.0125910336682757,0.00502715210127314
55.5,0.0125864673151794,0.00506756368322792,0.783129601966482,-0.574005244732299,0.783129601948778,-0.574005244717754,0.0126809143884841,0.00494365064904512
56,0.0126732838929559,0.00498485314809105,0.779837853608882,-0.578321201616296,0.779837853591079,-0.578321201601403,0.0127691611051894,0.00485870581860848
56.5,0.0127584628693346,0.00490075536088763,0.776522746677913,-0.582618417663994,0.776522746660024,-0.582618417648763,0.0128557663639567,0.00477234549126915
57,0.0128419973796174,0.00481529771295441,0.773184380348333,-0.586896762746911,0.773184380330373,-0.586896762731352,0.0129407228391032,0.00468459706747948
57.5,0.0129238806662371,0.00472850713287398,0.769822854837505,-0.591156107388489,0.769822854819487,-0.591156107372616,0.0130240233120167,0.00459548748971295
58,0.013004106058559,0.00464041010960636,0.766438271388546,-0.595396322773398,0.766438271370483,-0.595396322757224,0.0131056606508013,0.00450504326554335
58.5,0.0130826669539861,0.00455103271578616,0.76303073225367,-0.599617280756533,0.763030732235574,-0.59961728074007,0.0131856277912345,0.00441329049091166
59,0.0131595568003517,0.00446040063115183,0.759600340677717,-0.603818853871719,0.759600340659598,-0.603818853854981,0.0132639177190043,0.00432025487353194
59.5,0.0132347690795706,0.0043685391660796,0.756147200881861,-0.608000915340109,0.75614720086373,-0.60800091532311,0.0133405234532125,0.00422596175642442
60,0.0133082972925321,0.0042754732851894,0.752671418047502,-0.612163339078279,0.752671418029369,-0.612163339061033,0.0134154380311167,0.00413043614152642
60.5,0.0133801349452153,0.00418122763100193,0.749173098300338,-0.616305999706009,0.749173098282211,-0.616305999688531,0.0134886544941016,0.00403370271337611
61,0.013450275536001,0.00408582654761314,0.745652348694607,-0.620428772553766,0.745652348676494,-0.620428772536071,0.0135601658748473,0.00393578586282073
61.5,0.0135187125441694,0.003989294104362,0.742109277197509,-0.624531533669873,0.742109277179417,-0.624531533651975,0.0136299651856839,0.00383670971073624
62,0.013585439419553,0.0038916541194739,0.738543992673803,-0.628614159827369,0.738543992655739,-0.628614159809284,0.0136980454081161,0.00373649813172794
62.5,0.0136504495733401,0.00379293018363691,0.734956604870578,-0.632676528530576,0.734956604852547,-0.632676528512318,0.0137643994834893,0.0036351747777863
