"Freq [GHz]","re(St(P1,P1)) []","im(St(P1,P1)) []","re(St(P1,P2)) []","im(St(P1,P2)) []","re(St(P2,P1)) []","im(St(P2,P1)) []","re(St(P2,P2)) []","im(St(P2,P2)) []"
0,0.0047298017528874,0,0.995285700701061,0,0.995285706943832,0,0.00472980745286122,0
0.5,0.00527807668559888,-0.000610656960468248,0.994668863824806,-0.00709081985846183,0.994668863289284,-0.00709081883084295,0.00527827300457773,-0.000611733567293271
1,0.00574721375497234,-0.00190492570214573,0.994026797043382,-0.0134912246859784,0.994026797180435,-0.0134912245985674,0.00574768078260846,-0.00190737529494456
1.5,0.00597659311086929,-0.0033813108543157,0.993457176830127,-0.0199310365261951,0.993457176993982,-0.0199310364672556,0.00597734782406256,-0.00338520270619824
2,0.00605610799377132,-0.00484245574814324,0.992868414067683,-0.0261950756094258,0.992868414217298,-0.0261950755862443,0.00605700473819049,-0.00484792296152392
2.5,0.00606334623149341,-0.006273314110123,0.992298721344659,-0.0323485023550329,0.992298721454167,-0.0323485023539103,0.00606427654794839,-0.00628037732119147
3,0.00602955628049795,-0.00768025146029316,0.991748053850434,-0.0384393933117106,0.991748053910476,-0.0384393933159668,0.00603045005775193,-0.00768890351590201
3.5,0.00596816243139209,-0.00906963756729162,0.991203235639688,-0.0444953041220924,0.991203235650856,-0.0444953041195006,0.00596897090091097,-0.00907986623332668
4,0.00588553096435662,-0.0104458250395627,0.990649674101191,-0.0505297518457599,0.990649674068675,-0.0505297518295507,0.00588621674735501,-0.010457618414927
4.5,0.00578497175926085,-0.0118116039274607,0.990075067551974,-0.0565482729835054,0.990075067482654,-0.0565482729512414,0.00578550377942655,-0.0118249514516098
5,0.00566835176680369,-0.0131687422105831,0.989469919408593,-0.0625522471218165,0.989469919309767,-0.0625522470740592,0.00566870261959851,-0.0131836345862517
5.5,0.0055368049545963,-0.0145183549253094,0.988827101441133,-0.0685410148968408,0.98882710132004,-0.0685410148360521,0.00553694949136174,-0.0145347838263419
6,0.00539106996858396,-0.0158611354378362,0.988141275348752,-0.0745129890202323,0.98814127521248,-0.0745129889500094,0.00539098450075914,-0.0158790932252098
6.5,0.00523166178503898,-0.0171974992709147,0.987408404427932,-0.0804662215149357,0.987408404283436,-0.0804662214394822,0.00523132361871803,-0.0172169787635967
7,0.0050589640432025,-0.018527674909036,0.986625390998814,-0.086398687045004,0.986625390852985,-0.0863986869687707,0.00505835119739706,-0.0185486692095269
7.5,0.00487328115360652,-0.0198517624094841,0.98578982040512,-0.0923084197460691,0.985789820264834,-0.0923084196735227,0.00487237218478298,-0.0198742647735832
8,0.00467486893184088,-0.0211697721414659,0.98489978381866,-0.0981935747415337,0.984899783690816,-0.0981935746769773,0.0046736428221843,-0.0211937758814749
8.5,0.00446395324455728,-0.0224816509943953,0.983953756247227,-0.104052451087751,0.983953756138759,-0.104052451035221,0.00446238932967058,-0.0225071494071702
9,0.0042407416972623,-0.0237873005053633,0.982950512320212,-0.109883495179051,0.982950512238087,-0.109883495142236,0.00423881961897271,-0.0238142868186735
9.5,0.00400543114200425,-0.0250865896597423,0.981889067677054,-0.11568529452552,0.981889067628249,-0.115685294507709,0.00400313081754611,-0.0251150569922256
10,0.00375821259600895,-0.0263793641063037,0.980768637649558,-0.121456567093436,0.98076863764104,-0.121456567097501,0.00375551419812403,-0.0264093054375643
10.5,0.00349585950127262,-0.0276801773246396,0.979695698571722,-0.127262397860783,0.979695698562723,-0.127262397863399,0.00349316294145485,-0.0277119595588475
11,0.00322118920254988,-0.0289784076724491,0.978591451098067,-0.133044344577014,0.978591451088753,-0.133044344578178,0.00321846923300298,-0.0290120806797889
11.5,0.00293427532471277,-0.0302739533044187,0.977456850586783,-0.138803308791628,0.977456850577307,-0.138803308791358,0.00293150225048597,-0.0303095689564152
12,0.00263519592543446,-0.0315667165959885,0.976292700962075,-0.14454018845343,0.976292700952584,-0.144540188451757,0.0026323351958504,-0.0316043286090171
12.5,0.0023240335626579,-0.0328566046729195,0.975099667853891,-0.15025586313682,0.975099667844519,-0.150255863133786,0.00232104533423289,-0.0328962684130918
13,0.00200087533889526,-0.0341435300013164,0.973878292120936,-0.15595118224502,0.973878292111802,-0.155951182240684,0.00199771400930279,-0.0341853022438241
13.5,0.00166581291482171,-0.0354274110439281,0.97262900332824,-0.161626955892628,0.972629003319455,-0.161626955887051,0.00166242662804601,-0.0354713496789314
14,0.00131894248310353,-0.0367081729886514,0.971352132850273,-0.167283948148505,0.971352132841933,-0.167283948141764,0.00131527260666385,-0.0367543366647478
14.5,0.000960364691512311,-0.0379857485552928,0.970047926358579,-0.17292287231741,0.970047926350768,-0.172922872309578,0.00095634526766962,-0.0380341962504032
15,0.000590184502273328,-0.039260078886413,0.96871655552812,-0.178544387949619,0.968716555520911,-0.178544387940781,0.000585741676407792,-0.0393108693947108
15.5,0.000208510972068227,-0.0405311145278002,0.96735812885874,-0.184149099288104,0.967358128852194,-0.184149099278342,0.000203562403071927,-0.0405843058499529
16,-0.000184543065740311,-0.0417988165032503,0.965972701558234,-0.1897375548886,0.965972701552402,-0.189737554878001,-0.000190088806148764,-0.0418544651260002
16.5,-0.000588861438399702,-0.0430631574872753,0.964560284472551,-0.195310248176807,0.964560284467473,-0.195310248165454,-0.00059510546793029,-0.0431213175370107
17,-0.00100432521597887,-0.0443241230774278,0.963120852078098,-0.200867618736531,0.963120852073806,-0.200867618724507,-0.00101137893291858,-0.0443848453313147
17.5,-0.00143081346805751,-0.0455817131654714,0.961654349572395,-0.206410054151565,0.961654349568912,-0.206410054138952,-0.00143879911476419,-0.0456450439026863
18,-0.00186820422893896,-0.0468359434029106,0.960160699113925,-0.211937892251344,0.960160699111267,-0.211937892238222,-0.00187725540643408,-0.0469019230780154
18.5,-0.00231637571024565,-0.0480868467517226,0.958639805271179,-0.217451423635478,0.958639805269354,-0.217451423621925,-0.00232663781713061,-0.048155508472175
19,-0.00277520780475699,-0.0493344751046187,0.957091559745918,-0.222950894374593,0.957091559744927,-0.222950894360681,-0.00278683836712673,-0.0494058428952466
19.5,-0.00324458393029436,-0.0505789009510158,0.955515845437371,-0.228436508804628,0.955515845437212,-0.228436508790429,-0.00325775278178492,-0.0506529877902953
20,-0.00372439326702512,-0.0518202190543464,0.953912539913501,-0.233908432348815,0.953912539914165,-0.233908432334394,-0.00373928252958089,-0.051897024670815
20.5,-0.00421453344529577,-0.05305854809317,0.952281518353124,-0.239366794315993,0.952281518354597,-0.239366794301415,-0.00423133725176539,-0.0531380565159743
21,-0.00471491374329985,-0.0542940322024386,0.950622656019243,-0.24481169063625,0.95062265602151,-0.244811690621573,-0.00473383763278629,-0.0543762090681903
21.5,-0.00522545885372355,-0.0555268423317092,0.948935830319756,-0.25024318650497,0.948935830322797,-0.250243186490251,-0.00524671876011185,-0.0556116319614444
22,-0.00574611327472835,-0.0567571773140552,0.947220922507177,-0.255661318914723,0.947220922510968,-0.255661318900012,-0.00576993401861275,-0.0568444995896153
22.5,-0.00627684637188031,-0.0579852645128778,0.9454778190643,-0.261066099061205,0.945477819068817,-0.261066099046551,-0.0063034595571434,-0.0580750116024236
23,-0.00681765814202967,-0.0592113598841011,0.943706412818111,-0.266457514614862,0.943706412823327,-0.266457514600309,-0.00684729935189871,-0.0593033928922346
23.5,-0.0073685856856498,-0.0604357472593211,0.94190660381975,-0.271835531854074,0.941906603825637,-0.271835531839664,-0.00740149087094372,-0.0605298929089799
24,-0.0079297103584095,-0.0616587366229733,0.94007830002411,-0.277200097659106,0.940078300030637,-0.277200097644876,-0.0079661113151871,-0.0617547841139872
24.5,-0.00850116552348018,-0.0628806611262291,0.938221417798704,-0.2825511413686,0.938221417805841,-0.282551141354584,-0.00854128437115897,-0.0629783593586191
25,-0.00908314476098027,-0.0641018725558289,0.936335882287827,-0.287888576502188,0.936335882295542,-0.287888576488417,-0.00912718735850648,-0.0642009279532911
25.5,-0.00967591030877113,-0.0653227349630228,0.934421627654751,-0.293212302354221,0.934421627663012,-0.293212302340723,-0.00972405858902275,-0.0654228101807706
26,-0.010279801409212,-0.0665436161628421,0.932478597221718,-0.29852220546454,0.932478597230493,-0.298522205451342,-0.0103322046739258,-0.0666443300099162
26.5,-0.0108952421215927,-0.0677648768456436,0.930506743524883,-0.303818160972768,0.930506743534137,-0.30381816095989,-0.0109520074233402,-0.0678658057886283
27,-0.0115227480349239,-0.0689868571104932,0.928506028298956,-0.309100033862983,0.928506028308658,-0.309100033850448,-0.0115839298801414,-0.0690875387450656
27.5,-0.0121629311897985,-0.070209860342952,0.926476422404282,-0.314367680105763,0.926476422414399,-0.314367680093585,-0.0122285209260573,-0.0703097992115485
28,-0.012816502405653,-0.071434134525995,0.92441790570721,-0.319620947704506,0.92441790571771,-0.319620947692703,-0.0128864178017307,-0.0715328106127413
28.5,-0.0134842701304927,-0.0726598512963434,0.922330466923039,-0.32485967765291,0.922330466933889,-0.324859677641494,-0.0135583458088148,-0.0727567314327331
29,-0.0141671349086055,-0.0738870833364929,0.920214103429432,-0.330083704810133,0.920214103440602,-0.330083704799115,-0.0142451144296297,-0.0739816355940379
29.5,-0.014866078625242,-0.0751157810129703,0.918068821056979,-0.335292858699995,0.918068821068436,-0.335292858689383,-0.0149476091297265,-0.0752074919380128
30,-0.015582147861836,-0.0763457495084723,0.915894633862515,-0.340486964240174,0.915894633874231,-0.340486964229976,-0.015666778222326,-0.0764341437739926
30.5,-0.0163164310006546,-0.0775766280106749,0.913691563889959,-0.345665842407069,0.913691563901903,-0.345665842397291,-0.0164036143889852,-0.0776612897363436
31,-0.0170700291591641,-0.0788078727618955,0.911459640922576,-0.350829310841614,0.911459640934719,-0.35082931083226,-0.0171591307770118,-0.0788884674168571
31.5,-0.0178440215961538,-0.0800387458822054,0.90919890222997,-0.355977184400967,0.909198902242283,-0.355977184392039,-0.0179343320257113,-0.0801150413786464
32,-0.0186394268710289,-0.0812683117966653,0.906909392312506,-0.361109275660685,0.906909392324962,-0.361109275652185,-0.0187301810854684,-0.0813401971597154
32.5,-0.0194571616838924,-0.0824954427820932,0.904591162645378,-0.366225395371613,0.90459116265795,-0.36622539536354,-0.0195475632388008,-0.0825629426985544
33,-0.020297999883749,-0.0837188345865929,0.902244271424131,-0.37132535287541,0.902244271436793,-0.371325352867763,-0.0203872492433675,-0.0837821182379326
33.5,-0.0211625345026537,-0.084937032293217,0.899868783313075,-0.376408956482337,0.899868783325803,-0.376408956475113,-0.0212498599129018,-0.0849964151915563
34,-0.0220511457628798,-0.0861484656713714,0.897464769197774,-0.381476013814588,0.897464769210542,-0.381476013807785,-0.0221358346527941,-0.0862044037323011
34.5,-0.022963977753275,-0.0873514923007497,0.895032305942468,-0.386526332118248,0.895032305955252,-0.38652633211186,-0.0230454064091902,-0.0874045680566224
35,-0.0239009258734896,-0.0885444459013645,0.892571476153157,-0.39155971854662,0.892571476165936,-0.391559718540643,-0.0239785851443661,-0.0885953475009629
35.5,-0.0248616362564696,-0.0897256866961615,0.890082367946849,-0.396575980417493,0.8900823679596,-0.39657598041192,-0.0249351513335047,-0.0897751810467338
36,-0.0258455173129034,-0.0908936503737015,0.887565074727313,-0.401574925446657,0.887565074740016,-0.401574925441482,-0.0259146601540275,-0.0909425523525198
36.5,-0.0268517624460256,-0.0920468923551914,0.885019694967629,-0.406556361959802,0.885019694980263,-0.406556361955017,-0.0269164561139366,-0.0920960323636708
37,-0.0278793820181499,-0.0931841245815614,0.882446331999627,-0.411520099084697,0.882446332012172,-0.411520099080294,-0.0279396969666064,-0.0932343167881928
37.5,-0.0289272419427586,-0.0943042428375604,0.879845093810306,-0.416465946925458,0.879845093822745,-0.416465946921429,-0.0289833850088373,-0.094356256257337
38,-0.0299941059087313,-0.095406343591717,0.877216092845228,-0.421393716720453,0.877216092857543,-0.421393716716787,-0.0300464033512144,-0.0954608777259727
38.5,-0.0310786782339345,-0.0964897303093197,0.874559445818799,-0.426303220985324,0.874559445830974,-0.426303220982014,-0.0311275545347873,-0.0965473965004386
39,-0.0321796446522442,-0.0975539100598357,0.871875273531355,-0.431194273642467,0.871875273543373,-0.431194273639501,-0.0322255989448512,-0.0976152190934199
39.5,-0.0332957088761418,-0.0985985818967869,0.869163700692912,-0.436066690138115,0.869163700704756,-0.436066690135483,-0.0333392907957512,-0.0986639377973966
40,-0.0344256234407165,-0.0996236188906972,0.866424855753401,-0.440920287548187,0.866424855765059,-0.440920287545879,-0.0344674099546214,-0.0996933183733411
40.5,-0.0355682140207616,-0.100629045844045,0.863658870739226,-0.445754884673833,0.863658870750683,-0.445754884671836,-0.0356087884492877,-0.100703282541277
41,-0.0367223970363187,-0.101615014647437,0.860865881095922,-0.450570302127612,0.860865881107166,-0.450570302125917,-0.0367623310842344,-0.101693887041484
41.5,-0.0378871908677912,-0.10258177900566,0.858046025536728,-0.455366362411114,0.858046025547747,-0.455366362409708,-0.0379270301037311,-0.102665300943491
42,-0.0390617213634309,-0.103529669935011,0.855199445896841,-0.460142889984751,0.855199445907623,-0.460142889983623,-0.0391019742518995,-0.103617782663578
42.5,-0.0402452225390961,-0.104459073068466,0.852326286993148,-0.464899711330417,0.852326287003682,-0.464899711329554,-0.0402863528680359,-0.104551657862709
43,-0.0414370334599417,-0.10537040844949,0.849426696489212,-0.469636655007609,0.849426696499489,-0.469636655006999,-0.0414794558240308,-0.105467299082956
43.5,-0.0426365922833124,-0.106264113180605,0.846500824765302,-0.474353551703576,0.846500824775311,-0.474353551703207,-0.0426806701749322,-0.106365107678607
44,-0.04384342836176,-0.107140627036353,0.843548824793241,-0.479050234277987,0.843548824802975,-0.479050234277848,-0.0438894743764774,-0.107245498332909
44.5,-0.0450571531829327,-0.108000380957535,0.840570852015883,-0.483726537802606,0.840570852025333,-0.483726537802682,-0.0451054308496649,-0.108108886236151
45,-0.046277450782439,-0.108843788211538,0.837567064231001,-0.488382299596343,0.83756706424016,-0.488382299596623,-0.0463281775651716,-0.108955676839225
45.5,-0.0475040681240394,-0.109671237923966,0.834537621479396,-0.49301735925611,0.834537621488257,-0.493017359256583,-0.0475574191986006,-0.109786257986181
46,-0.0487368058102315,-0.110483090649368,0.831482685937031,-0.497631558683792,0.831482685945589,-0.497631558684443,-0.0487929182853739,-0.110600994162699
46.5,-0.0499755093720847,-0.111279675642716,0.828402421811023,-0.502224742109654,0.82840242181927,-0.502224742110471,-0.0500344866910212,-0.111400222566109
47,-0.0512200612927957,-0.112061289508781,0.825296995239289,-0.506796756112475,0.825296995247222,-0.506796756113448,-0.0512819776140397,-0.112184250697844
47.5,-0.0524703738449582,-0.112828195935427,0.822166574193714,-0.511347449636665,0.822166574201329,-0.51134744963778,-0.0525352782567924,-0.112953355192665
48,-0.0537263827654426,-0.113580626252724,0.819011328386647,-0.515876674006589,0.819011328393939,-0.515876674007834,-0.0537943032351168,-0.113707781624057
48.5,-0.0549880417515355,-0.114318780598119,0.815831429180583,-0.520384282938334,0.81583142918755,-0.520384282939698,-0.0550589887482162,-0.114447745056284
49,-0.0562553177348553,-0.115042829505343,0.812627049500909,-0.524870132549091,0.812627049507547,-0.52487013255056,-0.0563292874949164,-0.115173431146896
49.5,-0.0575281868728078,-0.11575291576952,0.809398363751521,-0.529334081364348,0.809398363757829,-0.529334081365911,-0.057605164298229,-0.115884997636294
50,-0.0588066311884069,-0.116449156471834,0.806145547733246,-0.533775990323044,0.806145547739221,-0.53377599032469,-0.0588865923850007,-0.116582576091395
50.5,-0.0600906357861919,-0.117131645073748,0.802868778564883,-0.538195722780844,0.802868778570525,-0.53819572278256,-0.0601735502592232,-0.117266273797777
51,-0.0613801865727987,-0.117800453513164,0.799568234606789,-0.542593144511652,0.799568234612097,-0.54259314451343,-0.061466019104427,-0.11793617571832
51.5,-0.062675268414288,-0.118455634253286,0.796244095386874,-0.546968123707511,0.796244095391848,-0.546968123709336,-0.0627639806510581,-0.118592346456302
52,-0.0639758636674527,-0.119097222249758,0.792896541528908,-0.551320530976972,0.792896541533548,-0.551320530978835,-0.0640674154476142,-0.119234832177483
52.5,-0.0652819510282975,-0.119725236813306,0.789525754683032,-0.555650239342069,0.789525754687338,-0.555650239343958,-0.0653763014786731,-0.119863662459022
53,-0.066593504647136,-0.120339683354179,0.786131917458388,-0.559957124233961,0.786131917462363,-0.559957124235866,-0.0666906130781403,-0.120478852043728
53.5,-0.0679104934659581,-0.120940555001531,0.782715213357777,-0.56424106348735,0.78271521336142,-0.564241063489262,-0.0680103200915317,-0.121080402486399
54,-0.0692328807395928,-0.121527834095985,0.779275826714243,-0.568501937333759,0.779275826717557,-0.568501937335666,-0.0693353872466093,-0.121668303685395
54.5,-0.0705606237076121,-0.122101493557274,0.775813942629536,-0.572739628393707,0.775813942632524,-0.572739628395599,-0.0706657736969128,-0.122242535297236
55,-0.0718936733888505,-0.122661498131426,0.772329746914346,-0.576954021667899,0.77232974691701,-0.576954021669767,-0.0720014327076444,-0.122803068035557
55.5,-0.073231974474749,-0.123207805523631,0.768823426030257,-0.58114500452745,0.768823426032601,-0.581145004529285,-0.0733423114577597,-0.123349864858113
56,-0.0745754653015762,-0.123740367423982,0.765295167033351,-0.585312466703222,0.765295167035377,-0.585312466705014,-0.0746883509361113,-0.123882882047203
56.5,-0.0759240778849016,-0.124259130433799,0.761745157519385,-0.589456300274321,0.761745157521097,-0.589456300276062,-0.0760394859129735,-0.1244020701899
57,-0.0772777380025219,-0.124764036900446,0.75817358557051,-0.593576399655801,0.758173585571914,-0.593576399657482,-0.0773956449713147,-0.12490737506502
57.5,-0.0786363653145186,-0.125255025668446,0.754580639703448,-0.597672661585619,0.754580639704546,-0.597672661587232,-0.0787567505848382,-0.125398738444009
58,-0.0799998735111427,-0.125732032754465,0.750966508819084,-0.601744985110892,0.750966508819882,-0.601744985112428,-0.0801227192320351,-0.125876098812899
58.5,-0.0813681704809917,-0.126194991953339,0.747331382153435,-0.60579327157347,0.747331382153937,-0.605793271574924,-0.0814934615374424,-0.126339392022265
59,-0.0827411584933832,-0.126643835381896,0.743675449229928,-0.609817424594902,0.743675449230141,-0.609817424596264,-0.082868882432894,-0.126788551871838
59.5,-0.0841187343900358,-0.127078493966785,0.739998899812965,-0.613817350060776,0.739998899812893,-0.613817350062041,-0.0842488813329347,-0.127223510636004
60,-0.0855007897821954,-0.127498897882108,0.736301923862711,-0.617792956104515,0.73630192386236,-0.617792956105676,-0.0856333523196863,-0.127644199536009
60.5,-0.0868872112501398,-0.127904976942055,0.732584711491088,-0.621744153090618,0.732584711490464,-0.621744153091667,-0.0870221843334415,-0.128050549164255
61,-0.088277880542712,-0.128296660953338,0.728847452918922,-0.625670853597396,0.728847452918031,-0.625670853598328,-0.0884152613659986,-0.128442489865568
61.5,-0.08967267477506,-0.128673880031742,0.725090338434213,-0.629572972399222,0.725090338433063,-0.629572972400031,-0.0898124626544394,-0.128819952079973
62,-0.0910714666232315,-0.129036564886638,0.721313558351503,-0.633450426448318,0.7213135583501,-0.633450426448999,-0.0912136628735694,-0.129182866650992
62.5,-0.0924741245146329,-0.129384647076985,0.717517302972296,-0.637303134856097,0.717517302970646,-0.637303134856645,-0.0926187323256601,-0.129531165103151
