"Freq [GHz]","re(St(P1,P1)) []","im(St(P1,P1)) []","re(St(P1,P2)) []","im(St(P1,P2)) []","re(St(P2,P1)) []","im(St(P2,P1)) []","re(St(P2,P2)) []","im(St(P2,P2)) []"
0,0.00549038595914908,0,0.994522129418328,0,0.994522128981771,0,0.00549039441148125,0
0.5,0.00599605827802918,0.000379213124901412,0.99396195181539,-0.00676319877510423,0.993961951747185,-0.00676319869550568,0.00599625744833432,0.000378089555962191
1,0.00643082208453194,0.000152511372839115,0.993398882432679,-0.0129098372161423,0.993398882555692,-0.0129098372004783,0.00643125680736034,0.000149972223017159
1.5,0.00669910769719984,-0.000206384524403802,0.992891308187884,-0.0190954997595902,0.992891308321305,-0.0190954997591781,0.0066996957257075,-0.000210430160727526
2,0.00684399381676748,-0.000584217683700317,0.992364581092597,-0.0251255844611045,0.992364581223559,-0.0251255844782357,0.00684463383604417,-0.000589825171958935
2.5,0.00692760566905459,-0.000946996887629226,0.99185307194528,-0.0310574062259956,0.991853072065432,-0.0310574062559521,0.00692822272917493,-0.000954174426730958
3,0.00698053652088504,-0.00129306655953343,0.991357249430295,-0.0369335924347389,0.991357249536365,-0.036933592471506,0.0069810777230277,-0.00130181069056867
3.5,0.00701726222838284,-0.00162597178920265,0.99086576131869,-0.0427787458747027,0.990865761410483,-0.0427787459134574,0.00701768715573525,-0.00163627791195964
4,0.00704500421495569,-0.00194917642118853,0.990365858953639,-0.0486050222610928,0.990365859032321,-0.0486050222985686,0.00704527920574538,-0.00196104135202191
4.5,0.00706760822734287,-0.00226531801921048,0.98984675043927,-0.0544174480257915,0.989846750506436,-0.0544174480600184,0.00706770334011253,-0.00227874038431963
5,0.00708725087173123,-0.00257630822155974,0.989300097674578,-0.0602173062351756,0.989300097731821,-0.0602173062650886,0.00708713826559926,-0.00259128831852173
5.5,0.00710523161122056,-0.00288353084184045,0.988719648005681,-0.0660040235774755,0.988719648054434,-0.0660040236025861,0.00710488464730008,-0.00290007041348694
6,0.00712236301701585,-0.00318800233292382,0.988100727802118,-0.0717761656192115,0.988100727843625,-0.0717761656394114,0.00712175573599994,-0.00320610436581781
6.5,0.00713917418117394,-0.00349048456475654,0.987439810135184,-0.0775319480967323,0.987439810170506,-0.0775319481121413,0.00713828098444869,-0.0035101531321029
7,0.00715602220520728,-0.00379156132673231,0.986734191698076,-0.0832694946321562,0.986734191728124,-0.0832694946430284,0.00715481765040016,-0.00381280147163388
7.5,0.00717315607032498,-0.00409169006690124,0.985981763628837,-0.088986963232772,0.985981763654399,-0.0889869632394475,0.00717161473355754,-0.00411450771742583
8,0.00719075467830055,-0.00439123720492596,0.985180852358518,-0.0946826051554472,0.98518085238029,-0.0946826051582974,0.0071888510566015,-0.00441563911303788
8.5,0.00720895029789503,-0.0046905025708428,0.984330109861834,-0.100354789013509,0.984330109880434,-0.100354789012922,0.00720665873648357,-0.0047164962691264
9,0.00722784346097083,-0.00498973658313506,0.983428437957355,-0.106002007162802,0.983428437973348,-0.106002007159174,0.00722513809631364,-0.00501733035474228
9.5,0.00724751268556895,-0.00528915251541484,0.982474935863617,-0.111622873230739,0.982474935877522,-0.111622873224449,0.00724436739862006,-0.00531835537396574
10,0.00726802097810275,-0.00558893539210636,0.981468863599802,-0.117216115414331,0.981468863612107,-0.117216115405747,0.00726440935421521,-0.00561975706921469
10.5,0.00730296303592767,-0.00590373758115881,0.980498415559205,-0.122858433710784,0.980498415572052,-0.122858433702413,0.00729883744769266,-0.00593616040887124
11,0.00733736121115317,-0.00622297548689632,0.979497186893509,-0.128479224390433,0.979497186906858,-0.128479224382315,0.00733269080263101,-0.00625700671142582
11.5,0.00737095683334758,-0.00654670563084503,0.978466195125746,-0.134079047797596,0.978466195139555,-0.13407904778976,0.00736571001963855,-0.00658235249418793
12,0.00740349133936921,-0.00687496896326323,0.977406345829468,-0.139658499577681,0.977406345843698,-0.139658499570152,0.00739763579455605,-0.00691223866073853
12.5,0.00743470728576542,-0.00720779122137483,0.97631843716254,-0.145218197477202,0.976318437177148,-0.14521819747,0.00742820993346548,-0.00724669085870033
13,0.00746434930415913,-0.00754518335486898,0.975203165486916,-0.150758769757749,0.97520316550186,-0.150758769750891,0.00745717631071013,-0.00758571990499002
13.5,0.00749216499569358,-0.0078871420112705,0.97406113176372,-0.156280845201105,0.974061131778961,-0.156280845194604,0.00748428176594747,-0.00792932227109633
14,0.00751790576144357,-0.00823365007367638,0.972892848451481,-0.161785044641771,0.972892848466978,-0.161785044635634,0.00750927693716145,-0.00827748062092448
14.5,0.00754132756663127,-0.00858467724332268,0.971698746675287,-0.16727197393345,0.971698746691004,-0.167271973927682,0.00753191702743036,-0.00863016439365882
15,0.00756219163727884,-0.00894018065967295,0.970479183473739,-0.172742218236237,0.97047918348964,-0.17274221823084,0.00755196250408025,-0.00898733042430289
15.5,0.00758026508873438,-0.00930010555073402,0.969234448967444,-0.178196337499438,0.969234448983495,-0.178196337494411,0.00756917972964388,-0.00934892359462891
16,0.00759532148619391,-0.00966438590678464,0.967964773326556,-0.183634863010106,0.967964773342724,-0.183634863005448,0.00758334152472964,-0.0097148775077045
16.5,0.00760714133802834,-0.0100329451708423,0.966670333444815,-0.189058294877569,0.96667033346107,-0.189058294873274,0.00759422766360873,-0.0100851151792809
17,0.00761551252327852,-0.0104056969396944,0.965351259253593,-0.194467100328446,0.965351259269906,-0.194467100324508,0.00760162530385625,-0.0104595497399189
17.5,0.0076202306552097,-0.0107825456697133,0.964007639631497,-0.199861712693679,0.964007639647841,-0.19986171269009,0.007605329351944,-0.0108380851419985
18,0.00762109938324324,-0.0111633873821013,0.962639527883424,-0.205242530977913,0.962639527899775,-0.205242530974663,0.00760514276708121,-0.0112206168662894
18.5,0.00761793063596172,-0.0115481103627224,0.961246946777816,-0.210609919911457,0.961246946794151,-0.210609919908538,0.00760087680601018,-0.011607032623199
19,0.00761054480818726,-0.0119365958521387,0.959829893142583,-0.215964210395499,0.959829893158881,-0.215964210392899,0.00759235121172425,-0.011997213044324
19.5,0.00759877089534947,-0.0123287187219461,0.958388342029244,-0.221305700261499,0.958388342045486,-0.221305700259208,0.00757939434935165,-0.0123910323603673
20,0.00758244657855844,-0.0127243481340265,0.956922250461513,-0.226634655275827,0.956922250477681,-0.226634655273833,0.00756184329259663,-0.0127883590620397
20.5,0.00756141826390072,-0.0131233481797488,0.955431560789348,-0.231951310330106,0.955431560805424,-0.231951310328395,0.00753954386426164,-0.0131890565409551
21,0.00753554107954746,-0.0135255784966328,0.953916203672634,-0.23725587076648,0.953916203688606,-0.237255870765041,0.00751235063444267,-0.0135929837080333
21.5,0.00750467883427447,-0.0139308948604486,0.952376100720523,-0.242548513795029,0.952376100736376,-0.242548513793851,0.00748012687999372,-0.0139999955873487
22,0.00746870394099108,-0.0143391497510628,0.950811166813318,-0.247829389967601,0.95081116682904,-0.247829389966671,0.00744274450886651,-0.0144099438837473
22.5,0.00742749730879338,-0.0147501928907976,0.949221312133798,-0.253098624678715,0.949221312149377,-0.253098624678021,0.00740008395283487,-0.0148226775229845
23,0.00738094820698115,-0.0151638717543812,0.947606443934361,-0.258356319669675,0.947606443949788,-0.258356319669206,0.00735203403205847,-0.0152380431634254
23.5,0.00732895410436352,-0.0155800320498907,0.945966468065353,-0.263602554516824,0.94596646808062,-0.263602554516566,0.00729849179480752,-0.0156558856787412
24,0.00727142048703122,-0.0159985181704034,0.944301290288662,-0.268837388088955,0.94430129030376,-0.268837388088897,0.00723936233553502,-0.0160760486112761
24.5,0.00720826065762986,-0.0164191736163208,0.942610817399179,-0.274060859962423,0.942610817414101,-0.274060859962554,0.00717455859434118,-0.0164983745960494
25,0.00713939551899634,-0.0168418413885587,0.940894958175122,-0.27927299178539,0.940894958189861,-0.2792729917857,0.00710400114068799,-0.0169227057555914
25.5,0.00706475334484447,-0.0172663643530138,0.939153624176593,-0.284473788585106,0.939153624191144,-0.284473788585584,0.00702761794407014,-0.0173488840660028
26,0.00698426954001058,-0.0176925855768799,0.937386730410063,-0.289663240014149,0.937386730424421,-0.289663240014784,0.00694534413415104,-0.0177767516948093
26.5,0.00689788639257288,-0.0181203486375476,0.935594195874923,-0.294841321533202,0.935594195889083,-0.294841321533985,0.00685712175268699,-0.0182061513113518
27,0.0068055528199833,-0.0185494979049621,0.933775944006661,-0.30000799552929,0.93377594402062,-0.300007995530211,0.00676289949938974,-0.0186369263705584
27.5,0.00670722411117708,-0.0189798787983464,0.931931903029818,-0.305163212369422,0.931931903043572,-0.305163212370471,0.0066626324736872,-0.0190689213710322
28,0.00660286166640467,-0.0194113380184013,0.930062006232452,-0.310306911390498,0.930062006245999,-0.310306911391666,0.0065562819141568,-0.019501982088544
28.5,0.00649243273641831,-0.0198437237560209,0.928166192172654,-0.315439021826909,0.928166192185991,-0.315439021828188,0.00644381493724649,-0.0199359557859746
29,0.00637591016242367,-0.0202768858787181,0.92624440482643,-0.320559463677803,0.926244404839555,-0.320559463679184,0.00632520427671379,-0.0203706914008961
29.5,0.00625327211807597,-0.0207106760959059,0.924296593685256,-0.325668148516294,0.924296593698167,-0.32566814851777,0.00620042802506837,-0.0208060397119432
30,0.00612450185464097,-0.0211449481042589,0.922322713810606,-0.330764980243189,0.922322713823302,-0.330764980244752,0.00606946937813663,-0.0212418534851924
30.5,0.00598958745029271,-0.021579557714313,0.920322725851924,-0.335849855787908,0.920322725864404,-0.33584985578955,0.0059323163837412,-0.0216779876017172
31,0.00584852156440097,-0.0220143629595329,0.918296596033688,-0.340922665759406,0.918296596045951,-0.340922665761121,0.00578896169533522,-0.0221142991675392
31.5,0.00570130119751666,-0.0224492241889975,0.916244296116533,-0.345983295049912,0.916244296128579,-0.345983295051693,0.00563940233131832,-0.0225506476071322
32,0.00554792745766497,-0.0228840041448588,0.914165803336781,-0.351031623394276,0.914165803348609,-0.351031623396116,0.00548363944064628,-0.022986894741633
32.5,0.00538840533344387,-0.0233185680256982,0.912061100328131,-0.356067525887695,0.91206110033974,-0.356067525889588,0.00532167807523043,-0.023422904852892
33,0.00522274347432355,-0.0237527835368521,0.909930175028808,-0.36109087346448,0.909930175040199,-0.36109087346642,0.00515352696953608,-0.0238585447344324
33.5,0.00505095397846739,-0.0241865209287773,0.907773020577006,-0.366101533340467,0.907773020588178,-0.366101533342449,0.00497919832769417,-0.0242936837303833
34,0.00487305218829504,-0.024619653024426,0.905589635197061,-0.371099369421524,0.905589635208016,-0.371099369423542,0.0047987076183611,-0.0247281937633772
34.5,0.00468905649396506,-0.0250520552366142,0.903380022078502,-0.37608424268053,0.903380022089239,-0.376084242682579,0.00461207337749597,-0.0251619493523765
35,0.0044989881448545,-0.0254836055762799,0.901144189249739,-0.38105601150507,0.901144189260259,-0.381056011507145,0.00441931701914694,-0.0255948276213505
35.5,0.00430287106909455,-0.0259141846524908,0.898882149447981,-0.386014532017925,0.898882149458284,-0.386014532020022,0.00422046265429815,-0.0260267082996444
36,0.00410073170113845,-0.026343675665037,0.896593919986669,-0.390959658372396,0.896593919996756,-0.390959658374509,0.00401553691775897,-0.0264574737148882
36.5,0.00389259881731224,-0.0267719643903379,0.894279522621552,-0.395891243024267,0.894279522631423,-0.395891243026394,0.00380456880305552,-0.0268870087791864
37,0.00367850337925651,-0.0271989391614234,0.891938983416337,-0.400809136982218,0.891938983425994,-0.400809136984352,0.00358758950522264,-0.0273152009693267
37.5,0.00345847838513708,-0.027624490842628,0.889572332608706,-0.405713190038247,0.889572332618149,-0.405713190040386,0.00336463227138134,-0.0277419403016745
38,0.00323255872846162,-0.0280485127996437,0.887179604477343,-0.410603250979688,0.887179604486573,-0.410603250981827,0.00313573225894331,-0.0281671193023896
38.5,0.00300078106434248,-0.0284709008654991,0.884760837210522,-0.415479167784174,0.884760837219539,-0.415479167786311,0.00290092640127598,-0.0285906329735293
39,0.00276318368298945,-0.0288915533030263,0.882316072776677,-0.420340787798906,0.882316072785483,-0.420340787801036,0.0026602532806202,-0.0290123787556154
39.5,0.00251980639024318,-0.0293103707642806,0.879845356797334,-0.425187957905397,0.879845356805931,-0.425187957907519,0.00241375300806668,-0.0294322564871259
40,0.00227069039490801,-0.0297272562474067,0.877348738422652,-0.430020524670864,0.87734873843104,-0.430020524672972,0.00216146711035325,-0.0298501683613999
40.5,0.00201587820266258,-0.0301421150513461,0.87482627020982,-0.434838334487258,0.874826270218001,-0.434838334489351,0.00190343842325985,-0.0302660188813679
41,0.00175541351629799,-0.0305548547287906,0.872278008004454,-0.439641233698941,0.872278008012428,-0.439641233701014,0.00163971099135668,-0.0306797148125022
41.5,0.00148934114205301,-0.0309653850377221,0.86970401082512,-0.444429068719858,0.869704010832889,-0.444429068721911,0.0013703299738636,-0.031091165134336
42,0.00121770690178702,-0.03137361789187,0.867104340751064,-0.449201686141058,0.867104340758629,-0.449201686143087,0.00109534155637314,-0.0315002809908771
42.5,0.000940557550748511,-0.0317794673103688,0.864479062813183,-0.453958932829286,0.864479062820546,-0.453958932831289,0.000814792868191361,-0.0319069756402085
43,0.000657940700692361,-0.0321828493668848,0.861828244888271,-0.458700656017373,0.861828244895432,-0.458700656019346,0.000528731905046376,-0.0323111644035493
43.5,0.000369904748104388,-0.0325836821384523,0.859151957596526,-0.463426703387044,0.859151957603486,-0.463426703388985,0.000237207456924404,-0.0327127646140016
44,7.64988072860517E-005,-0.0329818856542262,0.856450274202292,-0.468136923144749,0.856450274209054,-0.468136923146657,-5.97309592124118E-005,-0.0331116955652079
44.5,-0.000222227351933779,-0.033377381844351,0.853723270518013,-0.472831164091048,0.853723270524577,-0.47283116409292,-0.000362033162058184,-0.0335078784601119
45,-0.000526223362089573,-0.0337700944891026,0.850971024811323,-0.477509275684065,0.850971024817691,-0.477509275685899,-0.000669648364182096,-0.0339012363599918
45.5,-0.000835438311799608,-0.0341599491684773,0.848193617715236,-0.482171108097457,0.848193617721409,-0.482171108099252,-0.000982525226057462,-0.0342916941339182
46,-0.0011498207955391,-0.0345468732123323,0.845391132141341,-0.486816512273336,0.845391132147321,-0.486816512275089,-0.0013006119061208,-0.0346791784087702
46.5,-0.00146931895967045,-0.0349307956512211,0.842563653195951,-0.491445339970515,0.84256365320174,-0.491445339972226,-0.00162385610707244,-0.0350636175199345
47,-0.00179388054494639,-0.0353116471680119,0.839711268099103,-0.496057443808464,0.839711268104702,-0.49605744381013,-0.00195220511863242,-0.035444941462785
47.5,-0.00212345292567351,-0.0356893600503746,0.836834066106341,-0.500652677307271,0.836834066111751,-0.50065267730889,-0.00228560585693699,-0.0358230818450264
48,-0.00245798314573437,-0.0360638681442249,0.833932138433187,-0.505230894923944,0.833932138438409,-0.505230894925515,-0.00262400490077835,-0.0361979718399931
48.5,-0.00279741795165006,-0.0364351068081804,0.831005578182218,-0.509791952085309,0.831005578187255,-0.509791952086831,-0.00296734852486819,-0.0365695461409569
49,-0.00314170382285517,-0.0368030128690807,0.828054480272657,-0.514335705217775,0.828054480277511,-0.514335705219246,-0.00331558273030041,-0.0369377409165005
49.5,-0.00349078699935718,-0.0371675245786218,0.825078941372398,-0.51886201177419,0.825078941377069,-0.518862011775609,-0.00366865327237592,-0.0373024937670006
50,-0.00384461350694099,-0.0375285815711408,0.822079059832364,-0.523370730258016,0.822079059836855,-0.523370730259382,-0.00402650568596608,-0.0376637436822651
50.5,-0.0042031291800656,-0.0378861248225688,0.819054935623135,-0.527861720245011,0.819054935627447,-0.527861720246322,-0.00438908530854937,-0.0380214310003367
51,-0.00456627968261075,-0.0382400966105897,0.816006670273734,-0.532334842402613,0.816006670277868,-0.53233484240387,-0.00475633730108627,-0.0383754973675052
51.5,-0.00493401052660014,-0.0385904404760002,0.812934366812522,-0.536789958507187,0.812934366816482,-0.536789958508387,-0.0051282066668541,-0.0387258856995221
52,-0.00530626708903742,-0.0389371011852976,0.809838129710093,-0.541226931459286,0.80983812971388,-0.541226931460429,-0.00550463826839021,-0.039072540144044
52.5,-0.00568299462698874,-0.039280024694486,0.806718064824107,-0.545645625297088,0.806718064827722,-0.545645625298172,-0.00588557684265945,-0.0394154060443009
53,-0.00606413829101404,-0.0396191581141099,0.803574279345987,-0.550045905208111,0.803574279349432,-0.550045905209136,-0.00627096701456592,-0.0397544299039869
53.5,-0.00644964313707719,-0.0399544496755044,0.800406881749396,-0.55442763753936,0.800406881752674,-0.554427637540325,-0.00666075330893084,-0.0400895593533812
54,-0.00683945413702974,-0.040285848698261,0.797215981740445,-0.558790689805989,0.797215981743557,-0.558790689806894,-0.00705488016103178,-0.0404207431166798
54.5,-0.00723351618777052,-0.0406133055588868,0.794001690209536,-0.563134930698598,0.794001690212484,-0.563134930699442,-0.00745329192580962,-0.040747930980527
55,-0.0076317741191862,-0.0409367716606602,0.790764119184804,-0.567460230089256,0.790764119187591,-0.567460230090038,-0.00785593288584652,-0.0410710737637503
55.5,-0.00803417270094603,-0.041256199404649,0.787503381787081,-0.571766459036329,0.787503381789709,-0.571766459037049,-0.00826274725818571,-0.0413901232882558
56,-0.00844065664825339,-0.0415715421618901,0.784219592186319,-0.576053489788213,0.784219592188789,-0.57605348978887,-0.00867367920010609,-0.0417050323510976
56.5,-0.00885117062661861,-0.041882754246697,0.780912865559431,-0.580321195786016,0.780912865561746,-0.580321195786611,-0.00908867281390191,-0.0420157546976717
57,-0.00926565925574024,-0.0421897908910859,0.777583318049479,-0.584569451665295,0.777583318051642,-0.584569451665827,-0.0095076721507687,-0.042322244996039
57.5,-0.00968406711256048,-0.0424926082202911,0.774231066726168,-0.588798133256877,0.77423106672818,-0.588798133257346,-0.00993062121385169,-0.042624458812341
58,-0.0101063387335572,-0.0427911632293497,0.770856229547593,-0.593007117586844,0.770856229549457,-0.593007117587248,-0.010357463960528,-0.0429223525872867
58.5,-0.0105324186163455,-0.0430854137607286,0.767458925323189,-0.597196282875723,0.767458925324907,-0.597196282876064,-0.0107881443039869,-0.043215883613694
59,-0.0109622512206418,-0.0433753184829793,0.764039273677845,-0.60136550853695,0.764039273679419,-0.601365508537227,-0.0112226061141688,-0.0435050100150576
59.5,-0.0113957809686426,-0.0436608368703808,0.760597395017134,-0.605514675174626,0.760597395018568,-0.60551467517484,-0.0116607932181113,-0.0437896907251109
60,-0.0118329522448781,-0.0439419291835595,0.757133410493622,-0.609643664580634,0.757133410494917,-0.609643664580785,-0.0121026493997671,-0.0440698854683774
60.5,-0.0122737093955826,-0.0442185564510507,0.753647441974211,-0.613752359731144,0.753647441975371,-0.613752359731232,-0.0125481183993281,-0.0443455547416612
61,-0.0127179967276349,-0.0444906804517874,0.750139612008488,-0.61784064478254,0.750139612009516,-0.617840644782565,-0.0129971439121173,-0.0446166597964719
61.5,-0.0131657585070957,-0.0447582636984745,0.746610043798042,-0.621908405066816,0.746610043798938,-0.621908405066778,-0.0134496695870772,-0.0448831626223475
62,-0.0136169389574105,-0.045021269421846,0.7430588611667,-0.625955527086459,0.74305886116747,-0.625955527086359,-0.013905639024907,-0.0451450259310547
