"Freq [GHz]","re(St(P1,P1)) []","im(St(P1,P1)) []","re(St(P1,P2)) []","im(St(P1,P2)) []","re(St(P2,P1)) []","im(St(P2,P1)) []","re(St(P2,P2)) []","im(St(P2,P2)) []"
0,0.00544081293236331,0,0.99457293850719,0,0.99457293721207,0,0.00544081188536438,0
0.5,0.00583966960078897,0.00169497143218678,0.994100736440977,-0.00693882901850174,0.994100736909843,-0.00693882886199759,0.00583975930092606,0.00169470674671501
1,0.00618180858408302,0.00291740479927327,0.993574941528996,-0.0133863416983928,0.993574941581603,-0.0133863415706159,0.00618201153497289,0.00291675466874608
1.5,0.00625737080267186,0.00396544975131619,0.993071422910162,-0.0198990721929633,0.993071423014563,-0.0198990720534482,0.0062579098874842,0.00396434400540358
2,0.00631669631121223,0.00509408669907607,0.992474886880775,-0.0262630181055421,0.99247488701941,-0.0262630179830747,0.00631733736653217,0.00509248852796418
2.5,0.00638008901740994,0.00625807005106616,0.99183475363644,-0.0324956920230246,0.991834753784913,-0.0324956919307109,0.00638075320258036,0.00625598208797307
3,0.00645280004008386,0.00744193407354388,0.991178175305079,-0.038625109907505,0.991178175442298,-0.0386251098460679,0.00645344984888396,0.00743935888174008
3.5,0.00653676262525704,0.00863926909745594,0.990514924087902,-0.044677908710117,0.990514924199901,-0.0446779086739113,0.00653737497799023,0.00863620613678684
4,0.00663291083081852,0.0098471588400475,0.989844428320572,-0.0506746586156233,0.989844428400306,-0.0506746585972637,0.00663346854850055,0.00984360479589874
4.5,0.00674182131252121,0.0110642661775202,0.989161201866152,-0.0566294565543162,0.989161201911824,-0.0566294565471264,0.00674230981839652,0.0110602154642399
5,0.00686393376539329,0.0122900542334676,0.988458095570926,-0.0625511680696684,0.988458095584241,-0.0625511680686097,0.00686433960201183,0.0122854993488914
5.5,0.00699963932115044,0.0135244288500003,0.987727943386202,-0.0684449299996217,0.987727943371035,-0.0684449300013741,0.0069999493943077,0.0135193605983845
6,0.0071493206075266,0.0147675588977849,0.986964264568365,-0.0743134042181994,0.986964264529849,-0.0743134042208924,0.00714952175319539,0.0147619665245058
6.5,0.00731337195905735,0.0160197793737629,0.986161481227094,-0.0801576870189242,0.986161481171045,-0.0801576870217691,0.00731345066521671,0.0160136506431812
7,0.00749221074388884,0.0172815361422165,0.985314914599342,-0.0859779238640153,0.985314914531898,-0.0859779238669507,0.00749215295050271,0.0172748573784904
7.5,0.00768628445695768,0.0185533529803541,0.984420695309282,-0.0917737081771826,0.984420695236693,-0.0917737081805905,0.00768607539627097,0.0185461090834202
8,0.00789607571565851,0.0198358112060228,0.98347565121199,-0.0975443327678036,0.98347565114047,-0.0975443327722765,0.00789569977280769,0.0198279856502763
8.5,0.00812210620834258,0.0211295367176443,0.982477199755644,-0.103288944415483,0.982477199691287,-0.103288944421667,0.00812154679100791,0.021121111538104
9,0.0083649401447897,0.0224351915625891,0.981423254278327,-0.109006636205694,0.981423254227048,-0.109006636214176,0.00836417955507689,0.0224261473316543
9.5,0.00862518751319282,0.0237534683575578,0.980312145885105,-0.114696500453865,0.980312145852596,-0.114696500465096,0.00862420681731421,0.0237437841544277
10,0.00890350732325912,0.0250850865497436,0.979142559487303,-0.120357657019917,0.979142559478998,-0.120357657034173,0.00890228621589316,0.0250747399239262
10.5,0.00925111414253325,0.0263002994556922,0.978033130389538,-0.126065569816435,0.978033130380422,-0.126065569830802,0.00924958114049264,0.0262894436782286
11,0.00961485003125949,0.0275098941661205,0.976894483609359,-0.131745274953729,0.976894483599445,-0.131745274968152,0.00961298880165513,0.0274985307732085
11.5,0.00999459998433717,0.0287136254294804,0.975727895509078,-0.137397847291998,0.975727895498387,-0.137397847306429,0.00999239405346242,0.0287017561079552
12,0.0103902443725677,0.0299112509812418,0.974534464059486,-0.143024379772308,0.974534464048035,-0.143024379786703,0.0103876771235681,0.0298988775783564
12.5,0.0108016590363021,0.0311025316527545,0.973315121135844,-0.148625964505216,0.973315121123659,-0.148625964519531,0.0107987137073688,0.0310896561861735
13,0.0112287153821533,0.0322872314767606,0.972070645807811,-0.154203677027387,0.972070645794915,-0.154203677041581,0.0112253750652399,0.0322738561447542
13.5,0.0116712804826153,0.0334651177894831,0.970801678108046,-0.15975856350545,0.970801678094465,-0.15975856351949,0.0116675281226954,0.0334512449812809
14,0.012129217178471,0.0346359613291787,0.969508732860654,-0.165291630621078,0.969508732846417,-0.165291630634928,0.0121250355733428,0.0346215936354746
14.5,0.0126023841838519,0.0357995363311048,0.968192213240215,-0.170803837847421,0.968192213225348,-0.170803837861049,0.0125977559844918,0.0357846765546621
15,0.013090636193794,0.0369556206187815,0.966852423812517,-0.176296091819915,0.966852423797051,-0.176296091833294,0.0130855439052723,0.0369402717851295
15.5,0.0135938239941684,0.0381039956915172,0.9654895828781,-0.181769242510162,0.965489582862064,-0.181769242523266,0.013588249977124,0.0380881610597026
16,0.0141117945738293,0.0392444468081119,0.964103833998802,-0.187224080926162,0.964103833982225,-0.187224080938967,0.0141057210465104,0.0392281298814812
16.5,0.014644391238836,0.0403767630666909,0.962695256636236,-0.192661338082855,0.962695256619148,-0.192661338095342,0.0146378002797037,0.0403599676036639
17,0.0151914537286066,0.0415007374805967,0.961263875870164,-0.198081685010984,0.961263875852596,-0.198081685023135,0.0151843272795072,0.0414834675054281
17.5,0.0157528183338546,0.0426161670503253,0.959809671195143,-0.20348573359799,0.959809671177124,-0.203485733609788,0.0157451382037504,0.0425984268637967
18,0.0163283180161554,0.0437228528314353,0.958332584416736,-0.208874038080424,0.958332584398295,-0.208874038091854,0.0163200658854192,0.0437046470214717
18.5,0.0169177825289983,0.0448205999984159,0.95683252668517,-0.214247097032292,0.956832526666337,-0.214247097043343,0.016908939954261,0.044801933450586
19,0.0175210385401758,0.0459092179044696,0.955309384715715,-0.219605355717078,0.955309384696518,-0.21960535572774,0.0175115869597261,0.0458900958123583
19.5,0.0181379097553588,0.0469885201372084,0.953763026252143,-0.224949208692558,0.95376302623261,-0.224949208702822,0.0181278304950816,0.0469689480126119
20,0.0187682170427095,0.0480583245702273,0.952193304833506,-0.230279002576685,0.952193304813665,-0.230279002586544,0.0187574913225625,0.0480383082531697
20.5,0.0194117785583854,0.0491184534105507,0.950600063925667,-0.235595038899766,0.950600063905544,-0.235595038909213,0.019400387499397,0.0490979990790792
21,0.0200684098727883,0.0501687332419554,0.948983140478405,-0.240897576982885,0.948983140458028,-0.240897576991917,0.0200563345045702,0.0501478474216921
21.5,0.0207379240974063,0.0512089950641532,0.947342367966849,-0.246186836795189,0.947342367946243,-0.2461868368038,0.0207251453661682,0.051187684637588
22,0.0214201320121155,0.0522390743278649,0.945677578973009,-0.25146300175339,0.945677578952198,-0.25146300176158,0.0214066307891653,0.0522173465433518
22.5,0.022114842192785,0.0532588109657632,0.943988607359588,-0.256726221435918,0.943988607338596,-0.256726221443685,0.0221005992835081,0.0532366734462113
23,0.0228218611390587,0.0542680494193419,0.942275290084308,-0.261976614191559,0.942275290063158,-0.261976614198904,0.0228068572923505,0.0542455101705659
23.5,0.0235409934021574,0.0552666386616871,0.940537468698895,-0.267214269628698,0.940537468677612,-0.26721426963562,0.0235252093203018,0.0552437060804087
24,0.0242720417125807,0.0562544322162302,0.938774990572803,-0.272439250976148,0.938774990551408,-0.272439250982651,0.0242554580615524,0.0562311150976953
24.5,0.0250148071075645,0.0572312881714574,0.936987709877771,-0.277651597310676,0.936987709856285,-0.277651597316761,0.0249974045277399,0.0572075957166662
25,0.0257690890581643,0.0581970691916647,0.935175488365555,-0.282851325649419,0.935175488343998,-0.282851325655088,0.0257508481754168,0.0581730110141825
25.5,0.026534685595832,0.0591516425237577,0.933338195967606,-0.288038432907889,0.933338195945998,-0.288038432913147,0.0265155870330005,0.0591272286560942
26,0.0273113934383659,0.0600948800001662,0.931475711242195,-0.293212897726162,0.931475711220556,-0.293212897731013,0.0272914178270689,0.0600701208997074
26.5,0.0280990081151072,0.0610266580379153,0.929587921691461,-0.298374682167191,0.92958792166981,-0.298374682171639,0.0280781361078806,0.0610015645923934
27,0.0288973240912562,0.0619468576339037,0.927674723968119,-0.303523733292258,0.927674723946472,-0.303523733296309,0.0288755363740024,0.0619214411663847
27.5,0.0297061348912016,0.0628553643564418,0.925736023989106,-0.30865998461923,0.925736023967482,-0.30865998462289,0.0296834121959149,0.0628296366298253
28,0.0305252332207413,0.0637520683331234,0.923771736971203,-0.313783357469723,0.923771736949617,-0.313783357472996,0.0305015563384972,0.0637260415541383
28.5,0.0313544110880877,0.0646368642350861,0.92178178740169,-0.318893762211524,0.921781787380158,-0.318893762214418,0.0313297608822674,0.0646105510577664
29,0.0321934599235494,0.0655096512577136,0.919766108955373,-0.323991099402706,0.919766108933912,-0.323991099405227,0.0321678173432749,0.0654830647863591
29.5,0.0330421706977846,0.0663703330978833,0.917724644367705,-0.329075260843805,0.917724644346327,-0.329075260845961,0.0330155167915443,0.0663434868894766
30,0.0339003340385265,0.0672188179277908,0.915657345272398,-0.334146130544312,0.91565734525112,-0.33414613054611,0.0338726499679671,0.0671917259938786
30.5,0.034767740345692,0.0680550183654558,0.913564172010736,-0.339203585609537,0.913564171989571,-0.339203585610984,0.0347390073995447,0.0680276951734839
31,0.0356441799047659,0.0688788514419767,0.911445093418676,-0.344247497053635,0.911445093397636,-0.344247497054739,0.0356143795128919,0.0688513119160659
31.5,0.0365294429983883,0.0696902385656031,0.909300086596995,-0.349277730544337,0.909300086576093,-0.349277730545106,0.0364985567459123,0.0696624980867711
32,0.0374233200160501,0.0704891054827241,0.907129136668889,-0.354294147084579,0.907129136648135,-0.354294147085022,0.0373913296575609,0.0704611798885502
32.5,0.0383256015618202,0.0712753822358434,0.904932236528746,-0.359296603635989,0.904932236508153,-0.359296603636113,0.0382924890356078,0.0712472878195667
33,0.0392360785600216,0.0720490031186236,0.90270938658524,-0.364284953688803,0.902709386564819,-0.364284953688616,0.0392018260023352,0.0720207566276772
33.5,0.0401545423587966,0.0728099066281004,0.900460594501344,-0.369259047782516,0.900460594481106,-0.369259047782028,0.0401191321180852,0.072781525262087
34,0.041080784831468,0.0735580354141259,0.898185874933439,-0.374218733981298,0.898185874913394,-0.374218733980517,0.0410441994825945,0.0735295368222305
34.5,0.042014598475656,0.07429333622616,0.895885249271308,-0.379163858307836,0.895885249251465,-0.379163858306771,0.0419768208340483,0.0742647385039998
35,0.0429557765100712,0.0750157598574718,0.893558745380472,-0.384094265139076,0.89355874536084,-0.384094265137736,0.04291678964579,0.0749870815433992
35.5,0.0439041129689283,0.0757252610868524,0.891206397348045,-0.389009797567021,0.891206397328633,-0.389009797565415,0.0438639002206292,0.075696521157699
36,0.0448594027939326,0.0764217986179293,0.888828245233061,-0.393910297727501,0.888828245213877,-0.393910297725637,0.0448179477826972,0.0763930164842114
36.5,0.0458214419237754,0.0771053350161592,0.886424334822003,-0.398795607099626,0.886424334803055,-0.398795607097513,0.0457787285667859,0.0770765305167396
37,0.0467900273811007,0.0777758366436071,0.883994717390109,-0.403665566778367,0.883994717371404,-0.403665566776014,0.0467460399051409,0.077747030039831
37.5,0.0477649573568939,0.0784332735915809,0.881539449468876,-0.408520017722564,0.88153944945042,-0.408520017719982,0.0477196803116465,0.0784044855608886
38,0.0487460312922476,0.0790776196112278,0.879058592620065,-0.413358800980423,0.879058592601867,-0.413358800977619,0.0486994495633713,0.0790488712402551
38.5,0.0497330499574687,0.0797088520421687,0.876552213216421,-0.418181757894414,0.876552213198486,-0.418181757891397,0.0496851487794326,0.0796801648193431
39,0.0507258155284949,0.0803269517392665,0.874020382229199,-0.422988730287317,0.874020382211532,-0.422988730284097,0.0506765804971452,0.0802983475469173
39.5,0.0517241316605769,0.0809319029976102,0.871463175022569,-0.427779560631022,0.871463175005177,-0.427779560627608,0.0516735487454212,0.0809034041035972
40,0.0527278035592076,0.0815236934758035,0.868880671154881,-0.432554092199531,0.868880671137769,-0.432554092195932,0.0526758591153921,0.0814953225246833
40.5,0.0537366380482645,0.0821023141176527,0.866272954186728,-0.437312169207502,0.866272954169901,-0.437312169203727,0.0536833188282257,0.0820740941213903
41,0.0547504436353387,0.0826677590723175,0.86364011149572,-0.442053636935559,0.863640111479182,-0.442053636931617,0.0546957368001139,0.0826397134005665
41.5,0.0557690305742322,0.0832200256130344,0.860982234097838,-0.446778341843483,0.860982234081593,-0.446778341839383,0.0557129237044066,0.0831921779829903
42,0.0567922109246009,0.0837591140544748,0.858299416475232,-0.451486131672294,0.858299416459284,-0.451486131668044,0.0567346920308761,0.0837314885203276
42.5,0.057819798608726,0.0842850276688349,0.855591756410282,-0.456176855536155,0.855591756394635,-0.456176855531765,0.057760856142091,0.084257648610834
43,0.0588516094653904,0.0847977726007257,0.852859354825756,-0.460850364004963,0.852859354810414,-0.460850364000441,0.0587912323268849,0.0847706647138712
43.5,0.0598874613008569,0.0852973577809539,0.85010231563087,-0.465506509178369,0.850102315615835,-0.465506509173723,0.0598256388509029,0.085270546063336
44,0.0609271739369268,0.0857837948392628,0.847320745573057,-0.470145144751966,0.847320745558332,-0.470145144747206,0.06086389600422,0.085757304580071
44.5,0.0619705692560656,0.0862570980161115,0.844514754095251,-0.474766126076269,0.844514754080838,-0.474766126071403,0.0619058261460127,0.0862309547833277
45,0.0630174712435926,0.0867172840735798,0.841684453198477,-0.479369310209083,0.841684453184378,-0.47936931020412,0.0629512537462789,0.0866915137013727
45.5,0.0640677060269192,0.0871643722054498,0.838829957309563,-0.483954555961801,0.838829957295781,-0.48395455595675,0.0640000054245938,0.0871390007813041
46,0.0651211019118266,0.0875983839465594,0.835951383153768,-0.488521723940113,0.835951383140304,-0.488521723934982,0.0650519099859003,0.087573437798146
46.5,0.0661774894157826,0.0880193430814924,0.833048849632129,-0.493070676579577,0.833048849618985,-0.493070676574373,0.0661067984533181,0.0879948487633085
47,0.0672367012982806,0.0884272755526621,0.830122477703352,-0.497601278176469,0.830122477690528,-0.497601278171201,0.0671645040979723,0.0884032598324624
47.5,0.0682985725882013,0.0888222093678832,0.82717239027005,-0.502113394914278,0.827172390257548,-0.502113394908954,0.0682248624658344,0.0887986992129254
48,0.069362940608185,0.0892041745074761,0.824198712069154,-0.506606894886182,0.824198712056973,-0.50660689488081,0.0692877114015655,0.0891811970705982
48.5,0.0704296449960168,0.0895732028309827,0.821201569566324,-0.511081648113839,0.821201569554465,-0.511081648108427,0.0703528910693645,0.089550785436545
49,0.0714985277230085,0.0899293279835571,0.8181810908542,-0.515537526562749,0.818181090842664,-0.515537526557304,0.071420243970807,0.0899074981132624
49.5,0.0725694331093766,0.0902725853020958,0.815137405554315,-0.519974404154469,0.815137405543102,-0.519974404149001,0.0724896149596767,0.0902513705807183
50,0.073642207836609,0.0906030117211697,0.81207064472254,-0.52439215677592,0.812070644711648,-0.524392156770434,0.0735608512537791,0.0905824399022154
50.5,0.0747167009568119,0.0909206456788241,0.808980940757887,-0.528790662285984,0.808980940747317,-0.52879066228049,0.0746338024437322,0.0909007446301447
51,0.0757927638990283,0.091225527022308,0.805868427314557,-0.533169800519621,0.805868427304308,-0.533169800514124,0.0757083204987291,0.0912063247116972
51.5,0.0768702504725229,0.0915176969137909,0.802733239217074,-0.537529453289658,0.802733239207146,-0.537529453284166,0.0767842597692606,0.0914992213945878
52,0.0779490168670189,0.0917971977361378,0.799575512378391,-0.54186950438645,0.799575512368782,-0.54186950438097,0.0778614769867927,0.0917794771328573
52.5,0.079028921649879,0.092064072998795,0.796395383720843,-0.546189839575537,0.79639538371155,-0.546189839570076,0.0789398312603897,0.0920471354928204
53,0.0801098257602179,0.0923183672438523,0.793192991099817,-0.550490346593463,0.793192991090841,-0.550490346588028,0.0800191840702666,0.0923022410592088
53.5,0.0811915924999358,0.092560125952346,0.789968473230064,-0.554770915141867,0.789968473221402,-0.554770915136465,0.0810993992582651,0.0925448393415828
54,0.082274087521647,0.0927893954508577,0.786721969614495,-0.559031436879984,0.786721969606146,-0.559031436874621,0.0821803430152379,0.0927749766810694
54.5,0.0833571788135082,0.093006222818485,0.783453620475411,-0.563271805415648,0.783453620467373,-0.563271805410331,0.0832618838653222,0.0929927001574906
55,0.084440736680905,0.0932106557942268,0.780163566688041,-0.567491916294914,0.78016356668031,-0.567491916289648,0.0843438926470875,0.0931980574969423
55.5,0.0855246337249951,0.0934027426848769,0.77685194971631,-0.571691666990374,0.776851949708884,-0.571691666985165,0.0854262424915475,0.0933910969799029
56,0.086608744818076,0.0935825322734625,0.773518911550751,-0.575870956888275,0.773518911543629,-0.575870956883131,0.0865088087969996,0.0935718673499125
56.5,0.0876929470757606,0.0937500737283191,0.770164594648479,-0.580029687274499,0.770164594641657,-0.580029687269425,0.0875914692006867,0.0937404177229239
57,0.0887771198259329,0.0939054165128641,0.766789141875149,-0.584167761319484,0.766789141868624,-0.584167761314486,0.0886741035472454,0.0938967974973655
57.5,0.0898611445744554,0.0940486102961327,0.763392696448826,-0.588285084062161,0.763392696442596,-0.588285084057244,0.0897565938539222,0.0940410562650106
58,0.0909449049676015,0.094179704864173,0.759975401885706,-0.592381562392952,0.759975401879766,-0.592381562388121,0.0908388242725284,0.0941732437227168
58.5,0.0920282867511837,0.0942987500323544,0.756537401947607,-0.59645710503591,0.756537401941955,-0.59645710503117,0.0919206810481014,0.0942934095851179
59,0.0931111777263411,0.0944057955586918,0.753078840591189,-0.600511622530032,0.753078840585821,-0.600511622525389,0.093002052474246,0.0944016034983521
59.5,0.0941934677019531,0.0945008910582594,0.749599861918826,-0.604545027209812,0.749599861913739,-0.604545027205271,0.0940828288451204,0.0944978749549096
60,0.0952750484436491,0.0945840859187895,0.746100610131089,-0.60855723318507,0.746100610126278,-0.608557233180634,0.0951629024040323,0.0945822732096893
60.5,0.0963558136193652,0.0946554292175504,0.742581229480776,-0.612548156320098,0.742581229476238,-0.612548156315774,0.0962421672886101,0.0946548471973625
61,0.0974356587414199,0.0947149696396011,0.739041864228456,-0.616517714212182,0.739041864224186,-0.616517714207973,0.0973205194725124,0.094715645451143
61.5,0.0985144811050623,0.0947627553975339,0.73548265859946,-0.620465826169509,0.735482658595455,-0.620465826165419,0.0983978567036354,0.094764716023062
62,0.0995921797234548,0.0947988341528148,0.731903756742295,-0.624392413188515,0.73190375673855,-0.624392413184548,0.0994740784387815,0.0948021064058748
62.5,0.100668655259046,0.0948232529388329,0.728305302688424,-0.628297397930701,0.728305302684935,-0.628297397926862,0.100549085774746,0.0948278634566954
63,0.101743809951292,0.0948360580857966,0.724687440313384,-0.632180704698946,0.724687440310146,-0.632180704695238,0.101622781375783,0.0948420333225083
63.5,0.102817547540688,0.0948372951476028,0.72105031329919,-0.636042259413346,0.721050313296198,-0.636042259409771,0.102695069397415,0.0948446613676667
64,0.103889773189054,0.0948270088308187,0.717394065098014,-0.639881989586606,0.717394065095264,-0.639881989583169,0.103765855406532,0.0948357921035347
