"Freq [GHz]","re(St(P1,P1)) []","im(St(P1,P1)) []","re(St(P1,P2)) []","im(St(P1,P2)) []","re(St(P2,P1)) []","im(St(P2,P1)) []","re(St(P2,P2)) []","im(St(P2,P2)) []"
0,0.00407340027692271,0,0.995942900481168,0,0.995942907960853,0,0.00407340454825089,0
0.5,0.00463923353300544,-0.00203123528291727,0.995279293173688,-0.00780791305454898,0.995279292479019,-0.00780791279342097,0.00463946413073302,-0.00203234535235453
1,0.00511479275161264,-0.00479921791493965,0.994544560795827,-0.0148677047516834,0.994544560981321,-0.0148677048785508,0.00511533257970243,-0.0048017512548455
1.5,0.00522697681276085,-0.00780924987884291,0.993888054587863,-0.0219805712752361,0.993888054707401,-0.0219805714073509,0.00522819139796837,-0.00781315141572847
2,0.00518123212355626,-0.0107440827448819,0.993184912551701,-0.0288932156833717,0.993184912621341,-0.0288932157973498,0.00518280265370841,-0.010749647300031
2.5,0.00505565574101396,-0.0136298898080049,0.992485083119899,-0.0356698814095608,0.992485083157023,-0.0356698814978706,0.00505742064692072,-0.0136371611582042
3,0.00487486962187855,-0.016483591848159,0.991795777097506,-0.0423633497029368,0.991795777114656,-0.0423633497663989,0.00487674965312568,-0.0164925720415479
3.5,0.00464840488295515,-0.0193139623959286,0.991106341042479,-0.0490065929025931,0.991106341047339,-0.0490065929449681,0.00465035748723519,-0.0193246501424991
4,0.00438064237110058,-0.0221254789371486,0.990401984391589,-0.0556172243479374,0.990401984388548,-0.0556172243734672,0.00438264208549999,-0.0221378768017715
4.5,0.00407392426435349,-0.0249203704848444,0.989669106527864,-0.0622033593932176,0.989669106519367,-0.0622033594057356,0.00407595393891036,-0.0249344857503679
5,0.0037296947307901,-0.0276996357605395,0.988896665749602,-0.06876781631785,0.98889666573704,-0.0687678163205963,0.00373174127471776,-0.027715480007263
5.5,0.00334897279262147,-0.0304635679461054,0.988076101738534,-0.0753106414955305,0.988076101722763,-0.0753106414911855,0.00335102494129069,-0.0304811564630967
6,0.0029325681146366,-0.0332120394022688,0.987200873202933,-0.0818305197198086,0.987200873184567,-0.0818305197105946,0.00293461516734173,-0.0332313906665558
6.5,0.00248118720609436,-0.0359446641615477,0.986265983805336,-0.0883255338068771,0.986265983784894,-0.0883255337946398,0.002483218262475,-0.0359657994141092
7,0.00199548887261392,-0.0386608950463714,0.985267597852842,-0.0947935636187598,0.985267597830836,-0.0947935636050641,0.00199749234137436,-0.0386838379487031
7.5,0.00147611449558727,-0.0413600841692228,0.984202753890757,-0.101232489410224,0.984202753867724,-0.101232489396364,0.00147807776053943,-0.0413848605193827
8,0.000923705081377291,-0.0440415220475172,0.983069158430924,-0.107640289863808,0.983069158407441,-0.107640289850887,0.000925614263511232,-0.0440681595382788
8.5,0.000338911002575215,-0.0467044637524223,0.981865039046008,-0.114015083761342,0.981865039022694,-0.114015083750282,0.000340750784002419,-0.0467329917588222
9,-0.000277602475781791,-0.049348146925432,0.980589039549975,-0.120355141804782,0.980589039527484,-0.120355141796347,-0.000275848985789695,-0.0493785963129101
9.5,-0.000925152195647594,-0.051971804534765,0.979240144406761,-0.126658883018706,0.979240144385775,-0.126658883013527,-0.000923503564328021,-0.0520042074818434
10,-0.00160303567063957,-0.0545746741308157,0.977817623259838,-0.13292486363715,0.977817623241056,-0.132924863635735,-0.00160151222243754,-0.0546090639621699
10.5,-0.00227669054201263,-0.0572427181984079,0.976456487372522,-0.139209229998388,0.976456487353791,-0.13920922999448,-0.00227548399257876,-0.0572788331088736
11,-0.00298232422523709,-0.059901937200963,0.975056939947068,-0.145463533694565,0.975056939928654,-0.14546353368826,-0.00298145059607069,-0.0599397778484088
11.5,-0.00371981151657697,-0.0625519242856267,0.973619812958977,-0.151688974972734,0.973619812941119,-0.151688974964149,-0.00371928690282686,-0.062591491321907
12,-0.00448902158785058,-0.0651922744586937,0.972145753035925,-0.157886679729415,0.972145753018831,-0.157886679718687,-0.00448886216019162,-0.0652335685246657
12.5,-0.00528981801370559,-0.0678225846679981,0.97063524784113,-0.164057687915052,0.970635247824982,-0.164057687902332,-0.00529004002001288,-0.0678656063883825
13,-0.00612205880013866,-0.0704424538850468,0.969088650731047,-0.170202946354832,0.969088650716001,-0.170202946340285,-0.00612267856695714,-0.0704872038630864
13.5,-0.00698559641425761,-0.0730514831868163,0.967506203348643,-0.176323305163955,0.967506203334825,-0.176323305147743,-0.00698663034805058,-0.073097961998795
14,-0.00788027781529466,-0.075649275837236,0.965888055982802,-0.182419517014322,0.965888055970317,-0.182419516996618,-0.00788174240347389,-0.0756974840268478
14.5,-0.00880594448685657,-0.0782354373683107,0.964234285652392,-0.188492238600672,0.964234285641321,-0.188492238581641,-0.00880785629858299,-0.0782853754408563
15,-0.00976243247044761,-0.0808095756609015,0.962544911965711,-0.194542033748673,0.962544911956114,-0.194542033728485,-0.00976480815719755,-0.0808612440773668
15.5,-0.0107495724002328,-0.0833713010251249,0.960819910869177,-0.200569377698888,0.960819910861097,-0.200569377677703,-0.010752428696126,-0.0834247001961157
16,-0.0117671895390613,-0.0859202262803391,0.959059226438734,-0.206574662184919,0.959059226432197,-0.206574662162893,-0.011770543260942,-0.0859753565598957
16.5,-0.0128151038157611,-0.0884559668347378,0.95726278088928,-0.212558200999691,0.957262780884295,-0.212558200976976,-0.0128189718630331,-0.0885128285140291
17,-0.013893129863679,-0.0909781407644927,0.955430482985984,-0.218520235809136,0.95543048298255,-0.218520235785869,-0.0138975292178791,-0.0910367340653933
17.5,-0.015001077060501,-0.0934863688924485,0.953562235040367,-0.224460942028438,0.953562235038472,-0.224460942004755,-0.0150060247846216,-0.0935466939610312
18,-0.0161387495693273,-0.095980274866355,0.951657938666672,-0.230380434622259,0.951657938666292,-0.230380434598285,-0.0161442628068713,-0.0960423317662729
18.5,-0.0173059463810291,-0.098459485236599,0.949717499462562,-0.236278773728339,0.949717499463666,-0.236278773704191,-0.0173120423547978,-0.0985232739423942
19,-0.0185024613578597,-0.100923629533423,0.947740830764439,-0.24215597003438,0.947740830766987,-0.242155970010168,-0.0185091573684741,-0.100989149923751
19.5,-0.0197280832783462,-0.103372340343607,0.945727856612812,-0.248011989862358,0.945727856616764,-0.248011989838179,-0.0197353967024934,-0.103439592194393
20,-0.0209825958834475,-0.105805253386607,0.94367851404826,-0.253846759933111,0.943678514053563,-0.253846759909059,-0.0209905441718497,-0.105874236364154
20.5,-0.0222657779239936,-0.10822200759012,0.941592754844015,-0.259660171798563,0.941592754850619,-0.259660171774722,-0.0222743785991031,-0.108292721244144
21,-0.0235774032093818,-0.110622245165029,0.939470546767731,-0.265452085939535,0.939470546775581,-0.265452085915981,-0.0235866738627926,-0.110694688921679
21.5,-0.0249172406575588,-0.113005611679759,0.937311874452371,-0.271222335535133,0.937311874461409,-0.271222335511935,-0.0249271989471408,-0.113079784834578
22,-0.0262850543462627,-0.11537175613396,0.93511673994501,-0.276970729915065,0.935116739955176,-0.276970729892286,-0.0262957179930097,-0.115447657844841
22.5,-0.0276806035655467,-0.117720331031556,0.932885162992183,-0.282697057710135,0.932885163003415,-0.28269705768783,-0.0276919903501431,-0.117797960311665
23,-0.0291036428715615,-0.120050992453075,0.9306171811116,-0.288401089718361,0.930617181123839,-0.288401089696581,-0.0291157706306647,-0.120130348163784
23.5,-0.0305539221416081,-0.122363400127289,0.928312849492257,-0.294082581505552,0.92831284950544,-0.294082581484341,-0.030566808763848,-0.122444480971099
24,-0.0320311866304553,-0.124657217502112,0.92597224075824,-0.299741275759589,0.925972240772307,-0.299741275738984,-0.0320448500521527,-0.124740022015588
24.5,-0.0335351770279237,-0.126932111814732,0.923595444625746,-0.305376904417618,0.923595444640636,-0.305376904397652,-0.0335496352285189,-0.127016638361462
25,-0.0350656295177114,-0.129187754160956,0.92118256747786,-0.310989190584809,0.921182567493512,-0.310989190565511,-0.0350809005149217,-0.129274000924538
25.5,-0.0366222758374963,-0.131423819563764,0.918733731877377,-0.316577850262598,0.918733731893733,-0.316577850243993,-0.0366383776821878,-0.13151178454082
26,-0.0382048433402699,-0.133639987041005,0.916249076034416,-0.32214259390332,0.916249076051416,-0.322142593885427,-0.0382217941110523,-0.133729668034254
26.5,-0.0398130550569268,-0.135835939672249,0.913728753242474,-0.327683127807082,0.913728753260064,-0.327683127789918,-0.039830872854473,-0.135927334283623
27,-0.0414466297600835,-0.138011364664739,0.91117293129408,-0.333199155375604,0.911172931312202,-0.333199155359182,-0.0414653327011818,-0.138104470288569
27.5,-0.0431052820291409,-0.14016595341845,0.90858179188501,-0.338690378236614,0.90858179190361,-0.338690378220942,-0.0431248882404704,-0.140260767234719
28,-0.0447887223165624,-0.142299401590193,0.905955530014292,-0.344156497251267,0.905955530033319,-0.344156497236352,-0.0448092499282096,-0.142395920557867
28.5,-0.0464966570153775,-0.144411409156764,0.903294353385708,-0.349597213415989,0.90329435340511,-0.349597213401835,-0.0465181241540892,-0.144509630007217
29,-0.0482287885278903,-0.146501680477106,0.900598481815268,-0.355012228669124,0.900598481834995,-0.355012228655731,-0.0482512133100699,-0.146601599707627
29.5,-0.0499848153355918,-0.148569924353446,0.897868146648152,-0.360401246611801,0.897868146668158,-0.36040124659917,-0.0500082158600439,-0.148671538220864
30,-0.051764432070265,-0.150615854091401,0.895103590187722,-0.365763973151562,0.89510359020796,-0.365763973139687,-0.0517888264106973,-0.150719158605809
30.5,-0.0535673295862681,-0.152639187558999,0.892305065138575,-0.371100117076421,0.892305065159001,-0.371100117065298,-0.053592735783546,-0.152744178477606
31,-0.0553931950339899,-0.154639647244629,0.88947283406502,-0.376409390566344,0.889472834085592,-0.376409390555965,-0.0554196310881632,-0.154746320065729
31.5,-0.0572417119344635,-0.156616960313841,0.886607168865917,-0.381691509648369,0.886607168886593,-0.381691509638725,-0.0572691957965644,-0.156725310270922
32,-0.0591125602551255,-0.158570858665023,0.883708350266456,-0.386946194600999,0.883708350287199,-0.38694619459208,-0.059141109818744,-0.158680880721008
32.5,-0.0610054164867123,-0.160501078983887,0.880776667327171,-0.392173170312934,0.880776667347942,-0.392173170304728,-0.0610350495793593,-0.160612767825529
33,-0.0629199537212685,-0.162407362796763,0.87781241697023,-0.397372166600655,0.877812416990993,-0.397372166593149,-0.0629506880955381,-0.16252071282919
33.5,-0.0648558417312655,-0.164289456522657,0.874815903522902,-0.402542918488933,0.874815903543624,-0.402542918482113,-0.0648876950557947,-0.164404461864078
34,-0.0668127470498053,-0.166147111524071,0.871787438277916,-0.407685166457923,0.871787438298563,-0.407685166451774,-0.0668457369000526,-0.166263766000643
34.5,-0.0687903330519031,-0.167980084156531,0.868727339070371,-0.412798656660096,0.868727339090913,-0.4127986566546,-0.0688244769007407,-0.168098381297402
35,-0.0707882600368168,-0.169788135816813,0.865635929870744,-0.417883141109941,0.865635929891152,-0.417883141105082,-0.0708235752449641,-0.169908068849344
35.5,-0.0728061853114218,-0.171571032989848,0.8625135403935,-0.422938377849071,0.862513540413746,-0.422938377844833,-0.0728426891177129,-0.171692594835014
36,-0.0748437632746028,-0.173328547294263,0.859360505720774,-0.427964131089078,0.859360505740831,-0.427964131085441,-0.0748814727861074,-0.173451730562241
36.5,-0.0769006455026449,-0.175060455526548,0.856177165940569,-0.432960171334244,0.856177165960413,-0.432960171331189,-0.0769395776846542,-0.1751852525125
37,-0.0789764808356033,-0.176766539703813,0.852963865798912,-0.437926275486004,0.852963865818519,-0.437926275483514,-0.0790166525014915,-0.17689294238387
37.5,-0.0810709154646401,-0.178446587105138,0.849720954365376,-0.442862226930859,0.849720954384725,-0.442862226928912,-0.0811123432656051,-0.178574587132577
38,-0.0831835930202862,-0.180100390311438,0.84644878471144,-0.44776781561324,0.846448784730508,-0.447767815611816,-0.0832262934349977,-0.180229979013074
38.5,-0.0853141546616304,-0.181727747243888,0.843147713601099,-0.45264283809473,0.843147713619868,-0.452642838093809,-0.0853581439857825,-0.18185891561667
39,-0.0874622391663894,-0.183328461200835,0.83981810119322,-0.457487097600814,0.839818101211672,-0.457487097600376,-0.0875075335021813,-0.18346119990866
39.5,-0.0896274830218533,-0.18490234089319,0.836460310755097,-0.462300404056318,0.836460310773215,-0.462300404056342,-0.0896740982674059,-0.185036640263931
40,-0.0918095205166759,-0.186449200478293,0.833074708386714,-0.46708257411049,0.833074708404482,-0.467082574110955,-0.0918574723553995,-0.18658505050105
40.5,-0.094007983833472,-0.187968859592208,0.829661662755246,-0.47183343115263,0.829661662772649,-0.471833431153516,-0.0940572877234026,-0.188106249914781
41,-0.096222503142215,-0.189461143380445,0.826221544839326,-0.476552805319074,0.826221544856352,-0.476552805320359,-0.096273174305328,-0.18960006330703
41.5,-0.0984527066944014,-0.190925882527075,0.822754727682652,-0.481240533492261,0.822754727699287,-0.481240533493922,-0.0985047601059236,-0.191066321016196
42,-0.10069822091794,-0.192362913282239,0.819261586156517,-0.485896459292532,0.819261586172751,-0.485896459294551,-0.100751671295673,-0.192504858944906
42.5,-0.102958670512766,-0.193772077488014,0.815742496730869,-0.490520433063272,0.815742496746692,-0.490520433065627,-0.103013532306435,-0.193915518586109
43,-0.105233678547121,-0.195153222602629,0.812197837253541,-0.495112311849903,0.812197837268944,-0.495112311852574,-0.10528996592777,-0.195298147047541
43.5,-0.107522866554488,-0.196506201723015,0.80862798673729,-0.499671959373255,0.808627986752264,-0.499671959376221,-0.107580593403936,-0.196652597074495
44,-0.109825854631153,-0.197830873605672,0.805033325154321,-0.504199245997722,0.805033325168859,-0.504199246000961,-0.109885034531523,-0.19797872707094
44.5,-0.112142261534342,-0.199127102685843,0.80141423323799,-0.508694048694628,0.801414233252087,-0.50869404869812,-0.112202907757692,-0.199276401118924
45,-0.114471704780923,-0.200394759094968,0.797771092291394,-0.513156251001164,0.797771092305044,-0.51315625100489,-0.114533830278989,-0.200545488996276
45.5,-0.116813800746637,-0.201633718676426,0.794104284002562,-0.517585742975241,0.794104284015759,-0.51758574297918,-0.116877418140704,-0.201785866192589
46,-0.119168164765808,-0.202843862999546,0.790414190266007,-0.521982421146542,0.790414190278748,-0.521982421150675,-0.119233286336737,-0.202997413923469
46.5,-0.121534411231529,-0.204025079371869,0.786701193010388,-0.526346188464088,0.786701193022672,-0.526346188468395,-0.121601048909951,-0.20418001914305
47,-0.123912153696258,-0.205177260849661,0.782965674032056,-0.530676954240548,0.782965674043879,-0.530676954245011,-0.123980319052956,-0.205333574554744
47.5,-0.126301004972812,-0.206300306246675,0.779208014834261,-0.534974634093547,0.779208014845622,-0.534974634098147,-0.126370709209316,-0.206457978620255
48,-0.128700577235714,-0.207394120141132,0.775428596471846,-0.53923914988419,0.775428596482744,-0.539239149888909,-0.128771831175126,-0.20755313556681
48.5,-0.131110482122868,-0.20845861288096,0.771627799401198,-0.543470429652997,0.771627799411635,-0.543470429657816,-0.13118329620093,-0.208618955392637
49,-0.1335303308375,-0.209493700587231,0.767806003335327,-0.547668407553447,0.767806003345302,-0.547668407558348,-0.133604715093945,-0.209655353870664
49.5,-0.135959734250375,-0.210499305155842,0.763963587103852,-0.5518330237833,0.763963587113367,-0.551833023788267,-0.136035698320559,-0.210662252550446
50,-0.138398303002193,-0.211475354257416,0.760100928517789,-0.555964224513865,0.760100928526845,-0.555964224518879,-0.138475856109051,-0.211639578758323
50.5,-0.140845647606189,-0.212421781335426,0.75621840423895,-0.560061961817351,0.75621840424755,-0.560061961822397,-0.140924798552518,-0.212587265595794
51,-0.143301378550849,-0.213338525602545,0.752316389653843,-0.564126193592468,0.75231638966199,-0.564126193597529,-0.143382135711959,-0.213505251936136
51.5,-0.145765106402736,-0.214225532035234,0.748395258751913,-0.568156883488389,0.748395258759611,-0.568156883493451,-0.145847477719476,-0.214393482419243
52,-0.148236441909375,-0.215082751366557,0.744455384008029,-0.572154000827206,0.744455384015283,-0.572154000832251,-0.14832043488156,-0.215251907444711
52.5,-0.150714996102151,-0.21591014007724,0.740497136269074,-0.576117520524994,0.740497136275888,-0.576117520530009,-0.150800617782429,-0.216080483163168
53,-0.153200380399207,-0.216707660384991,0.736520884644528,-0.580047423011607,0.736520884650907,-0.580047423016578,-0.153287637387357,-0.216879171465858
53.5,-0.155692206708272,-0.217475280232067,0.732526996400956,-0.583943694149291,0.732526996406906,-0.583943694154203,-0.155781105145992,-0.217647939972494
54,-0.158190087529395,-0.218212973271117,0.728515836860278,-0.587806325150225,0.728515836865805,-0.587806325155064,-0.158280633095582,-0.218386762017382
54.5,-0.160693636057557,-0.218920718849322,0.724487769301727,-0.591635312493082,0.724487769306837,-0.591635312497836,-0.1607858339641,-0.219095616633847
55,-0.163202466285089,-0.219598501990817,0.720443154867421,-0.595430657838705,0.720443154872122,-0.595430657843361,-0.163296321273218,-0.219774488536961
55.5,-0.165716193103888,-0.220246313377444,0.716382352471435,-0.599192367944965,0.716382352475734,-0.599192367949511,-0.165811709441086,-0.220423368104592
56,-0.168234432407374,-0.220864149327838,0.712305718712305,-0.602920454580906,0.712305718716209,-0.60292045458533,-0.168331613884878,-0.221042251356812
56.5,-0.170756801192146,-0.221452011774862,0.708213607788879,-0.606614934440235,0.708213607792396,-0.606614934444526,-0.170855651123071,-0.221631139933655
57,-0.173282917659308,-0.222009908241436,0.70410637141943,-0.61027582905424,0.704106371422569,-0.610275829058389,-0.173383438877403,-0.22219004107128
57.5,-0.175812401315409,-0.222537851814746,0.699984358763977,-0.613903164704213,0.699984358766745,-0.613903164708208,-0.175914596174479,-0.222718967576539
58,-0.178344873072968,-0.223035861118903,0.695847916349706,-0.617496972333424,0.695847916352113,-0.617496972337255,-0.178448743446981,-0.223217937799991
58.5,-0.180879955350532,-0.223503960286043,0.691697387999458,-0.621057287458737,0.691697388001513,-0.621057287462396,-0.180985502634435,-0.223686975607391
59,-0.183417272172235,-0.223942178925916,0.687533114763196,-0.624584150081915,0.687533114764908,-0.624584150085393,-0.183524497283498,-0.224126110349672
59.5,-0.185956449266808,-0.224350552093995,0.683355434852388,-0.628077604600677,0.683355434853767,-0.628077604603965,-0.18606535264772,-0.224535376831474
60,-0.188497114165999,-0.224729120258135,0.679164683577244,-0.631537699719563,0.679164683578299,-0.631537699722654,-0.18860769578674,-0.22491481527824
60.5,-0.191038896302363,-0.225077929263804,0.674961193286749,-0.634964488360674,0.674961193287491,-0.634964488363561,-0.191151155664863,-0.225264471301916
61,-0.193581427106375,-0.22539703029796,0.670745293311431,-0.638358027574315,0.670745293311869,-0.638358027576992,-0.193695363248992,-0.225584395865304
61.5,-0.196124340102826,-0.225686479851563,0.666517309908794,-0.64171837844963,0.666517309908938,-0.641718378452089,-0.196239951605847,-0.225874645245102
62,-0.198667271006453,-0.225946339680811,0.662277566211376,-0.645045606025233,0.662277566211238,-0.645045606027469,-0.198784555998444,-0.226135280993672
62.5,-0.201209857816766,-0.226176676767107,0.65802638217737,-0.648339779199925,0.658026382176958,-0.648339779201934,-0.201328813981787,-0.226366369899594
63,-0.203751740912013,-0.226377563275819,0.653764074543742,-0.651600970643518,0.653764074543069,-0.651600970645294,-0.203872365497706,-0.22656798394703
63.5,-0.206292563142262,-0.22654907651388,0.649490956781816,-0.65482925670781,0.649490956780891,-0.654829256709349,-0.206414852968822,-0.226740200273973
