"Freq [GHz]","re(St(P1,P1)) []","im(St(P1,P1)) []","re(St(P1,P2)) []","im(St(P1,P2)) []","re(St(P2,P1)) []","im(St(P2,P1)) []","re(St(P2,P2)) []","im(St(P2,P2)) []"
0,0.00547758544570343,0,0.994536167665501,0,0.994536166050239,0,0.00547758539204324,0
0.5,0.00586262464902632,0.00191524188360503,0.994072245513919,-0.00704648839096222,0.994072245544515,-0.00704648610954095,0.0058625480276433,0.00191555944250865
1,0.00619762604440588,0.00337141035564414,0.993537730598201,-0.0136125618940248,0.993537731156723,-0.0136125600426418,0.00619736925244396,0.00337212851609436
1.5,0.00621139346923716,0.00466344625430892,0.993019569734557,-0.020241190399739,0.993019571036328,-0.02024118831803,0.00621081367039,0.00466469477459341
2,0.00625372065122143,0.00603614405839359,0.992398326392811,-0.0267189606788563,0.992398328231129,-0.02671895877981,0.00625291028776775,0.00603787149862356
2.5,0.00631467520070883,0.00744374903573863,0.991724600884008,-0.0330596644821899,0.991724602939429,-0.0330596629801843,0.00631362964876248,0.00744594288608447
3,0.00639191552704332,0.00887135741570155,0.991028313747187,-0.0392893098168354,0.991028315724307,-0.0392893087544728,0.00639060520699619,0.00887401437723589
3.5,0.00648477623829691,0.0103130245925964,0.990322035477452,-0.0454343246068589,0.990322037166808,-0.0454343239272692,0.0064831624294599,0.0103161448755049
4,0.00659312853375171,0.0117661940584739,0.989607235081813,-0.0515161628218701,0.989607236366443,-0.0515161624313603,0.006591168130202,0.0117697797361771
4.5,0.00671706925178661,0.0132298258926857,0.988879601466797,-0.057550206468159,0.988879602304599,-0.0575502062735689,0.00671471646558897,0.0132338803078769
5,0.00685681585996678,0.0147036454500356,0.988132488288497,-0.063546591147392,0.988132488690083,-0.0635465910726287,0.00685402287746906,0.0147081729770386
5.5,0.00701266573782089,0.0161878015325323,0.987358802927448,-0.0695115309103818,0.98735880293753,-0.0695115309004519,0.00700938295651521,0.0161928074861244
6,0.00718497907195792,0.0176826957440719,0.986551902711169,-0.0754485321262086,0.98655190239512,-0.0754485321452609,0.00718115514738521,0.0176881863588925
6.5,0.00737417159113496,0.0191888910298053,0.985705941642938,-0.0813593243860637,0.985705941077804,-0.081359324413298,0.00736975338802509,0.0191948734792584
7,0.00758071186821641,0.020707059870845,0.98481594368266,-0.0872445158096706,0.984815942951358,-0.08724451583495,0.00757564435800423,0.0207135423116327
7.5,0.0078051209693247,0.0222379536522519,0.983877754816049,-0.0931040323514427,0.983877754003673,-0.0931040323714774,0.00779934709415642,0.0222449452880333
8,0.00804797344482949,0.0237823839489613,0.98288795107744,-0.0989374029806567,0.982887950268891,-0.0989374029959511,0.00804143395805051,0.0237898951102684
8.5,0.00830989918177746,0.0253412108228082,0.981843738610106,-0.104743940140176,0.981843737888553,-0.104743940152779,0.00830253246994465,0.0253492530620085
9,0.00859158588093498,0.0269153353996985,0.980742860853077,-0.11052285105693,0.980742860298925,-0.110522851068827,0.0085833277697967,0.0269239216010466
9.5,0.00889378204201605,0.028505695142111,0.979583517846384,-0.116273304256666,0.979583517536585,-0.116273304268753,0.00888456558750847,0.0285148396473889
10,0.00921730040379519,0.030113260861742,0.978364298141689,-0.121994467512927,0.978364298149264,-0.121994467524387,0.00920705566826974,0.0301229796126332
10.5,0.00962329056660552,0.0315762627487377,0.977206367994637,-0.127762622919817,0.977206368001622,-0.127762622931603,0.00961208616320663,0.0315865479561421
11,0.0100482764615566,0.0330331000902748,0.976018660480635,-0.133500936988322,0.976018660487017,-0.133500937000399,0.0100360647590666,0.0330439640747993
11.5,0.0104921447090715,0.0344834978364861,0.974802494977854,-0.139210582102057,0.974802494983625,-0.139210582114382,0.010478877993684,0.0344949536274277
12,0.0109547771477074,0.0359271834536248,0.97355899896376,-0.144892742474138,0.973558998968915,-0.144892742486677,0.0109404076268429,0.0359392448040876
12.5,0.01143605089899,0.0373638870238611,0.972289122333202,-0.150548594296497,0.972289122337737,-0.150548594309209,0.0114205307060563,0.0373765684261618
13,0.0119358384346472,0.0387933413432617,0.970993652607688,-0.156179289418409,0.970993652611603,-0.156179289431258,0.0119191196347669,0.038806658044547
13.5,0.0124540076461886,0.0402152820178201,0.9696732304826,-0.161785942273308,0.969673230485898,-0.161785942286258,0.012436042242913,0.0402292500358605
14,0.0129904219167744,0.0416294475575132,0.968328365270124,-0.167369619730425,0.968328365272812,-0.167369619743442,0.0129711618597931,0.041644083696617
14.5,0.0135449401953008,0.0430355794683348,0.966959449897298,-0.172931333528617,0.966959449899382,-0.172931333541666,0.0135243373891727,0.0430509013353286
15,0.0141174170726514,0.0444334223422236,0.965566775208171,-0.178472034948674,0.965566775209662,-0.178472034961723,0.0140954233865565,0.0444494483624389
15.5,0.0147077028600408,0.0458227239448443,0.96415054339592,-0.183992611392365,0.964150543396829,-0.183992611405384,0.014684270138565,0.0458394733780665
16,0.0153156436693894,0.0472032353011773,0.962710880454665,-0.189493884557616,0.962710880455004,-0.189493884570574,0.0152907237443478,0.0472207282574932
16.5,0.0159410814956549,0.0485747107788483,0.961247847592553,-0.194976609925913,0.961247847592338,-0.194976609938786,0.0159146261989597,0.048592968234344
17,0.0165838543010644,0.0499369081691727,0.959761451588428,-0.200441477307733,0.959761451587674,-0.200441477320492,0.0165558154786274,0.0499559519814183
17.5,0.0172437961011609,0.0512895887658487,0.958251654105519,-0.205889112222362,0.958251654104242,-0.205889112234985,0.0172141256278414,0.0513094416891153
18,0.0179207370526109,0.0526325174412852,0.956718379998421,-0.211320077918556,0.95671837999664,-0.211320077931021,0.0178893868481919,0.0526532031414433
18.5,0.018614503542686,0.053965462720482,0.955161524665647,-0.216734877870952,0.955161524663378,-0.216734877883237,0.0185814255888765,0.0539870057895215
19,0.0193249182803587,0.0552881968524759,0.953580960510383,-0.22213395861342,0.953580960507648,-0.222133958625508,0.0192900646388077,0.0553106228225879
19.5,0.0200518003889306,0.0566004958792743,0.951976542578134,-0.227517712794276,0.951976542574949,-0.227517712806149,0.0200151232202436,0.0566238312364464
20,0.020794965500127,0.0579021397022661,0.950348113442402,-0.23288648235932,0.950348113438789,-0.232886482370964,0.0207564170838609,0.0579264118993335
20.5,0.0215542258495717,0.0591929121460832,0.948695507409627,-0.238240561787024,0.948695507405604,-0.238240561798423,0.0215137586051996,0.0592181496151771
21,0.0223293903735871,0.0604726010198617,0.947018554112605,-0.243580201316003,0.947018554108193,-0.243580201327145,0.0222869568823996,0.0604988331842093
21.5,0.0231202648072236,0.0617409981759061,0.945317081558482,-0.248905610118357,0.9453170815537,-0.248905610129231,0.0230758178351487,0.0617682554609182
22,0.02392665178346,0.0629978995657168,0.943590918693309,-0.254216959383758,0.943590918688175,-0.254216959394354,0.0238801443047744,0.0630262134093238
22.5,0.0247483509334896,0.064243105293361,0.941839897540587,-0.259514385288551,0.941839897535122,-0.25951438529886,0.0246997361553893,0.0642725081555364
23,0.0255851589880238,0.065476419666177,0.940063854966449,-0.264797991831823,0.940063854960671,-0.264797991841838,0.0255343903760206,0.0655069450376031
23.5,0.0264368698795324,0.0666976512427886,0.938262634119254,-0.27006785352667,0.938262634113183,-0.270067853536383,0.0263839011836456,0.0667293336526147
24,0.0273032748453534,0.0679066128784263,0.936436085586675,-0.275324017939888,0.936436085580329,-0.275324017949295,0.0272480601270567,0.0679394879010689
24.5,0.0281841625315883,0.0691031217675238,0.934584068308802,-0.280566508077287,0.934584068302199,-0.280566508086384,0.0281266561914709,0.0691372260284766
25,0.0290793190977206,0.0702869994836124,0.93270645028156,-0.285795324614903,0.932706450274718,-0.285795324623685,0.0290194759038231,0.0703223706642018
25.5,0.0299885283218712,0.0714580720164759,0.930803109080762,-0.291010447978731,0.930803109073698,-0.291010447987196,0.0299263034386518,0.0714947488575355
26,0.0309115717066302,0.0726161698065888,0.928873932233526,-0.296211840277358,0.928873932226257,-0.296211840285505,0.0308469207245128,0.0726541921110053
26.5,0.0318482285853861,0.0737611277768047,0.926918817460458,-0.301399447093158,0.926918817453,-0.301399447100986,0.0317811075508403,0.0738005364109013
27,0.0327982762290758,0.074892785361331,0.924937672809067,-0.306573199138511,0.924937672801437,-0.306573199146018,0.0327286416751864,0.0749336222550463
27.5,0.0337614899533001,0.0760109865319649,0.922930416696195,-0.311733013784145,0.922930416688408,-0.311733013791332,0.0336892989307623,0.0760532946777923
28,0.0347376432257189,0.0771155798215977,0.920896977874871,-0.316878796466942,0.920896977866942,-0.31687879647381,0.0346628533342105,0.0771594032722627
28.5,0.0357265077736663,0.078206418345014,0.91883729533892,-0.322010441984672,0.918837295330865,-0.322010441991223,0.0356490771935412,0.0782518022098468
29,0.0367278536919151,0.0792833598169609,0.916751318176773,-0.327127835685093,0.916751318168605,-0.327127835691328,0.0366477412161574,0.0793303502569458
29.5,0.0377414495505228,0.0803462665675303,0.91463900538431,-0.332230854556685,0.914639005376041,-0.332230854562606,0.0376586146169019,0.0803949107889985
30,0.0387670625026973,0.081395005554838,0.912500325645136,-0.337319368228062,0.912500325636781,-0.337319368233673,0.038681465226064,0.081445351801789
30.5,0.0398044583926129,0.0824294483750263,0.910335257085451,-0.342393239882818,0.910335257077021,-0.342393239888121,0.0397160595972712,0.0824815459200487
31,0.0408534018631183,0.0834494712696052,0.908143787009569,-0.34745232709622,0.908143787001078,-0.347452327101218,0.040762163115212,0.083503370403391
31.5,0.0419136564632714,0.0844549551301366,0.905925911621228,-0.352496482599826,0.905925911612687,-0.352496482604524,0.0418195401031145,0.0845107071495586
32,0.0429849847556416,0.0854457855002929,0.903681635734982,-0.357525554979728,0.903681635726402,-0.357525554984131,0.0428879539299299,0.085503442695045
32.5,0.044067148423322,0.0864218525752973,0.901410972481313,-0.362539389313759,0.901410972472704,-0.362539389317869,0.043967167117158,0.086481468213086
33,0.0451599083765915,0.0873830511987702,0.899113943008439,-0.367537827752633,0.899113942999812,-0.367537827756456,0.0450569414452485,0.0874446795090409
33.5,0.0462630248591762,0.0883292808569967,0.896790576183322,-0.372520710049657,0.896790576174687,-0.372520710053198,0.0461570380595349,0.0883929770132073
34,0.047376257554047,0.0892604456706487,0.8944409082939,-0.377487874043268,0.894440908285267,-0.377487874046532,0.0472672175756349,0.0893262657710745
34.5,0.0484993656887077,0.0901764543839628,0.892064982754212,-0.382439156096385,0.892064982745589,-0.382439156099377,0.0483872401842657,0.0902444554310419
35,0.049632108139924,0.0910772203514204,0.889662849813746,-0.387374391496184,0.889662849805142,-0.38737439149891,0.049516865755429,0.0911474602296475
35.5,0.0507742435378349,0.0919626615219334,0.887234566272067,-0.392293414817692,0.88723456626349,-0.392293414820157,0.0506558539419053,0.092035198974304
36,0.0519255303694076,0.0928327004205752,0.884780195199564,-0.39719606025425,0.884780195191021,-0.39719606025646,0.0518039642820194,0.092907595023593
36.5,0.0530857270811861,0.0936872641278655,0.882299805664922,-0.402082161917702,0.882299805656421,-0.402082161919662,0.0529609563016217,0.0937645762651341
37,0.0542545921812904,0.094526284256647,0.879793472469819,-0.406951554110887,0.879793472461366,-0.406951554112604,0.0541265896152465,0.094606075091055
37.5,0.0554318843406187,0.0953496969265693,0.877261275891136,-0.411804071574818,0.877261275882739,-0.411804071576297,0.0553006240264032,0.0954320283710963
38,0.0566173624932214,0.0961574427362093,0.874703301430927,-0.416639549712716,0.874703301422592,-0.416639549713963,0.0564828196269554,0.0962423774233768
38.5,0.0578107859357946,0.0969494667328474,0.872119639574237,-0.421457824792891,0.872119639565969,-0.421457824793913,0.0576729368955533,0.09703706798284
39,0.0590119144262692,0.09772571837993,0.869510385554828,-0.426258734132275,0.869510385546633,-0.426258734133077,0.0588707367950797,0.0978160501674233
39.5,0.060220508281446,0.0984861515222341,0.86687563912877,-0.431042116262273,0.866875639120654,-0.431042116262862,0.0600759808690706,0.0985792784419602
40,0.0614363284736519,0.0992307243487603,0.864215504355834,-0.435807811078445,0.864215504347801,-0.435807811078827,0.0612884313370823,0.0993267115798541
40.5,0.0626591367263811,0.0999593993533788,0.861530089388546,-0.440555659975381,0.861530089380601,-0.440555659975562,0.0625078511889657,0.100058312622545
41,0.0638886956088855,0.100672143293239,0.858819506268781,-0.445285505968053,0.858819506260927,-0.445285505968039,0.0637340042780198,0.100774048836789
41.5,0.0651247686296917,0.101368927144981,0.856083870731683,-0.449997193800768,0.856083870723924,-0.449997193800565,0.0649666554129966,0.101473891669785
42,0.0663671203290094,0.102049726058744,0.853323302016748,-0.454690570044786,0.853323302009089,-0.454690570044402,0.0662055704489224,0.102157816702163
42.5,0.0676155163700072,0.102714519310004,0.850537922685835,-0.459365483185541,0.850537922678278,-0.45936548318498,0.0674505163767179,0.102825803598849
43,0.0688697236289248,0.103363290249257,0.847727858447891,-0.464021783700345,0.84772785844044,-0.464021783699614,0.0687012614115826,0.103477836057847
43.5,0.0701295102840045,0.103996026249555,0.844893237990178,-0.46865932412736,0.844893237982835,-0.468659324126464,0.0699575750801263,0.104113901756933
44,0.0713946459032063,0.104612718651899,0.842034192815749,-0.473277959126572,0.842034192808517,-0.473277959125518,0.071219228306217,0.104733992298287
44.5,0.0726649015306933,0.105213362708524,0.839150857086961,-0.477877545533404,0.839150857079841,-0.477877545532198,0.0724859934955316,0.105338103151081
45,0.0739400497720579,0.105797957524049,0.836243367474792,-0.482457942405596,0.836243367467787,-0.482457942404243,0.0737576446187809,0.105926233592026
45.5,0.0752198648782649,0.106366505994525,0.833311863013736,-0.487019011063876,0.833311863006847,-0.487019011062382,0.0750339572935857,0.106498386643888
46,0.0765041228282994,0.106919014744369,0.83035648496205,-0.491560615126932,0.830356484955279,-0.491560615125302,0.0763147088649974,0.107054569011991
46.5,0.0777926014104824,0.107455494061178,0.827377376667152,-0.496082620541144,0.827377376660499,-0.496082620539385,0.0775996784846233,0.107594791018695
47,0.0790850803024447,0.107975957828441,0.824374683435944,-0.500584895605484,0.82437468342941,-0.500584895603601,0.0788886471883535,0.108119066535857
47.5,0.0803813411497266,0.108480423456101,0.821348552409866,-0.505067310991971,0.821348552403454,-0.505067310989969,0.0801813979726582,0.108627412915272
48,0.0816811676429875,0.108968911809008,0.818299132444491,-0.509529739762019,0.8182991324382,-0.509529739759905,0.0814777158694392,0.109119850917093
48.5,0.0829843455937947,0.109441447133197,0.815226573993454,-0.513972057379012,0.815226573987285,-0.513972057376789,0.082777388019415,0.109596404636204
49,0.0842906630089718,0.109898056980003,0.812131028996555,-0.518394141717367,0.812131028990506,-0.518394141715042,0.0840802037440141,0.110057101426557
49.5,0.0855999101634718,0.110338772127988,0.809012650771848,-0.522795873068387,0.809012650765921,-0.522795873065964,0.0853859546157538,0.110501971823432
50,0.0869118796717529,0.110763626502625,0.805871593911561,-0.527177134143112,0.805871593905755,-0.527177134140595,0.0866944345270828,0.11093104946361
50.5,0.0882263665576198,0.111172657093749,0.802708014181676,-0.53153781007241,0.802708014175991,-0.531537810069806,0.0880054397576509,0.111344371003433
51,0.0895431683224973,0.111565903870695,0.799522068425032,-0.535877788404517,0.799522068419466,-0.535877788401829,0.0893187690399913,0.111741976034717
51.5,0.0908620850121001,0.111943409695113,0.796313914467794,-0.540196959100176,0.796313914462347,-0.54019695909741,0.0906342236235628,0.112123906998483
52,0.0921829192814494,0.112305220231391,0.79308371102916,-0.544495214525605,0.793083711023831,-0.544495214522764,0.0919516073371344,0.112490209096458
52.5,0.0935054764582002,0.112651383854646,0.789831617634175,-0.548772449443388,0.789831617628963,-0.548772449440477,0.0932707266494583,0.112840930200322
53,0.0948295646042145,0.112981951556218,0.786557794529522,-0.553028561001481,0.786557794524425,-0.553028560998504,0.094591390728195,0.113176120758619
53.5,0.0961549945753331,0.113296976846598,0.783262402602178,-0.557263448720446,0.783262402597194,-0.557263448717407,0.0959134114970325,0.113495833701296
54,0.0974815800792714,0.113596515655733,0.77994560330082,-0.561477014479026,0.77994560329595,-0.56147701447593,0.0972366036909527,0.113800124341802
54.5,0.0988091377315753,0.113880626230623,0.776607558559889,-0.565669162498195,0.776607558555129,-0.565669162495044,0.0985607849095715,0.114089050276677
55,0.100137487109547,0.114149369030125,0.773248430726182,-0.569839799323771,0.773248430721531,-0.56983979932057,0.0998857756684891,0.114362671282555
55.5,0.101466450804057,0.114402806616881,0.769868382487911,-0.573988833807691,0.769868382483366,-0.573988833804443,0.10121139944857,0.114621049210503
56,0.102795854469135,0.114641003546279,0.766467576806114,-0.578116177088039,0.766467576801674,-0.578116177084747,0.10253748274306,0.114864247877611
56.5,0.104125526869235,0.114864026252336,0.763046176848355,-0.582221742567906,0.763046176844017,-0.582221742564574,0.103863855102445,0.115092332955733
57,0.10545529992403,0.115071942930413,0.759604345924603,-0.586305445893157,0.759604345920366,-0.586305445889788,0.10519034917694,0.115305371857293
57.5,0.106785008750623,0.115264823416631,0.756142247425249,-0.590367204929177,0.756142247421108,-0.590367204925773,0.106516800756484,0.11550343361804
58,0.10811449170299,0.115442739063896,0.752660044761153,-0.594406939736661,0.752660044757107,-0.594406939733225,0.107843048808094,0.115686588776643
58.5,0.109443590408499,0.115605762614385,0.74915790130569,-0.598424572546507,0.749157901301736,-0.598424572543042,0.109168935510443,0.115854909251025
59,0.110772149801307,0.115753968068393,0.745635980338696,-0.602420027733868,0.74563598033483,-0.602420027730376,0.110494306285469,0.116008468211301
59.5,0.112100018152413,0.115887430549395,0.74209444499227,-0.606393231791412,0.74209444498849,-0.606393231787895,0.111819009826839,0.116147339949199
60,0.113427047096153,0.116006226165201,0.738533458198382,-0.610344113301851,0.738533458194685,-0.610344113298312,0.113142898125053,0.116271599743844
60.5,0.114753091652841,0.116110431865063,0.734953182638208,-0.61427260290977,0.734953182634591,-0.614272602906211,0.114465826488949,0.116381323723766
61,0.116078010247308,0.116200125292608,0.731353780693165,-0.618178633292804,0.731353780689625,-0.618178633289225,0.115787653563358,0.116476588725005
61.5,0.117401664722982,0.116275384634466,0.727735414397579,-0.622062139132206,0.727735414394113,-0.622062139128611,0.11710824134262,0.116557472145177
62,0.118723920351199,0.116336288464451,0.724098245392952,-0.625923057082842,0.724098245389556,-0.625923057079231,0.118427455179646,0.116624051793375
62.5,0.120044645835331,0.116382915583183,0.720442434883769,-0.629761325742645,0.72044243488044,-0.629761325739019,0.119745163790184,0.116676405735759
63,0.12136371330933,0.116415344853026,0.716768143594826,-0.633576885621562,0.71676814359156,-0.633576885617922,0.121061239251906,0.116714612136737
63.5,0.12268099833023,0.116433655028239,0.713075531730009,-0.637369679110029,0.713075531726803,-0.637369679106377,0.122375556997901,0.116738749095589
64,0.123996379864095,0.116437924580237,0.709364758932517,-0.641139650447004,0.709364758929367,-0.641139650443341,0.123687995804115,0.11674889447844
64.5,0.125309740264889,0.11642823151789,0.70563598424647,-0.644886745687576,0.705635984243373,-0.644886745683902,0.124998437770261,0.116745125745493
