"Freq [GHz]","re(St(P1,P1)) []","im(St(P1,P1)) []","re(St(P1,P2)) []","im(St(P1,P2)) []","re(St(P2,P1)) []","im(St(P2,P1)) []","re(St(P2,P2)) []","im(St(P2,P2)) []"
0,0.00516312843558353,0,0.994856217890629,0,0.994856213277671,0,0.00516312483722459,0
0.5,0.00590159759827102,-0.003664634238433,0.993990938927119,-0.0101049005079936,0.993990938998433,-0.0101049007548717,0.00590150234648235,-0.00366374217325571
1,0.00648734674030038,-0.00826796352077608,0.993053988789633,-0.0192679799866582,0.993053988802899,-0.019267979806127,0.00648716371126312,-0.00826608447269805
1.5,0.00674569086702448,-0.013089296411664,0.992227423678706,-0.0281822852749833,0.992227423737694,-0.0281822851710771,0.00674512285471351,-0.0130867269972015
2,0.00672821040899407,-0.0179524363636858,0.991462235457099,-0.0370199997240981,0.991462235518055,-0.0370199996678124,0.00672731572004892,-0.0179487098189028
2.5,0.00653058797411177,-0.022791725285801,0.990667762890117,-0.0458423625585471,0.990667762942062,-0.0458423625294166,0.00652956484771039,-0.0227866317622496
3,0.00620338695559841,-0.0275990175862049,0.989798044437797,-0.0546520524826697,0.989798044478487,-0.0546520524690433,0.00620240799218941,-0.0275924592860761
3.5,0.00577144504231697,-0.0323772344654909,0.988833457988719,-0.063441007734788,0.988833458018312,-0.063441007729713,0.00577064919876857,-0.0323691498081544
4,0.00524749730663832,-0.0371301504489594,0.987766810271894,-0.0722012182309886,0.987766810291336,-0.0722012182300151,0.00524700284940849,-0.0371204865598891
4.5,0.0046385203201833,-0.0418605562770384,0.986596619985151,-0.0809266404342566,0.986596619995724,-0.0809266404343756,0.00463843565105382,-0.0418492602954572
5,0.00394861329496576,-0.0465701953658026,0.985323968904826,-0.0896131420971891,0.985323968907998,-0.0896131420963755,0.00394904408419894,-0.0465572126827301
5.5,0.00318036082883477,-0.0512600026958623,0.983950979625222,-0.0982580778884969,0.983950979622569,-0.0982580778854594,0.00318141461775667,-0.0512452778388841
6,0.00233551270988608,-0.0559303348222731,0.982480062467884,-0.106859863899551,0.982480062461025,-0.106859863893591,0.00233730198143522,-0.0559138134302408
6.5,0.00141534121121589,-0.0605811420673703,0.980913548158037,-0.115417626824348,0.980913548148582,-0.115417626815276,0.0014179855433647,-0.0605627733711582
7,0.000420838014546066,-0.0652120893642083,0.979253523784964,-0.123930933561226,0.979253523774466,-0.12393093354927,0.000424465670306962,-0.0651918289474009
7.5,-0.000647172591432543,-0.0698226398114885,0.977501778535207,-0.132399591010842,0.977501778525131,-0.132399590996608,-0.000642423435663231,-0.0698004525606404
8,-0.00178796620009924,-0.0744121126451853,0.975659808048851,-0.14082350323934,0.975659808040546,-0.140823503223749,-0.00178194647178986,-0.074387975851633
8.5,-0.0030008767154126,-0.0789797239079286,0.97372884815761,-0.149202573896831,0.973728848152291,-0.149202573881077,-0.00299342564105665,-0.0789536305033849
9,-0.00428527003967283,-0.0835246153926983,0.97170992099886,-0.157536643330841,0.971709920997595,-0.157536643316347,-0.00427621447799675,-0.0834965773080443
9.5,-0.00564052702760387,-0.088045875566924,0.969603883737291,-0.165825451552662,0.969603883740996,-0.165825451541054,-0.005629680917282,-0.0880159272059107
10,-0.00706603223069913,-0.092542554944445,0.96741147454611,-0.174068619885945,0.96741147455555,-0.174068619879012,-0.00705319613882027,-0.0925107567641401
10.5,-0.008597106493622,-0.0969735397490865,0.965111143703164,-0.182297659769035,0.965111143713106,-0.182297659762435,-0.00858251659358755,-0.0969402000548643
11,-0.0101984988482838,-0.101376299022325,0.962726099044272,-0.190474266077904,0.962726099054672,-0.190474266071666,-0.0101820591064851,-0.101341428104783
11.5,-0.011869599593173,-0.105749601070846,0.960258039732647,-0.198598256880943,0.960258039743459,-0.198598256875089,-0.0118512126591512,-0.105713210442721
12,-0.0136097739515358,-0.110092229398197,0.957708534069309,-0.206669462474728,0.957708534080489,-0.206669462469274,-0.0135893411368903,-0.110054331886471
12.5,-0.0154183625010331,-0.114402983287953,0.95507903348413,-0.214687711230505,0.955079033495634,-0.214687711225462,-0.0153957837632429,-0.114363593127912
13,-0.0172946816186117,-0.118680678373246,0.952370886707623,-0.222652818629481,0.952370886719411,-0.222652818624859,-0.0172698555498594,-0.118639811304324
13.5,-0.0192380239400775,-0.122924147192218,0.949585353684184,-0.230564579128735,0.949585353696216,-0.230564579124536,-0.019210847761171,-0.122881820555289
14,-0.0212476588339162,-0.12713223972902,0.946723618898606,-0.23842276048563,0.946723618910844,-0.238422760481855,-0.0212180283933733,-0.127088472564925
14.5,-0.0233228328888367,-0.131303823939903,0.943786803883984,-0.246227100173732,0.943786803896391,-0.246227100170381,-0.0232906426671932,-0.131258637088909
15,-0.025462770414528,-0.135437786264057,0.940775978759857,-0.253977303542324,0.940775978772402,-0.253977303539392,-0.0254279135339045,-0.13539120246599
15.5,-0.0276666739551009,-0.1395330321188,0.937692172715027,-0.261673043399294,0.93769217272768,-0.261673043396776,-0.0276290421940713,-0.139485076113568
16,-0.0299337248146753,-0.143588486378808,0.934536383401159,-0.269313960729916,0.93453638341389,-0.269313960727801,-0.0298932086284406,-0.143539185007049
16.5,-0.0322630835945755,-0.147603093839037,0.931309585242678,-0.276899666298715,0.931309585255461,-0.276899666296996,-0.0322195721404477,-0.147552476142604
17,-0.0346538907415492,-0.151575819661018,0.92801273669735,-0.284429742916299,0.92801273671016,-0.284429742914968,-0.0346072719097285,-0.151523916983033
17.5,-0.0371052671064901,-0.155505649802306,0.924646786521979,-0.291903748186058,0.924646786534793,-0.291903748185101,-0.0370554275561152,-0.155452495886505
18,-0.0396163145130363,-0.159391591428726,0.92121267911083,-0.299321217576123,0.921212679123629,-0.29932121757553,-0.039563139713456,-0.159337222517826
18.5,-0.042186116335506,-0.163232673309259,0.91771135898176,-0.306681667689665,0.917711358994525,-0.306681667689423,-0.0421294906127272,-0.163177128242066
19,-0.0448137380855735,-0.16702794619329,0.914143774488324,-0.313984599630771,0.914143774501037,-0.313984599630868,-0.044753544673806,-0.166971266500304
19.5,-0.0474982280070805,-0.170776483170051,0.910510880836184,-0.321229502384372,0.91051088084883,-0.321229502384795,-0.0474343491053061,-0.17071871316727
20,-0.0502386176784085,-0.174477380010059,0.906813642479905,-0.328415856146629,0.906813642492469,-0.328415856147366,-0.0501709345118689,-0.174418566890758
20.5,-0.053033922621801,-0.178129755488409,0.903053034972466,-0.335543135557436,0.903053034984936,-0.335543135558474,-0.0529623155083041,-0.17806994941262
21,-0.0558831429190328,-0.181732751689775,0.899230046335088,-0.34261081279931,0.899230046347453,-0.342610812800636,-0.0558074913399538,-0.181672005871216
21.5,-0.0587852638328359,-0.185285534294999,0.895345678009639,-0.349618360537286,0.895345678021887,-0.349618360538889,-0.0587054465086773,-0.185223905085238
22,-0.061739256433457,-0.188787292849199,0.891400945450376,-0.356565254682927,0.891400945462498,-0.356565254684793,-0.061655151403827,-0.188724839818777
22.5,-0.0647440782297739,-0.192237241011291,0.88739687840624,-0.363450976972169,0.887396878418229,-0.363450976974287,-0.0646555629376188,-0.192174027027615
23,-0.0677986738043252,-0.195634616784893,0.883334520939571,-0.370275017352192,0.883334520951419,-0.370275017354549,-0.0677056251842634,-0.195570708086656
23.5,-0.0709019754516946,-0.198978682730593,0.879214931222016,-0.377036876176492,0.879214931233716,-0.377036876179076,-0.0708042700222565,-0.19891414899851
24,-0.0740529038196119,-0.202268726159525,0.875039181143705,-0.383736066210576,0.875039181155251,-0.383736066213376,-0.0739504177792096,-0.202203640583206
24.5,-0.0772503685522057,-0.205504059308325,0.870808355767352,-0.390372114453037,0.870808355778738,-0.390372114456041,-0.0771429778786317,-0.205438498649049
25,-0.0804932689347839,-0.208684019495446,0.866523552655061,-0.396944563778413,0.866523552666284,-0.396944563781611,-0.0803808494880354,-0.208618064144701
25.5,-0.0837804945395756,-0.21180796925891,0.862185881091992,-0.403452974409479,0.862185881103048,-0.403452974412861,-0.0836629221677808,-0.211741703292474
26,-0.0871109258718397,-0.214875296475557,0.857796461227849,-0.409896925227363,0.857796461238733,-0.409896925230918,-0.0869880765200748,-0.214808807703009
26.5,-0.0904834350157686,-0.217885414461894,0.853356423154356,-0.41627601492829,0.853356423165067,-0.416276014932009,-0.0903551848375272,-0.217818794471349
27,-0.0938968862795959,-0.220837762056623,0.848866905934366,-0.422589863035992,0.848866905944899,-0.422589863039865,-0.0937631117506788,-0.220771106254585
27.5,-0.0973501368393742,-0.223731803685014,0.844329056595983,-0.42883811077882,0.844329056606339,-0.428838110782836,-0.0972107148739513,-0.223665211331197
28,-0.100842037380833,-0.226567029405228,0.839744029103257,-0.435020421840401,0.839744029113432,-0.435020421844551,-0.100696845449438,-0.226500603642229
28.5,-0.104371432738799,-0.229342954936788,0.835112983313195,-0.441136482992528,0.835112983323188,-0.441136482996806,-0.10422034898799,-0.229276802814504
29,-0.107937162533602,-0.232059121671355,0.830437083927474,-0.447186004618566,0.830437083937285,-0.447186004622962,-0.107780065907041,-0.231993354166022
29.5,-0.111538061803974,-0.234715096665998,0.825717499445873,-0.453168721135358,0.8257174994555,-0.453168721139863,-0.11137483216466,-0.234649828693803
30,-0.115172961635891,-0.237310472619209,0.820955401127399,-0.459084391321178,0.820955401136843,-0.459084391325786,-0.11500347988928,-0.237245823044363
30.5,-0.118840689786867,-0.239844867829839,0.816151961964095,-0.464932798556911,0.816151961973355,-0.464932798561611,-0.118664838004611,-0.239780959467055
31,-0.122540071305183,-0.242317926139241,0.811308355671677,-0.470713750987178,0.811308355680753,-0.470713750991965,-0.122357732849219,-0.24225488575057
31.5,-0.126269929143577,-0.244729316856851,0.806425755700487,-0.476427081607775,0.80642575570938,-0.476427081612642,-0.1260809887903,-0.244667275142817
32,-0.130029084766913,-0.247078734669485,0.801505334269582,-0.482072648285326,0.801505334278292,-0.482072648290265,-0.129833428831149,-0.247017826254493
32.5,-0.133816358753368,-0.249365899534646,0.796548261426263,-0.487650333714746,0.796548261434791,-0.48765033371975,-0.133613875211884,-0.249306262946636
33,-0.137630571388673,-0.251590556558115,0.791555704132949,-0.493160045319672,0.791555704141296,-0.493160045324735,-0.137421150002947,-0.25153233420245
33.5,-0.141470543252992,-0.253752475856164,0.786528825382808,-0.498601715100731,0.786528825390974,-0.498601715105847,-0.141254075690978,-0.253695813983747
34,-0.145335095799989,-0.25585145240268,0.781468783345345,-0.503975299436125,0.781468783353332,-0.503975299441288,-0.145111475756594,-0.255796501072298
34.5,-0.14922305192769,-0.25788730586156,0.776376730542764,-0.509280778838777,0.776376730550573,-0.509280778843982,-0.148992175243709,-0.257834218896483
35,-0.153133236540728,-0.25985988040469,0.77125381305773,-0.514518157673915,0.771253813065361,-0.514518157679154,-0.15289500131996,-0.259808815343531
35.5,-0.157064477103599,-0.261769044515876,0.766101169772924,-0.519687463840778,0.76610116978038,-0.519687463846048,-0.156818783827886,-0.261720162557763
36,-0.161015604184542,-0.263614690781079,0.76091993164264,-0.524788748421808,0.760919931649923,-0.524788748427102,-0.16076235582647,-0.263568156725156
36.5,-0.164985451989706,-0.26539673566532,0.755711220996461,-0.52982208530251,0.755711221003571,-0.529822085307824,-0.164724554122714,-0.265352717844636
37,-0.168972858887251,-0.267115119276625,0.750476150874971,-0.534787570764924,0.750476150881912,-0.534787570770253,-0.168704219792884,-0.26707378948646
37.5,-0.172976667921049,-0.26876980511739,0.745215824397351,-0.539685323057431,0.745215824404123,-0.539685323062769,-0.17270019869313,-0.268731338538074
38,-0.176995727313694,-0.270360779823558,0.739931334160554,-0.544515481943483,0.73993133416716,-0.544515481948826,-0.176711341959151,-0.270325354937847
38.5,-0.181028890958498,-0.271888052891983,0.734623761669756,-0.549278208231606,0.734623761676198,-0.549278208236952,-0.180736506494622,-0.271855851397057
39,-0.185075018900204,-0.273351656396383,0.729294176799638,-0.553973683288923,0.729294176805918,-0.553973683294265,-0.184774555448102,-0.273322863110543
39.5,-0.189132977804144,-0.274751644692283,0.723943637286049,-0.558602108540242,0.723943637292168,-0.558602108545576,-0.188824358678161,-0.27472644745641
40,-0.193201641413586,-0.27608809411133,0.718573188247504,-0.563163704954665,0.718573188253466,-0.563163704959989,-0.19288479320649,-0.276066683685196
40.5,-0.197279890995023,-0.277361102645406,0.713183861735997,-0.567658712521503,0.713183861741803,-0.567658712526812,-0.196954743658723,-0.277343672598892
41,-0.201366615771189,-0.278570789620899,0.707776676316482,-0.572087389717178,0.707776676322135,-0.57208738972247,-0.201033102692803,-0.278557536220224
41.5,-0.205460713341586,-0.279717295363589,0.702352636674433,-0.576450012964692,0.702352636679935,-0.576450012969961,-0.205118771414646,-0.279708417452597
42,-0.209561090090312,-0.280800780854492,0.696912733250827,-0.580746876087102,0.69691273325618,-0.580746876092345,-0.209210659780938,-0.280796479731092
42.5,-0.213666661581021,-0.281821427377098,0.69145794190387,-0.58497828975639,0.691457941909077,-0.584978289761606,-0.213307686988863,-0.28182190666491
43,-0.217776352938838,-0.282779436156382,0.685989223596789,-0.589144580938989,0.685989223601852,-0.589144580944173,-0.217408781852645,-0.282784901671671
43.5,-0.221889099219062,-0.283675027989984,0.680507524111006,-0.593246092339136,0.680507524115928,-0.593246092344286,-0.221512883166688,-0.283685687603918
44,-0.226003845762518,-0.284508442871937,0.675013773783969,-0.597283181841187,0.675013773788752,-0.597283181846299,-0.225618940055251,-0.28452450636825
44.5,-0.230119548537434,-0.285279939609336,0.669508887270936,-0.601256221951889,0.669508887275584,-0.601256221956961,-0.229725912308474,-0.285301618537413
45,-0.234235174467708,-0.285989795432319,0.663993763330008,-0.605165599243595,0.663993763334522,-0.605165599248626,-0.233832770704693,-0.286017302955745
45.5,-0.238349701747453,-0.286638305597711,0.658469284629663,-0.609011713799287,0.658469284634047,-0.609011713804273,-0.237938497318919,-0.286671856338311
46,-0.242462120141743,-0.287225782986711,0.652936317578114,-0.612794978660253,0.652936317582368,-0.612794978665192,-0.242042085817393,-0.287265592864086
46.5,-0.246571431273454,-0.287752557696959,0.647395712173724,-0.616515819277162,0.647395712177854,-0.616515819282051,-0.246142541738175,-0.287798843763497
47,-0.250676648896134,-0.288218976629316,0.641848301875809,-0.62017467296527,0.641848301879815,-0.620174672970109,-0.25023888275768,-0.288271956900669
47.5,-0.254776799152835,-0.288625403069685,0.636294903495079,-0.623771988364398,0.636294903498964,-0.623771988369184,-0.254330138943112,-0.288685296350663
48,-0.258870920820844,-0.28897221626619,0.630736317103037,-0.627308224904282,0.630736317106804,-0.627308224909012,-0.258415352990774,-0.289039241971997
48.5,-0.262958065542291,-0.289259811001986,0.625173325959617,-0.630783852275869,0.625173325963268,-0.630783852280542,-0.262493580450226,-0.289334188974723
49,-0.267037298040569,-0.289488597164011,0.619606696458381,-0.634199349909053,0.61960669646192,-0.634199349913669,-0.266563889934251,-0.289570547484311
49.5,-0.271107696322553,-0.289658999307904,0.614037178088576,-0.637555206457336,0.614037178092004,-0.637555206461891,-0.270625363314664,-0.289748742101575
50,-0.275168351866607,-0.289771456219354,0.608465503413379,-0.640851919289818,0.6084655034167,-0.640851919294312,-0.274677095903939,-0.28986921145884
50.5,-0.279218369796356,-0.289826420472084,0.602892388063669,-0.644089993990938,0.602892388066885,-0.644089993995369,-0.278718196622692,-0.289932407772538
51,-0.283256869040228,-0.289824357982667,0.597318530746648,-0.647269943868276,0.597318530749761,-0.647269943872643,-0.282747788153046,-0.289938796392391
51.5,-0.287282982476773,-0.28976574756234,0.591744613268684,-0.650392289468776,0.591744613271698,-0.650392289473078,-0.286765007077905,-0.289888855347304
52,-0.291295857065771,-0.289651080465953,0.586171300571727,-0.653457558103642,0.586171300574644,-0.653457558107878,-0.290769004006224,-0.289783074888061
52.5,-0.295294653965158,-0.289480859938148,0.580599240782672,-0.656466283382173,0.580599240785493,-0.656466283386342,-0.294758943684311,-0.289621957026887
53,-0.299278548633793,-0.289255600756866,0.575029065275059,-0.659419004754754,0.575029065277788,-0.659419004758855,-0.29873400509326,-0.289406015073894
53.5,-0.303246730920124,-0.288975828774178,0.56946138874251,-0.662316267065209,0.569461388745149,-0.662316267069241,-0.302693381532625,-0.289135773170389
54,-0.307198405136773,-0.288642080454463,0.563896809283309,-0.665158620112666,0.563896809285861,-0.665158620116628,-0.306636280690413,-0.288811765818991
54.5,-0.311132790121145,-0.288254902409863,0.55833590849555,-0.667946618223087,0.558335908498017,-0.66794661822698,-0.310561924699577,-0.288434537410426
55,-0.31504911928209,-0.287814850932912,0.552779251582294,-0.670680819830588,0.552779251584679,-0.67068081983441,-0.314469550181139,-0.288004641746852
55.5,-0.318946640632737,-0.287322491526193,0.54722738746618,-0.673361787068622,0.547227387468485,-0.673361787072373,-0.318358408274131,-0.287522641561474
56,-0.322824616809588,-0.28677839842879,0.541680848912955,-0.675990085371126,0.541680848915183,-0.675990085374805,-0.322227764652571,-0.286989108034184
56.5,-0.326682325078,-0.286183154139266,0.536140152663409,-0.678566283083662,0.536140152665562,-0.67856628308727,-0.326076899529719,-0.286404620302853
57,-0.330519057324187,-0.285537348934808,0.530605799573189,-0.681090951084611,0.530605799575269,-0.681090951088147,-0.329905107649894,-0.285769764969865
57.5,-0.334334120033933,-0.284841580386115,0.52507827476001,-0.68356466241641,0.52507827476202,-0.683564662419874,-0.33371169826819,-0.285085135603393
58,-0.338126834258188,-0.284096452867492,0.519558047757788,-0.685987991926853,0.51955804775973,-0.685987991930245,-0.33749599511847,-0.284351332232804
58.5,-0.341896535565814,-0.283302577061573,0.514045572677202,-0.688361515920435,0.514045572679078,-0.688361515923755,-0.341257336370093,-0.283568960837551
59,-0.345642573983742,-0.282460569457924,0.508541288372265,-0.690685811819698,0.508541288374077,-0.690685811822946,-0.344995074573896,-0.282738632828738
59.5,-0.349364313924889,-0.281571051844732,0.503045618612438,-0.692961457836548,0.503045618614189,-0.692961457839723,-0.348708576598031,-0.281860964522502
60,-0.353061134104242,-0.280634650792602,0.497558972259876,-0.695189032653474,0.497558972261568,-0.695189032656578,-0.352397223554392,-0.280936576604201
60.5,-0.356732427443575,-0.279651997129404,0.492081743451392,-0.697369115114613,0.492081743453027,-0.697369115117644,-0.35606041071645,-0.279966093582294
61,-0.3603776009654,-0.278623725404926,0.486614311784737,-0.699502283926555,0.486614311786317,-0.699502283929516,-0.359697547429479,-0.278950143230673
61.5,-0.363996075676827,-0.277550473343948,0.481157042508815,-0.701589117368829,0.481157042510342,-0.701589117371719,-0.363308057014322,-0.277889356018074
62,-0.367587286444176,-0.27643288128617,0.475710286717466,-0.703630193013935,0.475710286718943,-0.703630193016755,-0.366891376666034,-0.276784364523039
62.5,-0.371150681859326,-0.275271591611264,0.470274381546449,-0.705626087456836,0.470274381547877,-0.705626087459586,-0.370446957348979,-0.275635802832786
63,-0.374685724099008,-0.274067248147071,0.464849650373295,-0.707577376053779,0.464849650374676,-0.70757737605646,-0.373974263690217,-0.274444305924168
63.5,-0.378191888778468,-0.272820495558802,0.459436403019684,-0.709484632670319,0.45943640302102,-0.709484632672931,-0.377472773873349,-0.273210509024785
