"Freq [GHz]","re(St(P1,P1)) []","im(St(P1,P1)) []","re(St(P1,P2)) []","im(St(P1,P2)) []","re(St(P2,P1)) []","im(St(P2,P1)) []","re(St(P2,P2)) []","im(St(P2,P2)) []"
0,0.0053497326881029,0,0.994663833145751,0,0.994663826291799,0,0.00534972851937709,0
0.5,0.00580405962292119,0.00138823138740207,0.994093141386749,-0.00837581396500653,0.994093141142631,-0.00837581460068293,0.00580395872615469,0.00138879121762869
1,0.00617245741530503,0.00222674392695765,0.993415211453476,-0.0161661437268279,0.993415211573923,-0.0161661441028045,0.00617215654504122,0.00222800756582231
1.5,0.005989906349261,0.00303570363231209,0.992739429814907,-0.0240292876577364,0.992739429773088,-0.0240292880897535,0.00598960598672171,0.00303809691492241
2,0.00590332364097801,0.0038299491354632,0.991919608933109,-0.0317008145448821,0.991919608759451,-0.0317008149495042,0.00590292546871218,0.0038332886026442
2.5,0.00586997358776786,0.00463947936320253,0.991020626691792,-0.0391936171413043,0.991020626442838,-0.0391936174705911,0.00586949455545271,0.00464367640579866
3,0.00586756463292026,0.00546891226918689,0.990083435749074,-0.0465375873517999,0.990083435481713,-0.0465375875914109,0.00586703374241404,0.00547393278596253
3.5,0.00588534863884949,0.00631810713899217,0.989127526908187,-0.0537651216318746,0.989127526666122,-0.0537651217890467,0.00588478936114289,0.00632394043272733
4,0.0059180126056424,0.00718665728995216,0.988157756754828,-0.0609036808764047,0.988157756565453,-0.0609036809681145,0.00591744235796887,0.00719330270716956
4.5,0.00596285492338144,0.00807469384369153,0.987170767615029,-0.0679736377056477,0.987170767491587,-0.0679736377507192,0.00596228682632405,0.00808215533829415
5,0.00601850966553386,0.00898291830723608,0.986159448893573,-0.0749887956825068,0.986159448838844,-0.074988795697565,0.00601795404899963,0.00899120216864535
5.5,0.00608434718797946,0.00991250841216385,0.985115552513887,-0.0819578051483241,0.985115552523611,-0.0819578051463088,0.00608381261616819,0.00992162227432214
6,0.00616017870337698,0.0108650320347037,0.984031034834045,-0.0888856151385813,0.984031034899522,-0.0888856151286346,0.00615967264189987,0.0108749844219949
6.5,0.00624610479152204,0.0118423898017186,0.982898646008111,-0.095774658476584,0.982898646118006,-0.0957746584645465,0.0062456340435475,0.0118531899059908
7,0.00634243610724705,0.0128467832995183,0.981712119189854,-0.102625725130982,0.981712119331377,-0.102625725120092,0.00634200710524055,0.0128584408559442
7.5,0.00644965255569645,0.0138807028329437,0.980466167009501,-0.109438571094976,0.980466167169152,-0.10943857108655,0.00644927156271427,0.0138932280341093
8,0.00656838437483992,0.0149469299460159,0.979156397151575,-0.116212328707443,0.979156397315622,-0.116212328701464,0.00656805762829422,0.0149603333643134
8.5,0.00669940673023548,0.0160485515934541,0.977779203063753,-0.122945776660651,0.977779203218523,-0.122945776656249,0.00669914054809981,0.0160628440951225
9,0.00684364352082117,0.0171889842023085,0.976331655581375,-0.12963751410433,0.976331655713441,-0.129637514100145,0.00684344438240186,0.0172041768420947
9.5,0.00700217827034944,0.0183720068576441,0.974811405768222,-0.136286070483556,0.974811405864527,-0.136286070478022,0.00700205287875887,0.0183881107448611
10,0.00717627122271601,0.0196018035913532,0.973216601802781,-0.1428899728722,0.973216601850723,-0.14288997286373,0.00717622655292427,0.0196188297180746
10.5,0.00748313382092948,0.0205487672281777,0.971706039261601,-0.149552158593373,0.971706039310511,-0.149552158590109,0.00748337943920668,0.020566603569347
11,0.00780441729147316,0.0214909180828018,0.970162311730902,-0.156175816440085,0.970162311780204,-0.156175816441943,0.0078049660537958,0.0215095588323329
11.5,0.0081400435906416,0.0224280353667505,0.968586801788847,-0.1627630534772,0.968586801838007,-0.162763053484036,0.0081409081731485,0.0224474744908778
12,0.00848993110667667,0.0233598994805226,0.966980597850425,-0.169315907609557,0.966980597898959,-0.169315907621181,0.00849112399879356,0.0233801307244272
12.5,0.00885399466959214,0.0242862920715154,0.965344528130699,-0.175836324367278,0.965344528178175,-0.175836324383455,0.00885552816735219,0.024307308966212
13,0.0092321455617356,0.0252069960923791,0.963679193579622,-0.182326140144156,0.963679193625658,-0.182326140164623,0.00923403176129789,0.0252287919618555
13.5,0.00962429152911115,0.0261217958598317,0.961984999082942,-0.188787070933391,0.961984999127204,-0.188787070957863,0.00962654232049301,0.026144363828438
14,0.0100303367935149,0.0270304771139198,0.960262182462967,-0.1952207056434,0.96026218250517,-0.195220705671574,0.0100329638545348,0.0270538101140048
14.5,0.0104501820655039,0.0279328270777359,0.958510841007127,-0.201628503145607,0.958510841047034,-0.201628503177174,0.0104531968559476,0.0279569178575159
15,0.0108837245582511,0.0288286345175879,0.956730955404374,-0.208011792293091,0.956730955441789,-0.208011792327738,0.0108871383142622,0.0288534756492544
15.5,0.0113308580023102,0.0297176898036138,0.954922411084298,-0.214371774243638,0.954922411119062,-0.21437177428105,0.0113346817310137,0.0297432736916639
16,0.0117914726613354,0.0305997849708524,0.953085017036922,-0.220709526516073,0.953085017068915,-0.220709526555944,0.0117957171356999,0.0306261038606381
16.5,0.0122654553487994,0.0314747137807387,0.95121852224805,-0.22702600829988,0.951218522277187,-0.227026008341908,0.0122701311027389,0.0315017597672358
17,0.0127526894457344,0.0323422717830359,0.949322629921022,-0.233322066621941,0.949322629947243,-0.233322066665835,0.0127578067694569,0.0323700368198139
17.5,0.0132530549195512,0.0332022563781891,0.947397009675531,-0.239598443049264,0.947397009698805,-0.239598443094744,0.0132586238551567,0.0332307322865872
18,0.0137664283439593,0.034054466880082,0.945441307921811,-0.245855780672134,0.945441307942131,-0.245855780718933,0.0137724586812948,0.0340836453585767
18.5,0.0142926829200395,0.0348987045791833,0.943455156607261,-0.252094631168218,0.94345515662464,-0.252094631216082,0.0142991841928076,0.0349285772129477
19,0.0148316884985018,0.0357347728060817,0.941438180525276,-0.258315461795479,0.941438180539747,-0.258315461844169,0.0148386699806295,0.0357653310767234
19.5,0.0153833116031636,0.0365624769953592,0.939390003364712,-0.264518662200942,0.939390003376321,-0.264518662250236,0.0153907823054332,0.0365937122908364
20,0.0159474154556892,0.0373816247498224,0.937310252664684,-0.270704550964319,0.937310252673492,-0.270704551014005,0.0159553841226359,0.0374135283745267
20.5,0.0165238600016296,0.0381920259050348,0.935198563824559,-0.276873381821299,0.935198563830637,-0.276873381871182,0.0165323351086994,0.0382245890900332
21,0.017112501937795,0.0389934925941497,0.933054583303768,-0.283025349531749,0.933054583307198,-0.28302534958165,0.0171214916887718,0.0390267065075869
21.5,0.0177131947409936,0.0397858393129973,0.930877971131251,-0.289160595373994,0.930877971132122,-0.289160595423746,0.0177227070656895,0.0398196950706484
22,0.0183257886981762,0.0405688829854312,0.928668402830183,-0.295279212258604,0.928668402828591,-0.295279212308054,0.0183358312503922,0.0406033716613874
22.5,0.0189501309380177,0.0413424430288607,0.926425570850474,-0.30138124946434,0.926425570846521,-0.301381249513347,0.0189607110937632,0.04137755566636
23,0.0195860654639644,0.0421063414199714,0.924149185589474,-0.3074667170056,0.924149185583264,-0.307466717054038,0.0195971903199414,0.0421420690423557
23.5,0.0202334331887806,0.0428604027605988,0.921838976070407,-0.313535589645518,0.921838976062049,-0.313535589693273,0.0202451095611323,0.0428967363823953
24,0.0208920719706239,0.0436044543436924,0.919494690338331,-0.319587810572083,0.919494690327934,-0.319587810619051,0.0209043063939355,0.043641384981812
24.5,0.0215618166506762,0.0443383262193795,0.917116095624764,-0.325623294756608,0.917116095612439,-0.325623294802694,0.0215746153772308,0.0443758449044285
25,0.0222424990923521,0.0450618512610526,0.914702978324543,-0.33164193201501,0.914702978310402,-0.331641932060134,0.0222558680916378,0.0450999490487489
25.5,0.0229339482221133,0.0457748652314531,0.912255143821828,-0.337643589792696,0.912255143805984,-0.337643589836783,0.0229478931805709,0.0458135332141447
26,0.0236359900719088,0.0464772068487342,0.909772416196434,-0.343628115693662,0.909772416178997,-0.343628115736647,0.0236505163929194,0.0465164361670127
26.5,0.0243484478232608,0.0471687178524283,0.907254637836651,-0.349595339773946,0.907254637817732,-0.349595339815777,0.0243635606273594,0.0472084997068338
27,0.0250711418530092,0.0478492430692963,0.904701668980473,-0.355545076618722,0.90470166896018,-0.355545076659349,0.0250868459783242,0.0478895687321117
27.5,0.0258038897807338,0.0485186304790224,0.902113387203459,-0.361477127221339,0.902113387181899,-0.361477127260723,0.0258201897836365,0.0485594913061429
28,0.0265465065178662,0.0491767312796931,0.899489686868322,-0.367391280681588,0.8994896868456,-0.367391280719696,0.0265634066738208,0.0492181187225809
28.5,0.0272988043184929,0.0498233999530338,0.896830478548687,-0.373287315739268,0.896830478524906,-0.373287315776073,0.0273163086230994,0.0498653055707463
29,0.0280605928318666,0.0504584943293549,0.894135688437188,-0.379165002158018,0.894135688412449,-0.379165002193499,0.0280787050020784,0.0505009098006424
29.5,0.0288316791566139,0.0510818756521543,0.891405257746175,-0.385024101973238,0.891405257720576,-0.38502410200738,0.028850402632121,0.0511247927876278
30,0.0296118678966565,0.0516934086423516,0.888639142107701,-0.390864370616777,0.888639142081336,-0.390864370649571,0.0296312058414117,0.0517368193967208
30.5,0.0304009612188202,0.0522929615620993,0.885837310978082,-0.396685557930068,0.885837310951044,-0.396685557961509,0.0304209165226996,0.0523368580464697
31,0.0311987589121416,0.0528804062781176,0.882999747051241,-0.402487409076328,0.882999747023619,-0.402487409106415,0.0312193341927141,0.0529247807723587
31.5,0.0320050584488521,0.0534556183245453,0.880126445684069,-0.408269665361535,0.880126445655951,-0.408269665390272,0.0320262560532374,0.0535004632897186
32,0.0328196550470174,0.0540184769652287,0.877217414336271,-0.414032064973004,0.877217414307738,-0.414032065000398,0.0328414770538149,0.0540637850560753
32.5,0.0336423417348218,0.0545688652554305,0.874272672026519,-0.419774343643574,0.874272671997654,-0.419774343669636,0.0336647899560811,0.0546146293329279
33,0.0344729094164659,0.0551066701029199,0.871292248806211,-0.425496235248655,0.87129224877709,-0.425496235273399,0.0344959853996723,0.0551528832469004
33.5,0.0353111469396427,0.0556317823284028,0.868276185251675,-0.431197472342724,0.868276185222373,-0.431197472366168,0.035334851969692,0.0556784378502333
34,0.0361568411645637,0.056144096725256,0.865224531975347,-0.436877786641197,0.865224531945936,-0.43687778666336,0.0361811762656902,0.0561911881805915
34.5,0.0370097770344859,0.0566435121185509,0.862137349156118,-0.442536909453047,0.862137349126666,-0.442536909473951,0.0370347429721107,0.05669103332015
35,0.037869737647695,0.0571299314233179,0.859014706088858,-0.448174572069013,0.859014706059431,-0.448174572088683,0.0378953349301578,0.0571778764539319
35.5,0.038736504330888,0.0576032617020399,0.855856680752914,-0.453790506109762,0.855856680723575,-0.453790506128225,0.03876273321102,0.0576516249273785
36,0.0396098567138913,0.058063414221354,0.852663359399266,-0.459384443837951,0.852663359370073,-0.459384443855235,0.0396367171903861,0.0581121903031234
36.5,0.0404895728056534,0.0585103045079379,0.84943483615588,-0.464956118437719,0.849434836126892,-0.464956118453855,0.0405170646241837,0.0585594884169609
37,0.0413754290714208,0.0589438524035754,0.846171212650762,-0.470505264264821,0.846171212622033,-0.470505264279841,0.0414035517254549,0.0589934394329956
37.5,0.0422672005110205,0.0593639821193855,0.842872597652114,-0.476031617070268,0.842872597623693,-0.476031617084204,0.0422959532422723,0.0594139678979561
38,0.0431646607381531,0.0597706222892289,0.83953910672497,-0.481534914200055,0.839539106696908,-0.481534914212941,0.043194042536613,0.0598210027946892
38.5,0.044067582060584,0.0601637060222738,0.83617086190369,-0.487014894773328,0.836170861876033,-0.487014894785199,0.0440975916640518,0.06021447759482
39,0.0449757355611206,0.0605431709547507,0.832767991379615,-0.492471299841064,0.832767991352406,-0.492471299851957,0.045006371454175,0.0605943303105932
39.5,0.0458888911792411,0.0609089593009007,0.829330629203244,-0.497903872527161,0.829330629176523,-0.497903872537114,0.045920151591562,0.0609605035459175
40,0.0468068177932376,0.0612610179031504,0.825858915000262,-0.503312358153633,0.825858914974068,-0.503312358162683,0.0468387006971909,0.0613129445466276
40.5,0.0477292833027063,0.0615992982815337,0.822352993700761,-0.508696504351437,0.82235299367513,-0.508696504359622,0.0477617864100981,0.0616516052499919
41,0.048656054711222,0.0619237566824187,0.81881301528103,-0.514056061158299,0.818813015255996,-0.514056061165659,0.0486891754691142,0.0619764423335168
41.5,0.0495868982089879,0.0622343541265664,0.815239134517274,-0.51939078110479,0.815239134492868,-0.519390781111364,0.0496206337944652,0.0622874172630753
42,0.050521579255263,0.0625310564565935,0.811631510750675,-0.52470041928976,0.811631510726925,-0.524700419295587,0.0505559265690215,0.0625844963404226
42.5,0.0514598626603217,0.0628138343839096,0.807990307663211,-0.529984733446114,0.807990307640144,-0.529984733451234,0.0514948183189463,0.0628676507501637
43,0.052401512666686,0.0630826635351877,0.80431569306368,-0.535243483997865,0.804315693041322,-0.535243484002318,0.0524370729934651,0.0631368566062308
43.5,0.0533462930293431,0.0633375244984733,0.800607838683395,-0.540476434109247,0.800607838661767,-0.540476434113074,0.0533824540434605,0.0633920949979628
44,0.054293967094626,0.0635784028690185,0.79686691998104,-0.545683349726645,0.796866919960162,-0.545683349729885,0.0543307244985501,0.0636333520358643
44.5,0.0552442978773987,0.0638052892949493,0.793093115956212,-0.550863999613971,0.793093115936105,-0.550863999616664,0.0552816470422768,0.0638606188971385
45,0.0561970481361544,0.06401817952288,0.789286608971194,-0.556018155382119,0.789286608951871,-0.556018155384304,0.0562349840849979,0.0640738918711015
45.5,0.0571519804455733,0.0642170744436054,0.7854475845805,-0.561145591512998,0.785447584561978,-0.561145591514716,0.0571904978340109,0.0642731724045813
46,0.0581088572660611,0.0644019801379913,0.78157623136782,-0.566246085378657,0.781576231350111,-0.566246085379947,0.0581479503603989,0.0644584671474056
46.5,0.0590674410097091,0.0645729079232129,0.777672740789938,-0.571319417255913,0.777672740773051,-0.571319417256813,0.0591071036620298,0.0646297879981086
47,0.0600274941020525,0.0647298743994724,0.773737307027281,-0.576365370336897,0.773737307011227,-0.576365370337446,0.0600677197220597,0.0647871521499538
47.5,0.0609887790389521,0.0648729014973476,0.769770126840747,-0.581383730735857,0.769770126825533,-0.581383730736093,0.0610295605622295,0.0649305821373866
48,0.0619510584378078,0.0650020165259039,0.765771399434476,-0.586374287492553,0.765771399420108,-0.586374287492516,0.0619923882901524,0.0650601058830217
48.5,0.0629140950822441,0.0651172522217072,0.761741326324268,-0.591336832572525,0.76174132631075,-0.59133683257225,0.062955965139693,0.0651757567452417
49,0.0638776519592772,0.0652186467988488,0.757680111211362,-0.596271160864496,0.757680111198697,-0.59627116086402,0.0639200535034258,0.0652775735664674
49.5,0.0648414922878772,0.0653062440000823,0.753587959861287,-0.601177070175161,0.753587959849475,-0.601177070174518,0.0648844159560499,0.0653656007221343
50,0.065805379537661,0.0653800931491282,0.749465079987546,-0.606054361221553,0.749465079976588,-0.606054361220781,0.0658488152674817,0.0654398881703495
50.5,0.066769077436343,0.0654402492041573,0.745311681139893,-0.610902837621216,0.745311681129787,-0.610902837620349,0.0668130144042022,0.065500491502154
51,0.0677323499643376,0.065486772812402,0.741127974596964,-0.615722305880318,0.741127974587706,-0.61572230587939,0.0677767765172553,0.0655474719922214
51.5,0.0686949613347589,0.0655197303657521,0.736914173263066,-0.62051257537991,0.736914173254652,-0.620512575378954,0.0687398649150967,0.0655808966497389
52,0.0696566759567903,0.0655391940570786,0.732670491568914,-0.625273458360434,0.732670491561339,-0.625273458359484,0.0697020430192697,0.0656008382690507
52.5,0.0706172583801803,0.0655452419368802,0.728397145376146,-0.630004769904653,0.728397145369402,-0.630004769903739,0.0706630743006478,0.0656073754795038
53,0.0715764732183012,0.0655379579696575,0.724094351885416,-0.634706327919083,0.724094351879496,-0.634706327918237,0.0716227221936955,0.0656005927936863
53.5,0.0725340850469228,0.0655174320891685,0.719762329547929,-0.639377953114076,0.719762329542823,-0.639377953113327,0.0725807499859203,0.065580580652995
54,0.0734898582754714,0.0654837602514143,0.715401297980249,-0.644019468982621,0.715401297975946,-0.644019468981999,0.0735369206793438,0.0655474354691086
54.5,0.0744435569871865,0.0654370444838139,0.711011477882234,-0.648630701777974,0.711011477878724,-0.648630701777507,0.0744909968204729,0.0655012596595193
55,0.0753949447441417,0.0653773929285323,0.706593090957979,-0.653211480490197,0.706593090955249,-0.653211480489912,0.0754427402948794,0.0654421616747407
55.5,0.0763437843526705,0.0653049198773122,0.702146359839621,-0.657761636821674,0.702146359837658,-0.657761636821598,0.076391912082093,0.0653702560141455
56,0.0772898375842378,0.0652197457944173,0.697671508013903,-0.662281005161687,0.697671508012692,-0.662281005161844,0.0773382719661096,0.0652856632265833
56.5,0.0782328648463268,0.0651219973233212,0.693168759751376,-0.6667694225601,0.693168759750903,-0.666769422560517,0.0782815781964201,0.0651885098909232
57,0.079172624797409,0.0650118072716506,0.688638340038147,-0.671226728700233,0.688638340038395,-0.671226728700932,0.0792215870940819,0.065078928570467
57.5,0.080108873899598,0.0648893145674482,0.684080474510054,-0.675652765870952,0.684080474511006,-0.675652765871955,0.0801580525970409,0.0649570577336903
58,0.0810413659021927,0.0647546641780843,0.679495389389205,-0.68004737893805,0.679495389390845,-0.680047378939379,0.081090725738689,0.0648230416320008
58.5,0.0819698512490156,0.0646080069810426,0.674883311422768,-0.684410415314951,0.674883311425078,-0.684410415316627,0.0820193540535593,0.0646770301230554
59,0.0828940764023326,0.0644494995732326,0.670244467823957,-0.688741724932787,0.670244467826916,-0.688741724934829,0.0829436809042453,0.0645191784256248
59.5,0.083813783076324,0.0642793040024422,0.665579086215104,-0.693041160209885,0.665579086218693,-0.69304116021231,0.0838634447241151,0.0643496467889614
60,0.0847287073736445,0.064097587400857,0.660887394572795,-0.697308576020696,0.660887394576995,-0.697308576023522,0.0847783781713775,0.0641686000560753
60.5,0.0856385788197627,0.063904521496287,0.656169621174952,-0.701543829664216,0.656169621179742,-0.70154382966746,0.0856882071916952,0.0639762070961777
61,0.0865431192917746,0.0637002819716928,0.651425994549839,-0.705746780831915,0.651425994555197,-0.705746780835592,0.0865926499890713,0.0637726400768198
61.5,0.0874420418414508,0.0634850476378038,0.646656743426904,-0.709917291575213,0.646656743432809,-0.709917291579335,0.0874914159084512,0.0635580735409162
62,0.0883350494168932,0.0632589993770992,0.641862096689425,-0.714055226272529,0.641862096695854,-0.714055226277111,0.0883842042387715,0.063332683247968
62.5,0.0892218334937279,0.0630223188101817,0.637042283328891,-0.718160451595934,0.637042283335822,-0.718160451600986,0.0892707029524727,0.0630966447325461
63,0.0901020726358944,0.0627751866279052,0.632197532401084,-0.722232836477425,0.632197532408494,-0.722232836482959,0.090150587407322,0.0628501315267144
63.5,0.0909754310184993,0.0625177805248195,0.627328072983798,-0.726272252074857,0.627328072991664,-0.726272252080881,0.091023519049415,0.062593312987063
64,0.0918415569616476,0.0622502726622208,0.622434134136171,-0.730278571737539,0.62243413414447,-0.730278571744062,0.0918891441730381,0.0623263516620554
