"Freq [GHz]","re(St(P1,P1)) []","im(St(P1,P1)) []","re(St(P1,P2)) []","im(St(P1,P2)) []","re(St(P2,P1)) []","im(St(P2,P1)) []","re(St(P2,P2)) []","im(St(P2,P2)) []"
0,0.00575998703374125,0,0.994251153271762,0,0.994251151874778,0,0.00575998127789035,0
0.5,0.00629195410067851,0.000626425540005471,0.9936362806964,-0.00807805642231685,0.993636280145971,-0.00807805632956615,0.00629189605596281,0.000626466821806559
1,0.00673633199271073,0.000621829202586355,0.992982303050917,-0.0155045986351361,0.992982303098758,-0.0155045984937878,0.00673617078423483,0.000621937234019043
1.5,0.00669631738314003,0.000275862553978712,0.992359464776774,-0.0229970351086042,0.992359464889645,-0.0229970349741375,0.00669074127972458,0.000274841584388952
2,0.00673750943943219,7.90308240503634E-005,0.99165649974771,-0.0303038722759048,0.991656499892904,-0.0303038721777043,0.00673166456827445,7.67201650422322E-005
2.5,0.00680156576362911,-3.99511604776137E-005,0.99092912641851,-0.0374680360345927,0.990929126562988,-0.037468035976655,0.00679669421273132,-4.24889663026562E-005
3,0.00686952029788834,-0.000111624358190454,0.990197078665067,-0.0445340369779927,0.990197078786832,-0.0445340369509601,0.00686568876404214,-0.000113643795129903
3.5,0.00693372891079802,-0.000152733509638736,0.989459752598497,-0.0515349028344314,0.989459752686816,-0.0515349028256935,0.0069306717649158,-0.000153860785788495
4,0.00699126301553421,-0.000173708640454961,0.988708300158245,-0.0584913025409604,0.988708300210193,-0.0584913025395917,0.00698867668719716,-0.000173818493065525
4.5,0.00704141609794906,-0.000181381687649917,0.987932038355952,-0.0654146486846408,0.987932038373114,-0.0654146486828662,0.00703905188867027,-0.000180485047059697
5,0.00708450909027336,-0.000180300354252871,0.987121103870555,-0.0723103571818111,0.987121103856815,-0.0723103571749224,0.00708218910160618,-0.000178470571221112
5.5,0.00712128096466891,-0.000173504099599597,0.986267243615198,-0.0791802410894418,0.986267243575474,-0.0791802410752069,0.00711888816280004,-0.000170835240774991
6,0.00715258404196395,-0.000163025719185583,0.985363835397124,-0.086024053573496,0.985363835336709,-0.0860240535515038,0.00715004677269804,-0.000159611587194242
6.5,0.00717924150699367,-0.000150224738251659,0.984405654078962,-0.0928404246434784,0.984405654003217,-0.0928404246146082,0.00717651954961751,-0.00014614972873872
7,0.00720198921455589,-0.00013601008614561,0.983388595044223,-0.099627412866508,0.983388594958448,-0.0996274128325068,0.00719906311162472,-0.000131346238752883
7.5,0.00722145936069196,-0.000120988698769864,0.982309429141113,-0.106382824575873,0.982309429050514,-0.106382824539042,0.00721832285442481,-0.000115795716278733
8,0.00723818352353001,-0.000105564634514721,0.981165606908811,-0.113104395802352,0.981165606818496,-0.113104395765323,0.00723483842059472,-9.98911507030797E-005
8.5,0.00725260354948831,-9.00052606298551E-005,0.979955109381691,-0.119789893890114,0.97995510929669,-0.119789893855687,0.00724905633109671,-8.38904950204444E-005
9,0.00726508463946533,-7.44855752610185E-005,0.97867633692917,-0.126437172257854,0.978676336854445,-0.126437172228879,0.00726134427151157,-6.7960974200254E-005
9.5,0.00727592805324034,-5.91180070568242E-005,0.977328027236834,-0.133044197848735,0.977328027177295,-0.133044197828019,0.00727200460041091,-5.22087073377975E-005
10,0.0072853823981305,-4.39725444043582E-005,0.975909194909095,-0.139609062693309,0.975909194869603,-0.139609062683562,0.00728128616766651,-3.6698611325825E-005
10.5,0.0073575717920081,-7.01307091865999E-005,0.974546274710087,-0.146233335770038,0.97454627467084,-0.146233335758264,0.00735335800549148,-6.24401741471381E-005
11,0.00743228336772234,-9.96026703945496E-005,0.973145252169746,-0.152825691199808,0.973145252130947,-0.152825691186047,0.00742794952568367,-9.14887637550876E-005
11.5,0.00750938399313562,-0.000132502051227057,0.971707468578913,-0.159387372179209,0.971707468540749,-0.159387372163518,0.00750492798887607,-0.000123957896008609
12,0.00758873648221595,-0.000168936832969813,0.970234059326796,-0.165919626382782,0.970234059289444,-0.165919626365241,0.00758415660525105,-0.000159955469742012
12.5,0.00767019985630005,-0.00020900921107625,0.968725970310737,-0.172423685228751,0.968725970274353,-0.172423685209452,0.00766549479416342,-0.000199583622914279
13,0.00775362961061352,-0.000252815464398815,0.967183975114805,-0.178900747034918,0.967183975079533,-0.178900747013966,0.00774879844904727,-0.000242938601810572
13.5,0.0078388779853574,-0.000300445837783325,0.965608692368876,-0.185351963720069,0.965608692334839,-0.185351963697578,0.00783392020687856,-0.00029011064349449
14,0.00792579424061993,-0.000351984438158759,0.964000602825807,-0.191778430667515,0.964000602793116,-0.191778430643609,0.00792070972150347,-0.000341183871641615
14.5,0.00801422493441359,-0.000407509144230378,0.962360065807837,-0.198181179354032,0.962360065776584,-0.198181179328835,0.0080090139401085,-0.000396236205878253
15,0.00810401420309775,-0.000467091529870789,0.960687334771964,-0.204561172352963,0.960687334742224,-0.204561172326605,0.00809867738211531,-0.000455339284719081
15.5,0.00819500404346868,-0.000530796801220479,0.958982571827414,-0.21091930033937,0.958982571799251,-0.210919300311984,0.00818954241978409,-0.000518558402106795
16,0.00828703459579513,-0.000598683747494277,0.957245861106657,-0.21725638075306,0.95724586108012,-0.217256380724776,0.00828144955981019,-0.000585952457572425
16.5,0.00837994442708667,-0.0006708047054369,0.955477220945883,-0.223573157808404,0.955477220921005,-0.223573157779351,0.00837423772520676,-0.000657573919945253
17,0.00847357081387973,-0.000747205537343199,0.953676614872999,-0.229870303575387,0.953676614849804,-0.229870303545687,0.0084677445367729,-0.000733468804545279
17.5,0.00856775002385385,-0.000827925622509218,0.951843961432669,-0.236148419891869,0.951843961411169,-0.236148419861648,0.00856180659344419,-0.000813676663734997
18,0.00866231759558894,-0.00091299786194754,0.949979142900351,-0.242408040901376,0.94997914288055,-0.242408040870752,0.00865625975086731,-0.000898230590637317
18.5,0.0087571086157891,-0.00100244869616217,0.948082012952479,-0.248649636042759,0.948082012934369,-0.248649636011844,0.00875093939750971,-0.000987157235861291
19,0.00885195799332938,-0.00109629813572831,0.946152403369107,-0.254873613347174,0.946152403352675,-0.254873613316076,0.00884568072767411,-0.00108047683696788
19.5,0.00894670072948367,-0.00119455980442695,0.944190129850058,-0.261080322923914,0.944190129835282,-0.261080322892736,0.00894031901077569,-0.00117820326042062
20,0.0090411721837278,-0.00129724099459372,0.942194997026737,-0.267270060539333,0.942194997013591,-0.26727006050817,0.00903468985628236,-0.00128034405570743
20.5,0.00913520833452153,-0.00140434273436285,0.940166802750418,-0.273443071212903,0.940166802738869,-0.273443071181847,0.00912862947372001,-0.00138690052131207
21,0.00922864603450946,-0.00151585986642777,0.938105341734587,-0.27959955277119,0.938105341724597,-0.279599552740325,0.00922197492719057,-0.00149786778215932
21.5,0.00932132325960289,-0.00163178113790075,0.936010408624517,-0.285739659314669,0.936010408616046,-0.285739659284075,0.00931456438385841,-0.00161323487813658
22,0.00941307935142255,-0.00175208930088844,0.933881800562102,-0.29186350456412,0.933881800555107,-0.291863504533869,0.00940623735590218,-0.00173298486328388
22.5,0.00950375525264019,-0.00187676122327485,0.931719319308423,-0.297971165062934,0.931719319302855,-0.297971165033094,0.00949683493544284,-0.00185709491520214
23,0.00959319373474105,-0.00200576800928487,0.929522772980849,-0.304062683219596,0.929522772976661,-0.304062683190229,0.00958620002200605,-0.0019855364542074
23.5,0.00968123961781636,-0.00213907512931022,0.927291977455935,-0.310138070180858,0.927291977453075,-0.310138070152022,0.00967417754209188,-0.00211827527175257
24,0.00976773998197633,-0.00227664255849414,0.925026757483941,-0.316197308531133,0.92502675748236,-0.31619730850288,0.00976061466047029,-0.00225527166760564
24.5,0.00985254437004174,-0.00241842492354194,0.922726947555803,-0.322240354817506,0.922726947555446,-0.322240354789882,0.00984536098284117,-0.00239648059525721
25,0.00993550498119555,-0.00256437165721635,0.920392392558582,-0.328267141902737,0.920392392559396,-0.328267141875785,0.00992826874954611,-0.00254185181503819
25.5,0.0100164768552974,-0.00271442715997039,0.91802294825118,-0.334277581150857,0.918022948253113,-0.334277581124613,0.0100091930200335,-0.00269133005437761
26,0.0100953180476252,-0.00286853096814776,0.915618481588082,-0.340271564451524,0.915618481591079,-0.340271564426024,0.0100879918478327,-0.00284485517466759
26.5,0.010171889793817,-0.00302661792817394,0.913178870915387,-0.346248966090467,0.913178870919396,-0.34624896606574,0.0101645264458157,-0.00300236234413975
27,0.0102460566648362,-0.00318861837618911,0.910704006060176,-0.352209644474018,0.910704006065144,-0.35220964445009,0.0102386613415595,-0.00316378221622604
27.5,0.0103176867118154,-0.00335445832251402,0.908193788331435,-0.358153443716158,0.908193788337311,-0.358153443693051,0.0103102645226614,-0.0033290411127862
28,0.0103866516006584,-0.00352405964039604,0.905648130448239,-0.364080195096669,0.90564813045497,-0.364080195074403,0.0103792075718923,-0.00349806121166374
28.5,0.010452826736335,-0.00369734025844415,0.903066956408686,-0.369989718398945,0.903066956416223,-0.369989718377535,0.010445365792102,-0.00367076073798045
29,0.0105160913768105,-0.00387421435618762,0.900450201311139,-0.37588182313587,0.900450201319433,-0.375881823115331,0.0105086183208314,-0.0038470541586062
29.5,0.0105763287366049,-0.00405459256219398,0.897797811137604,-0.381756309671916,0.897797811146606,-0.381756309652256,0.0105688482346082,-0.00402685237924216
30,0.0106334260799981,-0.00423838215418071,0.895109742507631,-0.387612970249241,0.895109742517294,-0.387612970230469,0.0106259426429484,-0.00421006294356219
30.5,0.0106872748039314,-0.00442548726057534,0.892385962409801,-0.393451589925246,0.89238596242008,-0.393451589907367,0.0106797927721032,-0.00439659023386341
31,0.0107377705106868,-0.00461580906299552,0.88962644791678,-0.399271947428581,0.88962644792763,-0.399271947411598,0.0107302940386265,-0.00458633567268918
31.5,0.0107848130704465,-0.00480924599910004,0.886831185888925,-0.405073815940204,0.886831185900303,-0.405073815924118,0.0107773461128665,-0.00477919792491321
32,0.0108283066738755,-0.00500569396532824,0.884000172670639,-0.410856963805643,0.884000172682504,-0.410856963790454,0.0108208529725161,-0.00497507309975553
32.5,0.010868159874879,-0.0052050465190141,0.881133413782915,-0.416621155184213,0.881133413795227,-0.416621155169918,0.0108607229463679,-0.00517385495225553
33,0.0109042856237319,-0.00540719507940302,0.878230923614942,-0.422366150640487,0.878230923627661,-0.422366150627081,0.0108968687484649,-0.00537543508371741
33.5,0.0109366012907755,-0.005612029127116,0.875292725117091,-0.42809170768296,0.875292725130179,-0.428091707670437,0.010929207502846,-0.00557970314066591
34,0.0109650286809247,-0.0058194364016162,0.87231884949718,-0.433797581254453,0.872318849510601,-0.433797581242807,0.0109576607591101,-0.00578654701188031
34.5,0.0109894940392243,-0.00602930309625593,0.869309335921521,-0.43948352417842,0.869309335935243,-0.439483524167642,0.0109821544990462,-0.0059958530230817
35,0.0110099280477337,-0.00624151405051854,0.866264231221957,-0.445149287565021,0.866264231235945,-0.445149287555103,0.0110026191345937,-0.00620750612887344
35.5,0.0110262658140111,-0.00645595293905843,0.863183589609782,-0.450794621180477,0.863183589624005,-0.450794621171406,0.0110189894974118,-0.00642139010156328
36,0.0110384468515157,-0.00667250245720263,0.860067472397281,-0.456419273782938,0.860067472411709,-0.456419273774703,0.0110312048203557,-0.00663738771650402
36.5,0.0110464150522204,-0.00689104450257538,0.856915947727362,-0.462022993427824,0.856915947741964,-0.462022993420413,0.0110392087111645,-0.00685538093362725
37,0.0110501186517804,-0.00711146035253618,0.853729090311639,-0.467605527745342,0.853729090326389,-0.467605527738741,0.011042949118689,-0.00707525107485518
37.5,0.0110495101875771,-0.00733363083714567,0.850506981177199,-0.47316662419263,0.850506981192071,-0.473166624186825,0.0110423782919864,-0.00729687899710252
38,0.011044546449995,-0.00755743650740581,0.847249707422135,-0.478706030282807,0.847249707437103,-0.478706030277785,0.0110374527326213,-0.00752014526061451
38.5,0.0110351884272663,-0.007782757798527,0.843957361979871,-0.484223493792956,0.843957361994914,-0.484223493788701,0.011028133140525,-0.00774493029238743
39,0.0110214012442635,-0.00800947518800954,0.840630043392256,-0.489718762952919,0.840630043407349,-0.489718762949415,0.0110143843537667,-0.00797111454446442
39.5,0.0110031540955704,-0.00823746934835778,0.837267855591256,-0.495191586616616,0.83726785560638,-0.495191586613846,0.0109961752825847,-0.00819857864691254
40,0.0109804201732228,-0.00846662129424092,0.833870907689158,-0.500641714417423,0.833870907704292,-0.500641714415372,0.0109734788380532,-0.00842720355529947
40.5,0.0109531765894676,-0.00869681252397558,0.830439313777028,-0.506068896909038,0.830439313792154,-0.506068896907689,0.0109462718557346,-0.00865687069253906
41,0.0109214042949043,-0.00892792515518448,0.826973192731251,-0.511472885693104,0.826973192746353,-0.511472885692439,0.0109145350146825,-0.00888746208496172
41.5,0.010885087992381,-0.00915984205455189,0.823472668027885,-0.516853433534766,0.823472668042945,-0.516853433534769,0.0108782527521591,-0.00911886049251465
42,0.0108442160469921,-0.00939244696157326,0.819937867564579,-0.522210294467227,0.819937867579583,-0.522210294467881,0.0108374131744208,-0.00935094953300641
42.5,0.0107987803925467,-0.00962562460625671,0.816368923489793,-0.52754322388626,0.816368923504727,-0.527543223887546,0.0107920079639272,-0.00958361380032924
43,0.0107487764348478,-0.00985926082071742,0.812765972039055,-0.532851978635562,0.812765972053905,-0.532851978637463,0.0107420322833292,-0.00981673897661717
43.5,0.010694202952135,-0.010093242644663,0.809129153377957,-0.538136317083751,0.809129153392713,-0.538136317086251,0.010687484676571,-0.0100502119383119
44,0.0106350619930241,-0.0103274584247447,0.805458611451658,-0.543395999193729,0.805458611466308,-0.543395999196808,0.0106283669674506,-0.0102839208561349
44.5,0.010571358772282,-0.010561797907801,0.801754493840579,-0.548630786585065,0.801754493855115,-0.548630786588707,0.0105646841559687,-0.0105177552889678
45,0.0105031015647466,-0.010796152328022,0.798016951622061,-0.55384044259002,0.798016951636472,-0.553840442594208,0.0104964443127825,-0.0107516062716709
45.5,0.0104303015977197,-0.0110304144880693,0.794246139237702,-0.559024732303736,0.794246139251981,-0.559024732308451,0.0104236584720852,-0.0109853663968859
46,0.0103529729421267,-0.011264478834222,0.790442214366141,-0.564183422629101,0.790442214380281,-0.564183422634328,0.0103463405232097,-0.011218929890871
46.5,0.0102711324027379,-0.0114982415256162,0.786605337801019,-0.569316282316744,0.786605337815014,-0.569316282322464,0.0102645071012513,-0.0114521926834419
47,0.0101847994077385,-0.0117316004976646,0.782735673333905,-0.574423082000556,0.782735673347751,-0.574423082006754,0.0101781774769922,-0.0116850524721047
47.5,0.0100939958979118,-0.0119644555197518,0.778833387641942,-0.579503594229138,0.778833387655633,-0.579503594235797,0.0100873734464003,-0.0119174087804726
48,0.00999874621570618,-0.0121967082473113,0.774898650180002,-0.584557593493482,0.774898650193536,-0.584557593500585,0.00999211921996385,-0.0121491630110649
48.5,0.00989907699441578,-0.0124282622684142,0.770931633077135,-0.589584856251232,0.770931633090509,-0.589584856258764,0.00989244131210648,-0.0123802184926211
49,0.00979501704773533,-0.0126590231449791,0.766932511037117,-0.594585160947781,0.766932511050328,-0.594585160955726,0.00978836843092495,-0.0126104805220341
49.5,0.0096865972598924,-0.012888898448747,0.762901461242898,-0.599558288034473,0.762901461255946,-0.599558288042816,0.00967993136847362,-0.0128398564010519
50,0.00957385047657716,-0.0131177977921683,0.758838663264771,-0.604504019984148,0.758838663277655,-0.604504019992874,0.00956716289180526,-0.0130682554678777
50.5,0.00945681139687538,-0.0133456328543385,0.754744298972091,-0.609422141304229,0.754744298984811,-0.609422141313323,0.00945009763497179,-0.0132955891238175
51,0.00933551646637731,-0.0135723174021458,0.750618552448367,-0.614312438547566,0.750618552460923,-0.614312438557015,0.00932877199217519,-0.013521770855131
51.5,0.00921000377165415,-0.0137977673067865,0.746461609909585,-0.619174700321201,0.74646160992198,-0.61917470033099,0.00920322401224072,-0.0137467162502397
52,0.00908031293625183,-0.0140219005558074,0.7422736596256,-0.624008717293219,0.742273659637833,-0.624008717303335,0.00907349329458101,-0.0139703430124483
52.5,0.00894648501836259,-0.0142446372608454,0.738054891844457,-0.628814282197839,0.738054891856534,-0.628814282208269,0.00893962088680306,-0.0141925709683551
53,0.00880856241030981,-0.014465899661234,0.73380549871952,-0.633591189838875,0.733805498731442,-0.633591189849607,0.00880164918409582,-0.0144133220721084
53.5,0.00866658873997378,-0.0146856121236384,0.729525674239258,-0.638339237091691,0.729525674251029,-0.638339237102713,0.00865962183053526,-0.0146325204056814
54,0.00852060877427779,-0.0149037011378966,0.725215614159591,-0.643058222903767,0.725215614171216,-0.643058222915068,0.00851358362241639,-0.0148500921753358
54.5,0.00837066832484124,-0.0151200953092424,0.720875515938672,-0.647747948293978,0.720875515950154,-0.647747948305545,0.00836358041372692,-0.0150659657044445
55,0.00821681415588787,-0.0153347253470646,0.716505578673988,-0.652408216350673,0.716505578685333,-0.652408216362497,0.00820965902385667,-0.0152800714228448
55.5,0.00805909389450715,-0.0155475240504012,0.712106003041703,-0.657038832228665,0.712106003052917,-0.657038832240735,0.00805186714762957,-0.0154923418528868
56,0.00789755594332947,-0.0157584262903065,0.707676991238122,-0.661639603145175,0.707676991249209,-0.661639603157483,0.00789025326773335,-0.015702711592361
56.5,0.00773224939569611,-0.0159673689892854,0.703218746923198,-0.666210338374839,0.703218746934165,-0.666210338387375,0.0077248665696204,-0.0159111172944507
57,0.00756322395336045,-0.0161742910979501,0.698731475165996,-0.670750849243822,0.69873147517685,-0.670750849256578,0.0075557568589249,-0.0161174976448979
57.5,0.00739052984679317,-0.0163791335690593,0.694215382392032,-0.675260949123108,0.69421538240278,-0.675260949136076,0.00738297448146236,-0.0163217933365288
58,0.00721421775810643,-0.0165818393291115,0.689670676332408,-0.67974045342103,0.689670676343056,-0.679740453434202,0.00720657024583599,-0.0165239470413117
58.5,0.00703433874664583,-0.0167823532476403,0.685097565974674,-0.684189179575076,0.68509756598523,-0.684189179588447,0.00702659534869443,-0.0167239033800973
59,0.00685094417726212,-0.0169806221043783,0.68049626151535,-0.688606947043041,0.680496261525823,-0.688606947056603,0.00684310130265642,-0.0169216088902028
59.5,0.00666408565129023,-0.0171765945544258,0.675866974314046,-0.69299357729354,0.675866974324441,-0.692993577307289,0.00665613986693098,-0.0171170119909836
60,0.00647381494023053,-0.0173702210915854,0.671209916849106,-0.697348893795966,0.671209916859433,-0.697348893809895,0.00646576298063117,-0.0173100629475489
60.5,0.00628018392215263,-0.0175614540099982,0.666525302674745,-0.701672722009879,0.666525302685012,-0.701672722023984,0.0062720226987959,-0.0175007138327567
61,0.00608324452080433,-0.0177502473642219,0.661813346379596,-0.705964889373907,0.661813346389811,-0.705964889388185,0.00607497113111577,-0.0176889184876315
61.5,0.00588304864742967,-0.0179365569278875,0.657074263546641,-0.710225225294168,0.657074263556813,-0.710225225308616,0.0058746603833541,-0.017874632480339
62,0.00567964814527216,-0.0181203401510627,0.652308270714464,-0.714453561132248,0.652308270724602,-0.714453561146862,0.00567114250144968,-0.0180578130638494
