"Freq [GHz]","re(St(P1,P1)) []","im(St(P1,P1)) []","re(St(P1,P2)) []","im(St(P1,P2)) []","re(St(P2,P1)) []","im(St(P2,P1)) []","re(St(P2,P2)) []","im(St(P2,P2)) []"
0,0.00458210383754931,0,0.995441080667661,0,0.995441076767747,0,0.00458212902447031,0
0.5,0.00500858252599912,0.000632060853263283,0.99483387602406,-0.00865943094221677,0.99483387613158,-0.00865942873788583,0.00500831604911411,0.000632830311996457
1,0.00532305814421186,0.000698670615854269,0.994077238471682,-0.0166996649277138,0.994077238108831,-0.0166996649131264,0.00532236811569575,0.000700500236554547
1.5,0.00540290635191898,0.000676870400781127,0.993267190807505,-0.0245502468958918,0.993267190526634,-0.0245502467472676,0.00540185645206392,0.00067991140498691
2,0.00530885856923646,0.000679964548506717,0.992413860954652,-0.0322644000627754,0.99241386078023,-0.0322643998915648,0.00530739004997915,0.000684168384921691
2.5,0.00511140578462443,0.000750908064187428,0.991486103351629,-0.0398839774504367,0.991486103248554,-0.0398839773081132,0.00510941191084457,0.000756261773323885
3,0.00485298546075441,0.000897698575542449,0.990471270682149,-0.0474110347160739,0.990471270615957,-0.0474110346154202,0.00485035548835899,0.000904210008265238
3.5,0.00456083930954088,0.00111959243860404,0.989372297839918,-0.0548405340360407,0.989372297787458,-0.0548405339735751,0.00455746600469453,0.00112727746978081
4,0.00425444894225557,0.00141275421028464,0.988199468080007,-0.06216949970326,0.988199468028087,-0.0621694996701017,0.00425022810616826,0.00142163100134773
4.5,0.00394860260600438,0.0017716566412318,0.986965325873038,-0.069398650475601,0.986965325815516,-0.0693986504621424,0.00394343124877095,0.00178174359921268
5,0.00365468114073908,0.00218969230177102,0.985682019672266,-0.0765319223430847,0.985682019607612,-0.0765319223408767,0.0036484558367359,0.0022010078577166
5.5,0.0033813081805808,0.00265964241913608,0.984360047716942,-0.0835755062673424,0.984360047646465,-0.0835755062697316,0.00337392397392056,0.00267220568361282
6,0.00313479186739113,0.00317408267488251,0.983007790539544,-0.0905369036953125,0.983007790466162,-0.0905369036975303,0.00312614176542753,0.00318791444469912
6.5,0.00291950025294069,0.00372571292593804,0.981631478646922,-0.0974241531855951,0.981631478574333,-0.0974241531845932,0.00290947522421908,0.00374083673102898
7,0.00273820671633324,0.00430759973417771,0.980235387429149,-0.104245258762099,0.980235387361289,-0.104245258756263,0.00272669606502118,0.00432404274825604
7.5,0.00259240680256073,0.00491333465781363,0.978822133505056,-0.111007803481323,0.978822133445765,-0.111007803470203,0.00257929878681536,0.00493112838816234
8,0.00248260014282253,0.00553712083610769,0.977392997579211,-0.117718714737031,0.977392997532036,-0.117718714721062,0.0024677827211919,0.00555630156914688
8.5,0.0024085326756078,0.00617380416246727,0.975948231725394,-0.124384144689888,0.975948231693498,-0.124384144670167,0.00239189429128718,0.00619441317889313
9,0.00236939806748095,0.00681886512006669,0.974487330176264,-0.131009432528701,0.97448733016239,-0.131009432506794,0.00235082840695115,0.00684094871284158
9.5,0.00236400042043051,0.00746838507286274,0.973009255869122,-0.137599121159947,0.973009255875595,-0.137599121137743,0.00234339110650417,0.00749199440848791
10,0.00239088237182306,0.0081189978136651,0.9715126226894,-0.144157007274559,0.971512622718161,-0.144157007254144,0.00236812756954938,0.0081441886768161
10.5,0.00256437132971593,0.00851351901251141,0.969943787289605,-0.150753619140876,0.969943787319545,-0.150753619123148,0.00255954270564068,0.00854780326271731
11,0.00274634615926714,0.00890647432945135,0.968352304163947,-0.15731074485273,0.968352304194757,-0.157310744837624,0.00275976403188738,0.00895092229729588
11.5,0.00293680347784619,0.00929781510441563,0.966738893075628,-0.163831580106861,0.966738893107031,-0.163831580094286,0.0029687061259655,0.00935352601426409
12,0.00313573797268746,0.00968749639374256,0.965103926755228,-0.170319075399821,0.96510392678698,-0.170319075389664,0.00318627768439167,0.00975559409139892
12.5,0.00334314209107006,0.0100754771321703,0.963447492568281,-0.176775927219871,0.963447492600171,-0.176775927212004,0.00341238136659569,0.0101571053927816
13,0.00355900570318479,0.0104617202835957,0.961769447372178,-0.183204577442527,0.961769447404025,-0.183204577436814,0.00364691365652836,0.0105580376864829
13.5,0.00378331573667662,0.0108461929776538,0.960069465512412,-0.189607218846342,0.960069465544063,-0.189607218842636,0.00388976474507005,0.0109583673386897
14,0.00401605578204933,0.0112288666287053,0.958347080209716,-0.195985805007368,0.958347080241043,-0.195985805005526,0.0041408184365325,0.0113580689855159
14.5,0.00425720566843063,0.0116097170334628,0.956601718782848,-0.202342063154464,0.956601718813747,-0.202342063154336,0.00439995208253291,0.0117571151842264
15,0.00450674100952128,0.0119887244431491,0.954832732261983,-0.208677508859202,0.954832732292373,-0.208677508860647,0.00466703654647796,0.0121554760460039
15.5,0.00476463272000435,0.0123658736056047,0.953039419996727,-0.214993461687597,0.953039420026542,-0.214993461690477,0.0049419362017521,0.012553118852793
16,0.00503084650318864,0.0127411537725224,0.951221049868917,-0.221291061154486,0.951221049898111,-0.221291061158666,0.00522450896655308,0.0129500076612468
16.5,0.00530534231127594,0.0131145586665939,0.949376874697858,-0.227571282497296,0.949376874726398,-0.227571282502649,0.00551460637807916,0.0133461028971935
17,0.00558807378033371,0.0134860864030715,0.94750614538532,-0.23383495192751,0.947506145413185,-0.233834951933913,0.00581207370844777,0.0137413609444812
17.5,0.00587898764286349,0.0138557393600733,0.945608121297658,-0.24008276112985,0.945608121324841,-0.240082761137192,0.00611675012437862,0.0141357337324619
18,0.00617802312172544,0.0142235239918196,0.94368207832837,-0.246315280865624,0.943682078354871,-0.246315280873798,0.00642846889222054,0.0145291683267368
18.5,0.00648511131020191,0.0145894505789734,0.94172731503019,-0.252532973602172,0.941727315056017,-0.25253297361108,0.00674705762940142,0.0149216065281139
19,0.00680017454402171,0.0149535329103645,0.939743157153998,-0.25873620513892,0.939743157179167,-0.258736205148472,0.00707233860281398,0.0153129844849893
19.5,0.00712312577233937,0.0153157878906942,0.937728960883747,-0.264925255235531,0.937728960908277,-0.264925255245643,0.00740412907403631,0.0157032323245778
20,0.0074538679358494,0.0156762350692272,0.935684115013167,-0.271100327272176,0.935684115037086,-0.27110032728277,0.00774224169060522,0.0160922738084974
20.5,0.00779229336145837,0.016034896085211,0.933608042271431,-0.277261556988156,0.933608042294767,-0.277261556999163,0.00808648492187392,0.0164800260183049
21,0.00813828318416077,0.0163917940266303,0.931500199971116,-0.283409020355312,0.931500199993902,-0.28340902036667,0.00843666353724831,0.0168663990764708
21.5,0.00849170680795391,0.0167469527000763,0.929360080122636,-0.289542740648098,0.929360080144905,-0.289542740659749,0.00879257912386278,0.0172512959081044
22,0.00885242141874215,0.0171003958109976,0.927187209134186,-0.295662694774359,0.927187209155976,-0.295662694786252,0.00915403064002995,0.0176346120485242
22.5,0.00922027156312211,0.0174521460552273,0.924981147194998,-0.301768818930618,0.924981147216348,-0.301768818942706,0.00952081500008845,0.0180162355013196
23,0.00959508880771182,0.017802224124744,0.922741487421698,-0.307861013643766,0.922741487442645,-0.307861013656009,0.00989272768561311,0.0183960466510882
23.5,0.00997669149418934,0.0181506476328364,0.920467854832491,-0.313939148258044,0.920467854853073,-0.313939148270406,0.0102695633773392,0.0187739182344553
24,0.0103648846053512,0.0184974299663274,0.918159905201325,-0.320003064922582,0.918159905221583,-0.320003064935031,0.0106511166016316,0.019149715372254
24.5,0.0107594597572898,0.0188425790751887,0.915817323833751,-0.326052582130738,0.915817323853724,-0.326052582143248,0.011037182384881,0.019523295665004
25,0.011160195332076,0.0191860962126795,0.91343982429755,-0.332087497858316,0.913439824317277,-0.332087497870863,0.0114275569088887,0.0198945093529894
25.5,0.0115668567641238,0.0195279746419708,0.911027147134154,-0.338107592343669,0.911027147153674,-0.338107592356233,0.0118220381600824,0.0202631995412867
26,0.0119791969916705,0.0198681983280418,0.908579058571033,-0.344112630548663,0.908579058590382,-0.344112630561228,0.0122204265653217,0.0206292024892454
26.5,0.0123969570824168,0.0202067406362676,0.90609534925054,-0.350102364335717,0.906095349269755,-0.350102364348269,0.0126225256071023,0.0209923479629006
27,0.012819867039473,0.0205435630614954,0.903575832986838,-0.356076534392574,0.903575833005957,-0.356076534405104,0.0130281424111591,0.0213524596478998
27.5,0.0132476467902399,0.0208786140133654,0.901020345559454,-0.362034871933182,0.901020345578511,-0.36203487194568,0.013437088299777,0.0217093556196188
28,0.013680007356858,0.0212118276850604,0.898428743549511,-0.36797710020006,0.898428743568539,-0.367977100212523,0.0138491793045826,0.0220628488662507
28.5,0.0141166522024362,0.0215431230334189,0.895800903222724,-0.373902935790766,0.895800903241758,-0.37390293580319,0.01426423663315,0.0224127478598994
29,0.0145572787425219,0.0218724028983386,0.893136719461665,-0.379812089828608,0.893136719480735,-0.379812089840991,0.0146820870844445,0.0227588571699846
29.5,0.0150015800064195,0.022199553288498,0.890436104748566,-0.385704268995497,0.890436104767702,-0.385704269007841,0.0151025634088891,0.0231009781126919
30,0.0154492464280505,0.0225244428585951,0.887698988198988,-0.391579176442842,0.88769898821822,-0.39157917645515,0.0155255046096875,0.0234389094297087
30.5,0.0158999677414225,0.0228469226005383,0.884925314645941,-0.397436512594558,0.884925314665297,-0.397436512606832,0.0159507561829476,0.0237724479891552
31,0.0163534349514978,0.0231668257673026,0.882115043773476,-0.403275975854672,0.882115043792982,-0.403275975866918,0.0163781702950653,0.0241013895014122
31.5,0.0168093423476453,0.0234839680435555,0.879268149298373,-0.409097263230591,0.879268149318055,-0.409097263242817,0.0168076058967839,0.0244255292424549
32,0.017267389524025,0.0237981479718716,0.876384618198259,-0.414900070881786,0.876384618218141,-0.414900070894,0.0172389287742732,0.0247446627773902
32.5,0.0177272833694272,0.0241091476373543,0.873464449984264,-0.420684094602549,0.873464450004369,-0.420684094614759,0.0176720115384668,0.0250585866770644
33,0.01818873998836,0.0244167336072244,0.870507656016227,-0.426449030246461,0.870507656036577,-0.426449030258678,0.0181067335547556,0.0253670992209348
33.5,0.0186514865156527,0.0247206581154138,0.867514258858363,-0.432194574099341,0.867514258878977,-0.432194574111576,0.0185429808159021,0.0256700010798149
34,0.0191152627885534,0.0250206604758524,0.864484291673302,-0.437920423206618,0.8644842916942,-0.437920423218882,0.0189806457617528,0.0259670959726245
34.5,0.0195798228432004,0.0253164687020943,0.8614177976524,-0.443626275660429,0.861417797673599,-0.443626275672735,0.0194196270499159,0.026258191291867
35,0.0200449362063681,0.0256078013055232,0.85831482948026,-0.44931183085109,0.858314829501778,-0.449311830863451,0.019859829282078,0.0265430986932216
35.5,0.0205103889583962,0.0258943692398006,0.85517544883147,-0.454976789687057,0.855175448853322,-0.454976789699486,0.020301162691031,0.0268216346453343
36,0.020975984548964,0.0261758779556504,0.851999725897606,-0.460620854787019,0.851999725919805,-0.460620854799531,0.0207435427937572,0.0270936209366328
36.5,0.0214415443537085,0.0264520295276568,0.848787738942645,-0.466243730647346,0.848787738965207,-0.466243730659956,0.0211868900160944,0.027358885136701
37,0.0219069079662912,0.0267225248136369,0.84553957388502,-0.471845123787716,0.845539573907955,-0.471845123800437,0.0216311292945824,0.0276172610105199
37.5,0.0223719332271515,0.0269870656071978,0.842255323904606,-0.477424742877443,0.842255323927924,-0.477424742890292,0.022076189661053,0.0278685888845518
38,0.0228364959965964,0.0272453567454474,0.838935089073056,-0.482982298844732,0.838935089096768,-0.482982298857724,0.0225220038154131,0.0281127159643422
38.5,0.0233004896858062,0.0274971081362637,0.835578976005973,-0.488517504970806,0.835578976030087,-0.488517504983957,0.0229685076918662,0.0283494966039304
39,0.0237638245645822,0.0277420366729628,0.832187097535477,-0.494030076970655,0.832187097560001,-0.494030076983981,0.0234156400235539,0.0285787925279356
39.5,0.0242264268690841,0.0279798680084337,0.828759572401848,-0.499519733061932,0.828759572426789,-0.499519733075448,0.0238633419102608,0.0288004730076927
40,0.0246882377362307,0.0282103381656305,0.825296524962979,-0.50498619402336,0.825296524988342,-0.504986194037081,0.0243115563934588,0.0290144149932638
40.5,0.0251492119939054,0.0284331949665093,0.821798084920465,-0.510429183243839,0.821798084946255,-0.510429183257782,0.0247602280425577,0.0292205032035171
41,0.0256093168374585,0.0286481992668298,0.818264387061227,-0.51584842676333,0.818264387087447,-0.515848426777512,0.0252093025557859,0.0294186301767813
41.5,0.0260685304234324,0.0288551259895368,0.814695571013646,-0.52124365330644,0.814695571040299,-0.521243653320875,0.0256587263786902,0.0296086962848151
42,0.0265268404108942,0.0290537649544894,0.811091781017245,-0.526614594309547,0.811091781044333,-0.526614594324251,0.0261084463427825,0.029790609713011
42.5,0.0269842424794145,0.0292439215069392,0.807453165705031,-0.531960983942199,0.807453165732555,-0.531960983957189,0.0265584093264279,0.0299642864098552
43,0.0274407388507216,0.0294254169513094,0.803779877897649,-0.53728255912344,0.803779877925608,-0.53728255913873,0.0270085619396269,0.0301296500087389
43.5,0.027896336838477,0.0295980888003489,0.800072074408594,-0.542579059533628,0.800072074436988,-0.542579059549233,0.02745885023394,0.030286631725197
44,0.0283510474476759,0.029761790852599,0.796329915859739,-0.547850227622274,0.796329915888566,-0.54785022763821,0.0279092194384102,0.0304351702326143
44.5,0.0288048840419672,0.0299163931133409,0.792553566506523,-0.553095808612333,0.79255356653578,-0.553095808628615,0.0283596137219847,0.0305752115193831
45,0.0292578610938837,0.0300617815756996,0.788743194072158,-0.558315550501361,0.788743194101842,-0.558315550518002,0.0288099759826007,0.0307067087303382
45.5,0.029709993029661,0.0301978578795451,0.784898969590295,-0.56350920405988,0.784898969620401,-0.563509204076896,0.0292602476628199,0.0308296219951847
46,0.0301612931771675,0.0303245388661425,0.781021067255586,-0.568676522827279,0.78102106728611,-0.568676522844684,0.0297103685916128,0.0309439182464655
46.5,0.0306117728224548,0.0304417560464068,0.777109664281666,-0.573817263105506,0.777109664312601,-0.573817263123312,0.030160276851696,0.0310495710294265
47,0.0310614403777407,0.0305494550000133,0.773164940766061,-0.578931183950816,0.773164940797402,-0.578931183969037,0.0306099086716013,0.0311465603059556
47.5,0.0315103006611964,0.0306475947217386,0.769187079561613,-0.58401804716379,0.769187079593353,-0.584018047182439,0.0310591983415176,0.0312348722545722
48,0.0319583542868477,0.0307361469302314,0.765176266154012,-0.589077617277795,0.765176266186142,-0.589077617296883,0.0315080781518059,0.0313144990682529
48.5,0.0324055971611162,0.0308150953530563,0.76113268854505,-0.594109661546085,0.761132688577561,-0.594109661565625,0.0319564783529795,0.0313854387516617
49,0.0328520200811387,0.0308844350003828,0.757056537141267,-0.599113949927674,0.757056537174151,-0.599113949947677,0.0324043271358808,0.0314476949191914
49.5,0.0332976084288918,0.0309441714381746,0.752948004647658,-0.604090255072119,0.752948004680906,-0.604090255092596,0.0328515506307154,0.0315012765950062
50,0.0337423419543423,0.0309943200701752,0.748807285966142,-0.609038352303331,0.748807285999742,-0.609038352324293,0.033298072923591,0.0315461980161132
50.5,0.0341861946403218,0.0310349054365143,0.744634578098511,-0.613958019602519,0.744634578132453,-0.613958019623974,0.033743816089176,0.0315824784393282
51,0.0346291346415106,0.0310659605353057,0.740430080053611,-0.61884903759035,0.740430080087883,-0.61884903761231,0.0341887002381229,0.0316101419528254
51.5,0.0350711242898328,0.0310875261722938,0.736193992758502,-0.623711189508429,0.736193992793091,-0.623711189530901,0.0346326435778883,0.0316292172928364
52,0.0355121201586239,0.0310996503423686,0.731926518973378,-0.628544261200138,0.731926519008273,-0.628544261223132,0.0350755624856468,0.0316397376659261
52.5,0.0359520731781491,0.0311023876456713,0.727627863210052,-0.63334804109093,0.727627863245238,-0.633348041114453,0.0355173715919969,0.0316417405771401
53,0.0363909287953675,0.0310957987400569,0.723298231653781,-0.638122320168109,0.723298231689246,-0.638122320192167,0.0359579838742441,0.0316352676642395
53.5,0.0368286271712303,0.031079949830805,0.718937832088291,-0.642866891960162,0.71893783212402,-0.642866891984763,0.0363973107580677,0.0316203645381119
54,0.0372651034092569,0.0310549121977801,0.714546873823803,-0.647581552515681,0.714546873859781,-0.64758155254083,0.0368352622264529,0.0315970806293954
54.5,0.0377002878096214,0.0310207617596179,0.710125567627921,-0.652266100381913,0.710125567664133,-0.652266100407616,0.0372717469348284,0.0315654690412532
55,0.0381341061434931,0.0309775786740293,0.705674125659232,-0.656920336582977,0.705674125695663,-0.656920336609238,0.0377066723314093,0.0315255864081984
55.5,0.0385664799428796,0.0309254469729288,0.701192761403487,-0.661544064597769,0.701192761440121,-0.661544064624593,0.0381399447818113,0.0314774927608054
56,0.0389973268017316,0.0308644542307707,0.69668168961223,-0.666137090337599,0.696681689649051,-0.666137090364988,0.0385714696970644,0.0314212513960963
56.5,0.0394265606845403,0.0307946912642733,0.692141126243769,-0.670699222123564,0.69214112628076,-0.670699222151522,0.0390011516642227,0.0313569287533778
57,0.0398540922391499,0.0307162518615446,0.687571288406373,-0.675230270663698,0.687571288443517,-0.675230270692225,0.0394288945788156,0.0312845942952542
57.5,0.0402798291109049,0.0306292325385373,0.682972394303593,-0.679730049029902,0.682972394340872,-0.679730049059001,0.039854601778465,0.0312043203935393
58,0.0407036762556802,0.0305337323207023,0.678344663181615,-0.684198372634684,0.678344663219012,-0.684198372664355,0.0402781761770296,0.0311161822197686
58.5,0.0411255362497077,0.0304298525477288,0.673688315278564,-0.688635059207714,0.673688315316062,-0.688635059237957,0.0406995203987064,0.0310202576400072
59,0.0415453095944359,0.0303176966992665,0.669003571775667,-0.693039928772216,0.669003571813247,-0.69303992880303,0.0411185369115717,0.0309166271136492
59.5,0.0419628950149764,0.030197370239602,0.664290654750196,-0.697412803621207,0.664290654787839,-0.69741280365259,0.0415351281600774,0.0308053735958938
60,0.0423781897509475,0.0300689804793273,0.659549787130132,-0.701753508293591,0.65954978716782,-0.701753508325541,0.041949196696089,0.0306865824436071
60.5,0.0427910898387719,0.0299326364521367,0.65478119265048,-0.706061869550126,0.654781192688195,-0.70606186958264,0.0423606453080723,0.0305603413242632
61,0.0432014903846933,0.0297884488050113,0.649985095811166,-0.710337716349267,0.649985095848887,-0.71033771638234,0.0427693771480928,0.0304267401276841
61.5,0.0436092858279502,0.0296365297001161,0.645161721836459,-0.714580879822891,0.645161721874167,-0.714580879856519,0.0431752958563191,0.0302858708803082
62,0.0440143701937132,0.0294769927269152,0.640311296635873,-0.71879119325193,0.64031129667355,-0.718791193286108,0.0435783056827595,0.030137827661714
62.5,0.0444166373355222,0.0293099528230737,0.635434046766496,-0.722968492041899,0.635434046804121,-0.72296849207662,0.0439783116059992,0.0299827065231719
63,0.0448159811670668,0.0291355262028646,0.630530199396683,-0.727112613698334,0.630530199434238,-0.72711261373359,0.0443752194487195,0.0298206054079724
63.5,0.0452122958832621,0.0289538302919002,0.625599982271096,-0.731223397802152,0.62559998230856,-0.731223397837935,0.0447689359898309,0.0296516240733339
