"Freq [GHz]","re(St(P1,P1)) []","im(St(P1,P1)) []","re(St(P1,P2)) []","im(St(P1,P2)) []","re(St(P2,P1)) []","im(St(P2,P1)) []","re(St(P2,P2)) []","im(St(P2,P2)) []"
0,0.00501458327414639,0,0.994998051188304,0,0.994998051246512,0,0.0050145840086202,0
0.5,0.00546239845658647,0.00112361983858023,0.994418102107648,-0.00845532690154016,0.994418102135384,-0.00845532665294613,0.00546225631331509,0.00112437554031786
1,0.00580782969674232,0.00169934197897348,0.993718678610149,-0.0163184766908806,0.993718678399272,-0.0163184768006168,0.00580743849269183,0.00170105833593937
1.5,0.00561183856834013,0.00240628481104288,0.993018041783079,-0.0242579999990689,0.993018041534489,-0.0242580001216091,0.00561176488642889,0.00240925780410706
2,0.00544094178696053,0.00304192184474061,0.992159376095722,-0.0320002792698979,0.992159375824648,-0.0320002793787921,0.00544103183566502,0.00304622314246572
2.5,0.00531028633146979,0.00364247392120021,0.991209586824064,-0.0395529061143574,0.991209586553808,-0.0395529061952153,0.00531044298580774,0.00364807203324879
3,0.00521759609899108,0.00423361934725186,0.990213934124466,-0.0469426233380137,0.990213933877437,-0.0469426233881372,0.0052177875665933,0.00424045947618623
3.5,0.00515572376560036,0.00483069777414613,0.989196520833507,-0.0542012736546083,0.989196520626234,-0.0542012736788307,0.00515595858061135,0.00483873450724648
4,0.00511772530272081,0.00544265893036755,0.988165858625202,-0.061357599679841,0.988165858467095,-0.0613575996861595,0.00511803223463425,0.00545186233999129
4.5,0.00509815048946571,0.00607514710382073,0.987120923590566,-0.0684341172282599,0.987120923484758,-0.0684341172248475,0.00509856789547836,0.00608550022532928
5,0.0050930248321126,0.00673230508860545,0.986055779296111,-0.0754469301742091,0.986055779240994,-0.075446930167832,0.00509359614932081,0.00674380002496289
5.5,0.00509952162549776,0.00741774131932882,0.984962524747025,-0.0824067744996517,0.984962524737716,-0.0824067744951664,0.00510029406214085,0.00743037595551233
6,0.00511563683260868,0.0081350462637344,0.983832951753612,-0.0893203339298001,0.983832951783126,-0.0893203339301882,0.00511666162779678,0.00814882180841181
6.5,0.00513993612039193,0.00888808568304977,0.982659370952958,-0.0961914167210054,0.982659371013039,-0.0961914167276721,0.0051412696095951,0.00890300481824635
7,0.00517137158479705,0.00968119147098445,0.981434957662084,-0.103021875409167,0.981434957743771,-0.103021875422329,0.00517307676530554,0.00969725684938449
7.5,0.00520915033560909,0.0105193130145973,0.980153843279127,-0.109812276831008,0.980153843373128,-0.109812276850066,0.00521129885510262,0.0105365258882077
8,0.00525263764736353,0.011408163381573,0.978811083769099,-0.116562370138347,0.978811083866035,-0.116562370162183,0.00525531226117411,0.0114265221876595
8.5,0.0053012809926717,0.0123543813991023,0.97740257672017,-0.123271404626837,0.977402576810745,-0.123271404654075,0.00530457861582096,0.0123738801510491
9,0.00535454437654507,0.0133657255004569,0.975924963399568,-0.129938340910883,0.975924963474677,-0.129938340940071,0.00535857992942208,0.0133863518313584
9.5,0.00541184421206405,0.0144513145391163,0.974375532944873,-0.13656198840783,0.974375532995682,-0.136561988437574,0.00541675554470474,0.0144730472253012
10,0.00547247844735349,0.0156219331135263,0.972752135720945,-0.143141092820668,0.972752135738949,-0.143141092849728,0.00547843274461833,0.0156447388628504
10.5,0.00571974736467847,0.0163779904537487,0.971223958279073,-0.149770199774337,0.971223958295554,-0.149770199803623,0.00572541657863621,0.0164019915352629
11,0.00597872895370113,0.01713040239513,0.969666624899355,-0.156360287632756,0.969666624914356,-0.15636028766217,0.00598410449722467,0.0171556051539103
11.5,0.00624937315432611,0.0178789999820066,0.968081315066913,-0.16291388149551,0.968081315080479,-0.162913881524966,0.00625444717651658,0.0179054106573049
12,0.00653162754253561,0.0186236149500179,0.966468887342675,-0.169433377592259,0.966468887354857,-0.169433377621675,0.00653639295814243,0.0186512396181002
12.5,0.00682543732679361,0.0193640797676737,0.964829923679019,-0.17592102348543,0.96482992368987,-0.175921023514733,0.00682988784519739,0.0193929242820037
13,0.00713074534453492,0.020100227679309,0.963164770875877,-0.182378905691668,0.963164770885453,-0.182378905720791,0.0071348754983433,0.0201302976080862
13.5,0.00744749205876463,0.0208318927494298,0.961473578603403,-0.188808943347721,0.961473578611761,-0.188808943376602,0.00745129723206314,0.0208631933104728
14,0.00777561555479908,0.0215589099085727,0.959756333701568,-0.195212886676758,0.959756333708768,-0.195212886705343,0.00777909201111354,0.0215914459015476
14.5,0.00811505153715761,0.0222811150006952,0.958012890682059,-0.201592319162783,0.95801289068816,-0.201592319191025,0.00811819644719269,0.0223148907366832
15,0.00846573332663086,0.0229983448321955,0.9562429985133,-0.207948662498197,0.956242998518362,-0.20794866252605,0.00846854479586709,0.0230333640606166
15.5,0.00882759185753487,0.0237104372225896,0.954446323875765,-0.214283183522195,0.954446323879846,-0.214283183549625,0.00883006895377833,0.0237467030554726
16,0.00920055567517586,0.024417231056953,0.952622471142045,-0.220597002508999,0.952622471145205,-0.22059700253597,0.00920269845615543,0.0244547458905611
16.5,0.0095845509335174,0.0251185663401505,0.950770999373273,-0.226891102291124,0.950770999375569,-0.226891102317609,0.00958636047466066,0.0251573317739824
17,0.00997950139307363,0.0258142842529556,0.9488914366384,-0.233166337812795,0.948891436639889,-0.233166337838769,0.00998097981558937,0.025854301006127
17.5,0.0103853284190156,0.0265042272101037,0.946983291961665,-0.23942344580197,0.946983291962403,-0.239423445827415,0.0103864789184376,0.026545495035138
18,0.0108019509794896,0.027188238920363,0.945046065191626,-0.245663054327254,0.945046065191668,-0.245663054352151,0.0108027778548561,0.0272307565144141
18.5,0.0112292856441376,0.0278661644486782,0.943079255066176,-0.251885692069751,0.943079255065573,-0.251885692094088,0.0112297943279909,0.0279099293622191
19,0.0116672465827996,0.0285378502804674,0.941082365725125,-0.258091797191217,0.941082365723931,-0.258091797214984,0.0116674436722239,0.0285828588234993
19.5,0.0121157455643683,0.0292031443881382,0.939054911897257,-0.264281725720551,0.939054911895519,-0.264281725743738,0.0121156388532949,0.0292493915339624
20,0.0125746919557616,0.0298618962999022,0.936996422963821,-0.270455759412332,0.936996422961589,-0.270455759434937,0.0125742904688065,0.0299093755865241
20.5,0.0130439927209669,0.0305139571709356,0.934906446076356,-0.276614113055389,0.934906446073675,-0.276614113077406,0.0130433067490777,0.030562660600193
21,0.0135235524200927,0.0311591798569808,0.932784548483963,-0.282756941227479,0.932784548480879,-0.282756941248908,0.0135225935583249,0.0312090977914896
21.5,0.0140132732083647,0.0317974189904606,0.930630319204313,-0.288884344505494,0.930630319200868,-0.288884344526336,0.0140120543961211,0.0318485400484925
22,0.0145130548349681,0.0324285310591437,0.928443370153739,-0.294996375149978,0.928443370149975,-0.294996375170236,0.0145115903990782,0.0324808420075908
22.5,0.0150227946416416,0.0330523744874653,0.926223336834923,-0.301093042289041,0.926223336830879,-0.30109304230872,0.0150211003426833,0.0331058601330529
23,0.0155423875609006,0.0336688097205486,0.923969878665793,-0.307174316630818,0.923969878661508,-0.307174316649921,0.0155404806431982,0.0337234527995045
23.5,0.0160717261137404,0.0342776993109941,0.921682679020216,-0.313240134735753,0.921682679015726,-0.313240134754289,0.0160696253595197,0.0343334803773989
24,0.0166107004066686,0.0348789080084837,0.91936144503979,-0.319290402880916,0.919361445035131,-0.319290402898893,0.0166084261948721,0.0349358053216029
24.5,0.0171591981278694,0.0354723028522732,0.917005907266288,-0.325325000548376,0.917005907261493,-0.325325000565801,0.0171567724981775,0.0355302922631755
25,0.0177171045422893,0.0360577532665958,0.914615819135958,-0.331343783568876,0.914615819131058,-0.331343783585759,0.017714551264939,0.0361168081044516
25.5,0.0182843024853995,0.0366351311590207,0.912190956369766,-0.337346586950781,0.912190956364793,-0.337346586967133,0.0182816471374191,0.0366952221175127
26,0.0188606723553605,0.0372043110217746,0.909731116287646,-0.343333227422603,0.909731116282629,-0.343333227438436,0.0188579424038825,0.037265406046145
26.5,0.0194460921032855,0.0377651700360611,0.907236117069678,-0.349303505715658,0.907236117064644,-0.349303505730983,0.0194433169966345,0.0378272342113772
27,0.0200404372212388,0.0383175881793336,0.90470579698286,-0.355257208611539,0.904705796977838,-0.355257208626368,0.0200376484885383,0.0383805836206541
27.5,0.0206435807276045,0.0388614483355023,0.902140013588523,-0.36119411077716,0.902140013583536,-0.361194110791507,0.0206408120876587,0.038925334080735
28,0.0212553931493796,0.0393966364080138,0.899538642942411,-0.367113976408291,0.899538642937484,-0.36711397642217,0.0212526806296321,0.0394613683143585
28.5,0.0218757425009211,0.039923041435707,0.896901578796991,-0.373016560700668,0.896901578792148,-0.373016560714091,0.021873124567312,0.0399885720807087
29,0.0225044942586198,0.0404405557113026,0.894228731813425,-0.378901611166104,0.894228731808687,-0.378901611179085,0.0225020119571751,0.0405068342996877
29.5,0.0231415113309312,0.0409490749023571,0.891520028788966,-0.384768868809358,0.891520028784354,-0.384768868821912,0.0231392084419265,0.0410160471799852
30,0.0237866540231237,0.0414484981744394,0.888775411904122,-0.390618069180071,0.888775411899657,-0.390618069192213,0.0237845772286613,0.0415161063508744
30.5,0.0244397799960645,0.0419387283162247,0.885994837992754,-0.39644894331266,0.885994837988454,-0.396448943324406,0.0244379790618812,0.0420069109976386
31,0.0251007442182982,0.0424196718661424,0.883178277837372,-0.402261218565806,0.883178277833255,-0.40226121857717,0.0250992721905817,0.0424883640004616
31.5,0.0257693989106227,0.0428912392401003,0.880325715491098,-0.408054619371988,0.88032571548718,-0.408054619382984,0.0257683123285486,0.0429603720765654
32,0.0264455934822953,0.043353344859721,0.877437147627176,-0.41382886790649,0.877437147623476,-0.413828867917135,0.0264449526069159,0.0434228459252691
32.5,0.0271291744579727,0.0438059072804129,0.874512582916422,-0.419583684684294,0.874512582912952,-0.419583684694602,0.0271290435179544,0.0438757003755835
33,0.0278199853944067,0.0442488493184462,0.871552041432583,-0.425318789092447,0.871552041429358,-0.425318789102435,0.0278204328489627,0.0443188545358003
33.5,0.0285178667859036,0.0446820981760616,0.868555554085341,-0.431033899864674,0.868555554082375,-0.431033899874357,0.0285189656050487,0.0447522319444346
34,0.0292226559574986,0.0451055855634559,0.865523162080392,-0.436728735504309,0.865523162077697,-0.436728735513701,0.029224483919489,0.0451757607216868
34.5,0.0299341869447777,0.0455192478163001,0.862454916405915,-0.442403014660977,0.862454916403504,-0.442403014670095,0.0299368269502842,0.0455893737204388
35,0.0306522903592864,0.0459230260072016,0.859350877344575,-0.448056456465896,0.859350877342457,-0.448056456474756,0.030655830761426,0.0459930086755472
35.5,0.0313767932384543,0.046316866049294,0.85621111401014,-0.453688780830131,0.856211114008326,-0.453688780838746,0.0313813281873412,0.0463866083499659
36,0.0321075188790283,0.0467007187898419,0.853035703907715,-0.459299708709687,0.853035703906215,-0.459299708718075,0.0321131486789108,0.0467701206759482
36.5,0.0328442866530707,0.047074540091449,0.849824732516578,-0.464888962340931,0.849824732515402,-0.464888962349107,0.0328511181294399,0.0471434988892319
37,0.0335869118056939,0.047438290898128,0.846578292894565,-0.470456265449423,0.84657829289372,-0.470456265457402,0.0335950586789464,0.04750670165375
37.5,0.0343352052338791,0.0477919372831273,0.843296485302958,-0.47600134343494,0.843296485302452,-0.476001343442736,0.0343447884951748,0.0478596931740066
38,0.0350889732459396,0.0481354504750164,0.83997941685086,-0.481523923535166,0.8399794168507,-0.481523923542796,0.0351001215298284,0.0482024432917618
38.5,0.0358480173014924,0.0484688068581545,0.83662720115803,-0.487023734970278,0.836627201158222,-0.487023734977756,0.0358608672486659,0.0485349275631892
39,0.0366121337321831,0.0487919879432192,0.8332399580352,-0.492500509070375,0.83323995803575,-0.492500509077716,0.0366268303343271,0.0488571273120874
39.5,0.037381113443883,0.0491049803030855,0.829817813180917,-0.497953979387549,0.82981781318183,-0.497953979394769,0.0373978103610857,0.0491690296541367
40,0.0381547416016529,0.0494077754689138,0.826360897894001,-0.503383881794164,0.826360897895282,-0.503383881801276,0.0381736014411567,0.0494706274865516
40.5,0.0389327972994818,0.0497003697809338,0.822869348800737,-0.508789954568751,0.822869348802388,-0.508789954575771,0.0389539918427512,0.049761919436802
41,0.0397150532176367,0.0499827641880755,0.819343307595956,-0.514171938470794,0.819343307597983,-0.514171938477735,0.0397387635808215,0.0500429097634182
41.5,0.0405012752714558,0.050254963990334,0.815782920797223,-0.519529576805524,0.815782920799628,-0.5195295768124,0.0405276919823218,0.0503136082012161
42,0.0412912222565254,0.0505169785175961,0.812188339511364,-0.524862615479742,0.812188339514149,-0.524862615486568,0.0413205452289488,0.0505740297426556
42.5,0.0420846454964934,0.0507688207386422,0.808559719212609,-0.530170803049565,0.808559719215777,-0.530170803056355,0.0421170838816636,0.0508241943464978
43,0.0428812885011967,0.0510105067942008,0.804897219531697,-0.535453890760907,0.804897219535249,-0.535453890767674,0.0429170603928888,0.0510641265645034
43.5,0.0436808866443651,0.0512420554483389,0.801201004055272,-0.540711632583418,0.801201004059208,-0.540711632590175,0.0437202186141316,0.0512938550766604
44,0.0444831668718634,0.0514634874531512,0.797471240134996,-0.545943785238526,0.797471240139317,-0.545943785245286,0.0445262933089072,0.0515134121254563
44.5,0.0452878474532254,0.051674824822746,0.793708098705795,-0.551150108222168,0.793708098710501,-0.551150108228945,0.0453350096832316,0.0517228328400255
45,0.0460946377910487,0.0518760900139543,0.789911754112711,-0.556330363822722,0.789911754117802,-0.556330363829529,0.0461460829485574,0.0519221544417807
45.5,0.0469032383046092,0.0520673050130716,0.786082383945859,-0.561484317134606,0.786082383951334,-0.561484317141454,0.046959217934875,0.0521114153244193
46,0.0477133404057275,0.0522484903303343,0.782220168883023,-0.566611736067958,0.782220168888881,-0.566611736074862,0.0477741087746115,0.0522906540031054
46.5,0.0485246265863422,0.0524196639067619,0.778325292539442,-0.571712391354791,0.778325292545681,-0.571712391361761,0.0485904386809427,0.0524599079302834
47,0.0493367706383291,0.0525808399414838,0.77439794132439,-0.576786056551916,0.774397941331008,-0.576786056558964,0.0494078798469421,0.0526192121790589
47.5,0.0501494380266433,0.0527320276517018,0.770438304304141,-0.581832508040981,0.770438304311135,-0.581832508048119,0.0502260934945383,0.0527685979994843
48,0.0509622864367421,0.0528732299819817,0.766446573070984,-0.586851525025858,0.766446573078351,-0.586851525033098,0.0510447301042007,0.0529080912584399
48.5,0.0517749665162369,0.0530044422845135,0.762422941617928,-0.591842889527644,0.762422941625666,-0.591842889534996,0.0518634298574786,0.0530377107801311
49,0.0525871228286896,0.0531256509972039,0.758367606218797,-0.596806386377477,0.758367606226901,-0.596806386384953,0.0526818233245505,0.0531574666114343
49.5,0.0533983950342239,0.0532368323517499,0.754280765313406,-0.601741803207376,0.754280765321873,-0.601741803214985,0.0534995324275762,0.0532673582443263
50,0.0542084193070349,0.053337951148964,0.750162619397555,-0.606648930439263,0.75016261940638,-0.606648930447017,0.0543161717074754,0.053367372836101
50.5,0.0550168299938867,0.0534289596431941,0.746013370917572,-0.61152756127235,0.74601337092675,-0.611527561280257,0.0551313499165131,0.0534574834767316
51,0.0558232615102588,0.0535097965814134,0.741833224169172,-0.616377491669002,0.741833224178699,-0.616377491677072,0.0559446719515078,0.0535376475610564
51.5,0.0566273504620406,0.0535803864449833,0.737622385200402,-0.621198520339232,0.737622385210272,-0.621198520347476,0.0567557411324253,0.0536078053308343
52,0.0574287379707698,0.0536406389427971,0.733381061718461,-0.625990448723927,0.733381061728669,-0.625990448732353,0.0575641618185869,0.053667878657506
52.5,0.0582270721697227,0.0536904488031624,0.729109463000208,-0.630753080976911,0.729109463010748,-0.630753080985528,0.0583695423399285,0.0537177701398489
53,0.0590220108270894,0.0537296959079169,0.724807799806153,-0.635486223945942,0.724807799817018,-0.635486223954758,0.0591714982040561,0.0537573625909267
53.5,0.059813224041679,0.0537582458057963,0.72047628429779,-0.64018968715273,0.720476284308974,-0.640189687161753,0.0599696555220396,0.053786518985055
54,0.0606003969467073,0.0537759506327639,0.716115129958083,-0.644863282772041,0.716115129969579,-0.644863282781279,0.0607636545778031,0.0538050829273593
54.5,0.0613832323490192,0.0537826504550818,0.711724551514975,-0.649506825609973,0.711724551526777,-0.649506825619434,0.0615531534488813,0.0538128796955583
55,0.0621614532253276,0.0537781750365606,0.707304764867768,-0.654120133081452,0.707304764879867,-0.654120133091143,0.0623378315715098,0.053809717885851
55.5,0.0629348049944266,0.0537623460153143,0.702855987016251,-0.658703025187015,0.70285598702864,-0.658703025196943,0.0631173931319423,0.0537953916726494
56,0.0637030574853999,0.0537349794581207,0.69837843599245,-0.663255324488926,0.698378436005122,-0.663255324499097,0.0638915701599281,0.0537696836661752
56.5,0.0644660065270181,0.0536958887432081,0.693872330794895,-0.667776856086673,0.69387233080784,-0.667776856097093,0.0646601252005468,0.0537323683239885
57,0.0652234750928014,0.0536448877058878,0.689337891325274,-0.672267447591895,0.689337891338486,-0.67226744760257,0.0654228534479181,0.0536832158439744
57.5,0.0659753139495479,0.0535817939671854,0.68477533832741,-0.676726929102769,0.68477533834088,-0.676726929113705,0.0661795842389438,0.0536219964391818
58,0.066721401773822,0.0535064323544196,0.680184893328432,-0.681155133177903,0.680184893342149,-0.681155133189105,0.0669301818268782,0.053548484871257
58.5,0.0674616447202038,0.0534186383154723,0.675566778582076,-0.68555189480976,0.675566778596033,-0.685551894821232,0.0676745453821866,0.0534624651009709
59,0.0681959754459798,0.0533182612259888,0.670921217014033,-0.689917051397644,0.670921217028222,-0.689917051409391,0.0684126082002975,0.0533637349032708
59.5,0.0689243516180004,0.053205167491137,0.666248432169256,-0.694250442720287,0.666248432183666,-0.694250442732313,0.0691443361303847,0.0532521102914215
60,0.0696467539475599,0.0530792433509014,0.661548648161161,-0.698551910908048,0.661548648175782,-0.698551910920357,0.0698697252738812,0.0531274296007444
60.5,0.0703631838169183,0.0529403973097188,0.65682208962266,-0.702821300414759,0.656822089637483,-0.702821300427353,0.0705887990336018,0.052989557096883
61,0.0710736605755419,0.052788562126806,0.65206898165896,-0.707058457989234,0.652068981673976,-0.707058458002117,0.0713016046218325,0.0528383859954799
61.5,0.0717782185944295,0.052623696321815,0.647289549802067,-0.71126323264647,0.647289549817266,-0.711263232659643,0.0720082091567217,0.0526738408080101
62,0.0724769041725343,0.0524457851702295,0.64248401996694,-0.715435475638549,0.642484019982312,-0.715435475652015,0.0727086954894741,0.0524958789602044
62.5,0.0731697723901953,0.0522548411829742,0.637652618409254,-0.719575040425272,0.637652618424788,-0.719575040439033,0.0734031579096682,0.052304491662695
63,0.0738568840008511,0.0520509040838442,0.632795571684707,-0.723681782644531,0.632795571700393,-0.723681782658588,0.0740916978726071,0.0520997040458759
63.5,0.0745383024446984,0.0518340403155165,0.627913106609842,-0.727755560082444,0.627913106625669,-0.727755560096797,0.0747744198818155,0.0518815746004838
64,0.0752140910571081,0.0516043421192725,0.623005450224329,-0.731796232643262,0.623005450240287,-0.731796232657912,0.0754514276428958,0.0516501939902518
