"Freq [GHz]","re(St(P1,P1)) []","im(St(P1,P1)) []","re(St(P1,P2)) []","im(St(P1,P2)) []","re(St(P2,P1)) []","im(St(P2,P1)) []","re(St(P2,P2)) []","im(St(P2,P2)) []"
0,0.00533150882438349,0,0.994682438336895,0,0.994682435193681,0,0.00533150728853116,0
0.5,0.0057626675774074,0.00162940810011847,0.994126626734921,-0.008483407779309,0.994126627263945,-0.00848340826406258,0.00576257387939449,0.00162972332749689
1,0.00610596828019183,0.0027388843527234,0.993449777925584,-0.0164072640848403,0.993449778376071,-0.0164072640023534,0.00610568668125033,0.00273960959346908
1.5,0.00592556440580339,0.00390627552645739,0.992759263448895,-0.0243978051147202,0.99275926391886,-0.024397805027478,0.00592518410026077,0.00390791660172241
2,0.00581137275236676,0.00501965804462934,0.991911218252643,-0.032197129490962,0.99191121872305,-0.0321971294204175,0.00581060083521301,0.0050220310793847
2.5,0.00575373470673934,0.00612281809531545,0.990970560776042,-0.0398126566120602,0.99097056122191,-0.0398126565679053,0.00575249862939442,0.00612574547594136
3,0.00573735942711795,0.00723453635752946,0.989981194125467,-0.047270321709215,0.989981194524312,-0.047270321690398,0.0057356637975734,0.00723792288222214
3.5,0.00575116193314007,0.00836237283687868,0.988966511469833,-0.0546009382231452,0.988966511806075,-0.0546009382222543,0.00574902194312132,0.0083661843849292
4,0.00578826121855158,0.00950973200118366,0.987934814016091,-0.0618322581050705,0.987934814281811,-0.0618322581126716,0.00578568306902438,0.00951397045022073
4.5,0.00584459743326482,0.0106786780145258,0.986885187007863,-0.0689859579264187,0.986885187201648,-0.0689859579338536,0.00584157518882877,0.0106833661484673
5,0.00591786262726113,0.0118709787260523,0.985811976323333,-0.0760774739794234,0.985811976448571,-0.0760774739801739,0.00591437945391249,0.0118761524790987
5.5,0.00600684031357773,0.0130884810986514,0.984707637253848,-0.0831170239462118,0.984707637317171,-0.0831170239362296,0.00600287034844438,0.0130941858900533
6,0.00611101974614359,0.0143332418907924,0.98356433226011,-0.0901108879352099,0.983564332270208,-0.0901108879127035,0.00610652963184521,0.0143395311105232
6.5,0.00623037349385122,0.0156075716675721,0.982374724553071,-0.0970625527076523,0.982374724519865,-0.0970625526726527,0.00622532343551518,0.0156145063063171
7,0.00636522993418062,0.0169140510756436,0.981132308250616,-0.103973605756317,0.981132308184707,-0.103973605710201,0.00635957434539094,0.0169216999995143
7.5,0.00651620170314118,0.0182555413601526,0.97983149370441,-0.110844386987779,0.979831493616725,-0.110844386932825,0.00650988953585542,0.0182639819890231
8,0.00668414827876718,0.0196351972236353,0.978467575153097,-0.117674444527368,0.978467575054661,-0.117674444466388,0.0066771231161853,0.0196445165033006
8.5,0.00687016048980671,0.0210564849408028,0.977036649657907,-0.124462844920913,0.977036649559686,-0.124462844856954,0.00686236045922517,0.0210667805680194
9,0.00707556014945973,0.0225232067892298,0.97553552234673,-0.131208379874692,0.975535522259525,-0.13120837981082,0.00706691769396638,0.0225345886872241
9.5,0.0073019111306291,0.0240395322964742,0.973961614344526,-0.137909701404253,0.973961614278894,-0.137909701343394,0.00729235266535228,0.0240521243626595
10,0.007551040073686,0.0256100367519845,0.972312880016725,-0.144565408281414,0.97231287998292,-0.144565408226233,0.00754048554337869,0.0256239789174972
10.5,0.00794131089039088,0.0268498701954782,0.970746271685675,-0.151282868609332,0.970746271655838,-0.151282868565954,0.00793037304986292,0.0268645986260663
11,0.00834998264445863,0.0280837883674177,0.969146174061871,-0.157959809292462,0.969146174034608,-0.157959809260706,0.00833864410245722,0.0280993162047429
11.5,0.00877696446632564,0.0293115182952373,0.967514007806575,-0.164598467487452,0.967514007780605,-0.16459846746699,0.00876520802810371,0.0293278593275357
12,0.00922216128482189,0.0305327882492268,0.965850883901126,-0.171201000039043,0.965850883875292,-0.171201000029429,0.00920996996345877,0.030549956913672
12.5,0.00968547383235382,0.0317473278051139,0.964157640511211,-0.177769459764647,0.964157640484482,-0.177769459765333,0.00967283086034049,0.0317653391901747
13,0.0101667986507093,0.0329548679073555,0.962434878525367,-0.184305778611054,0.962434878496837,-0.18430577862142,0.010153687491806,0.0329737377551256
13.5,0.0106660280975306,0.0341551409331906,0.960682995047277,-0.190811756627104,0.960682995016166,-0.190811756646474,0.0106524324588928,0.0341748856416908
14,0.0111830503534853,0.0353478807574277,0.958902214378135,-0.197289055748648,0.958902214343783,-0.197289055776313,0.0111689541980755,0.0353685173828433
14.5,0.0117177494302205,0.0365328228180157,0.957092616231585,-0.203739197475466,0.957092616193443,-0.203739197510694,0.0117031369894893,0.0365543690768739
15,0.0122700051791128,0.0377097041823726,0.955254161083519,-0.210163563620444,0.955254161041144,-0.210163563662496,0.0122548609659617,0.0377321784536424
15.5,0.0128396933008864,0.0388782636145035,0.953386712678176,-0.216563399418255,0.953386712631223,-0.216563399466395,0.0128240021229131,0.0389016849415929
16,0.0134266853561516,0.0400382416428933,0.951490057796769,-0.222939818386933,0.951490057744981,-0.222939818440438,0.0134104323291681,0.0400626297355346
16.5,0.0140308487769047,0.0411893806291799,0.949563923451725,-0.22929380843589,0.949563923394926,-0.229293808494057,0.0140140193387345,0.0412147558651965
17,0.0146520468790552,0.042331424837615,0.947607991704351,-0.235626238805334,0.947607991642439,-0.235626238867486,0.0146346268036017,0.0423578082645388
17.5,0.0152901388760314,0.0434641205052975,0.945621912321516,-0.241937867503077,0.945621912254452,-0.241937867568564,0.0152721142876102,0.0434915338418373
18,0.0159449798935078,0.044587215913177,0.943605313492131,-0.248229348975024,0.943605313419934,-0.248229349043229,0.0159263372814454,0.0446156815505125
18.5,0.0166164209853303,0.0457004614578291,0.941557810820447,-0.254501241805407,0.941557810743184,-0.25450124187575,0.0165971472188132,0.0457300024607175
19,0.017304309150671,0.0468036097239608,0.939479014803278,-0.260754016292886,0.939479014721062,-0.260754016364821,0.0172843914938443,0.0468342498316536
19.5,0.0180084873524874,0.0478964155576793,0.937368536984527,-0.266988061789716,0.937368536897507,-0.266988061862736,0.0179879134797851,0.0479281791846204
20,0.018728794537326,0.0489786361404629,0.935225994964383,-0.273203693724682,0.935225994872739,-0.273203693798314,0.0187075525490317,0.0490115483767626
20.5,0.0194650656565373,0.0500500310638472,0.933051016423695,-0.27940116025712,0.933051016327636,-0.279401160330931,0.0194431440945522,0.0500841176755202
21,0.0202171316889432,0.0511103624047866,0.930843242307071,-0.285580648530386,0.930843242206825,-0.285580648603978,0.0201945195527582,0.0511456498337362
21.5,0.0209848196650229,0.0521593948016792,0.928602329291795,-0.29174229050939,0.928602329187611,-0.2917422905824,0.0209615064278727,0.0521959101654292
22,0.0217679526926666,0.0531968955310296,0.92632795165425,-0.297886168399172,0.926327951546392,-0.29788616847127,0.0217439283178501,0.0532346666221719
22.5,0.0225663499845412,0.0542226345847061,0.924019802631176,-0.304012319650682,0.924019802519916,-0.30401231972157,0.0225416049418941,0.0542616898700767
23,0.0233798268871367,0.0552363847477859,0.92167759536012,-0.310120741566521,0.921677595245741,-0.310120741635936,0.023354352169628,0.0552767533673462
23.5,0.0242081949115248,0.0562379216769464,0.919301063471728,-0.316211395524033,0.919301063354518,-0.316211395591738,0.0241819820519683,0.0562796334423656
24,0.0250512617658922,0.0572270239793491,0.916889961396117,-0.322284210836096,0.916889961276369,-0.322284210901883,0.0250243028537375,0.057270109372286
24.5,0.0259088313898916,0.0582034732920196,0.914444064436406,-0.328339088271756,0.914444064314412,-0.328339088335446,0.0258811190880804,0.0582479634620867
25,0.026780703990857,0.0591670543616465,0.91196316865442,-0.334375903259667,0.911963168530475,-0.334375903321104,0.0267522315527078,0.0592129811240671
25.5,0.0276666760819274,0.0601175551247877,0.909447090606636,-0.340394508797413,0.909447090481032,-0.340394508856465,0.0276374373680314,0.0601649509577253
26,0.0285665405221218,0.0610547667884209,0.90689566696233,-0.346394738089433,0.906895666835357,-0.346394738145992,0.028536530017214,0.0611036648299959
26.5,0.0294800865584128,0.0619784839108124,0.904308754030725,-0.352376406935483,0.904308753902668,-0.35237640698946,0.029449299388183,0.062028917955794
27,0.0304070998698204,0.0628885044826433,0.901686227219433,-0.358339315890584,0.901686227090573,-0.358339315941911,0.0303755318176379,0.0629405089788275
27.5,0.0313473626135862,0.0637846300083746,0.89902798044271,-0.364283252216233,0.899027980313324,-0.364283252264857,0.0313150101370989,0.0638382400526401
28,0.0323006534734384,0.0646666655877575,0.896333925494747,-0.370207991641437,0.896333925365103,-0.370207991687327,0.0322675137210033,0.0647219169218132
28.5,0.0332667477099967,0.0655344199974975,0.893603991400514,-0.376113299950785,0.893603991270874,-0.376113299993923,0.0332328185369094,0.0655913490033275
29,0.0342454172133326,0.0663877057729757,0.890838123754324,-0.381998934415537,0.890838123624944,-0.381998934455919,0.0342106971978074,0.0664463494679904
29.5,0.0352364305577202,0.0672263392900112,0.888036284054339,-0.387864645082417,0.888036283925466,-0.387864645120056,0.035200919016576,0.0672867353219065
30,0.0362395530585913,0.0680501408465969,0.885198449039579,-0.393710175933589,0.885198448911453,-0.393710175968507,0.0362032500625945,0.0681123274879508
30.5,0.0372545468317158,0.0688589347445691,0.882324610034654,-0.399535265930154,0.882324609907508,-0.399535265962385,0.0372174532205333,0.0689229508871761
31,0.0382811708546273,0.0696525493711573,0.879414772306254,-0.405339649950387,0.879414772180311,-0.405339649979978,0.0382432882513277,0.0697184345201266
31.5,0.0393191810302945,0.0704308172803727,0.876468954434521,-0.411123059632956,0.876468954309994,-0.411123059659962,0.0392805118553466,0.0704986115480083
32,0.0403683302530524,0.071193575274183,0.873487187701602,-0.416885224134381,0.873487187578699,-0.416885224158867,0.040328877737759,0.0712633193736671
32.5,0.041428368476796,0.0719406644834314,0.870469515499079,-0.422625870809159,0.870469515377996,-0.422625870831198,0.0413881366760929,0.0720123997223383
33,0.0424990427854273,0.0726719304484559,0.867415992755398,-0.42834472582015,0.867415992636325,-0.428344725839822,0.0424580365899826,0.0727456987221246
33.5,0.0435800974655521,0.0733872231993715,0.864326685384023,-0.434041514686097,0.864326685267141,-0.434041514703491,0.0435383226130959,0.0734630669841636
34,0.044671274081419,0.0740863973359722,0.861201669752676,-0.439715962772495,0.861201669638156,-0.439715962787704,0.044628737167214,0.0741643596824573
34.5,0.0457723115520676,0.0747693121072205,0.858041032173741,-0.445367795731403,0.858041032061745,-0.445367795744527,0.04572902003845,0.0748494366333151
35,0.0468829462306781,0.0754358314902962,0.854844868415705,-0.450996739895233,0.854844868306389,-0.450996739906376,0.046838908455568,0.0755181623744066
35.5,0.048002911986078,0.0760858242691778,0.851613283235326,-0.456602522629074,0.851613283128836,-0.456602522638345,0.0479581371703705,0.0761704062433775
36,0.0491319402863741,0.0767191641127297,0.848346389930071,-0.462184872645632,0.848346389826544,-0.462184872653143,0.0490864385401047,0.0768060424560292
36.5,0.050269760284662,0.0773357296522903,0.845044309910287,-0.467743520286466,0.845044309809854,-0.467743520292337,0.0502235426118386,0.0774249501840369
37,0.0514160989067622,0.0779354045587445,0.841707172290498,-0.473278197772842,0.841707172193279,-0.473278197777192,0.0513691772087383,0.0780270136322111
37.5,0.0525706809409141,0.0785180776190839,0.838335113499121,-0.478788639429167,0.83833511340523,-0.478788639432118,0.0525230680181809,0.0786121221152961
38,0.0537332291293612,0.0790836428124637,0.834928276905935,-0.484274581881687,0.834928276815478,-0.484274581883365,0.0536849386816172,0.0791801701343215
38.5,0.0549034642617405,0.0796319993857652,0.831486812466549,-0.489735764234871,0.831486812379623,-0.489735764235403,0.0548545108860845,0.0797310574525202
39,0.0560811052701884,0.0801630519287058,0.828010876383143,-0.495171928227614,0.828010876299839,-0.495171928227129,0.0560315044572763,0.0802646891708539
39.5,0.0572658693260454,0.0806767104485171,0.824500630780756,-0.500582818371242,0.824500630701156,-0.50058281836987,0.0572156374540292,0.0807809758031687
40,0.0584574719380481,0.0811728904442615,0.820956243398383,-0.505968182071042,0.820956243322562,-0.505968182068915,0.0584066262641056,0.0812798333510477
40.5,0.0596556270518673,0.0816515129808353,0.817377887294186,-0.511327769732904,0.817377887222213,-0.511327769730153,0.059604185701105,0.0817611833784255
41,0.0608600471508399,0.0821125047627604,0.813765740564121,-0.516661334856478,0.813765740496056,-0.516661334853237,0.0608080291023433,0.0822249530860394
41.5,0.0620704433577182,0.0825557982078373,0.810119986073302,-0.521968634116144,0.810119986009201,-0.521968634112544,0.062017868427489,0.0826710753858136
42,0.0632865255372447,0.0829813315207998,0.806440811199483,-0.527249427430907,0.806440811139392,-0.52724942742708,0.0632334143577467,0.0830994889753016
42.5,0.064508002399331,0.0833890487670955,0.802728407588007,-0.532503478024275,0.802728407531967,-0.532503478020353,0.0644543763953376,0.0835101384123061
43,0.0657345816025906,0.0837788999469562,0.798982970917652,-0.537730552475034,0.798982970865697,-0.53773055247115,0.0656804629629961,0.0839029741898396
43.5,0.0669659698579469,0.0841508410699405,0.795204700676806,-0.542930420759761,0.795204700628965,-0.542930420756045,0.0669113815031639,0.0842779528115931
44,0.0682018730320056,0.0845048342301623,0.791393799949418,-0.548102856287822,0.791393799905712,-0.548102856284403,0.0681468385765373,0.0846350368681227
44.5,0.0694419962498222,0.0848408476824396,0.787550475210238,-0.553247635929539,0.787550475170683,-0.553247635926545,0.0693865399595549,0.0849741951139636
45,0.0706860439966691,0.0851588559196368,0.783674936128834,-0.558364540038134,0.783674936093439,-0.558364540035693,0.0706301907403767,0.0852954025459348
45.5,0.0719337202183422,0.0854588397515028,0.779767395381957,-0.563453352466005,0.779767395350726,-0.563453352464242,0.0718774954128434,0.0855986404829061
46,0.0731847284194754,0.0857407863853457,0.775828068473797,-0.568513860575822,0.77582806844673,-0.568513860574861,0.0731281579678253,0.0858838966473365
46.5,0.0744387717592785,0.0860046895089133,0.771857173563737,-0.573545855246902,0.771857173540826,-0.573545855246864,0.0743818819813041,0.0861511652489223
47,0.0756955531440104,0.0862505493759084,0.767854931301205,-0.578549130877265,0.767854931282437,-0.578549130878269,0.0756383706984285,0.0864004470707254
47.5,0.0769547753154153,0.0864783728945818,0.763821564667284,-0.583523485381733,0.763821564652642,-0.583523485383898,0.076897327112686,0.0866317495581781
48,0.0782161409342289,0.0866881737199245,0.759757298822709,-0.588468720186413,0.759757298812171,-0.588468720189853,0.0781584540392036,0.086845086911398
48.5,0.0794793526577259,0.0868799723499815,0.75566236096196,-0.593384640219853,0.755662360955497,-0.593384640224681,0.0794214541810571,0.0870404801812678
49,0.0807441132101486,0.0870537962269026,0.75153698017312,-0.598271053901147,0.751536980170701,-0.598271053907471,0.0806860301872958,0.0872179573697641
49.5,0.0820101254446421,0.0872096798433468,0.747381387303245,-0.603127773125235,0.747381387304832,-0.603127773133165,0.0819518847012091,0.0873775535350411
50,0.0832770923951418,0.0873476648549161,0.74319581482895,-0.607954613245631,0.743195814834502,-0.607954613255269,0.0832187203971326,0.0875193109017745
50.5,0.084544717316402,0.0874678001993389,0.738980496731987,-0.612751393054753,0.738980496741459,-0.6127513930662,0.0844862400038383,0.0876432789772926
51,0.0858127037100714,0.0875701422231186,0.734735668379561,-0.617517934762073,0.734735668392901,-0.617517934775428,0.0857541463122666,0.0877495146739856
51.5,0.0870807553343855,0.0876547548164141,0.730461566409175,-0.622254063970234,0.730461566426329,-0.622254063985591,0.0870221421649998,0.0878380824384629
52,0.0883485761946587,0.0877217095568749,0.726158428617799,-0.626959609649289,0.726158428638711,-0.626959609666739,0.0882899304244888,0.0879090543878523
52.5,0.0896158705112985,0.0877710858631569,0.721826493855165,-0.631634404109203,0.721826493879771,-0.631634404128834,0.0895572139165887,0.0879625104535492
53,0.0908823426615408,0.0878029711587456,0.717466001921,-0.636278282970751,0.717466001949235,-0.636278282992648,0.0908236953454094,0.0879985385325519
53.5,0.092147697090462,0.0878174610466196,0.713077193466048,-0.640891085134913,0.713077193497843,-0.640891085159155,0.0920890771748973,0.0880172346463122
54,0.0934116381861272,0.0878146594950884,0.708660309896702,-0.645472652750881,0.708660309931985,-0.645472652777548,0.0933530614718407,0.0880187031067327
54.5,0.0946738701128604,0.0877946790348703,0.704215593283104,-0.650022831182786,0.704215593321797,-0.650022831211949,0.0946153497041807,0.0880030566885188
55,0.0959340965956558,0.0877576409670931,0.699743286270573,-0.654541468975204,0.699743286312598,-0.654541469006932,0.0958756424875996,0.0879704168065387
55.5,0.097192020647613,0.0877036755813413,0.695243631994237,-0.659028417817557,0.695243632039512,-0.659028417851916,0.0971336392722823,0.0879209136961135
56,0.098447344230964,0.0876329223821461,0.690716873996727,-0.66348353250746,0.690716874045167,-0.66348353254451,0.0983890379605789,0.0878546865931847
56.5,0.0996997678407566,0.0875455303212941,0.686163256148841,-0.667906670913098,0.686163256200358,-0.667906670952897,0.099641534444952,0.0877718839100221
57,0.100948989998557,0.0874416580319849,0.681583022573051,-0.672297693934687,0.681583022627554,-0.672297693977287,0.100890822054131,0.0876726634005148
57.5,0.102194706641593,0.0873214740590835,0.676976417569762,-0.676656465465086,0.676976417627158,-0.676656465510535,0.102136590893788,0.0875571923069238
58,0.103436610390617,0.0871851570773483,0.672343685546227,-0.680982852349614,0.672343685606421,-0.680982852397958,0.103378527066362,0.0874256474772734
58.5,0.104674389677411,0.0870328960864455,0.667685070948021,-0.685276724345122,0.667685071010916,-0.6852767243964,0.104616311752869,0.0872782154390606
59,0.105907727710328,0.0868648905675469,0.663000818193,-0.689537954078364,0.663000818258495,-0.689537954132611,0.10584962013784,0.0871150924105405
59.5,0.107136301253652,0.0866813505811376,0.658291171607661,-0.69376641700372,0.658291171675655,-0.693766417060967,0.10707812015694,0.0869364842252719
60,0.108359779194002,0.0864824967790154,0.653556375365828,-0.697961991360314,0.653556375436217,-0.697961991420588,0.108301471045602,0.0867426061386112
60.5,0.109577820864697,0.086268560294975,0.648796673429593,-0.702124558128552,0.648796673502274,-0.702124558191874,0.109519321666486,0.0865336824761399
61,0.11079007409732,0.086039782467926,0.644012309492462,-0.706254000986134,0.644012309567325,-0.70625400105252,0.110731308594067,0.0863099460732714
61.5,0.111996172969156,0.0857964143376836,0.63920352692461,-0.710350206263562,0.639203527001548,-0.710350206333027,0.11193705393691,0.0860716374421733
62,0.113195735216505,0.0855387158368563,0.634370568720229,-0.714413062899198,0.634370568799133,-0.714413062971747,0.113136162882927,0.0858190035863151
62.5,0.114388359288165,0.0852669545815775,0.629513677446883,-0.718442462393865,0.629513677527641,-0.718442462469501,0.114328220961337,0.0855522963642
63,0.115573621022132,0.0849814041387616,0.624633095196832,-0.722438298765066,0.624633095279332,-0.722438298843787,0.115512791028712,0.0852717702820344
63.5,0.116751069943986,0.0846823416178381,0.61972906354027,-0.726400468500817,0.6197290636244,-0.726400468582617,0.116689410007326,0.0849776795704917
64,0.117920225210152,0.0843700444004345,0.614801823480442,-0.730328870513141,0.614801823566088,-0.730328870598007,0.117857585434659,0.0846702743740944
