"Freq [GHz]","re(St(P1,P1)) []","im(St(P1,P1)) []","re(St(P1,P2)) []","im(St(P1,P2)) []","re(St(P2,P1)) []","im(St(P2,P1)) []","re(St(P2,P2)) []","im(St(P2,P2)) []"
0,0.00586612055093383,0,0.994151634818991,0,0.994151621445781,0,0.00586611179187457,0
0.5,0.00656106495323883,-0.00153149665248264,0.993374819836827,-0.00874524917686514,0.99337481884471,-0.00874525003481708,0.00656086998813876,-0.00153073263965808
1,0.00712374474258226,-0.00391384684436247,0.992596346525009,-0.0166383157578096,0.992596346332974,-0.0166383149440854,0.0071231498858495,-0.00391211603293229
1.5,0.00743083433710368,-0.00647003047830452,0.991935128372653,-0.0243401393982765,0.991935128426599,-0.0243401388750257,0.00742933203093088,-0.00646728539958019
2,0.00754325411235079,-0.00905715429565923,0.99134532201928,-0.0319781502175402,0.991345322130519,-0.0319781498981282,0.00754111376769551,-0.00905294817646585
2.5,0.00754332868354535,-0.0116291875808372,0.990749173034726,-0.0396045076889688,0.990749173143588,-0.0396045074988756,0.00754072938663519,-0.0116235091112387
3,0.00747075683519594,-0.0141830539610677,0.990107736272612,-0.0472217202193352,0.990107736360763,-0.047221720110965,0.00746770056213286,-0.0141759568917585
3.5,0.00734395566455337,-0.0167222854115519,0.989404632780598,-0.0548234428535821,0.989404632844233,-0.0548234427961809,0.00734036463546328,-0.016713775118296
4,0.00717205385647324,-0.0192502285729663,0.988634024990871,-0.0624035660006701,0.988634025032161,-0.0624035659736819,0.00716783942046684,-0.0192402564880787
4.5,0.00696000049083478,-0.0217692261292868,0.987794841469134,-0.0699577702199381,0.987794841492899,-0.0699577702095961,0.0069550928572788,-0.0217577107206939
5,0.00671072696419239,-0.0242808214011863,0.986888079176818,-0.0774834253767409,0.986888079188827,-0.0774834253741155,0.00670508200360898,-0.0242676682734881
5.5,0.00642610540761668,-0.0267860286645467,0.985915508101096,-0.0849791893898288,0.985915508107041,-0.0849791893895837,0.00641970146224669,-0.0267711435846163
6,0.00610740191833115,-0.0292855238753331,0.984879040037561,-0.0924446167426174,0.984879040042392,-0.0924446167420596,0.00610023371555024,-0.0292688194112696
6.5,0.00575550738638753,-0.0317797633118504,0.983780430445512,-0.0998798397341298,0.983780430453025,-0.0998798397324094,0.00574758018648436,-0.0317611612277435
7,0.00537106457062453,-0.0342690552961136,0.982621154823272,-0.107285325907042,0.982621154835891,-0.107285325904482,0.00536238958372282,-0.0342484865664714
7.5,0.00495454348139568,-0.0367536039653071,0.981402377872998,-0.114661701321658,0.981402377891716,-0.11466170131918,0.00494513465522572,-0.0367310076572647
8,0.00450628912119933,-0.039233536766333,0.980124970685518,-0.12200962710012,0.98012497070994,-0.122009627098767,0.00449616106862927,-0.0392088585181503
8.5,0.00402655336756053,-0.0417089224038785,0.978789550521758,-0.129329717438623,0.978789550550225,-0.129329717439187,0.00401572013791951,-0.0416821128803848
9,0.0035155171546869,-0.0441797830517512,0.977396528660927,-0.13662248887802,0.977396528690686,-0.136622488880755,0.00350399158834319,-0.0441507965506576
9.5,0.00297330638886251,-0.0466461029944547,0.975946158230527,-0.14388833239465,0.975946158257925,-0.143888332399071,0.00296109985538162,-0.0466148962645496
10,0.00240000363746651,-0.049107834955084,0.974438577830849,-0.151127501581834,0.974438577851524,-0.151127501586567,0.00238712601506907,-0.0490743662307267
10.5,0.0017362973822708,-0.0515054133504318,0.972851355396982,-0.158372671678281,0.972851355418697,-0.158372671690294,0.00172408368717406,-0.0514703850409628
11,0.00104083833576979,-0.0538945325872131,0.971207120750411,-0.165585363031164,0.971207120772371,-0.165585363050429,0.00102932078947199,-0.0538579612614267
11.5,0.000313716663795233,-0.0562747903405327,0.969507075038938,-0.172765908196658,0.969507075060387,-0.172765908223054,0.000302927514924445,-0.0562366933378051
12,-0.000444973017840467,-0.058645784410106,0.967752291741346,-0.17991466268862,0.967752291761573,-0.179914662721946,-0.000455001479666012,-0.0586061798390181
12.5,-0.00123513161192443,-0.0610071127382046,0.965943725217727,-0.187031990445726,0.965943725236078,-0.187031990485707,-0.00124436704023723,-0.060966019475357
13,-0.00205665550784656,-0.0633583734290979,0.964082220122291,-0.194118251626849,0.964082220138171,-0.194118251673162,-0.00206506548131791,-0.0633158111181946
13.5,-0.00290943654913448,-0.0656991647699963,0.962168521287254,-0.201173792593707,0.962168521300131,-0.201173792645974,-0.0029169885512372,-0.0656551538211909
14,-0.00379336200066602,-0.068029085253579,0.960203283754864,-0.208198937901888,0.960203283764265,-0.208198937959691,-0.00380002339681598,-0.0679836468431652
14.5,-0.00470831451567916,-0.0703477336020661,0.958187082699428,-0.215193984099243,0.958187082704947,-0.215193984162139,-0.00471405252766774,-0.070300889672537
15,-0.00565417210273261,-0.0726547087928928,0.956120423040181,-0.222159195121359,0.956120423041472,-0.222159195188882,-0.00565895378021794,-0.0726064820534096
15.5,-0.00663080809277306,-0.0749496100859708,0.95400374859782,-0.229094799074434,0.954003748594595,-0.22909479914611,-0.00663460028159926,-0.0749000240132927
16,-0.00763809110647706,-0.0772320370525539,0.951837450692209,-0.236000986203663,0.951837450684239,-0.236000986279008,-0.00764086041355591,-0.0771811158924671
16.5,-0.0086758850220475,-0.0795015896056896,0.949621876116014,-0.242877907858047,0.949621876103122,-0.242877907936577,-0.00867759777652197,-0.0794493583749909
17,-0.00974404894365549,-0.0817578680322439,0.947357334449382,-0.249725676278486,0.947357334431442,-0.249725676359724,-0.00974467115403249,-0.0817043525213199
17.5,-0.0108424371707438,-0.0840004730264856,0.945044104704854,-0.25654436505356,0.945044104681785,-0.256544365137038,-0.0108419344776507,-0.083945699802523
18,-0.0119708991684132,-0.0862290057251829,0.942682441310206,-0.263334010105574,0.942682441281973,-0.263334010190837,-0.0119692367926112,-0.0861730021360794
18.5,-0.0131292795391347,-0.0884430677441901,0.940272579450691,-0.27009461108719,0.940272579417296,-0.270094611173797,-0.0131264222243695,-0.0883858619231721
19,-0.0143174179960582,-0.0906422612164342,0.937814739801909,-0.276826133085968,0.937814739763388,-0.276826133173496,-0.0143133299462935,-0.0905838820874587
19.5,-0.0155351493382082,-0.0928261888312911,0.935309132691042,-0.28352850854989,0.935309132647465,-0.283528508637939,-0.0155297941487417,-0.0927666661152404
20,-0.01678230342787,-0.0949944538752132,0.932755961728114,-0.290201639361106,0.932755961679576,-0.290201639449295,-0.0167756440097739,-0.0949338180969153
20.5,-0.0180587051705236,-0.0971466602735531,0.930155426950706,-0.296845398998028,0.930155426897329,-0.296845399085997,-0.0180507036677903,-0.0970849427696576
21,-0.0193641744976964,-0.0992824126334715,0.927507727525923,-0.303459634736984,0.927507727467849,-0.303459634824396,-0.0193547921964113,-0.0992196455611882
21.5,-0.0206985263531541,-0.101401316287784,0.924813064052418,-0.310044169854438,0.924813063989809,-0.31004416994098,-0.0206877235819241,-0.101337532634474
22,-0.0220615706828876,-0.103502977339637,0.922071640503673,-0.316598805799097,0.922071640436706,-0.31659880588448,-0.022049306703684,-0.103438210933256
22.5,-0.0234531124293977,-0.105587002707825,0.919283665851379,-0.32312332431027,0.919283665780245,-0.323123324394225,-0.0234393453178671,-0.105521288228151
23,-0.0248729515308637,-0.107653000172577,0.916449355405186,-0.329617489464807,0.916449355330086,-0.32961748954709,-0.0248576380450348,-0.107586373163189
23.5,-0.026320882925792,-0.109700578421623,0.913568931902279,-0.336081049639856,0.913568931823423,-0.336081049720241,-0.026303978362012,-0.109633075302512
24,-0.0277966965638873,-0.111729347096298,0.91064262637735,-0.342513739382681,0.910642626294956,-0.342513739460967,-0.0277781545986374,-0.111661005176971
24.5,-0.0293001774239045,-0.113738916837427,0.907670678840752,-0.348915281182109,0.907670678755042,-0.348915281258114,-0.0292799499400146,-0.113669774330338
25,-0.0308311055393961,-0.115728899330758,0.904653338789808,-0.355285387138777,0.904653338701008,-0.35528538721234,-0.0308091424349661,-0.115658995364776
25.5,-0.0323892560333488,-0.117698907351573,0.901590865575713,-0.361623760533411,0.901590865484051,-0.361623760604388,-0.032365505011483,-0.117628281985209
26,-0.0339743991628642,-0.119648554808217,0.898483528645986,-0.367930097294026,0.898483528551691,-0.367930097362292,-0.0339488055000721,-0.119577249042143
26.5,-0.0355863003751699,-0.121577456784118,0.895331607680208,-0.374204087364129,0.89533160758351,-0.374204087429579,-0.0355588066660131,-0.121505512572477
27,-0.0372247203764656,-0.123485229577965,0.892135392634686,-0.380445415974955,0.892135392535811,-0.380445416037496,-0.0371952662516957,-0.123412689837773
27.5,-0.0388894152152987,-0.125371490741599,0.888895183709819,-0.386653764825399,0.888895183608994,-0.386653764884957,-0.0388579370303733,-0.125298399359381
28,-0.0405801363824269,-0.127235859115165,0.885611291252275,-0.392828813173766,0.885611291149723,-0.39282881323028,-0.040546566872849,-0.127162260949768
28.5,-0.0422966309294462,-0.129077954859091,0.882284035602492,-0.398970238845753,0.882284035498432,-0.398970238899176,-0.0422608988288925,-0.129003895739312
29,-0.044038641608788,-0.130897399482377,0.878913746896739,-0.405077719163194,0.878913746791387,-0.405077719213493,-0.0440006712254062,-0.130822926197739
29.5,-0.0458059070381455,-0.132693815866735,0.87550076483171,-0.411150931798195,0.875500764725276,-0.41115093184535,-0.045765617783759,-0.132618976149329
30,-0.0475981618928689,-0.13446682828608,0.872045438398567,-0.417189555557191,0.872045438291257,-0.417189555601191,-0.0475554677590554,-0.134391670780859
30.5,-0.0494151371304944,-0.136216062420917,0.868548125592418,-0.423193271099397,0.868548125484433,-0.423193271140244,-0.049369946104618,-0.136140636641227
31,-0.0512565602522634,-0.137941145367222,0.865009193102365,-0.429161761593988,0.865009192993899,-0.429161761631693,-0.0512087736655281,-0.137865501631544
31.5,-0.0531221556073848,-0.139641705639519,0.861429015986531,-0.435094713320145,0.861429015877773,-0.435094713354728,-0.0530716674057767,-0.139565894984413
32,-0.0550116447468047,-0.141317373167974,0.857807977335864,-0.44099181621394,0.857807977226996,-0.44099181624543,-0.0549583406744162,-0.141241447230996
32.5,-0.0569247468345012,-0.142967779289588,0.854146467929912,-0.4468527643658,0.854146467821112,-0.446852764394234,-0.0568685035171262,-0.142891790154401
33,-0.0588611791258521,-0.144592556733854,0.850444885887336,-0.452677256472095,0.850444885778771,-0.452677256497519,-0.0588018630408779,-0.144516556727842
33.5,-0.060820657524417,-0.146191339603769,0.846703636313461,-0.458464996244185,0.846703636205295,-0.458464996266649,-0.0607581238408831,-0.146115381035973
34,-0.0628028972307378,-0.147763763353704,0.842923130946825,-0.464215692778024,0.842923130839214,-0.464215692797586,-0.0627369885009315,-0.14768789817789
34.5,-0.0648076134994117,-0.149309464766596,0.839103787806378,-0.469929060887234,0.839103787699474,-0.469929060903958,-0.0647381581804803,-0.149233744150308
35,-0.0668345225240392,-0.150828081934236,0.835246030840693,-0.475604821402363,0.835246030734637,-0.475604821416318,-0.0667613333047749,-0.150752555709758
35.5,-0.0688833424736225,-0.152319254246195,0.831350289580318,-0.481242701438837,0.831350289475246,-0.481242701450095,-0.0688062143777763,-0.152243970213027
36,-0.0709537947089508,-0.153782622395483,0.827416998794233,-0.486842434635924,0.827416998690277,-0.486842434644564,-0.0708725029421065,-0.153707625435824
36.5,-0.0730456052135056,-0.155217828412416,0.823446598151163,-0.4924037613689,0.823446598048444,-0.492403761375003,-0.0729599027157058,-0.155143159370808
37,-0.0751585062808628,-0.156624515743014,0.819439531886352,-0.497926428936402,0.819439531784988,-0.497926428940054,-0.0750681209418307,-0.156550210007908
37.5,-0.0772922385095611,-0.158002329394744,0.815396248474333,-0.503410191724803,0.815396248374433,-0.50341019172609,-0.0771968699976164,-0.157928415102484
38,-0.0794465531675914,-0.159350916181606,0.811317200308048,-0.508854811351336,0.811317200209717,-0.508854811350352,-0.0793458693174279,-0.159277411940938
38.5,-0.0816212150021675,-0.160669925113124,0.807202843384634,-0.514260056787544,0.807202843287969,-0.51426005678438,-0.0815148477009802,-0.160596837119182
39,-0.0838160055869885,-0.16195900798933,0.803053636998098,-0.519625704464481,0.80305363690319,-0.519625704459232,-0.0837035460937143,-0.161886326358048
39.5,-0.0860307273191514,-0.163217820288203,0.798870043439037,-0.524951538361043,0.798870043345971,-0.524951538353807,-0.0859117209491288,-0.163145514392308
40,-0.0882652082017459,-0.164446022466014,0.794652527701512,-0.530237350076639,0.794652527610368,-0.530237350067514,-0.0881391483109397,-0.164374034988504
40.5,-0.090519307576241,-0.165643281838649,0.790401557197137,-0.535482938889349,0.790401557107986,-0.535482938878435,-0.0903856287887765,-0.165571521173831
41,-0.0927929230008987,-0.166809275278692,0.786117601476403,-0.540688111800636,0.786117601389314,-0.540688111788033,-0.0926509936464389,-0.166737605798021
41.5,-0.0950859985066276,-0.167943693056992,0.781801131957241,-0.545852683567553,0.781801131872276,-0.545852683553363,-0.0949351122789613,-0.167871922608596
42,-0.0973985344971317,-0.169046244289794,0.777452621660777,-0.55097647672338,0.777452621577992,-0.550976476707704,-0.0972379014261967,-0.16897410810596
42.5,-0.0997305995899151,-0.170116664639191,0.773072544954241,-0.556059321587476,0.773072544873686,-0.556059321570415,-0.099559336558643,-0.170043804572217
43,-0.102082344706832,-0.17115472717826,0.768661377300947,-0.561101056265153,0.768661377222668,-0.561101056246808,-0.101899465976938,-0.171080664856922
43.5,-0.104454019695029,-0.172160257703251,0.764219595017276,-0.566101526638247,0.764219594941314,-0.566101526618721,-0.104258428287787,-0.172084359784984
44,-0.106845992650757,-0.173133156295358,0.759747675036559,-0.571060586347057,0.759747674962948,-0.571060586326451,-0.106636474047146,-0.173054589473441
44.5,-0.10925877185704,-0.17407342765677,0.755246094679758,-0.57597809676426,0.75524609460853,-0.575978096742673,-0.109033992472216,-0.1739911004748
45,-0.111693029705004,-0.17498122373211,0.75071533143285,-0.58085392696134,0.75071533136403,-0.580853926938874,-0.111451544163122,-0.174893711608995
45.5,-0.114149626930185,-0.175856903435842,0.746155862730788,-0.585687953668094,0.746155862664398,-0.585687953644845,-0.113889900629639,-0.175762352754768
46,-0.116629633593963,-0.176701115958425,0.741568165747938,-0.590480061225651,0.741568165683994,-0.590480061201719,-0.116350090859977,-0.176597122954966
46.5,-0.119134339880691,-0.177514916012829,0.736952717194862,-0.595230141533499,0.736952717133377,-0.595230141508979,-0.118833453753775,-0.177398377219645
47,-0.121665244037346,-0.178299921083676,0.732309993121343,-0.599938093990902,0.732309993062324,-0.599938093965888,-0.121341692127259,-0.178166855673274
47.5,-0.124223995329584,-0.179058521114011,0.727640468725531,-0.604603825433117,0.727640468668983,-0.604603825407705,-0.123876917631946,-0.178903874321252
48,-0.126812255129755,-0.179794147503182,0.722944618169085,-0.609227250062777,0.722944618115008,-0.609227250037058,-0.126441663561745,-0.179611603191199
48.5,-0.129431418088012,-0.180511595459963,0.71822291439821,-0.613808289376764,0.718222914346601,-0.613808289350828,-0.129038819622161,-0.180293462525087
49,-0.132082109563802,-0.181217361941055,0.713475828970461,-0.618346872088903,0.713475828921311,-0.618346872062838,-0.131671402771021,-0.180954663917761
49.5,-0.134763355636277,-0.181919895727725,0.708703831887203,-0.622842934048773,0.708703831840503,-0.622842934022667,-0.134342014728223,-0.181602893291776
50,-0.137471338453055,-0.182629541246123,0.703907391431634,-0.62729641815691,0.703907391387368,-0.627296418130848,-0.137051752803047,-0.182249039551108
50.5,-0.140197766474272,-0.183357798457699,0.699086974012227,-0.631707274276665,0.699086973970379,-0.631707274250729,-0.139798277464059,-0.182907654456762
51,-0.142928199904106,-0.184115394899619,0.694243044011521,-0.636075459142965,0.69424304397207,-0.636075459117236,-0.142572837626215,-0.183596424112782
51.5,-0.145641219651652,-0.184908796411649,0.689376063640131,-0.640400936268205,0.689376063603053,-0.64040093624276,-0.145356620086127,-0.18433341551811
52,-0.148309884764395,-0.185735521801642,0.684486492795877,-0.644683675845494,0.684486492761146,-0.64468367582041,-0.148118181766831,-0.185130775356477
52.5,-0.150906749372239,-0.186580079736541,0.679574788927954,-0.64892365464946,0.67957478889554,-0.64892365462481,-0.150815602341893,-0.185985167662803
53,-0.153411916868848,-0.187413614278031,0.674641406906002,-0.6531208559348,0.674641406875873,-0.653120855910655,-0.153406988023161,-0.186869425731392
53.5,-0.155820655873627,-0.188199478966854,0.669686798894023,-0.657275269332771,0.669686798866145,-0.6572752693092,-0.155867549524007,-0.187733713041905
54,-0.158145813231306,-0.188903206365231,0.664711414229024,-0.661386890745789,0.66471141420336,-0.661386890722859,-0.158202745402373,-0.188520602438549
54.5,-0.160413120053961,-0.189501669197573,0.6597156993043,-0.665455722240303,0.65971569928081,-0.665455722218076,-0.16044628357354,-0.189186135590213
55,-0.162652387178105,-0.189986743372601,0.654700097457267,-0.669481771938092,0.65470009743591,-0.66948177191663,-0.162644246384175,-0.189712238877118
55.5,-0.16488963808418,-0.190363008131547,0.649665048861758,-0.673465053906152,0.649665048842491,-0.673465053885513,-0.164837860543781,-0.19010456002059
56,-0.167143138458934,-0.190642476674147,0.64461099042469,-0.677405588045293,0.644610990407467,-0.677405588025533,-0.167054651058416,-0.190382018692045
56.5,-0.169423130859099,-0.190839568011007,0.639538355687022,-0.681303399977595,0.639538355671795,-0.681303399958767,-0.169308241923709,-0.190566762017374
57,-0.171733563706387,-0.19096784529094,0.634447574728908,-0.685158520932841,0.634447574715629,-0.685158520914996,-0.171602269730435,-0.190678365892689
57.5,-0.174074268636074,-0.191038534753513,0.629339074078988,-0.688970987634058,0.629339074067606,-0.688970987617241,-0.173934655967416,-0.190731852564129
58,-0.17644278358012,-0.19106022477687,0.624213276627702,-0.692740842182265,0.624213276618166,-0.692740842166522,-0.176300719056622,-0.190737816936372
58.5,-0.178835608019273,-0.191039148548709,0.619070601544574,-0.696468131940568,0.619070601536828,-0.696468131925941,-0.178695014705905,-0.19070332490601
59,-0.181248960092035,-0.190979661562635,0.613911464199378,-0.700152909417671,0.613911464193369,-0.700152909404198,-0.181112263510555,-0.190632894755682
59.5,-0.183679182064638,-0.1908847173043,0.608736276087106,-0.703795232150927,0.608736276082778,-0.703795232138645,-0.183547737048598,-0.190529307997642
60,-0.186122926646881,-0.190756265325166,0.603545444756668,-0.707395162589029,0.603545444753964,-0.707395162577971,-0.185997360930606,-0.19039420495167
60.5,-0.188577218740959,-0.19059555692319,0.598339373743243,-0.710952767974408,0.598339373742104,-0.710952767964604,-0.18845768676653,-0.190228496234667
61,-0.191039452453146,-0.190403368661939,0.593118462504214,-0.714468120225448,0.593118462504582,-0.714468120216926,-0.190925813571907,-0.190032637309629
61.5,-0.19350735831943,-0.190180160988194,0.587883106358609,-0.717941295818598,0.587883106360424,-0.717941295811383,-0.193399297717193,-0.189806807811815
62,-0.195978959868921,-0.189926188640595,0.582633696429976,-0.72137237567045,0.582633696433177,-0.721372375664561,-0.195876068494504,-0.189551027024083
62.5,-0.198452529277806,-0.189641576491717,0.577370619592627,-0.724761445019865,0.577370619597153,-0.724761445015323,-0.198354355415096,-0.189265227405306
63,-0.200926546605012,-0.189326371127455,0.572094258421175,-0.728108593310234,0.572094258426965,-0.728108593307055,-0.20083262827146,-0.188949300886077
63.5,-0.203399664287706,-0.188980575618761,0.566804991143299,-0.731413914071918,0.566804991150291,-0.731413914070115,-0.20330954888422,-0.188603127611294
