"Freq [GHz]","re(St(P1,P1)) []","im(St(P1,P1)) []","re(St(P1,P2)) []","im(St(P1,P2)) []","re(St(P2,P1)) []","im(St(P2,P1)) []","re(St(P2,P2)) []","im(St(P2,P2)) []"
0,0.00635799529612768,0,0.993654390535085,0,0.993654464939027,0,0.00635804774123017,0
0.5,0.00688694553604563,0.000899875036711961,0.993052875989203,-0.00798698337406378,0.993052874174893,-0.00798698651070495,0.00688687301463276,0.000900087675365313
1,0.00733440637121063,0.00117944456898655,0.992425720526869,-0.0153358472485259,0.992425722903496,-0.01533584511375,0.00733427870724945,0.00117990044629934
1.5,0.00759492167432008,0.00129803276697693,0.991826538388354,-0.0227382617589349,0.991826541789585,-0.0227382599868626,0.00759459219111491,0.00129865105526505
2,0.00773533893286604,0.00142337637285905,0.991164298946391,-0.0299638247853533,0.991164302701133,-0.0299638237902453,0.0077348446494474,0.00142429953639223
2.5,0.00782548186302368,0.00157372034418835,0.990488061198259,-0.0370619864305315,0.990488064724936,-0.0370619861589194,0.0078248711670561,0.00157499148807183
3,0.0078946061056655,0.00174463402656677,0.989810377848294,-0.0440777995701787,0.989810380815127,-0.0440777997762609,0.00789390790607891,0.00174626536642997
3.5,0.0079555462681471,0.00193061918805348,0.989126074841197,-0.0510417147558506,0.98912607712362,-0.0510417151835014,0.00795477580824722,0.00193261491130592
4,0.00801448355791456,0.00212769252697242,0.98842433059728,-0.0579712125118244,0.988424332195387,-0.0579712129644152,0.00801364819987471,0.00213005563690327
4.5,0.00807468528033706,0.00233319582168967,0.987694138144363,-0.0648750194992536,0.987694139120532,-0.0648750198499028,0.00807378788653312,0.00233593018991574
5,0.00813803753051934,0.00254537377452291,0.986926136843702,-0.0717566094981681,0.986926137286254,-0.0717566096787392,0.00813707832940258,0.0025484847349615
5.5,0.00820572683363308,0.00276306069073762,0.98611290108759,-0.0786164972403123,0.986112901092465,-0.0786164972265651,0.00820470446864296,0.00276655518430591
6,0.00827856707143038,0.00298547735962718,0.985248702956098,-0.0854536060196072,0.985248702618704,-0.0854536058182749,0.00827747921438748,0.00298936394999583
6.5,0.00835716708278134,0.00321210234496139,0.984329162413616,-0.0922660486514575,0.984329161825907,-0.0922660482904591,0.00835601081024451,0.00321639120987172
7,0.00844202180284687,0.00344258973167832,0.983350927514923,-0.0990515639135721,0.983350926764909,-0.0990515634349549,0.00844079384007446,0.00344729266344324
7.5,0.00853356455310295,0.00367671554582749,0.982311419960984,-0.105807757104028,0.982311419133239,-0.105807756558987,0.00853226144262487,0.00368184597070442
8,0.00863219861045528,0.0039143420391623,0.981208644087681,-0.112532230672029,0.981208643264178,-0.112532230117379,0.0086308168375786,0.00391991505729639
8.5,0.0087383172663402,0.00415539328584069,0.98004104724624,-0.119222653424649,0.980041046507177,-0.119222652920317,0.00873685336070504,0.00416142573112488
9,0.00885231727917303,0.00439983806701028,0.978807418936629,-0.125876795451063,0.978807418361117,-0.125876795058276,0.00885076790431837,0.00440634858585254
9.5,0.00897460844160053,0.00464767752373829,0.977506818214036,-0.132492543941869,0.977506817880621,-0.132492543721828,0.00897297048045852,0.00465468667185087
10,0.00910562083151694,0.00489893596536106,0.976138521402707,-0.139067908413808,0.97613852138972,-0.139067908426702,0.00910389147353143,0.00490646632212988
10.5,0.0092679369794478,0.00510131316183093,0.974808092871592,-0.145710564939915,0.974808092858227,-0.145710564954788,0.00926619021580953,0.00510925014804497
11,0.00943627600630663,0.00529792585202449,0.973436298767194,-0.152323019492496,0.973436298753252,-0.152323019509304,0.00943451285263559,0.00530627335731104
11.5,0.00961039865690767,0.00548860215771452,0.972024508129775,-0.158906095087545,0.97202450811507,-0.158906095106222,0.00960862035703124,0.00549736414481083
12,0.00979006111724659,0.00567318207193646,0.970573927771192,-0.165460653645387,0.97057392775555,-0.165460653665845,0.00978826914603435,0.00568236256429522
12.5,0.00997501569629011,0.00585151751802826,0.969085610478531,-0.171987577435286,0.969085610461794,-0.171987577457422,0.00997321176173269,0.00586112058747101
13,0.0101650114989354,0.00602347236525347,0.96756046458012,-0.178487753061994,0.967560464562149,-0.178487753085689,0.0101631975434924,0.00603350211974174
13.5,0.0103597950871947,0.00618892240257241,0.965999264411526,-0.184962057905958,0.965999264392194,-0.184962057931082,0.010357973288433,0.00619938297411693
14,0.0105591111268706,0.00634775527236853,0.964402661286267,-0.191411348874181,0.964402661265468,-0.191411348900594,0.010557283897428,0.0063586508051463
14.5,0.0107627030172266,0.00649987036609012,0.962771194642479,-0.197836453281787,0.962771194620124,-0.197836453309344,0.0107608730041162,0.00651120500479641
15,0.0109703135013337,0.00664517868390702,0.961105303099865,-0.204238161662205,0.961105303075881,-0.204238161690758,0.0109684835846386,0.00665695656237686
15.5,0.0111816852550659,0.00678360266063294,0.959405335219063,-0.21061722229389,0.959405335193395,-0.210617222323285,0.0111798585460457,0.00679582789077937
16,0.0113965614529165,0.00691507596024277,0.957671559807012,-0.216974337230947,0.957671559779619,-0.216974337261033,0.0113947412915689,0.00692775262132894
16.5,0.0116146863090538,0.00703954324139788,0.955904175656386,-0.223310159631614,0.955904175627243,-0.223310159662239,0.0116128762611645,0.00705267536967957
17,0.01183580559228,0.00715695989645027,0.954103320644887,-0.22962529219009,0.954103320613985,-0.229625292221106,0.0118340094460035,0.00717055147520274
17.5,0.0120596671137787,0.00726729176639807,0.952269080151253,-0.235920286492042,0.952269080118593,-0.235920286523304,0.0120578888757844,0.0072813467163535
18,0.0122860211867722,0.00737051483431483,0.950401494769909,-0.242195643130863,0.950401494735506,-0.24219564316223,0.0122842650779977,0.00738503700452431
18.5,0.0125146210574267,0.00746661489972889,0.948500567325876,-0.248451812439218,0.948500567289754,-0.248451812470555,0.0125128915084741,0.00748160805885867
19,0.0127452233065485,0.00755558723641192,0.946566269206528,-0.254689195707924,0.946566269168724,-0.254689195739102,0.0127435249527701,0.00757105506448763
19.5,0.012977588221832,0.00763743623598656,0.944598546037805,-0.260908146781048,0.944598545998362,-0.260908146811943,0.0129759258981308,0.00765338231658452
20,0.013211480140582,0.00771217503970822,0.942597322740117,-0.267108973931916,0.942597322699088,-0.267108973962415,0.0132098588759759,0.00772860285260557
20.5,0.0134466677630377,0.0077798251606771,0.9405625080042,-0.273291941939342,0.940562507961643,-0.273291941969335,0.0134450927750175,0.00779673807495596
21,0.0136829244365676,0.0078404160986898,0.938493998229903,-0.279457274296464,0.938493998185882,-0.279457274325849,0.0136814011252859,0.00785781736629265
21.5,0.0139200284111685,0.0078939849497941,0.936391680972023,-0.285605155496391,0.93639168092661,-0.285605155525076,0.0139185623534905,0.00791187769952617
22,0.0141577630668236,0.00794057601254305,0.934255437937073,-0.291735733349124,0.934255437890341,-0.291735733377022,0.014156360010273,0.00795896324451739
22.5,0.0143959171134098,0.00798024039282286,0.932085147573703,-0.297849121293146,0.932085147525733,-0.297849121320178,0.0143945829700453,0.0079991249733331
23,0.0146342847639496,0.00801303560899358,0.929880687297658,-0.303945400672862,0.929880687248528,-0.303945400698957,0.014633025604187,0.00803242026581197
23.5,0.0148726658820746,0.00803902519897548,0.927641935389813,-0.310024622959531,0.927641935339609,-0.310024622984624,0.0148714879284987,0.00805891251706048
24,0.0151108661046941,0.00805827833082207,0.925368772603301,-0.316086811898893,0.925368772552107,-0.316086811922927,0.0151097757258733,0.00807867074841173
24.5,0.0153486969408834,0.00807086941811574,0.923061083512912,-0.322131965573311,0.923061083460814,-0.322131965596234,0.0153477006452104,0.00809176922321608
25,0.0155859758480772,0.00807687774148191,0.920718757637256,-0.328160058370027,0.920718757584343,-0.328160058391795,0.0155850802776679,0.00809828706870475
25.5,0.0158225262867217,0.00807638707735969,0.918341690361385,-0.334171042850239,0.918341690307743,-0.334171042870814,0.0158217382113762,0.00809830790511668
26,0.0160581777545227,0.00806948533502005,0.915929783684917,-0.340164851516258,0.915929783630633,-0.340164851535607,0.0160575040657787,0.0080919194830491
26.5,0.0162927658014946,0.00805626420277727,0.913482946818228,-0.346141398475931,0.913482946763391,-0.346141398494029,0.0162922135067828,0.00807921332997275
27,0.0165261320269954,0.00803681880413265,0.911001096646852,-0.352100581005187,0.911001096591548,-0.352100581022013,0.016525708243912,0.00806028440667927
27.5,0.0167581240599561,0.0080112473645686,0.908484158082084,-0.35804228101068,0.908484158026396,-0.358042281026217,0.0167578360106659,0.00803523077434587
28,0.0169885955234934,0.00797965088953934,0.905932064313715,-0.363966366395491,0.90593206425773,-0.363966366409728,0.0169884505292718,0.00800415327278614
28.5,0.0172174059850924,0.00794213285414469,0.903344756979034,-0.369872692331482,0.903344756922834,-0.369872692344414,0.01721741146102,0.00796715521036506
29,0.017444420893523,0.007898798904868,0.900722186260495,-0.37576110244237,0.900722186204161,-0.375761102453994,0.0174445843433324,0.00792434206595427
29.5,0.0176695115036286,0.0078497565736575,0.898064310922975,-0.381631429901884,0.898064310866586,-0.381631429912204,0.0176698405147187,0.00787582120322128
30,0.0178925547900956,0.0077951150045743,0.895371098300194,-0.38748349845156,0.895371098243827,-0.38748349846058,0.0178930570287139,0.00782170159746221
30.5,0.0181134333512858,0.00773498469312806,0.892642524238613,-0.393317123342779,0.892642524182344,-0.393317123350509,0.0181141165578805,0.00776209357510527
31,0.0183320353041647,0.00766947723836742,0.889878573006088,-0.399132112207637,0.889878572949989,-0.399132112214091,0.0183329072889118,0.00769710856595451
31.5,0.0185482541713242,0.00759870510772398,0.887079237171574,-0.404928265863182,0.887079237115718,-0.404928265868376,0.018549322809833,0.00762685886816761
32,0.0187619887610642,0.00752278141453488,0.88424451746133,-0.410705379053406,0.884244517405784,-0.41070537905736,0.018763261990253,0.00755145742590391
32.5,0.0189731430414314,0.00744181970815294,0.881374422596313,-0.416463241133239,0.881374422541143,-0.416463241135974,0.0189746288555854,0.00747101761953517
33,0.0191816260090896,0.00735593377645172,0.878468969114815,-0.422201636698597,0.878468969060085,-0.422201636700139,0.0191833324560886,0.0073856530682419
33.5,0.0193873515538402,0.00726523746054419,0.875528181183801,-0.427920346166366,0.875528181129573,-0.42792034616674,0.0193892867315598,0.00729547744481185
34,0.0195902383195585,0.00716984448146096,0.872552090401889,-0.433619146307955,0.872552090348222,-0.433619146307192,0.0195924103724403,0.00720060430237845
34.5,0.0197902095622748,0.00706986827850764,0.869540735596497,-0.439297810739892,0.869540735543445,-0.439297810738022,0.0197926266780628,0.00710114691283226
35,0.019987193006079,0.00696542185900928,0.866494162617271,-0.444956110374674,0.86649416256489,-0.444956110371731,0.0199898634127154,0.00699721811660647
35.5,0.0201811206974736,0.00685661765911039,0.863412424127597,-0.450593813834925,0.863412424075937,-0.450593813830944,0.0201840526601551,0.00688893018350012
36,0.0203719288587675,0.00674356741527693,0.860295579395676,-0.45621068783367,0.860295579344787,-0.456210687828686,0.0203751306771523,0.00677639468420499
36.5,0.0205595577410466,0.00662638204614086,0.857143694086422,-0.461806497523376,0.857143694036351,-0.461806497517428,0.0205630377466078,0.00665972237215195
37,0.020743951477224,0.00650517154431784,0.853956840055215,-0.467381006816195,0.853956840006003,-0.467381006809321,0.0207477180307454,0.00653902307533416
37.5,0.0209250579356217,0.00638004487780353,0.850735095144324,-0.472933978677683,0.850735095096015,-0.472933978669923,0.0209291194248291,0.00641440559768847
38,0.0211028285745021,0.00625110990056021,0.84747854298272,-0.478465175396094,0.847478542935352,-0.478465175387489,0.0211071934118239,0.00628597762966709
38.5,0.021277218297928,0.00611847327189741,0.844187272789787,-0.483974358829201,0.844187272743396,-0.483974358819793,0.0212818949183788,0.00615384566759558
39,0.021448185313288,0.00598224038425221,0.840861379183359,-0.489461290630427,0.84086137913798,-0.489461290620259,0.0214531821724697,0.00601811494141757
39.5,0.0216156909907996,0.00584251529897328,0.837500961992433,-0.494925732455946,0.837500961948097,-0.494925732445061,0.0216210165630121,0.00587888935044478
40,0.0217796997252521,0.00569940068970431,0.834106126074756,-0.500367446154282,0.834106126031492,-0.500367446142724,0.0217853625017091,0.0057362714066953
40.5,0.0219401788002427,0.00555299779299456,0.830676981139481,-0.505786193939815,0.830676981097317,-0.505786193927628,0.0219461872873837,0.00559036218545739
41,0.0220970982551099,0.00540340636574244,0.827213641574987,-0.511181738551469,0.827213641533946,-0.511181738538697,0.0221034609730018,0.00544126128267775
41.5,0.0222504307547417,0.00525072464909238,0.823716226281906,-0.5165538433978,0.823716226242011,-0.516553843384488,0.022257156235569,0.0052890667788027
42,0.0224001514624386,0.00509504933843064,0.820184858511392,-0.521902272689546,0.820184858472665,-0.52190227267574,0.0224072482490651,0.00513387520871178
42.5,0.0225462379159346,0.00493647555910537,0.816619665708586,-0.527226791560673,0.816619665671043,-0.527226791546416,0.02255371456054,0.00497578153737666
43,0.022688669906712,0.00477509684753596,0.813020779361229,-0.532527166178813,0.813020779324887,-0.532527166164151,0.0226965349694909,0.0048148791408974
43.5,0.0228274293626877,0.00461100513736379,0.809388334853362,-0.537803163845958,0.809388334818235,-0.537803163830936,0.0228356914106085,0.00465125979258663
44,0.022962500234346,0.00444429075032038,0.805722471324001,-0.543054553090189,0.805722471290101,-0.543054553074852,0.0229711678399602,0.0044850136537663
44.5,0.0230938683843692,0.00427504239150245,0.802023331530684,-0.54828110374913,0.80202333149802,-0.548281103733522,0.0231029501246661,0.00431622926896535
45,0.0232215214808016,0.00410334714873972,0.798291061717768,-0.553482587045821,0.798291061686349,-0.553482587029986,0.023231025936105,0.00414499356521492
45.5,0.0233454488937807,0.00392929049578028,0.794525811489357,-0.558658775657565,0.794525811459189,-0.558658775641547,0.0233553846466745,0.00397139185515361
46,0.0234656415958232,0.00375295629899619,0.790727733686712,-0.56380944377834,0.790727733657798,-0.563809443762182,0.0234760172301082,0.00379550784365601
46.5,0.023582092065684,0.0035744268273562,0.786896984270006,-0.568934367175261,0.786896984242349,-0.568934367159006,0.0235929161653551,0.00361742363772699
47,0.0236947941957584,0.00339378276540392,0.783033722204298,-0.574033323239556,0.783033722177898,-0.574033323223246,0.0237060753439968,0.00343721975939815
47.5,0.0238037432030139,0.00321110322900553,0.779138109349559,-0.57910609103248,0.779138109324415,-0.579106091016158,0.0238154899811933,0.00325497516139672
48,0.0239089355434119,0.00302646578362298,0.775210310354633,-0.584152451326585,0.775210310330742,-0.584152451310291,0.023921156530104,0.00307076724533906
48.5,0.024010368829783,0.00283994646491248,0.771250492554972,-0.58917218664265,0.771250492532331,-0.589172186626425,0.0240230725997677,0.00288467188224828
49,0.024108041753103,0.00265161980142736,0.767258825874024,-0.59416508128266,0.767258825852624,-0.594165081266543,0.0241212368763713,0.00269676343517489
49.5,0.0242019540071272,0.00246155883923105,0.763235482728117,-0.599130921359087,0.763235482707953,-0.599130921343118,0.0242156490478727,0.00250711478373422
50,0.0242921062163088,0.00226983516824031,0.759180637934734,-0.604069494820787,0.759180637915794,-0.604069494805002,0.024306309731905,0.00231579735036658
50.5,0.024378499866955,0.00207651895011973,0.75509446862402,-0.608980591475737,0.755094468606295,-0.608980591460175,0.0243932204069098,0.00212288112815495
51,0.0244611372415401,0.00188167894756008,0.750977154153421,-0.613864003010873,0.750977154136898,-0.61386400299557,0.0244763833464279,0.00192843471002679
51.5,0.0245400213561178,0.00168538255479811,0.746828876025319,-0.618719523009221,0.746828876009985,-0.618719522994212,0.0245558015564799,0.00173252531919543
52,0.0246151559007518,0.00148769582921715,0.742649817807548,-0.623546946964534,0.742649817793387,-0.623546946949852,0.0246314787159613,0.00153521884068464
52.5,0.024686545182895,0.00128868352390343,0.738440165056685,-0.628346072293609,0.738440165043681,-0.628346072279289,0.0247034191199846,0.00133657985381175
53,0.0247541940736421,0.00108840912102703,0.734200105244003,-0.633116698346457,0.734200105232139,-0.63311669833253,0.0247716276260884,0.00113667166549491
53.5,0.0248181079567783,0.00088693486592839,0.72992982768398,-0.637858626414469,0.729929827673238,-0.637858626400966,0.024836109603235,0.000935556344267119
54,0.0248782926805448,0.000684321801802112,0.725629523465272,-0.642571659736737,0.72562952345563,-0.642571659723689,0.0248968708835284,0.00073329475489059
54.5,0.0249347545120488,0.000480629804870403,0.721299385384041,-0.64725560350464,0.72129938537548,-0.647255603492074,0.0249539177165646,0.000529946593461617
55,0.0249875000942382,0.000275917619957267,0.716939607879573,-0.65191026486483,0.716939607872071,-0.651910264852775,0.0250072567263464,0.000325570422915256
55.5,0.0250365364053586,7.02428963629265E-005,0.712550386972064,-0.656535452920729,0.712550386965598,-0.656535452909211,0.0250568948706781,0.00012022370883924
56,0.0250818707208318,-0.000136337776029505,0.708131920202523,-0.661130978732625,0.708131920197068,-0.661130978721669,0.0251028394029725,-8.60371444879604E-005
56.5,0.0251235105774588,-0.000343768830505797,0.703684406574692,-0.665696655316481,0.703684406570223,-0.665696655306111,0.0251450978363844,-0.000293156757907198
57,0.025161463739895,-0.000551995687190776,0.699208046498921,-0.670232297641526,0.699208046495412,-0.670232297631764,0.0251836779102074,-0.000501080741109217
57.5,0.0251957381693089,-0.00076096471670839,0.694703041737916,-0.674737722626724,0.694703041735342,-0.674737722617592,0.0252185875584539,-0.000709755656351674
58,0.0252263419941582,-0.000970623203892962,0.690169595354307,-0.679212749136189,0.690169595352639,-0.679212749127706,0.0252498348805461,-0.000919128982226125
58.5,0.025253283483014,-0.00118091931159803,0.685607911659947,-0.683657197973607,0.685607911659158,-0.683657197965793,0.0252774281140559,-0.00112914907751799
59,0.0252765710193659,-0.00139180204466416,0.681018196166909,-0.688070891875752,0.681018196166969,-0.688070891868622,0.0253013756094126,-0.00133976514522816
59.5,0.0252962130783321,-0.00160322121408923,0.676400655540099,-0.692453655505127,0.676400655540979,-0.692453655498698,0.0253216858065261,-0.00155092719678596
60,0.0253122182052246,-0.00181512740143785,0.671755497551447,-0.696805315441809,0.671755497553115,-0.696805315436094,0.0253383672132458,-0.00176258601650908
60.5,0.025324594995891,-0.00202747192353786,0.667082931035609,-0.701125700174535,0.667082931038037,-0.701125700169549,0.0253514283856074,-0.00197469312634024
61,0.0253333520787834,-0.00224020679749715,0.662383165847146,-0.70541464009109,0.662383165850302,-0.705414640086844,0.0253608779097897,-0.00218720075090217
61.5,0.0253384980986851,-0.00245328470606604,0.657656412819116,-0.709671967468023,0.657656412822967,-0.709671967464526,0.0253667243857382,-0.0024000617829012
62,0.0253400417020482,-0.00266665896338747,0.652902883723044,-0.713897516459751,0.652902883727558,-0.713897516457011,0.0253689764123862,-0.00261322974890688
62.5,0.0253379915238761,-0.00288028348115044,0.648122791230227,-0.718091123087078,0.648122791235373,-0.718091123085103,0.0253676425744228,-0.00282665877554084
63,0.0253323561761061,-0.00309411273518018,0.643316348874339,-0.72225262522518,0.643316348880082,-0.722252625223976,0.0253627314305554,-0.0030403035560902
