"Freq [GHz]","re(St(P1,P1)) []","im(St(P1,P1)) []","re(St(P1,P2)) []","im(St(P1,P2)) []","re(St(P2,P1)) []","im(St(P2,P1)) []","re(St(P2,P2)) []","im(St(P2,P2)) []"
0,0.00502062860431352,0,0.994993125728797,0,0.994993130327202,0,0.00502062161393724,0
0.5,0.00554416566100002,9.30556228873058E-005,0.994362831272433,-0.00828402788379989,0.994362831765592,-0.00828402757016278,0.00554393231125516,9.40411795333773E-005
1,0.00596428510578662,-0.000454782470725945,0.993658673980626,-0.0158986226132072,0.993658674230492,-0.0158986225293631,0.00596363254929244,-0.000452506684816001
1.5,0.00596079507542058,-0.00123013924327253,0.992990523910517,-0.0235964579651267,0.992990524193267,-0.0235964578895995,0.00595854926626593,-0.00122611128018235
2,0.00592413128256641,-0.0018905839815897,0.992210579991777,-0.0310952541434855,0.992210580281973,-0.031095254097913,0.00592135845814479,-0.00188475703504309
2.5,0.00586888294260568,-0.00249937576302983,0.991383657444899,-0.0384252655945581,0.991383657714799,-0.0384252655826316,0.00586591059045993,-0.00249175442550431
3,0.00579912994162823,-0.00307678840653125,0.990541752062714,-0.0456275022159556,0.990541752292166,-0.0456275022299764,0.00579610152252386,-0.00306736009483544
3.5,0.00571674742750572,-0.00363069647610104,0.989693615065558,-0.052737839653167,0.989693615244025,-0.0527378396815941,0.00571374476361974,-0.00361943279407484
4,0.00562299595991211,-0.00416437257146285,0.988835529967405,-0.0597821473121822,0.988835530092103,-0.0597821473443254,0.0056200768026935,-0.00415123409493567
4.5,0.00551894555503485,-0.00467911528380416,0.987958674791942,-0.0667769782236913,0.987958674865209,-0.0667769782516432,0.0055161576795546,-0.00466405532601755
5,0.0054056096562094,-0.00517530960219847,0.987053086943552,-0.0737319141368111,0.987053086970716,-0.0737319141557045,0.00540299684075851,-0.00515827708128036
5.5,0.00528398869044078,-0.00565291234514209,0.986109440434748,-0.0806518418650697,0.986109440422724,-0.0806518418726805,0.00528159339599588,-0.00563385407883121
6,0.00515508087524408,-0.00611169552885027,0.985119666120747,-0.0875386770225486,0.985119666077202,-0.0875386770186664,0.00515294540036049,-0.00609055815106085
6.5,0.00501988006158727,-0.00655137633196645,0.984077039047679,-0.094392539257794,0.984077038980587,-0.09439253924364,0.00501804691828844,-0.00652810792977299
7,0.00487936839129427,-0.00697168910253954,0.982976055926499,-0.101212511659308,0.982976055843898,-0.10121251163704,0.0048778802530301,-0.00694624062036819
7.5,0.0047345071891316,-0.00737242550934791,0.981812253075218,-0.107997116446961,0.981812252985097,-0.107997116419288,0.00473340659511873,-0.00734475194211814
8,0.00458622773376183,-0.00775345608826772,0.98058202755436,-0.114744606534107,0.9805820274646,-0.114744606504003,0.00458555665709262,-0.00772351747440414
8.5,0.00443542274544995,-0.00811474037984006,0.979282483241749,-0.121453140565245,0.979282483160093,-0.121453140535744,0.00443522209354758,-0.0080825026017024
9,0.00428293902175622,-0.00845632981750466,0.97791130589085,-0.128120885172336,0.977911305824884,-0.128120885146374,0.00428324811614922,-0.00842176521696691
9.5,0.004129571425771,-0.00877836591432768,0.976466664428093,-0.134746072122061,0.976466664385228,-0.134746072102381,0.00413042749473409,-0.0087414537331818
10,0.00397605829399652,-0.00908107539386904,0.974947133781132,-0.141327027695707,0.974947133768581,-0.141327027684789,0.00397749600224551,-0.00904180205087268
10.5,0.00388533770736926,-0.00953159069020426,0.97351393366306,-0.147953012989917,0.973513933651101,-0.147953012978852,0.00388691027598088,-0.00949027245770262
11,0.00379014741175239,-0.00998157908855202,0.972047839183749,-0.154544595042198,0.972047839172373,-0.154544595031019,0.00379186182642308,-0.00993820431714765
11.5,0.00369048129860609,-0.0104310133529628,0.970549991758768,-0.161103728399684,0.970549991747967,-0.161103728388426,0.00369234455730265,-0.0103855698956083
12,0.00358633302748418,-0.0108798659531235,0.969021266077301,-0.167632287370345,0.969021266067064,-0.167632287359038,0.00358835212948908,-0.0108323411733546
12.5,0.00347769603334325,-0.0113281090522177,0.967462303280807,-0.174132046696945,0.967462303271121,-0.174132046685618,0.0034798779664314,-0.0112784898328377
13,0.00336456353420744,-0.0117757144949979,0.965873542658914,-0.1806046682259,0.965873542649765,-0.180604668214578,0.00336691525980604,-0.0117239872472314
13.5,0.00324692853921216,-0.0122226537960874,0.964255251279078,-0.187051692595635,0.964255251270451,-0.187051692584344,0.00324945697536527,-0.0121688044692267
14,0.0031247838570222,-0.0126688981285032,0.962607551192737,-0.193474535031358,0.962607551184617,-0.193474535020121,0.00312749585898697,-0.0126129122200669
14.5,0.00299812210463174,-0.0131144183124672,0.960930444039441,-0.199874484419903,0.960930444031812,-0.199874484408739,0.00300102444290778,-0.0130562808788999
15,0.00286693571656774,-0.0135591848044725,0.959223833006382,-0.206252704937189,0.959223832999227,-0.206252704926119,0.0028700350521326,-0.0134988804724148
15.5,0.00273121695448036,-0.014003167686687,0.957487542199923,-0.212610239602978,0.957487542193225,-0.212610239592015,0.00273451981101774,-0.0139406806648497
16,0.00259095791715191,-0.0144463366566669,0.955721333554345,-0.21894801523636,0.955721333548087,-0.218948015225522,0.00259447064999796,-0.0143816507483638
16.5,0.00244615055091768,-0.0148886610174537,0.953924921447211,-0.225266848377292,0.953924921441376,-0.225266848366594,0.00244987931246676,-0.0148217596338238
17,0.00229678666051447,-0.0153301096680605,0.952097985215858,-0.23156745182192,0.952097985210429,-0.231567451811372,0.0023007373617715,-0.0152609758420503
17.5,0.00214285792037006,-0.0157706510943849,0.950240179780376,-0.237850441491674,0.950240179775337,-0.237850441481289,0.0021470361883239,-0.0156992674955485
18,0.00198435588633794,-0.0162102533606006,0.948351144578851,-0.244116343418028,0.948351144574187,-0.244116343407814,0.00198876701679762,-0.0161366023108029
18.5,0.00182127200789722,-0.0166488841010501,0.946430511013875,-0.250365600676865,0.946430511009567,-0.25036560066683,0.00182592091339168,-0.0165729475911494
19,0.00165359764082701,-0.0170865105127009,0.944477908597779,-0.256598580149502,0.944477908593813,-0.256598580139654,0.0016584887931419,-0.0170082702203271
19.5,0.00148132406037127,-0.0175230993481978,0.942492969969745,-0.26281557902247,0.942492969966105,-0.262815579012816,0.00148646142724268,-0.0174425366567441
20,0.00130444247491729,-0.0179586169095807,0.940475334942103,-0.269016830966318,0.940475334938774,-0.269016830956862,0.0013098294503609,-0.0178757129285423
20.5,0.00112294404019375,-0.0183930290427199,0.93842465371701,-0.275202511955933,0.938424653713979,-0.275202511946681,0.00112858336790039,-0.0183077646295553
21,0.000936819874025829,-0.0188263011325329,0.936340589398802,-0.281372745712107,0.936340589396053,-0.281372745703062,0.000942713563180764,-0.0187386569162318
21.5,0.000746061071655091,-0.0192583980990677,0.9342228199122,-0.287527608757303,0.93422281990972,-0.287527608748469,0.000752210304492018,-0.0191683545056518
22,0.000550658721671593,-0.0196892843945102,0.932071039422553,-0.293667135088362,0.932071039420329,-0.29366713507974,0.000557063751977893,-0.0195968216747293
22.5,0.000350603922565029,-0.0201189240012227,0.929884959341395,-0.299791320476076,0.929884959339415,-0.299791320467668,0.00035726396429242,-0.0200240222607539
23,0.000145887799949396,-0.0205472804309133,0.927664308989102,-0.305900126406561,0.927664308987353,-0.305900126398369,0.000152800904977324,-0.0204499196634189
23.5,-6.34984755061851E-005,-0.0209743167250249,0.925408835976052,-0.311993483682665,0.925408835974522,-0.31199348367469,-5.63355515030839E-005,-0.0208744768484874
24,-0.000277563669395686,-0.0213999954564843,0.923118306354651,-0.318071295705736,0.92311830635333,-0.318071295697978,-0.000270155614146228,-0.0212976563533189
24.5,-0.000496316464081492,-0.021824278732931,0.920792504586579,-0.324133441459069,0.920792504585454,-0.324133441451528,-0.00048866957028082,-0.0217194202944468
25,-0.000719765438342124,-0.0222471282015868,0.91843123336267,-0.33017977821469,0.918431233361731,-0.330179778207365,-0.000711887781023213,-0.022139730377482
25.5,-0.000947919046064838,-0.0226685050559272,0.916034313306889,-0.336210143984866,0.916034313306127,-0.336210143977757,-0.000939820677400283,-0.0225585479096142
26,-0.00118078559392532,-0.0230883700443383,0.913601582590644,-0.342224359739106,0.913601582590048,-0.342224359732211,-0.00117247875725501,-0.022975833815045
26.5,-0.00141837321793992,-0.0235066834809672,0.911132896479302,-0.34822223140651,0.911132896478863,-0.348222231399828,-0.00140987258304232,-0.0233915486537288
27,-0.00166068985878082,-0.0239234052590094,0.908628126828983,-0.35420355168227,0.908628126828693,-0.3542035516758,-0.00165201278064903,-0.023805652643871
27.5,-0.00190774323571458,-0.0243384948666832,0.906087161548529,-0.360168101655919,0.906087161548378,-0.36016810164966,-0.0018989100393676,-0.0242181056886577
28,-0.00215954081901826,-0.0247519114061967,0.903509904038789,-0.366115652277737,0.90350990403877,-0.366115652271686,-0.00215057511318262,-0.0246288674078385
28.5,-0.00241608980066382,-0.0251636136160258,0.900896272619156,-0.372045965678467,0.90089627261926,-0.372045965672621,-0.00240701882352734,-0.0250378971748164
29,-0.0026773970630663,-0.0255735598969089,0.898246199949277,-0.377958796356317,0.898246199949498,-0.377958796350674,-0.00266825206368848,-0.0254451541600464
29.5,-0.00294346914561727,-0.0259817083419409,0.895559632452336,-0.383853892244026,0.895559632452666,-0.383853892238585,-0.00293428580504695,-0.0258505973816703
30,-0.00321431220869101,-0.0263880167712867,0.892836529744913,-0.389730995667701,0.892836529745344,-0.389730995662458,-0.00320513110535148,-0.0262541857644703
30.5,-0.00348993199475328,-0.0267924427720407,0.890076864077318,-0.39558984420806,0.890076864077845,-0.395589844203012,-0.00348079911922994,-0.0266558782084292
31,-0.00377033378609476,-0.0271949437438574,0.887280619787411,-0.401430171473754,0.887280619788026,-0.401430171468899,-0.00376130111115058,-0.0270556336683905
31.5,-0.0040555223586819,-0.0275954769510565,0.884447792770085,-0.407251707795545,0.884447792770782,-0.407251707790881,-0.00404664847103703,-0.0274534112466263
32,-0.00434550193142358,-0.0279939995820135,0.881578389964051,-0.413054180849253,0.881578389964826,-0.413054180844776,-0.0043368527327311,-0.0278491703004116
32.5,-0.00464027611010143,-0.0283904688167445,0.878672428856976,-0.418837316214661,0.878672428857822,-0.418837316210367,-0.00463192559547182,-0.02824287056715
33,-0.00493984782497592,-0.0287848419037342,0.875729937009657,-0.424600837876824,0.875729937010569,-0.424600837872711,-0.00493187894850661,-0.028634472310068
33.5,-0.00524421926091423,-0.0291770762472108,0.872750951599565,-0.430344468675634,0.872750951600537,-0.430344468671699,-0.00523672489888505,-0.0290239364881042
34,-0.0055533917786128,-0.0295671295062074,0.869735518983835,-0.436067930708855,0.869735518984862,-0.436067930705095,-0.00554647580234363,-0.0294112249543463
34.5,-0.00586736582518693,-0.0299549597070095,0.866683694281535,-0.441770945693388,0.866683694282614,-0.441770945689799,-0.00586114429705026,-0.0297963006883246
35,-0.0061861408319896,-0.0303405253707199,0.863595540974947,-0.447453235288972,0.863595540976072,-0.447453235285552,-0.00618074333967022,-0.0301791280685109
35.5,-0.0065097150970565,-0.0307237856580258,0.860471130529376,-0.453114521388171,0.860471130530542,-0.453114521384915,-0.00650528624288044,-0.0305596731928361
36,-0.00683808564895,-0.0311047005334399,0.857310542031009,-0.458754526376037,0.857310542032213,-0.458754526372942,-0.00683478671288473,-0.0309379042567256
36.5,-0.00717124808802594,-0.0314832309516752,0.854113861842182,-0.46437297336256,0.85411386184342,-0.464372973359623,-0.00716925888472586,-0.0313137920002849
37,-0.00750919640017772,-0.0318593390691194,0.850881183273445,-0.469969586390643,0.850881183274712,-0.469969586387861,-0.00750871735207986,-0.0316873102389913
37.5,-0.00785192273691099,-0.0322329884837702,0.84761260627171,-0.475544090622083,0.847612606273002,-0.475544090619451,-0.0078531771866463,-0.0320584364955642
38,-0.00819941715407585,-0.0326041445073778,0.844308237123826,-0.481096212503787,0.844308237125141,-0.481096212501303,-0.00820265394003328,-0.0324271527549554
38.5,-0.00855166729963375,-0.0329727744739374,0.84096818817485,-0.486625679916222,0.840968188176184,-0.486625679913883,-0.00855716361784842,-0.0327934463696979
39,-0.00890865803837404,-0.0333388480890432,0.837592577560331,-0.49213222230587,0.83759257756168,-0.492132222303671,-0.00891672261120618,-0.0331573111495997
39.5,-0.00927037099833233,-0.0337023378248832,0.834181528951906,-0.497615570803317,0.834181528953267,-0.497615570801255,-0.00928134756440724,-0.0335187486782629
40,-0.0096367840196156,-0.0340632193657854,0.830735171315545,-0.503075458328395,0.830735171316917,-0.503075458326468,-0.00965105514828041,-0.033877769909637
40.5,-0.0100078704811413,-0.0344214721090211,0.827253638681791,-0.508511619683689,0.827253638683169,-0.508511619681893,-0.0100258616953746,-0.0342343971113802
41,-0.0103835984741241,-0.0347770797248844,0.823737069927334,-0.51392379163755,0.823737069928716,-0.513923791635881,-0.0104057826339085,-0.0345886662387731
41.5,-0.0107639297824835,-0.035130030778539,0.820185608567346,-0.519311712997666,0.820185608568728,-0.51931171299612,-0.0107908316293997,-0.0349406298441147
42,-0.0111488186192469,-0.035480319413253,0.81659940255796,-0.524675124676123,0.816599402559341,-0.524675124674697,-0.0111810193019895,-0.035290360652519
42.5,-0.0115382100536306,-0.0358279460896731,0.812978604108355,-0.53001376974679,0.812978604109732,-0.53001376974548,-0.0115763513274372,-0.0356379559661644
43,-0.0119320380449685,-0.0361729183675406,0.809323369501895,-0.535327393495784,0.809323369503265,-0.535327393494587,-0.0119768256411208,-0.0359835430948973
43.5,-0.0123302229758983,-0.0365152517028929,0.805633858925826,-0.540615743465691,0.805633858927189,-0.540615743464605,-0.0123824283329825,-0.0363272860491081
44,-0.0127326685468746,-0.036854970212584,0.801910236309055,-0.545878569494144,0.801910236310406,-0.545878569493163,-0.0127931276257414,-0.036669393764487
44.5,-0.0131392578558797,-0.0371921073246613,0.798152669167529,-0.551115623747307,0.798152669168867,-0.55111562374643,-0.0132088650368975,-0.0370101301427346
45,-0.0135498484398472,-0.0375267061813346,0.794361328456816,-0.55632666074876,0.794361328458139,-0.556326660747982,-0.0136295423896489,-0.0373498261559755
45.5,-0.0139642659974881,-0.0378588195812724,0.790536388431461,-0.56151143740421,0.790536388432767,-0.561511437403528,-0.0140550026909467,-0.0376888941121269
46,-0.0143822964484991,-0.0381885091251609,0.786678026510732,-0.566669713022436,0.78667802651202,-0.566669713021846,-0.0144850019437376,-0.0380278437884582
46.5,-0.0148036759175737,-0.0385158430413148,0.78278642315041,-0.571801249332821,0.782786423151677,-0.57180124933232,-0.014919167592469,-0.0383672992699833
47,-0.0152280781785483,-0.0388408918852957,0.778861761720258,-0.576905810499788,0.778861761721502,-0.576905810499372,-0.0153569374170752,-0.0387080135227906
47.5,-0.0156550990872874,-0.0391637208852883,0.774904228386877,-0.581983163134421,0.774904228388098,-0.581983163134088,-0.0157974703194345,-0.0390508741548894
48,-0.0160842376379527,-0.0394843770860278,0.770914012001627,-0.58703307630355,0.770914012002822,-0.587033076303296,-0.0162395180600851,-0.0393968870044661
48.5,-0.0165148736222672,-0.0398028685622152,0.766891303993336,-0.592055321536508,0.766891303994504,-0.592055321536329,-0.0166812463054033,-0.0397471117886603
49,-0.0169462426848884,-0.0401191317741573,0.762836298265539,-0.597049672829784,0.762836298266679,-0.597049672829676,-0.0171199990370818,-0.0401025028944907
49.5,-0.0173774112457909,-0.0404329816434874,0.758749191097988,-0.602015906649758,0.758749191099097,-0.602015906649719,-0.0175520235719275,-0.0404635764018059
50,-0.0178072569378271,-0.0407440373726342,0.754630181052205,-0.606953801933691,0.754630181053282,-0.606953801933717,-0.0179722364693934,-0.0408297879244411
50.5,-0.0182344657876234,-0.0410516161770604,0.750479468880859,-0.611863140089111,0.750479468881904,-0.611863140089199,-0.0183742471313229,-0.0411985000402701
51,-0.0186575663378891,-0.0413545887810532,0.746297257440764,-0.616743704991747,0.746297257441776,-0.616743704991893,-0.0187510815275966,-0.0415635456656088
51.5,-0.0190750335344779,-0.0416511984762041,0.742083751609298,-0.621595282982133,0.742083751610273,-0.621595282982333,-0.019097245846233,-0.0419138441822309
52,-0.01948550883963,-0.0419388660048213,0.737839158204065,-0.626417662860981,0.737839158205005,-0.626417662861233,-0.0194124754935599,-0.0422333976011587
52.5,-0.0198881877701554,-0.0422140429549603,0.733563685905655,-0.631210635883447,0.733563685906557,-0.631210635883747,-0.0197059915137101,-0.0425046445017704
53,-0.0202833992347227,-0.0424722380133965,0.729257545183293,-0.63597399575236,0.729257545184157,-0.635973995752705,-0.0199976749052216,-0.04271570465973
53.5,-0.0206733085762298,-0.0427084000211093,0.724920948223286,-0.640707538610515,0.72492094822411,-0.6407075386109,-0.0203125983784677,-0.0428676680336746
54,-0.0210625003510889,-0.0429178276317997,0.720554108860092,-0.645411063032083,0.720554108860876,-0.645411063032506,-0.0206708686283904,-0.0429754312032424
54.5,-0.0214580058530974,-0.0430975788268595,0.716157242509894,-0.650084370013235,0.716157242510636,-0.650084370013692,-0.0210803717832144,-0.0430605669954984
55,-0.0218683459540489,-0.0432479467787538,0.711730566106556,-0.654727262962017,0.711730566107256,-0.654727262962505,-0.0215372263207399,-0.0431422757778002
55.5,-0.0223015905952233,-0.0433731970005731,0.707274298039855,-0.659339547687536,0.707274298040512,-0.659339547688051,-0.0220312596422566,-0.0432325991731923
56,-0.0227631632426921,-0.0434808970787528,0.702788658095867,-0.663921032388525,0.702788658096479,-0.663921032389064,-0.0225513633443774,-0.0433365386377432
56.5,-0.023254502366547,-0.0435799670335266,0.698273867399422,-0.668471527641305,0.698273867399989,-0.668471527641864,-0.0230883511365272,-0.0434544040421989
57,-0.0237732195563949,-0.0436784193785615,0.69373014835853,-0.672990846387214,0.693730148359051,-0.67299084638779,-0.023635672953695,-0.0435841562632405
57.5,-0.0243144416277957,-0.0437818449772224,0.689157724610684,-0.677478803919518,0.689157724611159,-0.677478803920108,-0.0241890768233348,-0.0437229554504476
58,-0.0248724660106069,-0.0438930441581905,0.684556820970971,-0.681935217869855,0.6845568209714,-0.681935217870455,-0.0247459878071934,-0.0438679669582296
58.5,-0.0254420176529922,-0.0440125112567837,0.679927663381908,-0.686359908194236,0.679927663382288,-0.686359908194842,-0.025304944026712,-0.0440166944441467
59,-0.0260188785273082,-0.0441392437662601,0.675270478864921,-0.690752697158629,0.675270478865252,-0.690752697159238,-0.0258651798843686,-0.0441670664425703
59.5,-0.0266000139970293,-0.044271487786527,0.670585495473423,-0.695113409324166,0.670585495473706,-0.695113409324775,-0.0264263465540683,-0.0443174139805584
60,-0.0271834235248377,-0.0444072632194131,0.665872942247411,-0.699441871531983,0.665872942247644,-0.699441871532588,-0.0269883343486984,-0.0444664101891284
60.5,-0.0277678970870058,-0.0445446676858516,0.661133049169522,-0.703737912887724,0.661133049169704,-0.703737912888321,-0.0275511635607437,-0.0446130041971328
61,-0.0283527780028143,-0.0446820184179705,0.656366047122502,-0.708001364745724,0.656366047122633,-0.70800136474631,-0.0281149190151725,-0.0447563619335677
61.5,-0.0289377716242275,-0.0448178953852627,0.651572167848035,-0.712232060692901,0.651572167848114,-0.712232060693473,-0.0286797117220026,-0.0448958173918735
62,-0.0295228059161308,-0.0449511327258633,0.646751643906876,-0.716429836532364,0.646751643906903,-0.716429836532918,-0.0292456570244639,-0.0450308341473614
