"Freq [GHz]","re(St(P1,P1)) []","im(St(P1,P1)) []","re(St(P1,P2)) []","im(St(P1,P2)) []","re(St(P2,P1)) []","im(St(P2,P1)) []","re(St(P2,P2)) []","im(St(P2,P2)) []"
0,0.0046173553130302,0,0.995398549857782,0,0.995398543251213,0,0.00461735064766344,0
0.5,0.00516478801076659,-0.000860945796738122,0.994723415903241,-0.00857749198866742,0.994723416448792,-0.00857749349939141,0.00516448730595442,-0.000859700178409639
1,0.00558755695963598,-0.00242269110562887,0.993954189211827,-0.0164257070576355,0.993954189152049,-0.0164257070273912,0.00558675055692603,-0.0024197731077571
1.5,0.00544323464416152,-0.00418607299959817,0.993233529492368,-0.0243713075691687,0.993233529447696,-0.0243713075314602,0.00544208328555129,-0.00418088235026204
2,0.0053098973292629,-0.0058360061340732,0.992387904014161,-0.0321018916229523,0.992387903985229,-0.0321018915831601,0.00530854828916105,-0.00582876476660843
2.5,0.00515862660535138,-0.00743135598797728,0.991487792131704,-0.0396471652780637,0.991487792117149,-0.0396471652400354,0.00515711041938705,-0.00742213249671941
3,0.00498264033644613,-0.00899143467455943,0.99056948836384,-0.0470498379901372,0.990569488361486,-0.0470498379560773,0.0049809559447378,-0.00898025905854638
3.5,0.00478020580426941,-0.0105234594400407,0.989644173850455,-0.0543484276353841,0.989644173857992,-0.0543484276062269,0.00477834166988078,-0.0105103478392898
4,0.00455123771631394,-0.0120300281726795,0.98870901084551,-0.061571407815892,0.988709010860798,-0.0615714077916802,0.00454917871384408,-0.012014990753844
4.5,0.00429634697739023,-0.0135117147712478,0.987755069400698,-0.0687374520910069,0.987755069421833,-0.0687374520712876,0.00429407713287433,-0.0134947589474663
5,0.00401650631987871,-0.0149681349820989,0.986771772363138,-0.0758576978912133,0.986771772388432,-0.0758576978752457,0.00401401007491176,-0.0149492669889737
5.5,0.00371290916537892,-0.0163984414690468,0.985748986722627,-0.0829381044356499,0.985748986750551,-0.0829381044225501,0.00371017202781676,-0.0163776672574381
6,0.00338689911098744,-0.0178015764806494,0.984677819737404,-0.0899812991282998,0.984677819766545,-0.089981299117154,0.00338390801416355,-0.0177789022878088
6.5,0.00303992842367928,-0.0191764105902559,0.983550792607556,-0.0969878641758353,0.983550792636573,-0.0969878641657358,0.00303667192891366,-0.0191518433424536
7,0.00267352965714729,-0.0205218232299655,0.982361753345989,-0.103957181198671,0.982361753373586,-0.103957181188769,0.0026699980617747,-0.0204953708473994
7.5,0.00228929377680209,-0.0218367512707118,0.981105703654694,-0.110887966597733,0.981105703679607,-0.110887966587245,0.00228547915917832,-0.0218084229093884
8,0.00188885186348575,-0.0231202189001323,0.979778616362759,-0.117778602608947,0.979778616383749,-0.117778602597171,0.00188474808250949,-0.023090025148468
8.5,0.00147385904803882,-0.024371355900036,0.97837727244077,-0.124627337327255,0.978377272456615,-0.124627337313584,0.00146946170799589,-0.0243393089395489
9,0.001045980048034,-0.0255894083421335,0.976899125231712,-0.13143240208476,0.976899125241217,-0.131432402068682,0.00104128643623375,-0.0255555220772568
9.5,0.000606876017949037,-0.0267737440964622,0.975342190819966,-0.138192077275122,0.975342190821963,-0.13819207725621,0.000601885020816539,-0.0267380342564207
10,0.000158192586756464,-0.027923854653916,0.973704960533029,-0.144904726354957,0.97370496052638,-0.144904726332878,0.000152904589041075,-0.0278863388684583
10.5,-0.000184450124958435,-0.0292798975594124,0.972171673091359,-0.151649221702551,0.972171673086096,-0.151649221677661,-0.000188637195781882,-0.0292403649948891
11,-0.000543596373675709,-0.0306302426853931,0.970605922459442,-0.158357664196034,0.970605922455823,-0.158357664168543,-0.000546687722706926,-0.0305886824662793
11.5,-0.000919209013015183,-0.0319746572246875,0.969008571310991,-0.165032358785298,0.969008571309233,-0.165032358755439,-0.000921216173448328,-0.0319310596719937
12,-0.00131124788113858,-0.0333129126416747,0.967380198414073,-0.17167545456168,0.967380198414355,-0.171675454529692,-0.00131218862242438,-0.0332672693510947
12.5,-0.00171966971723289,-0.0346447846660212,0.965721143615472,-0.1782889319659,0.965721143617937,-0.178288931932032,-0.00171956792583942,-0.0345970885656648
13,-0.00214442808836088,-0.0359700532723086,0.964031548829302,-0.184874596745756,0.964031548834057,-0.184874596710257,-0.00214331362349882,-0.0359202986596143
13.5,-0.00258547332704748,-0.0372885026465859,0.962311394723912,-0.191434079192451,0.962311394731032,-0.191434079155572,-0.00258338185375884,-0.0372366852044239
14,-0.00304275247984712,-0.0385999211410857,0.960560533058815,-0.19796883737819,0.960560533068348,-0.197968837340174,-0.0030397252818859,-0.0385460379332492
14.5,-0.00351620926701085,-0.0399041012182546,0.958778714804957,-0.204480163315824,0.958778714816925,-0.204480163276899,-0.00351229304188916,-0.0398481506648616
15,-0.00400578405320856,-0.041200839385255,0.956965614301586,-0.210969191150664,0.956965614315987,-0.210969191111057,-0.00400103069175595,-0.0411428212187936
15.5,-0.00451141382917528,-0.0424899361201021,0.955120849774688,-0.217436906667251,0.955120849791501,-0.217436906627173,-0.00450588018186102,-0.0424298513230315
16,-0.00503303220402312,-0.0437711957905416,0.953244000577669,-0.223884157545724,0.953244000596856,-0.223884157505374,-0.00502677983620503,-0.0437090465155952
16.5,-0.00557056940785461,-0.0450444265667249,0.951334621524425,-0.230311663932355,0.951334621545933,-0.230311663891921,-0.00556366434600186,-0.0449802160411794
17,-0.00612395230425439,-0.0463094403287325,0.949392254676537,-0.236720028997434,0.949392254700301,-0.236720028957088,-0.00611646477506134,-0.0462431727440373
17.5,-0.00669310441212284,-0.047566052569854,0.947416438926156,-0.243109749242502,0.947416438952099,-0.243109749202403,-0.00668510857630594,-0.0474977329581256
18,-0.00727794593629633,-0.0488140822965804,0.94540671768908,-0.249481224390382,0.945406717717118,-0.249481224350678,-0.00726951961871375,-0.0487437163955313
18.5,-0.0078783938063085,-0.0500533519260928,0.943362644992033,-0.255834766747741,0.943362645022076,-0.255834766708563,-0.00786961822391186,-0.0499809460340006
19,-0.0084943617226243,-0.0512836871820386,0.941283790206622,-0.26217060997354,0.941283790238574,-0.262170609935008,-0.00848532121161155,-0.0512092480043962
19.5,-0.00912576020967593,-0.0525049169892817,0.939169741651582,-0.268488917219933,0.939169741685343,-0.268488917182157,-0.00911654195306083,-0.0524284514787863
20,-0.00977249667495428,-0.0537168733682569,0.93702010925582,-0.274789788636721,0.937020109291287,-0.274789788599799,-0.00976319043165225,-0.0536383885597216
20.5,-0.0104344754734508,-0.0549193913294812,0.934834526447863,-0.281073268248403,0.934834526484931,-0.281073268212422,-0.0104251733098408,-0.0548388941712923
21,-0.011111597976732,-0.0561123087687465,0.932612651413139,-0.287339350225295,0.932612651451702,-0.287339350190329,-0.0111023940015421,-0.0560298059523765
21.5,-0.011803762645916,-0.0572954663633942,0.930354167838974,-0.293587984578534,0.930354167878925,-0.293587984544651,-0.0117947527491592,-0.0572109641524527
22,-0.0125108651078616,-0.0584687074700807,0.92805878524827,-0.299819082313935,0.928058785289505,-0.299819082281192,-0.012502146704456,-0.0583822115302954
22.5,-0.0132327982338815,-0.0596318780243483,0.92572623900642,-0.306032520082474,0.925726239048834,-0.306032520050921,-0.0132244700124844,-0.0595433932557909
23,-0.0139694522203299,-0.0607848264422852,0.923356290071833,-0.312228144366129,0.923356290115323,-0.312228144335807,-0.0139616138978359,-0.0606943568150553
23.5,-0.0147207146704301,-0.0619274035244921,0.920948724548362,-0.318405775237594,0.920948724592825,-0.318405775208537,-0.014713466752506,-0.0618349519190018
24,-0.0154864706767504,-0.0630594623625635,0.918503353087609,-0.324565209731233,0.918503353132945,-0.324565209703469,-0.0154799142247118,-0.0629650304154366
24.5,-0.0162666029037656,-0.0641808582482284,0.916020010180394,-0.330706224860913,0.916020010226507,-0.330706224834463,-0.0162608393080445,-0.0640844462047439
25,-0.0170609916699846,-0.0652914485852794,0.913498553369364,-0.336828580318246,0.913498553416158,-0.336828580293125,-0.0170561224303814,-0.0651930551591846
25.5,-0.0178695150291542,-0.0663910928043658,0.910938862408582,-0.342932020882469,0.910938862455963,-0.342932020858687,-0.0178656415420256,-0.0662907150457872
26,-0.0186920488500955,-0.0674796522807475,0.908340838390832,-0.349016278570822,0.908340838438712,-0.349016278548385,-0.0186892722025951,-0.0673772854528172
26.5,-0.0195284668947635,-0.0685569902550367,0.905704402859164,-0.355081074555859,0.905704402907456,-0.355081074534767,-0.0195268876662239,-0.0684526277197619
27,-0.020378640894161,-0.0696229717569548,0.903029496915672,-0.361126120873835,0.90302949696429,-0.361126120854085,-0.0203783589646692,-0.0695166048707703
27.5,-0.0212424406217875,-0.0706774635321448,0.900316080337615,-0.367151121946082,0.900316080386479,-0.367151121927667,-0.0212435549879961,-0.0705690815514837
28,-0.0221197339643051,-0.0717203339720105,0.897564130708688,-0.373155775933194,0.897564130757719,-0.373155775916102,-0.0221223425625088,-0.0716099239691537
28.5,-0.0230103869892049,-0.0727514530466,0.894773642571209,-0.379139775939882,0.894773642620332,-0.3791397759241,-0.0230145865256762,-0.0726389998359835
29,-0.0239142640092123,-0.0737706922405137,0.891944626603553,-0.385102811086592,0.891944626652695,-0.385102811072104,-0.0239201497978151,-0.0736561783155856
29.5,-0.0248312276432762,-0.074777924491811,0.889077108825796,-0.391044567462278,0.889077108874888,-0.391044567449063,-0.0248388934503342,-0.0746613299724701
30,-0.0257611388739757,-0.0757730241339072,0.886171129835571,-0.39696472897126,0.886171129884546,-0.396964728959298,-0.025770676770392,-0.0756543267244847
30.5,-0.0267038571012139,-0.0767558668404211,0.883226744075319,-0.402862978085713,0.883226744124113,-0.402862978074979,-0.0267153573218188,-0.0766350417981041
31,-0.0276592401921262,-0.0777263295729664,0.88024401913146,-0.408738996514089,0.880244019180012,-0.408738996504558,-0.0276727910022352,-0.0776033496865072
31.5,-0.0286271445271042,-0.0786842905318463,0.877223035065541,-0.414592465794677,0.877223035113793,-0.41459246578632,-0.0286428320962659,-0.0785591261103453
32,-0.0296074250419262,-0.079629629109631,0.874163883777001,-0.420423067822489,0.874163883824898,-0.420423067815277,-0.0296253333248301,-0.0795022479811482
32.5,-0.0305999352659538,-0.0805622258476093,0.871066668396908,-0.426230485316785,0.871066668444396,-0.426230485310688,-0.0306201458904743,-0.0804325933672982
33,-0.0316045273564038,-0.081481962395068,0.867931502711822,-0.43201440223572,0.867931502758852,-0.432014402230707,-0.031627119518754,-0.0813500414625101
33.5,-0.0326210521287225,-0.0823887214714096,0.864758510616751,-0.4377745041439,0.864758510663275,-0.437774504139936,-0.0326461024956825,-0.0822544725567735
34,-0.0336493590831001,-0.0832823868310668,0.861547825596084,-0.443510478537982,0.861547825642056,-0.443510478535033,-0.0336769417012944,-0.0831457680097059
34.5,-0.0346892964271905,-0.0841628432312249,0.858299590231289,-0.449222015134895,0.858299590276667,-0.449222015132928,-0.0347194826393715,-0.0840238102262938
35,-0.0357407110950996,-0.085029976402317,0.855013955734157,-0.454908806126739,0.855013955778901,-0.454908806125718,-0.0357735694634035,-0.0848884826349667
35.5,-0.0368034487627458,-0.085883673021306,0.851691081504329,-0.460570546405965,0.851691081548401,-0.460570546405852,-0.0368390449988751,-0.0857396696680046
36,-0.0378773538596837,-0.0867238206877377,0.848331134709854,-0.46620693376406,0.848331134753218,-0.466206933764818,-0.0379157507619725,-0.0865772567442464
36.5,-0.0389622695775045,-0.087550307902553,0.844934289889571,-0.471817669066568,0.844934289932194,-0.471817669068162,-0.0390035269748055,-0.0874011302540791
37,-0.0400580378749415,-0.0883630240496796,0.841500728576091,-0.477402456407008,0.841500728617941,-0.477402456409399,-0.0401022125772882,-0.0882111775467163
37.5,-0.0411644994798088,-0.0891618593803822,0.838030638938235,-0.482961003241908,0.838030638979283,-0.482961003245058,-0.0412116452357729,-0.0890072869197465
38,-0.0422814938879112,-0.0899467050003817,0.8345242154418,-0.488493020508985,0.83452421548202,-0.488493020512855,-0.0423316613485991,-0.0897893476109546
38.5,-0.0434088593590792,-0.090717452859747,0.830981658527596,-0.493998222730234,0.830981658566961,-0.493998222734788,-0.043462096048671,-0.0905572497924241
39,-0.044546432910477,-0.0914739957455618,0.827403174305711,-0.499476328101526,0.8274031743442,-0.499476328106724,-0.0446027832032326,-0.0913108845669162
39.5,-0.0456940503073379,-0.0922162272773586,0.823788974265067,-0.504927058570089,0.823788974302658,-0.504927058575893,-0.0457535554109685,-0.0920501439665312
40,-0.0468515460513029,-0.0929440419053443,0.820139274997309,-0.510350139901177,0.820139275033982,-0.510350139907549,-0.0469142439965998,-0.0927749209536822
40.5,-0.0480187533665156,-0.0936573349113976,0.816454297934199,-0.515745301734983,0.816454297969938,-0.515745301741884,-0.0480846790031291,-0.0934851094243639
41,-0.0491955041836544,-0.0943560024128624,0.812734269097659,-0.521112277634837,0.812734269132446,-0.521112277642228,-0.0492646891818901,-0.0941806042137439
41.5,-0.0503816291220567,-0.0950399413691123,0.80897941886173,-0.526450805127538,0.808979418895552,-0.526450805135383,-0.0504541019805649,-0.0948613011040799
42,-0.0515769574701357,-0.0957090495909113,0.805189981725692,-0.531760625736633,0.805189981758537,-0.531760625744893,-0.0516527435293453,-0.0955270968349877
42.5,-0.0527813171642372,-0.096363225752551,0.801366196097689,-0.537041485009314,0.801366196129546,-0.537041485017954,-0.052860438625382,-0.0961778891160489
43,-0.0539945347661323,-0.0970023694067704,0.797508304088215,-0.542293132537594,0.797508304119074,-0.542293132546575,-0.0540770107157122,-0.0968135766417858
43.5,-0.0552164354393093,-0.0976263810024427,0.793616551312862,-0.547515321974282,0.793616551342718,-0.547515321983569,-0.055302281878814,-0.0974340591090034
44,-0.0564468429242557,-0.0982351619050345,0.789691186703791,-0.552707811044286,0.789691186732636,-0.552707811053842,-0.0565360728049671,-0.0980392372365119
44.5,-0.0576855795128876,-0.0988286144198038,0.785732462329382,-0.557870361551664,0.78573246235721,-0.557870361561454,-0.0577782027755784,-0.0986290127872204
45,-0.0589324660223194,-0.0994066418177522,0.781740633221605,-0.563002739382831,0.781740633248414,-0.563002739392819,-0.0590284896416446,-0.0992032885926216
45.5,-0.0601873217681359,-0.0999691483642801,0.777715957210641,-0.568104714506271,0.777715957236429,-0.568104714516423,-0.0602867498015192,-0.0997619685796534
46,-0.0614499645373479,-0.100516039350556,0.773658694766339,-0.573176060969076,0.773658694791106,-0.573176060979358,-0.0615527981781413,-0.100304957799941
46.5,-0.0627202105611964,-0.101047221127552,0.769569108846117,-0.578216556890586,0.769569108869863,-0.578216556900964,-0.0628264481958981,-0.100832162461412
47,-0.0639978744879782,-0.101562601142728,0.765447464748938,-0.583225984453384,0.765447464771664,-0.583225984463826,-0.0641075117572806,-0.101343489962268
47.5,-0.0652827693560604,-0.102062087979335,0.761294029975018,-0.58820412989189,0.761294029996729,-0.588204129902363,-0.0653957992194912,-0.101838848927317
48,-0.0665747065672465,-0.102545591398295,0.757109074090962,-0.593150783478726,0.75710907411166,-0.593150783489197,-0.0666911193711677,-0.102318149246625
48.5,-0.0678734958606576,-0.103013022382624,0.752892868600008,-0.59806573950906,0.752892868619701,-0.598065739519501,-0.0679932794093723,-0.102781302116485
49,-0.0691789452872893,-0.103464293184347,0.748645686817132,-0.602948796283088,0.748645686835824,-0.602948796293468,-0.0693020849170118,-0.103228220082675
49.5,-0.0704908611854019,-0.103899317373874,0.74436780374873,-0.607799756086788,0.74436780376643,-0.607799756097077,-0.0706173398408337,-0.103658817085968
50,-0.0718090481568934,-0.104318009891761,0.740059495976669,-0.61261842517109,0.740059495993384,-0.61261842518126,-0.0719388464701454,-0.104073008509869
50.5,-0.0731333090448097,-0.104720287102822,0.735721041546448,-0.617404613729582,0.735721041562189,-0.617404613739604,-0.0732664054164163,-0.10447071123054
51,-0.0744634449121384,-0.10510606685252,0.731352719859304,-0.622158135874852,0.731352719874082,-0.622158135884701,-0.0745998155938982,-0.10485184366887
51.5,-0.0757992550220301,-0.105475268525576,0.726954811568032,-0.626878809613569,0.726954811581857,-0.626878809623216,-0.0759388742014039,-0.105216325844638
52,-0.0771405368195829,-0.105827813106725,0.722527598476369,-0.631566456820386,0.722527598489255,-0.631566456829808,-0.0772833767053921,-0.105564079432736
52.5,-0.0784870859153344,-0.106163623243556,0.718071363441757,-0.636220903210754,0.718071363453715,-0.636220903219926,-0.0786331168244882,-0.105895027821379
53,-0.0798386960705861,-0.106482623311341,0.713586390281339,-0.640841978312705,0.713586390292385,-0.640841978321602,-0.0799878865155722,-0.106209096172246
53.5,-0.0811951591846886,-0.106784739479788,0.709072963681041,-0.64542951543768,0.709072963691188,-0.645429515446281,-0.0813474759615675,-0.106506211482497
54,-0.0825562652844166,-0.107069899781625,0.704531369107606,-0.649983351650466,0.70453136911687,-0.649983351658748,-0.0827116735610508,-0.106786302648587
54.5,-0.0839218025155494,-0.107338034182932,0.699961892723447,-0.654503327738283,0.699961892731845,-0.654503327746225,-0.08408026591981,-0.107049300531816
55,-0.0852915571367708,-0.10758907465511,0.695364821304222,-0.658989288179078,0.69536482131177,-0.65898928818666,-0.0854530378444622,-0.10729513802552
55.5,-0.0866653135160022,-0.107822955248419,0.690740442158992,-0.663441081109083,0.690740442165708,-0.663441081116286,-0.086829772338251,-0.107523750123838
56,-0.0880428541292697,-0.108039612166954,0.686089043052888,-0.667858558289659,0.68608904305879,-0.667858558296465,-0.0882102505991296,-0.107735073991964
56.5,-0.0894239595622148,-0.108238983844969,0.681410912132181,-0.672241575073482,0.681410912137287,-0.672241575079873,-0.0895942520202326,-0.107929049037789
57,-0.090808408514331,-0.108421011024442,0.676706337851655,-0.676589990370098,0.676706337855986,-0.676589990376059,-0.090981554192846,-0.108105616984843
57.5,-0.0921959778060328,-0.108585636833761,0.671975608904226,-0.680903666610892,0.671975608907802,-0.680903666616407,-0.0923719329119619,-0.108264721946438
58,-0.0935864423886288,-0.108732806867419,0.667219014152704,-0.685182469713481,0.667219014155545,-0.685182469718534,-0.0937651621845186,-0.108406310500911
58.5,-0.0949795753572872,-0.108862469266594,0.662436842563642,-0.689426269045591,0.662436842565768,-0.689426269050171,-0.0951610142404038,-0.108530331767857
59,-0.0963751479670677,-0.108974574800505,0.657629383143197,-0.693634937388419,0.65762938314463,-0.693634937392513,-0.0965592595463136,-0.108636737485246
59.5,-0.0977729296520883,-0.109069076948394,0.652796924874944,-0.697808350899521,0.652796924875706,-0.697808350903117,-0.0979596668225354,-0.108725482087308
60,-0.0991726880478852,-0.109145931982034,0.64793975665958,-0.701946389075246,0.647939756659692,-0.701946389078335,-0.0993620030627321,-0.108796522783064
60.5,-0.100574189017038,-0.10920509904861,0.643058167256461,-0.70604893471274,0.643058167255945,-0.706048934715313,-0.100766033556793,-0.108849819635402
61,-0.101977196678097,-0.109246540253851,0.638152445226931,-0.710115873871548,0.638152445225811,-0.710115873873595,-0.102171521916811,-0.108885335640543
61.5,-0.103381473437862,-0.109270220745264,0.633222878879381,-0.714147095834819,0.63322287887768,-0.714147095836333,-0.103578230106242,-0.108903036807806
62,-0.104786780027067,-0.109276108795352,0.628269756215995,-0.718142493070161,0.628269756213736,-0.718142493071137,-0.104985918472304,-0.108902892239507
62.5,-0.106192875539486,-0.109264175884655,0.623293364881147,-0.722101961190139,0.623293364878354,-0.722101961190571,-0.106394345781643,-0.108884874210893
