"Freq [GHz]","re(St(P1,P1)) []","im(St(P1,P1)) []","re(St(P1,P2)) []","im(St(P1,P2)) []","re(St(P2,P1)) []","im(St(P2,P1)) []","re(St(P2,P2)) []","im(St(P2,P2)) []"
0,0.00492828447846705,0,0.995091124161263,0,0.995091121600126,0,0.00492827693489062,0
0.5,0.00564444561995714,-0.00392772233544392,0.994236637784979,-0.0102909972108733,0.994236637564967,-0.0102909965438478,0.00564421305801233,-0.00392640399552846
1,0.00622328240403647,-0.00878727641241994,0.993272545266752,-0.0196443163205196,0.993272545243663,-0.0196443165863158,0.00622263743775875,-0.00878436384119041
1.5,0.00645528369661541,-0.0138757989814238,0.992413308410468,-0.0287353440922686,0.992413308309336,-0.0287353442756277,0.00645417711373675,-0.0138710613787829
2,0.0063997526427837,-0.0189993007491864,0.991608826025463,-0.0377448669486427,0.991608825905706,-0.0377448670727603,0.00639829820678983,-0.0189925697856168
2.5,0.00615525263436467,-0.0240934397847496,0.990768154061701,-0.0467349078427262,0.990768153943851,-0.046734907928327,0.00615354595529638,-0.0240846551020635
3,0.00577316283995799,-0.0291505831611243,0.989845302488073,-0.055707928602013,0.989845302380226,-0.0557079286622546,0.00577126564408825,-0.0291397172569674
3.5,0.0052788491642568,-0.0341736275156386,0.988820993905757,-0.0646554624161393,0.988820993811633,-0.0646554624595623,0.00527680355434335,-0.0341606595392321
4,0.00468560317244648,-0.0391661789164992,0.987688584282952,-0.0735691688908382,0.987688584204355,-0.0735691689234308,0.00468344239309371,-0.0391510878519146
4.5,0.00400099741000481,-0.0441308815300765,0.986447218381963,-0.0824428085774755,0.986447218319568,-0.0824428086036839,0.0039987516901383,-0.0441136453188982
5,0.00322973193278742,-0.0490694100077356,0.985098604392505,-0.0912721837800046,0.985098604346149,-0.0912721838032109,0.00322743129922864,-0.049050006244709
5.5,0.00237496457566788,-0.0539827193607216,0.983645448419746,-0.100054691044814,0.983645448388577,-0.100054691067541,0.00237264000945103,-0.0539611262093
6,0.00143896741290028,-0.0588712675706766,0.982090678921828,-0.108788868205558,0.982090678904402,-0.108788868229539,0.00143665113408931,-0.0588474644992498
6.5,0.000423469341118254,-0.0637351731153064,0.980437070246679,-0.117474017405435,0.980437070241063,-0.117474017431636,0.000421194661244684,-0.0637091413667719
7,-0.000670154717672844,-0.0685743189660935,0.978687078036639,-0.126109912125179,0.9786870780405,-0.126109912153793,-0.000672353727798169,-0.0685460417778154
7.5,-0.00184077297701712,-0.0733884196421366,0.97684278972589,-0.134696578779902,0.976842789736596,-0.13469657881032,-0.00184286186457006,-0.0733578822662659
8,-0.00308742770602377,-0.0781770643016797,0.974905936659775,-0.143234140065328,0.974905936674505,-0.143234140096172,-0.00308937198285086,-0.0781442538818427
8.5,-0.00440928937438367,-0.0829397447403926,0.972877936956369,-0.151722707536847,0.972877936972198,-0.151722707565943,-0.00441105479636916,-0.0829046500957764
9,-0.0058056243376261,-0.087675874048978,0.970759950991455,-0.160162312254521,0.970759951005455,-0.160162312278937,-0.00580717710366552,-0.0876384854083287
9.5,-0.00727577085586861,-0.092384799562776,0.968552939030408,-0.168552863987155,0.96855293903972,-0.168552864003222,-0.0072770777274207,-0.0923451082808526
10,-0.0088191205640491,-0.0970658123535966,0.966257715252902,-0.17689413116811,0.966257715254819,-0.176894131171456,-0.00882014891388172,-0.0970238106336092
10.5,-0.0104597184455509,-0.101699357847155,0.963851739046857,-0.185218406805472,0.963851739048671,-0.185218406806876,-0.0104602216260642,-0.101655259041118
11,-0.0121751448572567,-0.106301365278543,0.961359340154215,-0.193486623240597,0.961359340156158,-0.193486623240119,-0.0121750947013175,-0.106255170601758
11.5,-0.0139646775302387,-0.110870477936355,0.958782270433731,-0.201698721507884,0.958782270436017,-0.201698721505609,-0.0139640455511022,-0.110822188838928
12,-0.0158275653023736,-0.11540535856775,0.956122133880593,-0.209854634958234,0.956122133883414,-0.209854634954272,-0.0158263226887015,-0.115354976756784
12.5,-0.0177630287256136,-0.119904690089156,0.953380405366439,-0.217954275254695,0.953380405369963,-0.217954275249161,-0.0177611463376985,-0.119852217551406
13,-0.0197702606930157,-0.124367176275324,0.950558448949752,-0.225997522199921,0.950558448954124,-0.22599752219295,-0.0197677090602326,-0.124312615300285
13.5,-0.0218484270847173,-0.128791542426291,0.947657535307057,-0.2339842168568,0.947657535312397,-0.233984216848528,-0.0218451764042163,-0.128734895629602
14,-0.0239966674319405,-0.133176536011539,0.944678857977029,-0.241914157436014,0.944678857983441,-0.24191415742659,-0.0239926875686011,-0.133117806358687
14.5,-0.0262140955981432,-0.137520927290906,0.941623548226417,-0.249787097457276,0.941623548233978,-0.249787097446846,-0.0262093560858116,-0.137460118121137
15,-0.028499800476429,-0.141823509911734,0.938492688439835,-0.257602745735566,0.938492688448609,-0.257602745724272,-0.0284942705204267,-0.141760624962111
15.5,-0.0308528467022579,-0.14608310148179,0.935287324007272,-0.265360767795103,0.935287324017302,-0.265360767783093,-0.0308464951831939,-0.146018144911352
16,-0.0332722753805361,-0.150298544117556,0.932008473736301,-0.273060788366584,0.932008473747615,-0.273060788353996,-0.0332650708593996,-0.150231520531475
16.5,-0.0357571048261486,-0.154468704967524,0.928657138853542,-0.280702394675082,0.928657138866153,-0.280702394662052,-0.0357490155507048,-0.154399619441238
17,-0.0383063313169639,-0.158592476710166,0.925234310684943,-0.288285140274332,0.925234310698853,-0.28828514026099,-0.0382973252294298,-0.15852133481338
17.5,-0.0409189298583493,-0.162668778026239,0.921740977119326,-0.295808549227158,0.921740977134524,-0.295808549213626,-0.0409089746043518,-0.162595585846767
18,-0.043593854958242,-0.166696554045267,0.918178127966985,-0.303272120470703,0.918178127983451,-0.303272120457097,-0.043582917897046,-0.166621318212626
18.5,-0.0463300414117885,-0.170674776765871,0.914546759326732,-0.310675332238832,0.914546759344438,-0.310675332225261,-0.0463180896277821,-0.170597504474582
19,-0.0491264050945898,-0.174602445449879,0.910847877072356,-0.318017646442907,0.910847877091266,-0.318017646429471,-0.0491134054100029,-0.174523144482399
19.5,-0.0519818437635907,-0.178478586990018,0.907082499564223,-0.325298512936204,0.907082499584293,-0.325298512922995,-0.0519677627524391,-0.178397265739253
20,-0.0548952378646165,-0.182302256251112,0.903251659684845,-0.332517373607156,0.903251659706029,-0.332517373594257,-0.0548800418678335,-0.182218923742446
20.5,-0.0578654513456237,-0.186072536384738,0.899356406289211,-0.339673666262893,0.899356406311458,-0.339673666250386,-0.0578491064873627,-0.18598720229753
21,-0.0608913324746748,-0.189788539117315,0.895397805152361,-0.346766828277585,0.895397805175615,-0.346766828265538,-0.0608738046797576,-0.189701213805789
21.5,-0.0639717146617183,-0.193449405011656,0.891376939488241,-0.353796299990417,0.891376939512445,-0.353796299978892,-0.0639529696741831,-0.193360099525156
22,-0.0671054172831818,-0.197054303702006,0.88729491010581,-0.360761527846101,0.887294910130905,-0.360761527835154,-0.0670854206859124,-0.196963029804543
22.5,-0.0702912465085033,-0.200602434102723,0.883152835260585,-0.367661967277083,0.883152835286509,-0.367661967266765,-0.0702699637438944,-0.200509204291777
23,-0.0735279961276292,-0.204093024590669,0.878951850252809,-0.374497085331136,0.878951850279503,-0.374497085321491,-0.0735053925192508,-0.20399785211519
23.5,-0.0768144483785881,-0.20752533316149,0.874693106816824,-0.381266363051506,0.874693106844225,-0.38126636304257,-0.0767904891538099,-0.207428232039063
24,-0.0801493747742578,-0.210898647560025,0.870377772340372,-0.387969297619195,0.870377772368419,-0.387969297611,-0.0801240250877887,-0.210799632593143
24.5,-0.0835315369274243,-0.214212285385008,0.866007028947307,-0.394605404268499,0.866007028975939,-0.394605404261071,-0.0835047618857219,-0.214111372176424
25,-0.0869596873732861,-0.217465594168368,0.861582072472515,-0.401174217988001,0.86158207250167,-0.401174217981364,-0.0869314520597964,-0.217362799135486
25.5,-0.0904325703885537,-0.220657951429401,0.85710411135371,-0.407675295019689,0.85710411138333,-0.407675295013858,-0.0904028398897194,-0.220553291817661
26,-0.0939489228063243,-0.223788764704146,0.85257436546119,-0.414108214169044,0.852574365491218,-0.414108214164034,-0.0939176622383293,-0.22368225859939
26.5,-0.0975074748259236,-0.226857471550305,0.847994064883475,-0.420472577938847,0.847994064913852,-0.420472577934666,-0.0974746493621069,-0.226749137890071
27,-0.101106950816933,-0.229863539528083,0.84336444868401,-0.426768013499141,0.843364448714683,-0.426768013495796,-0.101072525715833,-0.229753398111817
27.5,-0.104746070116644,-0.232806466157358,0.838686763641781,-0.432994173505353,0.838686763672697,-0.432994173502844,-0.104710010750613,-0.232694537655518
28,-0.108423547820202,-0.235685778851602,0.833962262986607,-0.439150736776039,0.833962263017713,-0.439150736774365,-0.108385819704539,-0.235572084813625
28.5,-0.112138095562721,-0.238501034829004,0.829192205138148,-0.445237408841157,0.829192205169394,-0.445237408840316,-0.112098664385271,-0.238385597690121
29,-0.115888422292691,-0.241251821001264,0.824377852456164,-0.451253922371134,0.824377852487502,-0.45125392237112,-0.115847253943853,-0.241134664088156
29.5,-0.119673235036003,-0.243937753840564,0.819520470008247,-0.457200037496369,0.819520470039631,-0.457200037497171,-0.119630295639093,-0.243818901375826
30,-0.123491239649965,-0.246558479225207,0.814621324360164,-0.463075542026214,0.814621324391551,-0.463075542027823,-0.123446495591878,-0.246437956330636
30.5,-0.127341141566685,-0.249113672264468,0.809681682393012,-0.468880251575851,0.809681682424361,-0.468880251578254,-0.127294559528802,-0.248991504963146
31,-0.131221646525242,-0.251603037103211,0.804702810150576,-0.474614009608905,0.804702810181846,-0.474614009612087,-0.13117319351453,-0.25147925232039
31.5,-0.135131461292106,-0.254026306706804,0.799685971719589,-0.480276687403094,0.799685971750741,-0.480276687407039,-0.135081104672342,-0.253900932269594
32,-0.139069294369234,-0.256383242626955,0.794632428145044,-0.48586818394567,0.794632428176043,-0.485868183950361,-0.139017001892319,-0.256256307262802
32.5,-0.143033856689384,-0.258673634749005,0.789543436382204,-0.491388425764929,0.789543436413017,-0.491388425770347,-0.142979596526677,-0.258545168082981
33,-0.147023862298145,-0.260897301021323,0.784420248286512,-0.496837366703601,0.784420248317105,-0.496837366709726,-0.146967603071769,-0.260767333572225
33.5,-0.151038029022248,-0.263054087167389,0.779264109642296,-0.50221498763952,0.77926410967264,-0.502214987646332,-0.150979739836313,-0.262922650342653
34,-0.155075079123729,-0.265143866381192,0.774076259230837,-0.507521296158536,0.774076259260905,-0.507521296166013,-0.155014729595431,-0.26501099247064
34.5,-0.159133739939572,-0.26716653900656,0.768857927938125,-0.512756326184316,0.768857927967889,-0.512756326192435,-0.159071300230093,-0.267032261174999
35,-0.163212744506447,-0.26912203220107,0.763610337902401,-0.517920137569288,0.763610337931838,-0.517920137578027,-0.163148185351633,-0.268986384479747
35.5,-0.167310832170219,-0.271010299585173,0.758334701701429,-0.52301281565073,0.758334701730514,-0.523012815660066,-0.167244124910971,-0.270873316862114
36,-0.171426749179927,-0.272831320877154,0.753032221579271,-0.528034470775635,0.753032221607983,-0.528034470785543,-0.171357865792258,-0.272693038886404
36.5,-0.175559249265933,-0.274585101514607,0.74770408871221,-0.532985237797793,0.747704088740531,-0.532985237808251,-0.175488162390657,-0.274445556824398
37,-0.179707094202014,-0.276271672263029,0.742351482513375,-0.537865275550244,0.742351482541288,-0.537865275561226,-0.179633777174004,-0.2761309022629
37.5,-0.183869054351147,-0.277891088812221,0.73697556997551,-0.542674766296026,0.736975570002997,-0.542674766307509,-0.183793481228134,-0.277749131699119
38,-0.188043909194805,-0.279443431361108,0.731577505051271,-0.547413915159959,0.731577505078317,-0.547413915171918,-0.18796605478567,-0.279300326124494
38.5,-0.192230447845575,-0.280928804191632,0.726158428070377,-0.552082949543967,0.726158428096968,-0.552082949556377,-0.192150287738095,-0.280784590597631
39,-0.19642746954297,-0.282347335232362,0.720719465192854,-0.556682118528329,0.720719465218979,-0.556682118541167,-0.196344980130977,-0.282202053806984
39.5,-0.200633784132289,-0.283699175612453,0.71526172789763,-0.561211692260996,0.715261727923279,-0.561211692274238,-0.200548942642211,-0.283552867623926
40,-0.204848212526442,-0.284984499206579,0.709786312505634,-0.565671961337041,0.709786312530797,-0.565671961350662,-0.204760997043188,-0.284837206646819
40.5,-0.20906958715067,-0.286203502171476,0.704294299736573,-0.570063236170107,0.704294299761241,-0.570063236184083,-0.208979976642824,-0.286055267736745
41,-0.213296752370089,-0.287356402474697,0.698786754298529,-0.574385846357612,0.698786754322697,-0.574385846371919,-0.213204726714386,-0.287207269545482
41.5,-0.217528564900054,-0.288443439416213,0.693264724509491,-0.578640140041344,0.693264724533152,-0.578640140055959,-0.217434104905109,-0.288293452036361
42,-0.221763894199322,-0.289464873143432,0.687729241949913,-0.582826483264952,0.687729241973063,-0.582826483279853,-0.221666981628578,-0.289314075998593
42.5,-0.22600162284604,-0.290420984160257,0.682181321145421,-0.586945259329752,0.682181321168055,-0.586945259344915,-0.22590224043992,-0.290269422555667
43,-0.23024064689659,-0.291312072830737,0.676621959278737,-0.590996868150136,0.676621959300853,-0.59099686816554,-0.230138778393822,-0.291159792668392
43.5,-0.234479876227351,-0.292138458877909,0.671052135929924,-0.594981725609805,0.671052135951521,-0.594981725625429,-0.234375506385445,-0.291985506633176
44,-0.238718234859456,-0.292900480878378,0.665472812844023,-0.598900262919953,0.6654728128651,-0.598900262935774,-0.238611349474319,-0.29274690357607
44.5,-0.242954661266646,-0.293598495753169,0.659884933725177,-0.602752925980426,0.659884933745734,-0.602752925996424,-0.242845247191311,-0.293444340943167
45,-0.247188108666327,-0.294232878255426,0.654289424056339,-0.606540174744833,0.654289424076376,-0.606540174760988,-0.247076153828784,-0.294078193987844
45.5,-0.25141754529397,-0.294804020455429,0.648687190943641,-0.610262482590486,0.648687190963161,-0.610262482606777,-0.251303038714085,-0.294648855255416
46,-0.255641954660999,-0.295312331223474,0.643079122984553,-0.613920335693981,0.643079123003557,-0.61392033571039,-0.255524886466507,-0.295156734065677
46.5,-0.25986033579635,-0.295758235711106,0.637466090158909,-0.617514232413202,0.637466090177401,-0.61751423242971,-0.259740697237913,-0.295602255993838
47,-0.264071703471852,-0.296142174831156,0.631848943741955,-0.621044682676391,0.631848943759938,-0.621044682692979,-0.263949486937173,-0.295985862350334
47.5,-0.268275088411658,-0.296464604737084,0.626228516238515,-0.62451220737896,0.626228516255995,-0.624512207395611,-0.268150287438646,-0.296308009659971
48,-0.272469537485922,-0.296725996302044,0.620605621337446,-0.627917337788602,0.620605621354426,-0.627917337805298,-0.272342146774899,-0.296569169140856
48.5,-0.276654113888946,-0.296926834598129,0.614981053885501,-0.631260614959221,0.614981053901987,-0.631260614975947,-0.276524129313901,-0.296769826183542
49,-0.280827897302046,-0.297067618376184,0.609355589879805,-0.634542589154169,0.609355589895805,-0.634542589170908,-0.280695315920917,-0.296910479830802
49.5,-0.284989984041375,-0.297148859546616,0.603729986478088,-0.637763819279214,0.603729986493606,-0.637763819295952,-0.284854804105384,-0.296991642258445
50,-0.289139487190967,-0.297171082661555,0.598104982025889,-0.640924872325622,0.598104982040933,-0.640924872342343,-0.28900170815298,-0.29701383825753
50.5,-0.293275536721289,-0.297134824398754,0.592481296099932,-0.644026322823692,0.592481296114509,-0.644026322840382,-0.293135159243228,-0.296977604718371
51,-0.297397279593564,-0.297040633047555,0.586859629566903,-0.647068752307056,0.586859629581021,-0.647068752323701,-0.297254305552855,-0.296883490116659
51.5,-0.301503879850167,-0.29688906799727,0.581240664656863,-0.650052748788006,0.58124066467053,-0.650052748804594,-0.301358312345249,-0.296732054002043
52,-0.305594518691413,-0.296680699228272,0.575625065050553,-0.652978906244075,0.575625065063778,-0.652978906260593,-0.305446362046286,-0.296523866489469
52.5,-0.309668394539015,-0.296416106806097,0.570013475979868,-0.655847824116067,0.570013475992658,-0.655847824132503,-0.309517654306861,-0.296259507753591
53,-0.313724723086566,-0.296095880378834,0.564406524340788,-0.658660106817709,0.564406524353153,-0.658660106834051,-0.313571406052434,-0.295939567526503
53.5,-0.317762737337349,-0.295720618678054,0.558804818818074,-0.661416363257057,0.558804818830023,-0.661416363273296,-0.317606851519915,-0.295564644599071
54,-0.321781687629837,-0.295290929023522,0.553208950021047,-0.664117206369759,0.55320895003259,-0.664117206385884,-0.321623242282247,-0.295135346326084
54.5,-0.325780841651191,-0.294807426831906,0.547619490629805,-0.666763252664255,0.54761949064095,-0.666763252680256,-0.325619847261001,-0.294652288135468
55,-0.329759484439147,-0.294270735129681,0.542036995551223,-0.669355121778974,0.542036995561981,-0.669355121794842,-0.329595952727357,-0.294116093041725
55.5,-0.333716918372618,-0.293681484070423,0.536462002084129,-0.67189343605156,0.53646200209451,-0.671893436067286,-0.333550862291823,-0.293527391163821
56,-0.33765246315139,-0.293040310456635,0.53089503009304,-0.674378820100129,0.530895030103053,-0.674378820115706,-0.337483896883046,-0.292886819247653
56.5,-0.341565455765287,-0.292347857266267,0.525336582189873,-0.676811900416556,0.525336582199528,-0.676811900431978,-0.341394394716106,-0.292195020193252
57,-0.34545525045317,-0.291604773184034,0.519787143923074,-0.679193304971753,0.519787143932382,-0.67919330498701,-0.345281711250648,-0.291452642586843
57.5,-0.349321218652165,-0.290811712137653,0.514247183973601,-0.681523662832887,0.514247183982572,-0.681523662847975,-0.349145219139259,-0.290660340237859
58,-0.353162748937508,-0.289969332839074,0.508717154357234,-0.68380360379249,0.508717154365878,-0.683803603807403,-0.352984308166449,-0.289818771721006
58.5,-0.356979246953402,-0.289078298330765,0.503197490632697,-0.686033758009354,0.503197490641025,-0.686033758024085,-0.356798385178679,-0.288928599923426
59,-0.3607701353353,-0.288139275537107,0.497688612115101,-0.688214755661133,0.497688612123122,-0.688214755675679,-0.360586874005787,-0.287990491597019
59.5,-0.364534853624018,-0.287152934820906,0.492190922094212,-0.690347226608539,0.492190922101938,-0.690347226622895,-0.364349215374267,-0.287005116915934
60,-0.368272858172109,-0.286119949545046,0.486704808057106,-0.692431800071001,0.486704808064546,-0.692431800085163,-0.368084866812801,-0.285973149039237
60.5,-0.371983622042916,-0.285040995639246,0.481230641914741,-0.694469104313662,0.481230641921905,-0.694469104327626,-0.371793302550473,-0.284895263678746
61,-0.375666634902764,-0.283916751171893,0.475768780232033,-0.696459766345563,0.475768780238932,-0.696459766359328,-0.375474013408103,-0.283772138671979
61.5,-0.37932140290672,-0.282747895926893,0.470319564461027,-0.698404411628869,0.47031956446767,-0.698404411642432,-0.37912650668316,-0.28260445356018
62,-0.382947448578401,-0.28153511098546,0.464883321176752,-0.700303663798959,0.464883321183149,-0.700303663812316,-0.382750306028695,-0.281392889171311
62.5,-0.386544310684304,-0.280279078312735,0.459460362315399,-0.702158144395218,0.459460362321561,-0.702158144408369,-0.386344951326791,-0.280138127207949
63,-0.390111544103141,-0.278980480349121,0.454050985414448,-0.703968472602352,0.454050985420384,-0.703968472615295,-0.389909998556987,-0.278840849839925
63.5,-0.393648719690694,-0.27763999960619,0.448655473854403,-0.705735265002039,0.448655473860123,-0.705735265014774,-0.393445019660208,-0.2775017393016
