"Freq [GHz]","re(St(P1,P1)) []","im(St(P1,P1)) []","re(St(P1,P2)) []","im(St(P1,P2)) []","re(St(P2,P1)) []","im(St(P2,P1)) []","re(St(P2,P2)) []","im(St(P2,P2)) []"
0,0.00457195718854564,0,0.995437952806242,0,0.995437953344663,0,0.00457196889925626,0
0.5,0.0049964379492522,0.000875855180197505,0.994838039975029,-0.00876063906346403,0.994838039876147,-0.00876063872718547,0.00499637620008642,0.000876414926811009
1,0.00528744525500002,0.00121178385287379,0.994071374978104,-0.016915262770091,0.99407137489653,-0.0169152622260604,0.0052872572595728,0.00121305875386923
1.5,0.00516537629391589,0.00180083682366394,0.993279021240363,-0.025139115781748,0.993279021360561,-0.0251391151204867,0.0051653755285237,0.0018027762815116
2,0.00500169718447774,0.00237163581295441,0.992292424845294,-0.0331430590601673,0.992292425143221,-0.0331430583956269,0.00500195841988971,0.00237427206968555
2.5,0.00480274233554923,0.0029210875389527,0.991185815089847,-0.0409251155475658,0.991185815501013,-0.0409251149610323,0.00480334043166364,0.00292446305061489
3,0.00457558582218454,0.00344820790316547,0.990015090312715,-0.0485068504298027,0.990015090760672,-0.0485068499622301,0.00457659611712025,0.00345237479523597
3.5,0.00432751496616768,0.00395421656210448,0.988815097250588,-0.0559199125409098,0.988815097667762,-0.0559199122003164,0.00432901401235264,0.00395923587848035
4,0.00406560223527652,0.00444250518094513,0.987602981886295,-0.0631964933787614,0.987602982223896,-0.0631964931526632,0.00406766899268962,0.00444844589903859
4.5,0.00379641864170954,0.00491855279279996,0.986383501841178,-0.0703643773266807,0.986383502070929,-0.0703643771932319,0.00379913622174333,0.00492549054032576
5,0.00352590720921508,0.00538986942946007,0.985153898680435,-0.0774453234644596,0.985153898791987,-0.077445323399969,0.0035293652353654,0.0053978847461762
5.5,0.00325942105008636,0.00586605030482179,0.983907492680706,-0.0844552751682457,0.983907492677635,-0.0844552751513019,0.00326371866079422,0.00587522611414304
6,0.00300193229772372,0.0063590265356801,0.982636010212345,-0.0914053203483007,0.982636010108214,-0.0914053203614742,0.0030071817374579,0.00636944417474616
6.5,0.00275844040530301,0.00688361513417579,0.981330947847283,-0.0983028042407277,0.981330947662395,-0.0983028042708129,0.00276477096008471,0.00689534773208145
7,0.00253466089913063,0.00745851354781113,0.979984296424987,-0.105152328072649,0.979984296183897,-0.105152328110202,0.00254222244901239,0.00747161453091394
7.5,0.00233818317315752,0.00810797138765329,0.978588875248882,-0.111956549637981,0.978588874978598,-0.111956549676551,0.00234714739611216,0.00812245400785727
8,0.00218050993307401,0.00886453721444536,0.977138444637188,-0.118716786238626,0.977138444365877,-0.118716786273979,0.00219106400160031,0.00888033740305838
8.5,0.00208088710349098,0.00977358023077146,0.97562770098729,-0.125433451500461,0.975627700743388,-0.125433451529855,0.00209320627956436,0.00979048815905825
9,0.00207401227962805,0.0109008176184049,0.974052215207282,-0.132106363589687,0.974052215018858,-0.13210636361131,0.00208817460556854,0.0109183503547321
9.5,0.00222672726490483,0.0123448946339888,0.972408348348912,-0.138734958428341,0.972408348243234,-0.138734958440857,0.00224246616264029,0.0123620612024147
10,0.00267713425492375,0.0142575758372345,0.97069316228046,-0.145318434760005,0.970693162283697,-0.145318434762246,0.0026931168506179,0.0142724755131227
10.5,0.00292924489245046,0.0149501699463213,0.969085970770566,-0.151947795236598,0.969085970773862,-0.151947795237826,0.00293752496496491,0.0149640854132578
11,0.00319364271840822,0.0156398869122518,0.96745650007133,-0.158536472897219,0.967456500074802,-0.158536472897493,0.00319388853432184,0.0156525308440907
11.5,0.00347032324774227,0.0163266128190718,0.965805438802322,-0.165087796663179,0.965805438806068,-0.165087796662562,0.0034622130780336,0.0163376764104171
12,0.00375928090746874,0.0170102373849597,0.964133119333697,-0.171604831596877,0.964133119337803,-0.171604831595443,0.00374250444401028,0.0170193894242958
12.5,0.00406050884987008,0.0176906542087072,0.962439582650216,-0.178090371400549,0.962439582654755,-0.178090371398373,0.00403476877634035,0.0176975401647215
13,0.00437399874121258,0.0183677610220707,0.960724635782379,-0.184546939321958,0.960724635787408,-0.184546939319116,0.00433901246930199,0.0183720021568816
13.5,0.00469974052358665,0.0190414599466395,0.958987901829963,-0.190976795265537,0.95898790183553,-0.190976795262109,0.0046552421052726,0.0190426524717862
14,0.00503772214740872,0.0197116577536041,0.95722886290836,-0.197381947282291,0.9572288629145,-0.197381947278352,0.00498346437373884,0.019709372047032
14.5,0.00538792927201123,0.0203782661243537,0.955446896538789,-0.203764165962382,0.955446896545529,-0.203764165958006,0.00532368596824664,0.0203720460292178
15,0.00575034493174295,0.0210412019094468,0.953641306107624,-0.210125000566955,0.953641306114983,-0.210125000562216,0.00567591345778612,0.0210305641383557
15.5,0.00612494916497378,0.0217003873829738,0.951811346061236,-0.216465796005037,0.951811346069224,-0.216465796000002,0.00604015312870368,0.0216848210543568
16,0.00651171860347205,0.0223557504888112,0.949956242500366,-0.222787709986611,0.949956242508987,-0.222787709981344,0.00641641079282568,0.0223347168252539
16.5,0.00691062601972187,0.0230072250746753,0.948075209807098,-0.229091729867007,0.948075209816351,-0.229091729861571,0.00680469155706903,0.0229801572965023
17,0.00732163982996614,0.0236547511092606,0.946167463889436,-0.235378688844788,0.946167463899315,-0.235378688839238,0.00720499954935866,0.0236210545600921
17.5,0.00774472355101563,0.0242982748770604,0.944232232571484,-0.241649281290501,0.944232232581979,-0.241649281284892,0.00761733759527611,0.0242573274215971
18,0.00817983520930093,0.0249377491447698,0.942268763597201,-0.247904077072041,0.942268763608298,-0.247904077066421,0.00804170683943156,0.0248889018825769
18.5,0.00862692670112752,0.0255731332924156,0.94027633065633,-0.254143534808799,0.940276330668013,-0.254143534803214,0.00847810630518259,0.0255157116347702
19,0.00908594310379418,0.0262043934016736,0.938254237785029,-0.26036801403546,0.938254237797279,-0.260368014029949,0.00892653238601859,0.026137698561606
19.5,0.00955682193803553,0.0268315022930121,0.936201822442157,-0.266577786291092,0.936201822454954,-0.266577786285693,0.00938697826166957,0.0267548132412316
20,0.010039492383268,0.0274544395026952,0.934118457515914,-0.272773045172992,0.934118457529237,-0.272773045167741,0.00985943323191218,0.0273670154439785
20.5,0.0105338744483116,0.0280731911899801,0.932003552474655,-0.278953915410301,0.932003552488482,-0.278953915405227,0.0103438819610504,0.0279742746156058
21,0.0110398781016465,0.0286877499643532,0.929856553840146,-0.28512046102167,0.929856553854452,-0.285120461016803,0.0108403036263237,0.028576570335922
21.5,0.0115574023668907,0.0292981146222209,0.927676945130853,-0.291272692625923,0.927676945145616,-0.291272692621285,0.0113486709639608,0.029173892740503
22,0.0120863343909815,0.0299042897823141,0.925464246396785,-0.297410573975973,0.92546424641198,-0.297410573971589,0.0118689492074295,0.0297662428911363
22.5,0.012626548494574,0.0305062854090612,0.923218013445194,-0.303534027785217,0.923218013460796,-0.303534027781105,0.0124010949136185,0.030353633078462
23,0.0131779052163624,0.0311041162135883,0.920937836837925,-0.309642940913032,0.920937836853911,-0.309642940909209,0.0129450546743319,0.0309360870379651
23.5,0.0137402503653785,0.0316978009226536,0.91862334072561,-0.315737168972362,0.918623340741955,-0.315737168968843,0.0135007637126526,0.031513640058167
24,0.0143134140977749,0.0322873614070103,0.916274181571,-0.32181654041817,0.91627418158768,-0.321816540414969,0.0140681443664927,0.0320863389576398
24.5,0.0148972100370847,0.0328728216622842,0.913890046803043,-0.327880860171,0.913890046820036,-0.327880860168128,0.014647104465091,0.0326542419053391
25,0.0154914344593889,0.0334542066376404,0.911470653434536,-0.333929912825329,0.911470653451818,-0.333929912822795,0.0152375356083666,0.0332174180570153
25.5,0.0160958655671369,0.0340315409102228,0.909015746668957,-0.339963465487883,0.909015746686505,-0.339963465485696,0.0158393113639364,0.0337759469791072
26,0.0167102628773537,0.0346048472067351,0.906525098516219,-0.34598127028678,0.906525098534012,-0.345981270284945,0.0164522854022894,0.0343299178309293
26.5,0.0173343667516445,0.0351741447774745,0.903998506432333,-0.351983066588276,0.903998506450349,-0.351983066586798,0.0170762895969787,0.0348794282761784
27,0.0179678980964056,0.0357394476326907,0.90143579199408,-0.357968582954134,0.9014357920123,-0.357968582953017,0.0177111321237474,0.0354245830962052
27.5,0.0186105582620562,0.0363007626561995,0.898836799616742,-0.363937538869111,0.898836799635144,-0.363937538868357,0.0183565956000026,0.0359654924802952
28,0.0192620291695214,0.0368580876167157,0.896201395320425,-0.369889646264895,0.89620139533899,-0.369889646264507,0.0190124353138409,0.0365022699726223
28.5,0.0199219736906489,0.0374114091031081,0.893529465548595,-0.375824610863933,0.893529465567304,-0.37582461086391,0.0196783775995422,0.0370350300619335
29,0.020590036306513,0.0379607004156879,0.890820916040849,-0.381742133363948,0.890820916059684,-0.381742133364291,0.0203541184237084,0.0375638854084233
29.5,0.0212658440635375,0.0385059194513537,0.888075670760796,-0.387641910481652,0.888075670779739,-0.387641910482358,0.0210393222525147,0.0380889437129177
30,0.0219490078420708,0.0390470066257358,0.885293670878946,-0.393523635871985,0.885293670897982,-0.393523635873054,0.0217336212752854,0.0386103042463271
30.5,0.0226391239454086,0.039583882880055,0.882474873809838,-0.399387000937411,0.882474873828948,-0.399387000938839,0.0224366150621516,0.0391280540722683
31,0.0233357760094089,0.0401164478239636,0.879619252302075,-0.405231695540061,0.879619252321246,-0.405231695541845,0.0231478707332303,0.0396422640124454
31.5,0.0240385372239316,0.040644578067806,0.876726793579603,-0.411057408628081,0.876726793598818,-0.411057408630219,0.0238669237128836,0.0401529844223196
32,0.0247469728475787,0.0411681257982214,0.873797498532242,-0.416863828786179,0.873797498551487,-0.416863828788665,0.0245932791346446,0.0406602408630518
32.5,0.0254606429870298,0.0416869176496167,0.870831380953357,-0.42265064471923,0.870831380972619,-0.42265064472206,0.0253264139498119,0.0411640297736999
33,0.0261791056019514,0.0422007539204913,0.867828466822417,-0.428417545676742,0.867828466841681,-0.428417545679909,0.0260657797753751,0.0416643142640564
33.5,0.0269019196865852,0.042709408177904,0.864788793630148,-0.434164221825078,0.864788793649403,-0.434164221828578,0.0268108064948553,0.0421610201619921
34,0.0276286485701554,0.0432126272854861,0.861712409744003,-0.439890364573529,0.861712409763236,-0.439890364577357,0.0275609065993164,0.0426540324584288
34.5,0.0283588632706554,0.0437101318805186,0.858599373811652,-0.445595666859593,0.858599373830852,-0.445595666863742,0.0283154802260706,0.0431431922966998
35,0.0290921458309497,0.0442016173140277,0.8554497542003,-0.451279823398214,0.855449754219455,-0.451279823402676,0.0290739208206701,0.0436282946499621
35.5,0.029828092562783,0.0446867550549063,0.852263628469663,-0.456942530899158,0.852263628488764,-0.456942530903928,0.0298356213154625,0.0441090868196911
36,0.0305663171236265,0.0451651945454252,0.849041082876553,-0.462583488256231,0.849041082895588,-0.462583488261301,0.0305999806870619,0.0445852678696557
36.5,0.0313064533534216,0.0456365654816204,0.845782211909072,-0.468202396711579,0.845782211928033,-0.468202396716943,0.0313664107278378,0.0450564890833509
37,0.032048157803314,0.0461004804786858,0.842487117848562,-0.473798959997967,0.842487117867439,-0.473798960003618,0.0321343428450326,0.0455223554994475
37.5,0.0327911118962021,0.0465565380692465,0.839155910357492,-0.479372884461573,0.839155910376277,-0.479372884467502,0.0329032346873293,0.0459824285408139
38,0.0335350236690943,0.0470043259718814,0.835788706091623,-0.48492387916753,0.835788706110308,-0.484923879173729,0.0336725763941691,0.0464362297100814
38.5,0.0342796290594651,0.0474434245590559,0.832385628334852,-0.490451655990218,0.83238562835343,-0.490451655996681,0.034441896268799,0.0468832452810934
39,0.0350246927113645,0.0478734104480339,0.828946806655233,-0.49595592969004,0.828946806673695,-0.495955929696758,0.0352107656921439,0.0473229318735082
39.5,0.0357700082914356,0.0482938601357076,0.825472376580788,-0.501436417978236,0.825472376599129,-0.501436417985202,0.0359788031205645,0.0477547227601808
40,0.0365153983194795,0.0487043535986296,0.821962479293792,-0.506892841571103,0.821962479312004,-0.506892841578308,0.036745677045033,0.0481780347262071
40.5,0.0372607135320969,0.0491044777827658,0.818417261342291,-0.512324924234819,0.818417261360368,-0.512324924242255,0.0375111078301339,0.0485922752766648
41,0.0380058318106745,0.0494938299133919,0.814836874367733,-0.517732392821959,0.81483687438567,-0.517732392829618,0.0382748683960799,0.0489968499786236
41.5,0.0387506567159818,0.0498720205637176,0.811221474847622,-0.523114977300616,0.811221474865413,-0.52311497730849,0.03903678375272,0.0493911697223977
42,0.0394951156805213,0.0502386764307302,0.807571223852204,-0.528472410776997,0.807571223869844,-0.528472410785078,0.039796729438467,0.0497746576970581
42.5,0.0402391579163158,0.050593442777905,0.803886286814269,-0.533804429512201,0.803886286831754,-0.53380442952048,0.0405546289566002,0.0501467558949055
43,0.0409827520998026,0.0509359855161867,0.800166833311189,-0.539110772933848,0.800166833328513,-0.539110772942318,0.0413104503342909,0.0505069309871401
43.5,0.0417258838971034,0.0512659929065048,0.796413036858402,-0.544391183643133,0.796413036875563,-0.544391183651785,0.0420642019544951,0.050854679446299
44,0.0424685533921729,0.0515831768784693,0.792625074713592,-0.549645407417813,0.792625074730584,-0.54964540742664,0.0428159278266445,0.0511895318276288
44.5,0.0432107724775522,0.0518872739704234,0.788803127690862,-0.554873193211583,0.788803127707684,-0.554873193220575,0.0435657024688391,0.0515110561591242
45,0.0439525622629597,0.0521780459053172,0.784947379984283,-0.560074293150229,0.78494738000093,-0.56007429315938,0.0443136255724117,0.0518188604261481
45.5,0.0446939505510954,0.0524552798246894,0.781058019000182,-0.565248462524931,0.781058019016651,-0.565248462534231,0.0450598166104605,0.0521125941695511
46,0.0454349694232987,0.0527187882092617,0.777135235197649,-0.570395459783004,0.777135235213939,-0.570395459792447,0.0458044095365783,0.0523919492445325
46.5,0.0461756529703397,0.0529684085192348,0.773179221936728,-0.575515046516383,0.773179221952835,-0.575515046525959,0.0465475477002316,0.0526566598102849
47,0.0469160351961557,0.0532040025903258,0.769190175333814,-0.58060698744806,0.769190175349736,-0.580606987457762,0.0472893790826829,0.0529065016372333
47.5,0.0476561481149191,0.0534254558230695,0.765168294123817,-0.585671050416729,0.765168294139553,-0.585671050426549,0.0480300519336474,0.0531412908295057
48,0.0483960200548527,0.0536326762030571,0.761113779528687,-0.590707006359799,0.761113779544234,-0.590707006369731,0.0487697108653716,0.0533608820655144
48.5,0.0491356741757664,0.053825593188789,0.757026835131895,-0.595714629294966,0.757026835147252,-0.595714629305,0.0495084934386925,0.0535651664598613
49,0.049875127201603,0.0540041565019073,0.752907666758534,-0.600693696300471,0.752907666773701,-0.6006936963106,0.05024652725568,0.053754069146021
49.5,0.0506143883644006,0.0541683348519734,0.748756482360714,-0.605643987494213,0.748756482375688,-0.605643987504429,0.0509839275563002,0.0539275466723443
50,0.0513534585520088,0.0543181146248286,0.744573491907917,-0.610565286011789,0.744573491922698,-0.610565286022085,0.0517207953023877,0.0540855842947428
50.5,0.0520923296487333,0.0544534985601802,0.740358907282055,-0.615457377983608,0.740358907296643,-0.615457377993977,0.0524572157211674,0.0542281932388158
51,0.0528309840556374,0.0545745044404793,0.736112942176964,-0.620320052511141,0.736112942191356,-0.620320052521575,0.0531932572725309,0.0543554079929462
51.5,0.0535693943755855,0.0546811638096318,0.731835812002066,-0.6251531016424,0.731835812016264,-0.625153101652892,0.0539289709989302,0.0544672836825829
52,0.0543075232470813,0.0547735207366059,0.727527733790001,-0.629956320346727,0.727527733804004,-0.62995632035727,0.0546643902138133,0.0545638935650695
52.5,0.0550453233105268,0.0548516306358195,0.723188926107997,-0.634729506488938,0.723188926121805,-0.634729506499525,0.0553995304836315,0.0546453266743449
53,0.0557827372905265,0.0549155591531589,0.718819608972787,-0.639472460802896,0.7188196089864,-0.63947246081352,0.0561343898591101,0.0547116856357827
53.5,0.0565196981782984,0.0549653811238518,0.714420003768894,-0.644184986864557,0.714420003782312,-0.644184986875211,0.056868949313439,0.0547630846635923
54,0.0572561294989505,0.0550011796060579,0.709990333170109,-0.648866891064528,0.709990333183332,-0.648866891075205,0.0576031733478598,0.0547996477465315
54.5,0.0579919456493042,0.0550230449920007,0.705530821064006,-0.653517982580191,0.705530821077035,-0.653517982590885,0.0583370107285599,0.054821507022195
55,0.0587270522930421,0.0550310741967955,0.701041692479348,-0.658138073347417,0.701041692492184,-0.658138073358121,0.0590703953225322,0.0548288013357938
55.5,0.0594613468011134,0.0550253699237006,0.696523173516246,-0.662726978031908,0.696523173528889,-0.662726978042615,0.0598032470039595,0.0548216749759828
56,0.060194718726558,0.0550060400034267,0.691975491278942,-0.667284514000188,0.691975491291393,-0.667284514010893,0.060535472606522,0.0548002765778546
56.5,0.0609270503041135,0.0549731968042507,0.687398873811104,-0.671810501290286,0.687398873823364,-0.671810501300982,0.0612669669007371,0.0547647581815523
57,0.0616582169661695,0.0549269567090659,0.682793550033518,-0.676304762582106,0.682793550045588,-0.676304762592787,0.061997613578877,0.0547152744339272
57.5,0.0623880878677552,0.0548674396550427,0.678159749684068,-0.680767123167537,0.678159749695949,-0.680767123178197,0.0627272862332022,0.0546519819201933
58,0.0631165264143208,0.0547947687313017,0.67349770325993,-0.685197410920296,0.673497703271623,-0.685197410930928,0.0634558493160542,0.0545750386124657
58.5,0.0638433907870434,0.0547090698298609,0.668807641961861,-0.68959545626553,0.668807641973367,-0.68959545627613,0.064183159072895,0.0544846034223308
59,0.0645685344613013,0.0546104713451057,0.664089797640529,-0.693961092149209,0.664089797651849,-0.69396109215977,0.0649090644415291,0.0543808358451222
59.5,0.0652918067147513,0.0544991039170908,0.659344402744784,-0.698294154007286,0.659344402755921,-0.698294154017802,0.0656334079126403,0.0542638956842526
60,0.0660130531221621,0.054375100214121,0.654571690271816,-0.702594479734682,0.65457169028277,-0.702594479745149,0.0663560263483153,0.0541339428447337
60.5,0.0667321160347996,0.0542385947502654,0.649771893719113,-0.706861909654075,0.649771893729885,-0.706861909664487,0.0670767517565695,0.0539911371859137
61,0.0674488350426936,0.0540897237336778,0.644945247038182,-0.711096286484522,0.644945247048774,-0.711096286494872,0.0677954120209329,0.0538356384243143
61.5,0.0681630474185931,0.053928624941865,0.640091984589946,-0.715297455309916,0.64009198460036,-0.7152974553202,0.0685118315850277,0.0536676060783656
62,0.0688745885428203,0.0537554376203142,0.635212341101785,-0.719465263547296,0.635212341112022,-0.719465263557509,0.0692258320927393,0.0534871994476923
62.5,0.069583292308569,0.0535703024011792,0.630306551626159,-0.723599560915018,0.630306551636221,-0.723599560925155,0.0699372329851038,0.0532945776204302
63,0.0702889915074711,0.0533733612389942,0.625374851500766,-0.727700199400786,0.625374851510654,-0.727700199410841,0.0706458520554229,0.0530898995028382
63.5,0.0709915181954879,0.0531647573606754,0.62041747631019,-0.731767033229568,0.620417476319906,-0.731767033239538,0.0713515059643932,0.0528733238661925
64,0.0716907040393709,0.0529446352273311,0.615434661849006,-0.735799918831404,0.615434661858551,-0.735799918841282,0.072054010717213,0.0526450094066033
