"Freq [GHz]","re(St(P1,P1)) []","im(St(P1,P1)) []","re(St(P1,P2)) []","im(St(P1,P2)) []","re(St(P2,P1)) []","im(St(P2,P1)) []","re(St(P2,P2)) []","im(St(P2,P2)) []"
0,0.00471318521533703,0,0.995304594631307,0,0.99530459404923,0,0.00471318160060719,0
0.5,0.00536685943004045,-0.00244050496705484,0.994524477932028,-0.00926307311718233,0.994524477553128,-0.00926307179803132,0.00536665707055306,-0.00243942314374479
1,0.00588948420922009,-0.00573066524724197,0.993655568698465,-0.0176612948262367,0.993655568698443,-0.0176612948261834,0.00588897197990335,-0.00572825915590869
1.5,0.00608737148829519,-0.00920339964261174,0.992900780288148,-0.0258278360557078,0.992900780294415,-0.0258278360532351,0.00608652497394679,-0.00919952317211425
2,0.00605028214704184,-0.012680420756368,0.992184383025975,-0.0339297271601353,0.992184383036129,-0.0339297271605048,0.00604916699582247,-0.0126749629089318
2.5,0.00586966504998898,-0.0161188165710406,0.991425878575496,-0.0420037390198278,0.991425878586606,-0.0420037390235173,0.00586832873561427,-0.0161117249717897
3,0.00558933325771083,-0.0195166504099085,0.990592384275293,-0.0500444832318578,0.990592384285852,-0.0500444832377678,0.00558780596254227,-0.0195078850671671
3.5,0.00523085706898918,-0.0228776612486037,0.989674331285292,-0.0580425054524003,0.989674331294907,-0.0580425054592055,0.00522916332297818,-0.0228671822637239
4,0.00480622495157101,-0.0262052281543657,0.988671902380334,-0.0659911200054033,0.988671902389245,-0.06599112001207,0.00480439048823689,-0.0261929943423969
4.5,0.0043230657062785,-0.0295017969964455,0.987588997606574,-0.0738868583120169,0.987588997615269,-0.0738868583179375,0.00432112049707545,-0.0294877673108687
5,0.00378684142461472,-0.032769165083927,0.986430533767847,-0.0817287501518251,0.986430533776772,-0.0817287501567883,0.00378482051882045,-0.0327533004698193
5.5,0.0032018128768756,-0.0360087838834424,0.985201228724645,-0.0895175195573366,0.985201228734021,-0.0895175195614186,0.0031997560342647,-0.0359910488567383
6,0.00257148389865902,-0.0392219615762786,0.983905092646627,-0.0972549148158253,0.983905092656334,-0.0972549148192714,0.00256943458329739,-0.0392023253316989
6.5,0.00189881436439543,-0.0424099782591538,0.982545273152545,-0.104943201311592,0.982545273162078,-0.104943201314665,0.00189681844534206,-0.0423884152813816
7,0.00118632733742419,-0.0455741416253579,0.981124077993323,-0.112584800810278,0.981124078001791,-0.112584800813147,0.00118443171822713,-0.0455506318464378
7.5,0.00043616758831222,-0.0487158054893122,0.979643080572354,-0.120182050381048,0.979643080578512,-0.120182050383688,0.000434418909564971,-0.0486903340652072
8,-0.00034986163266193,-0.0518363665736965,0.978103255870865,-0.127737053594323,0.978103255873164,-0.127737053596429,-0.000351418127535363,-0.051808923364594
8.5,-0.0011702708430712,-0.0549372496913039,0.976505118234985,-0.135251599538607,0.976505118231631,-0.135251599539554,-0.0011715922287282,-0.0549078285309825
9,-0.0020238597542705,-0.058019887809162,0.974848846583991,-0.142727129364994,0.974848846573012,-0.142727129363798,-0.00202490611093464,-0.0579884856424711
9.5,-0.00290969344873226,-0.0610857010266423,0.973134390941945,-0.150164734433798,0.973134390921244,-0.150164734429099,-0.00291042831789223,-0.0610523169836066
10,-0.00382707856263098,-0.0641360768518426,0.971361558966654,-0.157565174137653,0.971361558934069,-0.15756517412772,-0.00382746918739618,-0.0641007113144143
10.5,-0.00477784106633045,-0.0672367180518059,0.969516945072279,-0.164960900113596,0.969516945040183,-0.164960900103858,-0.00477771858071813,-0.0671995822642089
11,-0.00577300101315226,-0.0703220081469125,0.967618220706363,-0.172314955467508,0.96761822067471,-0.17231495545797,-0.00577233826003792,-0.070283102384944
11.5,-0.00681228029415365,-0.0733912596741408,0.965666516371015,-0.179628674001746,0.965666516339765,-0.179628673992405,-0.00681104984085434,-0.0733505843565672
12,-0.00789538899182218,-0.0764437910917275,0.963662735715337,-0.186903296317151,0.963662735684451,-0.186903296308008,-0.00789356312362727,-0.0764013467969429
12.5,-0.00902202552812714,-0.0794789270140033,0.961607588856803,-0.194139955883854,0.961607588826249,-0.194139955874894,-0.00901957624261168,-0.0794347144971166
13,-0.0101918768179347,-0.0824959984418614,0.959501623416813,-0.201339670637652,0.959501623386563,-0.201339670628868,-0.0101887758200865,-0.0824500186522092
13.5,-0.0114046184276461,-0.0854943429887447,0.957345252864681,-0.208503339053394,0.957345252834709,-0.208503339044772,-0.0114008371258139,-0.0854465970877403
14,-0.0126599147389146,-0.0884733051020188,0.955138781976586,-0.215631739751641,0.955138781946872,-0.215631739743167,-0.0126554242415926,-0.0884237944813426
14.5,-0.0139574191172699,-0.0914322362795823,0.952882429375141,-0.22272553381443,0.952882429345667,-0.222725533806088,-0.0139521902307414,-0.0913809625796405
15,-0.0152967740855104,-0.09437049528161,0.950576347229129,-0.229785269108231,0.950576347199883,-0.229785269100009,-0.0152907773123492,-0.0943174604102506
15.5,-0.0166776115016873,-0.0972874483372967,0.948220638269773,-0.236811386029709,0.948220638240744,-0.236811386021588,-0.0166708170401325,-0.0972326544887085
16,-0.0180995527415191,-0.1001824693465,0.945815370327438,-0.243804224197838,0.945815370298617,-0.243804224189805,-0.0180919304857304,-0.100125919020289
16.5,-0.0195622088850692,-0.103054940076182,0.943360588617877,-0.250764029711795,0.943360588589261,-0.250764029703832,-0.0195537284262696,-0.102996636096546
17,-0.0210651809075189,-0.10590425035153,0.940856326015898,-0.257690962676962,0.940856325987484,-0.257690962669056,-0.0210558115360176,-0.105844195886526
17.5,-0.0226080598738514,-0.108729798241675,0.938302611551399,-0.264585104771527,0.938302611523185,-0.264585104763666,-0.0225977705819644,-0.108667996822512
18,-0.0241904271372847,-0.111530990239946,0.935699477352093,-0.271446466684328,0.93569947732408,-0.271446466676498,-0.0241791866231382,-0.111467445780265
18.5,-0.0258118545412714,-0.114307241438528,0.933046964241623,-0.278274995301957,0.933046964213815,-0.278274995294146,-0.0257996312134923,-0.114241958253645
19,-0.0274719046248798,-0.117057975697498,0.930345126183612,-0.285070580561166,0.930345126156012,-0.285070580553364,-0.0274586666081653,-0.116990958523549
19.5,-0.0291701308313855,-0.119782625808153,0.927594033742764,-0.291833061912525,0.927594033715378,-0.291833061904724,-0.0291558459729502,-0.119713879821106
20,-0.0309060777198881,-0.122480633650556,0.924793776714953,-0.298562234364467,0.924793776687786,-0.298562234356658,-0.0308907135967709,-0.122410164485053
20.5,-0.03267928117977,-0.125151450345283,0.921944466059579,-0.305257854094511,0.921944466032637,-0.305257854086686,-0.0326628051070008,-0.125079264113269
21,-0.034489268647818,-0.127794536399272,0.91904623525022,-0.311919643627525,0.919046235223511,-0.311919643619678,-0.0344716476874225,-0.127720639708382
21.5,-0.0363355593278176,-0.130409361845795,0.916099241143691,-0.318547296590438,0.916099241117223,-0.318547296582564,-0.0363167602986548,-0.130333761817435
22,-0.0382176644124466,-0.132995406378452,0.913103664453365,-0.325140482059372,0.913103664427147,-0.325140482051467,-0.0381976539008541,-0.132918110665567
22.5,-0.0401350873072787,-0.13555215947921,0.910059709899877,-0.331698848519649,0.910059709873916,-0.33169884851171,-0.0401138316785154,-0.135473176283683
23,-0.0420873238567103,-0.138079120540445,0.906967606101197,-0.33822202746175,0.906967606075503,-0.338222027453773,-0.0420647892671757,-0.137998458630099
23.5,-0.0440738625716423,-0.140575798980964,0.903827605254279,-0.344709636637735,0.903827605228862,-0.34470963662972,-0.0440500149818468,-0.140493467706119
24,-0.0460941848587182,-0.143041714356008,0.900639982652089,-0.351161283003077,0.900639982626955,-0.351161282995021,-0.0460689900469909,-0.142957723665588
24.5,-0.0481477652509568,-0.145476396461233,0.897405036072535,-0.35757656536855,0.897405036047696,-0.357576565360456,-0.0481211888278551,-0.145390756918361
25,-0.050234071639582,-0.14787938543066,0.894123085069688,-0.363955076786126,0.894123085045151,-0.363955076777993,-0.0502060790629909,-0.147792108227724
25.5,-0.0523525655068856,-0.150250231828622,0.890794470192321,-0.370296406691681,0.890794470168095,-0.370296406683511,-0.0523231220977703,-0.15016132880178
26,-0.0545027021599427,-0.152588496735687,0.887419552150417,-0.376600142826063,0.887419552126511,-0.376600142817857,-0.0544717731187331,-0.152497980378784
26.5,-0.0566839309650118,-0.154893751828627,0.883998710946484,-0.382865872954651,0.883998710922906,-0.382865872946411,-0.056651481388581,-0.154801635306494
27,-0.0588956955824316,-0.157165579454406,0.880532344985373,-0.389093186404048,0.880532344962131,-0.389093186395779,-0.0588616904816506,-0.157071876615519
27.5,-0.0611374342018661,-0.159403572698248,0.877020870173637,-0.395281675433114,0.87702087015074,-0.395281675424819,-0.0611018385196929,-0.159308298086719
28,-0.0634085797777184,-0.161607335445823,0.873464719017292,-0.401430936454122,0.873464718994747,-0.401430936445804,-0.0633713584077963,-0.161510504312701
28.5,-0.0657085602645514,-0.163776482439565,0.869864339724974,-0.407540571118406,0.869864339702789,-0.407540571110071,-0.065669678070277,-0.163678110753437
29,-0.0680367988523545,-0.165910639329202,0.866220195322002,-0.413610187279625,0.866220195300184,-0.413610187271278,-0.0679962206863901,-0.16581074378605
29.5,-0.0703927142015,-0.168009442716514,0.862532762779593,-0.419639399846532,0.862532762758149,-0.419639399838176,-0.0703504049256862,-0.167908040748845
30,-0.0727757206772285,-0.170072540194408,0.858802532162441,-0.425627831535985,0.858802532141377,-0.425627831527627,-0.0727316451828709,-0.169969649979606
30.5,-0.0751852285835189,-0.172099590380342,0.855030005797065,-0.431575113535958,0.855030005776387,-0.431575113527604,-0.0751393518120052,-0.171995230848251
31,-0.0776206443961895,-0.174090262944178,0.851215697462608,-0.437480886087302,0.851215697442321,-0.437480886078957,-0.0775729313599071,-0.173984453783901
31.5,-0.080081370995077,-0.176044238630517,0.847360131605257,-0.44334479899214,0.847360131585368,-0.443344798983811,-0.0800317867985902,-0.175937000296409
32,-0.0825668078951755,-0.177961209275619,0.843463842576979,-0.449166512056064,0.843463842557493,-0.449166512047758,-0.0825153177566299,-0.177852562992477
32.5,-0.0850763514765697,-0.17984087781894,0.839527373898937,-0.454945695470472,0.839527373879858,-0.454945695462195,-0.0850229207492822,-0.179730845586376
33,-0.0876093952130452,-0.181682958309398,0.835551277549663,-0.460682030140833,0.835551277530997,-0.460682030132592,-0.0875539894072447,-0.181571562905392
33.5,-0.090165329899246,-0.18348717590645,0.831536113277838,-0.466375207966036,0.831536113259588,-0.466375207957839,-0.090107914703926,-0.183374440890079
34,-0.0927435438762413,-0.185253266876037,0.82748244793938,-0.472024932073479,0.827482447921549,-0.472024932065332,-0.0926840851810919,-0.18513921658938
34.5,-0.0953434232553924,-0.186980978581525,0.823390854858396,-0.477630917014057,0.823390854840988,-0.477630917005967,-0.0952818871727695,-0.18686563815074
35,-0.0979643521403963,-0.18867006946971,0.81926191321147,-0.483192888920817,0.819261913194487,-0.483192888912793,-0.0979007050272896,-0.188553464805287
35.5,-0.100605712847388,-0.190320309051985,0.815096207434684,-0.488710585634656,0.815096207418131,-0.488710585626704,-0.100539921327361,-0.190202466848174
36,-0.103266886123,-0.191931477880765,0.810894326652738,-0.494183756800075,0.810894326636616,-0.494183756792203,-0.103198917108056,-0.191812425614196
36.5,-0.105947251360272,-0.19350336752129,0.806656864129479,-0.499612163933767,0.80665686411379,-0.499612163925982,-0.10587707207261,-0.193383133448774
37,-0.108646186812306,-0.195035780518876,0.802384416739166,-0.504995580468457,0.802384416723912,-0.504995580460767,-0.108573764805944,-0.194914393674406
37.5,-0.111363069803568,-0.196528530361736,0.798077584457788,-0.510333791774246,0.79807758444297,-0.510333791766658,-0.11128837298578,-0.196406020552702
38,-0.114097276938756,-0.197981441439486,0.79373696987372,-0.515626595159448,0.793736969859339,-0.515626595151971,-0.114020273591307,-0.197857839242094
38.5,-0.116848184309135,-0.199394348997412,0.789363177717072,-0.520873799852748,0.789363177703129,-0.520873799845388,-0.116768843109269,-0.199269685751351
39,-0.119615167696263,-0.200767099086649,0.784956814407052,-0.526075226968306,0.784956814393546,-0.52607522696107,-0.119533457737411,-0.200641406888991
39.5,-0.122397602773019,-0.202099548510338,0.780518487616713,-0.531230709455294,0.780518487603645,-0.53123070944819,-0.122313493585203,-0.201972860208701
40,-0.125194865301871,-0.203391564765908,0.776048805854463,-0.536340092033235,0.776048805841832,-0.53634009202627,-0.125108326871772,-0.203263913950905
40.5,-0.128006331330303,-0.204643025983579,0.771548378061739,-0.541403231114341,0.771548378049544,-0.541403231107522,-0.127917334120954,-0.204514446980546
41,-0.130831377383341,-0.205853820861193,0.767017813226272,-0.546419994713981,0.767017813214514,-0.546419994707316,-0.130739892353427,-0.205724348721247
41.5,-0.133669380653118,-0.2070238485955,0.762457720010415,-0.551390262350298,0.762457719999091,-0.551390262343794,-0.133575379275847,-0.206893519085922
42,-0.136519719185406,-0.208153018810003,0.757868706393973,-0.556313924933896,0.757868706383082,-0.556313924927559,-0.136423173466937,-0.208021868403989
42.5,-0.139381772063088,-0.209241251479492,0.75325137933108,-0.561190884648446,0.753251379320621,-0.561190884642283,-0.139282654560465,-0.209109317345269
43,-0.14225491958649,-0.210288476851349,0.748606344420618,-0.566021054823005,0.748606344410588,-0.566021054817023,-0.142153203425091,-0.210155796840708
43.5,-0.145138543450553,-0.211294635363775,0.743934205589734,-0.570804359796739,0.74393420558013,-0.570804359790944,-0.145034202341004,-0.211161248000021
44,-0.148032026918788,-0.21225967756103,0.739235564790024,-0.575540734776732,0.739235564780844,-0.57554073477113,-0.147925035173333,-0.212125622026397
44.5,-0.150934754993988,-0.213183564005811,0.734511021705978,-0.580230125689476,0.734511021697219,-0.580230125684073,-0.150825087542292,-0.213048880128346
45,-0.153846114585656,-0.214066265188869,0.729761173475286,-0.584872489026605,0.729761173466945,-0.584872489021408,-0.15373374699002,-0.213930993428832
45.5,-0.156765494674121,-0.214907761435995,0.724986614420638,-0.58946779168539,0.724986614412712,-0.589467791680406,-0.156650403144091,-0.214771942871789
46,-0.159692286471317,-0.215708042812474,0.720187935792668,-0.594016010804489,0.720187935785152,-0.594016010799722,-0.159574447877679,-0.215571719126142
46.5,-0.162625883578214,-0.216467109025123,0.715365725523687,-0.598517133595378,0.715365725516579,-0.598517133590833,-0.16250527546634,-0.216330322487435
47,-0.165565682138855,-0.21718496932202,0.710520567991906,-0.602971157169901,0.7105205679852,-0.602971157165584,-0.165442282741411,-0.217047762777184
47.5,-0.168511080991016,-0.217861642390044,0.705653043795818,-0.607378088364317,0.70565304378951,-0.607378088360233,-0.168384869240001,-0.217724059240074
48,-0.171461481813457,-0.218497156250319,0.700763729538458,-0.611737943560211,0.700763729532543,-0.611737943556365,-0.17133243735157,-0.218359240439074
48.5,-0.174416289269769,-0.219091548151684,0.695853197621246,-0.616050748502605,0.69585319761572,-0.616050748499002,-0.174284392461093,-0.218953344148636
49,-0.177374911148794,-0.21964486446228,0.690922016047161,-0.620316538115596,0.690922016042018,-0.62031653811224,-0.177240143088788,-0.219506417246012
49.5,-0.180336758501637,-0.22015716055937,0.68597074823296,-0.624535356315806,0.685970748228196,-0.624535356312702,-0.180199101026434,-0.220018515600863
50,-0.183301245775263,-0.220628500717494,0.680999952830213,-0.628707255823952,0.680999952825822,-0.628707255821103,-0.183160681470262,-0.220489703963212
50.5,-0.186267790942678,-0.221058957995051,0.676010183554898,-0.632832297974767,0.676010183550873,-0.632832297972177,-0.18612430315043,-0.220920055849867
51,-0.189235815629709,-0.221448614119418,0.671001989025336,-0.636910552525552,0.671001989021673,-0.636910552523224,-0.189089388457096,-0.221309653429411
51.5,-0.19220474523839,-0.221797559370695,0.665975912608231,-0.640942097463575,0.665975912604922,-0.640942097461512,-0.192055363563093,-0.221658587405847
52,-0.195174009066968,-0.222105892464184,0.660932492272598,-0.644927018812558,0.660932492269638,-0.644927018810764,-0.195021658543224,-0.221966956901007
52.5,-0.19814304042654,-0.222373720431677,0.655872260451381,-0.648865410438444,0.655872260448763,-0.648865410436921,-0.197987707490196,-0.222234869335807
53,-0.201111276754345,-0.222601158501672,0.650795743910538,-0.652757373854655,0.650795743908256,-0.652757373853407,-0.200952948627204,-0.22246244031045
53.5,-0.204078159723725,-0.222788329978577,0.645703463625406,-0.656603018027037,0.645703463623452,-0.656603018026064,-0.203916824417197,-0.22264979348366
54,-0.207043135350785,-0.222935366121015,0.640595934664159,-0.660402459178644,0.640595934662527,-0.660402459177949,-0.206878781668837,-0.222797060451039
54.5,-0.210005654097766,-0.223042406019309,0.635473666078152,-0.664155820594571,0.635473666076835,-0.664155820594155,-0.209838271639192,-0.222904380622628
55,-0.212965170973162,-0.223109596472214,0.630337160798991,-0.667863232426959,0.630337160797982,-0.667863232426824,-0.212794750133177,-0.222971901099762
55.5,-0.215921145628618,-0.223137091863013,0.625186915542131,-0.671524831500347,0.625186915541422,-0.671524831500494,-0.215747677599775,-0.222999776551298
56,-0.218873042452624,-0.223125054035023,0.620023420716839,-0.675140761117514,0.620023420716423,-0.675140761117944,-0.218696519225082,-0.222988169089292
56.5,-0.221820330661044,-0.223073652166604,0.61484716034235,-0.678711170865935,0.614847160342219,-0.678711170866647,-0.221640745022185,-0.222937248144204
57,-0.224762484384519,-0.222983062645751,0.609658611970044,-0.682236216424997,0.609658611970191,-0.682236216425993,-0.224579829917938,-0.222847190339711
57.5,-0.22769898275277,-0.222853468944334,0.604458246611488,-0.685716059374096,0.604458246611905,-0.685716059375375,-0.227513253836643,-0.222718179367191
58,-0.230629309975838,-0.222685061492051,0.599246528672183,-0.689150867001717,0.599246528672861,-0.689150867003278,-0.230440501780691,-0.222550405859957
58.5,-0.233552955422306,-0.222478037550187,0.594023915890843,-0.692540812115625,0.594023915891774,-0.692540812117468,-0.233361063908195,-0.222344067267305
59,-0.236469413694539,-0.222232601085215,0.588790859284078,-0.695886072854268,0.588790859285255,-0.695886072856391,-0.236274435607663,-0.222099367728441
59.5,-0.239378184700971,-0.221948962642329,0.583547803096317,-0.699186832499481,0.583547803097731,-0.699186832501883,-0.239180117569736,-0.221816517946349
60,-0.242278773725501,-0.22162733921895,0.578295184754808,-0.702443279290598,0.578295184756451,-0.702443279293278,-0.242077615856051,-0.221495735061674
60.5,-0.245170691494023,-0.221267954138287,0.573033434829584,-0.705655606240052,0.573033434831447,-0.705655606243008,-0.244966441965259,-0.221137242526653
61,-0.248053454238136,-0.220871036922991,0.567762976998216,-0.708824010950545,0.567762977000291,-0.708824010953773,-0.247846112896247,-0.220741269979182
61.5,-0.250926583756082,-0.220436823168966,0.56248422801524,-0.711948695433868,0.562484228017519,-0.711948695437368,-0.250716151208609,-0.220308053117053
62,-0.25378960747096,-0.219965554419393,0.557197597686098,-0.715029865931456,0.557197597688572,-0.715029865935222,-0.253576085080407,-0.21983783357241
62.5,-0.256642058486241,-0.219457478039015,0.551903488845477,-0.718067732736717,0.551903488848137,-0.718067732740748,-0.256425448363274,-0.219330858786499
63,-0.25948347563866,-0.21891284708873,0.546602297339897,-0.721062510019236,0.546602297342734,-0.721062510023527,-0.259263780634889,-0.218787381884728
63.5,-0.2623134035485,-0.218331920200539,0.541294412014422,-0.724014415650881,0.541294412017428,-0.724014415655428,-0.262090627248906,-0.218207661552105
