"Freq [GHz]","re(St(P1,P1)) []","im(St(P1,P1)) []","re(St(P1,P2)) []","im(St(P1,P2)) []","re(St(P2,P1)) []","im(St(P2,P1)) []","re(St(P2,P2)) []","im(St(P2,P2)) []"
0,0.00633943877471665,0,0.993675071062171,0,0.993675068020821,0,0.0063394342915899,0
0.5,0.00683637682001148,0.00148103283322953,0.993064379834049,-0.00943242509664444,0.993064380623931,-0.00943242349737261,0.00683652542076985,0.00148067238500005
1,0.00723654929898743,0.00238897370249802,0.99236039528428,-0.018260495578545,0.992360395414037,-0.0182604958631352,0.00723691209628363,0.0023880694038354
1.5,0.00747916517634195,0.00318572968688891,0.991632105678766,-0.026916300384034,0.991632105691638,-0.0269163005863895,0.00747970044140978,0.00318420506072492
2,0.00760103015016655,0.00397011790419555,0.990865188975383,-0.0354781814844287,0.990865188945801,-0.0354781816050025,0.00760172182820851,0.00396797381866598
2.5,0.00766166510747324,0.004780440146126,0.990018246401769,-0.043975534441282,0.990018246365737,-0.0439755345011754,0.00766252419671254,0.00477768821296465
3,0.00769325702215662,0.00562210552748432,0.989076816820796,-0.0524055596899196,0.98907681679312,-0.052405559710567,0.00769430792136627,0.00561875688379665
3.5,0.00771326262831207,0.00649412448931841,0.98804191316774,-0.0607621752949585,0.988041913151984,-0.0607621752936609,0.00771453708658831,0.0064901881550723
4,0.00773244142801954,0.00739461410338116,0.986920824787672,-0.0690421560046577,0.986920824781552,-0.0690421559938477,0.00773397603144588,0.00739009677717117
4.5,0.0077584251691023,0.00832168063970951,0.985722495016821,-0.0772455967512951,0.985722495015442,-0.077245596738881,0.00776026017956211,0.00831658653584988
5,0.0077972460432858,0.00927339099143865,0.984455377450384,-0.0853751167074215,0.984455377448287,-0.0853751166975378,0.00779942472654271,0.00926772154787159
5.5,0.00785398997369841,0.0102476279658736,0.983126539312857,-0.0934349169580395,0.983126539305309,-0.093434916951975,0.00785655807275182,0.0102413814593545
6,0.00793306734148835,0.0112419863692148,0.981741403178404,-0.101429980949076,0.98174140316213,-0.10142998094621,0.0079360725531698,0.0112351574982368
6.5,0.0080383129141442,0.0122537272494241,0.980303811481925,-0.109365478477874,0.980303811455448,-0.109365478476546,0.00804180431253382,0.0122463067382008
7,0.00817301080007754,0.0132797797619073,0.978816239919978,-0.117246361724586,0.978816239883663,-0.117246361722835,0.00817703819097113,0.0132717540282337
7.5,0.00833989011870233,0.0143167771409125,0.97728006193759,-0.125077118617218,0.977280061893525,-0.125077118613365,0.00834450333098298,0.0143081280606507
8,0.00854111400122213,0.0153611151953457,0.975695811050833,-0.132861644498424,0.975695811002595,-0.132861644491503,0.00854636213338521,0.0153518199866634
8.5,0.00877827316110931,0.0164090241281469,0.974063414716842,-0.140603196720722,0.974063414669224,-0.140603196710766,0.00878420380817982,0.0163990553693942
9,0.00905238926345373,0.0174566464870614,0.972382389532779,-0.148304403427119,0.972382389491504,-0.148304403415354,0.00905904775275387,0.0174459722731695
9.5,0.00936392994990823,0.018500115676765,0.970651996618906,-0.155967304834078,0.970651996590363,-0.155967304823005,0.0093713586144536,0.0184886999107623
10,0.00971283540711876,0.019535630802721,0.968871360676461,-0.163593411612599,0.968871360667462,-0.163593411606038,0.00972107292337646,0.0195234336115377
10.5,0.0101549386677675,0.0205120117529538,0.967046717994982,-0.171175991791934,0.967046717979959,-0.171175991786504,0.0101641522941916,0.0204982859269762
11,0.0106113863057696,0.0214780719628362,0.96518094724307,-0.178723073092979,0.965180947222384,-0.178723073087333,0.0106216097694042,0.0214628780777262
11.5,0.0110822900061359,0.0224333348188468,0.963273841781086,-0.186236834763792,0.963273841755296,-0.186236834756784,0.0110935490806561,0.0224167208127612
12,0.0115677029615741,0.023377373146606,0.961325046620277,-0.193719135146615,0.961325046590075,-0.193719135137311,0.0115800176122899,0.0233593757434822
12.5,0.0120676260488284,0.0243097993673871,0.959334109526928,-0.201171540602795,0.959334109493097,-0.201171540590465,0.0120810120194404,0.0242904454120598
13,0.012582013694406,0.0252302580826091,0.957300521020419,-0.208595355657433,0.957300520983789,-0.208595355641546,0.0125964836712237,0.0252095657549982
13.5,0.0131107792844057,0.0261384205055717,0.955223745060013,-0.215991652780985,0.955223745021424,-0.215991652761191,0.013126343742683,0.0261164004031467
14,0.0136538000637258,0.0270339802917583,0.953103242073888,-0.223361300775383,0.953103242034164,-0.223361300751499,0.0136704678759931,0.027010636382033
14.5,0.0142109215225058,0.0279166504239412,0.950938485795002,-0.23070499114276,0.950938485754929,-0.23070499111475,0.0142287003894543,0.0278919808754829
15,0.014781961296447,0.0287861608900903,0.948728975164179,-0.238023262111542,0.948728975124485,-0.238023262079494,0.0148008580460445,0.0287601587936304
15.5,0.0153667126217072,0.0296422569550883,0.94647424236136,-0.245316520202311,0.946474242322707,-0.245316520166417,0.0153867334108884,0.0296149109473296
16,0.0159649473903729,0.0304846978755238,0.944173857842305,-0.252585059355418,0.944173857805278,-0.252585059315957,0.0159860978350631,0.0304559926780297
16.5,0.0165764188526937,0.0313132559434894,0.941827433095455,-0.259829077731697,0.941827433060559,-0.259829077689017,0.0165987041054545,0.0312831728281946
17,0.017200864009709,0.0321277157731805,0.939434621693825,-0.267048692350438,0.939434621661483,-0.267048692304939,0.0172242887994205,0.0320962329649335
17.5,0.0178380057359948,0.0329278737652177,0.936995119098909,-0.274243951756009,0.93699511906946,-0.274243951708124,0.0178625743803382,0.032894966790542
18,0.0184875546678477,0.0337135376995914,0.934508661575952,-0.281414846914086,0.934508661549656,-0.281414846864273,0.0185132710666129,0.0336791796896374
18.5,0.0191492108878312,0.0344845264202351,0.931975024500065,-0.288561320536527,0.931975024477107,-0.288561320485254,0.0191760785030101,0.0344486883748196
19,0.0198226654324282,0.035240669583446,0.929394020268122,-0.29568327502461,0.929394020248615,-0.295683274972345,0.0198506872595366,0.0352033206020392
19.5,0.0205076016458204,0.0359818074493063,0.926765495979641,-0.302780579206859,0.92676549596363,-0.302780579154062,0.0205367801797052,0.0359429149339616
20,0.0212036963994029,0.0367077907005591,0.924089331008826,-0.309853074032074,0.924089330996297,-0.309853073979191,0.0212340335969719,0.0366673205350705
20.5,0.0219106211938316,0.0374184802774764,0.921365434557625,-0.316900577361836,0.921365434548509,-0.316900577309287,0.0219421184354341,0.03737639698623
21,0.0226280431577547,0.0381137472201811,0.918593743254407,-0.323922887990635,0.918593743248588,-0.323922887938818,0.022660701208531,0.0380700141098593
21.5,0.0233556259553738,0.0387934725123829,0.915774218843291,-0.330919789006484,0.91577421884061,-0.330919788955765,0.023389444927466,0.0387480517989776
22,0.0240930306130572,0.0394575469221576,0.912906845994148,-0.337891050590634,0.912906845994409,-0.337891050541345,0.0241280099293401,0.0394103998454636
22.5,0.0248399162737334,0.0401058708367714,0.909991630251847,-0.344836432342109,0.909991630254828,-0.344836432294549,0.0248760546335048,0.0400569577641781
23,0.0255959408864869,0.0407383540896313,0.907028596134767,-0.351755685201126,0.907028596140217,-0.351755685155557,0.0256332362334196,0.0406876346107159
23.5,0.0263607618376823,0.0413549157781528,0.904017785386159,-0.358648553035168,0.904017785393813,-0.358648552991816,0.0263992113302151,0.0413023487913784
24,0.0271340365290325,0.0419554840719891,0.900959255377395,-0.365514773942387,0.90095925538697,-0.365514773901441,0.027173636513309,0.0419010278645735
24.5,0.0279154229072642,0.0425399960114892,0.897853077658755,-0.372354081319003,0.897853077669959,-0.372354081280616,0.0279561688926581,0.0424836083333571
25,0.0287045799493838,0.0431083972965733,0.894699336651246,-0.379166204730495,0.894699336663782,-0.379166204694785,0.0287464665866136,0.0430500354291679
25.5,0.0295011681070231,0.0436606420664865,0.891498128471371,-0.385950870620317,0.891498128484942,-0.385950870587369,0.0295441891688224,0.043600262887076
26,0.030304849712895,0.0441966926710526,0.888249559879988,-0.392707802884708,0.888249559894296,-0.392707802854576,0.0303489980771801,0.0441342527130858
26.5,0.0311152893519992,0.0447165194341841,0.884953747345902,-0.399436723337701,0.884953747360655,-0.399436723310407,0.0311605569874753,0.0446519749441481
27,0.0319321541999431,0.0452201004104876,0.881610816214781,-0.406137352086591,0.881610816229697,-0.406137352062129,0.0319785321540608,0.0451534074016604
27.5,0.0327551143304414,0.0457074211358595,0.878220899974108,-0.41280940783486,0.878220899988911,-0.412809407813197,0.0328025927196172,0.0456385354392788
28,0.0335838429938727,0.0461784743730034,0.874784139605183,-0.419452608126748,0.87478413961961,-0.419452608107831,0.0336324109958944,0.0461073516859289
28.5,0.0344180168685752,0.0466332598527895,0.871300683013643,-0.426066669545301,0.871300683027445,-0.426066669529049,0.0344676627170876,0.0465598557848943
29,0.0352573162864129,0.0470717840124171,0.867770684530437,-0.432651307873652,0.867770684543379,-0.432651307859968,0.035308027267401,0.0469960541298878
29.5,0.0361014254340256,0.0474940597312694,0.864194304475733,-0.439206238227646,0.864194304487597,-0.439206238216414,0.0361531878842013,0.0474159595989994
30,0.0369500325310536,0.0479001060653731,0.860571708778817,-0.445731175166418,0.860571708789402,-0.445731175157507,0.037002831838058,0.0478195912873697
30.5,0.0378028299865605,0.0482899479813353,0.856903068647579,-0.452225832786327,0.8569030686567,-0.452225832779593,0.0378566505908904,0.048206974239456
31,0.0386595145347739,0.0486636160905582,0.853188560281726,-0.458689924802639,0.853188560289216,-0.458689924797926,0.0387143399333495,0.0485781391816871
31.5,0.0395197873512281,0.0490211463845599,0.849428364624421,-0.465123164622455,0.849428364630132,-0.465123164619598,0.0395756001025184,0.0489331222562859
32,0.040383354150316,0.049362579972131,0.845622667147529,-0.471525265411692,0.845622667151332,-0.471525265410518,0.0404401358809385,0.0492719647570061
32.5,0.0412499252652209,0.0496879628190403,0.841771657666112,-0.477895940158313,0.841771657667894,-0.477895940158644,0.0413076566779353,0.0495947128674694
33,0.0421192157111527,0.0499973454909574,0.837875530178299,-0.484234901733501,0.837875530177966,-0.484234901735154,0.0421778765941777,0.0499014174027662
33.5,0.042990945232783,0.0502907829002127,0.833934482727031,-0.490541862952065,0.833934482724507,-0.490541862954855,0.0430505144703536,0.0501921335549343
34,0.0438648383367333,0.0505683340569683,0.829948717280584,-0.49681653663303,0.829948717275809,-0.496816536636771,0.0439252939208295,0.0504669206428756
34.5,0.0447406243099459,0.0508300618253406,0.825918439629099,-0.503058635661091,0.825918439622031,-0.503058635665597,0.044801943353123,0.0507258418672577
35,0.0456180372247443,0.0510760326849633,0.821843859294701,-0.509267873049371,0.821843859285313,-0.509267873054458,0.0456801959739953,0.0509689640708691
35.5,0.0464968159313561,0.0513063164984282,0.817725189453028,-0.51544396200378,0.817725189441309,-0.515443962009267,0.0465597897829343,0.0511963575048809
36,0.0473767040386609,0.051520986285036,0.813562646864304,-0.521586615989071,0.813562646850256,-0.521586615994781,0.047440467553804,0.0514080956014212
36.5,0.0482574498838862,0.0517201180011951,0.809356451812285,-0.527695548796656,0.809356451795926,-0.527695548802414,0.0483219768053755,0.0516042547528264
37,0.0491388064919804,0.0519037903278284,0.805106828049652,-0.533770474614065,0.805106828031012,-0.533770474619705,0.0492040697614716,0.0517849140978924
37.5,0.0500205315253457,0.0520720844650527,0.800814002748583,-0.539811108095968,0.800814002727704,-0.539811108101329,0.0500865033014096,0.0519501553154255
38,0.0509023872246062,0.0522250839344102,0.796478206455433,-0.545817164436533,0.79647820643237,-0.54581716444146,0.0509690389014262,0.0521000624253438
38.5,0.0517841403410751,0.0523628743888611,0.792099673048594,-0.551788359442939,0.79209967302341,-0.551788359447287,0.0518514425677326,0.0522347215975505
39,0.0526655620615472,0.0524855434307364,0.787678639698728,-0.557724409609795,0.787678639671497,-0.557724409613425,0.0527334847618501,0.0523542209687753
39.5,0.0535464279260465,0.0525931804378043,0.783215346830717,-0.563625032194214,0.783215346801522,-0.563625032196996,0.053614940318834,0.0524586504675344
40,0.0544265177391222,0.0526858763975859,0.778710038086737,-0.569489945291298,0.778710038055668,-0.569489945293112,0.0544955883590003,0.0525481016473512
40.5,0.0553056154752795,0.0527637237500229,0.774162960290001,-0.575318867909776,0.774162960257156,-0.57531886791051,0.0553752121937294,0.0526226675283302
41,0.0561835091791142,0.0528268162385706,0.76957436340876,-0.581111520047547,0.769574363374246,-0.581111520047099,0.0562535992259198,0.0526824424471685
41.5,0.057059990860688,0.0528752487697691,0.764944500520254,-0.586867622766899,0.764944500484178,-0.586867622765176,0.0571305408456363,0.0527275219156506
42,0.0579348563866939,0.0529091172813304,0.760273627774326,-0.592586898269161,0.760273627736802,-0.592586898266081,0.0580058323214928,0.0527580024876692
42.5,0.0588079053679035,0.0529285186187292,0.755562004356529,-0.5982690699686,0.755562004317677,-0.59826906996409,0.0588792726882706,0.0527739816347578
43,0.0596789410434106,0.0529335504203087,0.750809892450537,-0.603913862565335,0.750809892410479,-0.603913862559331,0.059750664631284,0.0527755576301484
43.5,0.0605477701621408,0.0529243110108507,0.746017557199751,-0.609521002117114,0.746017557158611,-0.609521002109562,0.0606198143679635,0.0527628294413001
44,0.0614142028620938,0.0529008993035679,0.741185266668021,-0.615090216109769,0.741185266625926,-0.615090216100625,0.0614865315271263,0.052735896630867
44.5,0.0622780525477664,0.0528634147104493,0.736313291799424,-0.620621233526207,0.736313291756501,-0.620621233515436,0.0623506290263794,0.0526948592660267
45,0.0631391357661837,0.0528119570608847,0.731401906377071,-0.626113784913796,0.731401906333447,-0.626113784901372,0.0632119229480869,0.0526398178361003
45.5,0.0639972720819565,0.0527466265284584,0.726451386980935,-0.631567602450035,0.726451386936739,-0.631567602435942,0.0640702324143219,0.0525708731783583
46,0.0648522839517637,0.0526675235658161,0.721462012944716,-0.636982420006396,0.721462012900075,-0.636982419990626,0.0649253794611949,0.0524881264119111
46.5,0.0657039965986442,0.0525747488474784,0.71643406631176,-0.64235797321025,0.7164340662668,-0.642357973192804,0.0657771889129515,0.0523916788795634
47,0.0665522378864692,0.0524684032204694,0.711367831790078,-0.647693999504802,0.711367831744924,-0.647693999485689,0.0666254882562081,0.052281632097496
47.5,0.0673968381949487,0.0523485876626146,0.70626359670651,-0.652990238206967,0.706263596661285,-0.652990238186205,0.067470107514682,0.0521580877126422
48,0.0682376302955148,0.0522154032483607,0.701121650960083,-0.658246430563137,0.701121650914907,-0.658246430540752,0.0683108791247529,0.0520211474675983
48.5,0.0690744492284099,0.052068951121957,0.695942286974642,-0.663462319802803,0.695942286929633,-0.663462319778825,0.0691476378121957,0.0518709131729125
49,0.0699071321812932,0.0519093324778177,0.690725799650797,-0.668637651189984,0.690725799606069,-0.668637651164454,0.0699802204703854,0.0517074866865855
49.5,0.0707355183696681,0.0517366485479057,0.685472486317281,-0.673772172072463,0.685472486272944,-0.673772172045427,0.070808466040291,0.0515309699006054
50,0.0715594489194177,0.0515510005959385,0.680182646681766,-0.678865631928802,0.680182646637927,-0.678865631900314,0.0716322153925355,0.0513414647343299
50.5,0.07237876675173,0.051352489918238,0.674856582781237,-0.683917782413141,0.674856582737997,-0.683917782383257,0.0724513112118073,0.0511390731345381
51,0.0731933164706693,0.0511412178510188,0.669494598931967,-0.688928377397766,0.669494598889425,-0.688928377366552,0.0732655978838875,0.0509238970819458
51.5,0.0740029442536562,0.050917285783916,0.664097001679198,-0.693897173013487,0.664097001637446,-0.693897172981012,0.0740749213855427,0.0506960386039854
52,0.0748074977450942,0.050680795179556,0.658664099746576,-0.698823927687801,0.658664099705702,-0.698823927654139,0.0748791291775349,0.0504555997936574
52.5,0.075606825953374,0.0504318475989407,0.653196203985429,-0.703708402180893,0.653196203945517,-0.703708402146123,0.0756780701009722,0.0502026828342236
53,0.0764007791514769,0.0501705447324419,0.647693627323944,-0.708550359619481,0.647693627285071,-0.708550359583686,0.0764715942772263,0.049937390029544
53.5,0.0771892087813909,0.0498969884361837,0.642156684716322,-0.713349565528541,0.642156684678561,-0.713349565491807,0.0772595530116317,0.0496598238398303
54,0.0779719673625371,0.0496112807735857,0.636585693091968,-0.718105787860946,0.636585693055386,-0.718105787823364,0.0780417987011593,0.0493700869225938
54.5,0.0787489084043955,0.0493135240618409,0.630980971304793,-0.722818797025046,0.630980971269451,-0.722818796986707,0.0788181847462672,0.0490682821785647
55,0.079519886323522,0.0490038209230945,0.625342840082668,-0.72748836591024,0.62534284004862,-0.72748836587124,0.0795885654671014,0.048754512802347
55.5,0.0802847563651109,0.048682274340094,0.619671621977108,-0.732114269910572,0.619671621944404,-0.732114269871009,0.0803527960242281,0.0484288823375819
56,0.0810433745292872,0.0483489877160627,0.613967641313235,-0.736696286946398,0.61396764128192,-0.736696286906371,0.0811107323440565,0.0480914947363744
56.5,0.0817955975022653,0.0480040649385637,0.608231224140071,-0.741234197484171,0.608231224110184,-0.741234197443781,0.0818622310491059,0.0477424544227499
57,0.0825412825925278,0.047647610447102,0.602462698181214,-0.745727784554378,0.602462698152786,-0.745727784513727,0.0826071493932734,0.0473818663598949
57.5,0.0832802876721579,0.0472797293042233,0.596662392785941,-0.750176833767703,0.596662392758999,-0.750176833726894,0.0833453452022261,0.0470098361209284
58,0.0840124711234577,0.0469005272698492,0.590830638880791,-0.75458113332943,0.590830638855356,-0.754581133288564,0.0840766768190579,0.0466264699629678
58.5,0.0847376917909606,0.0465101108786024,0.584967768921663,-0.758940474052165,0.58496776889775,-0.758940474011348,0.0848010030553247,0.0462318749042204
59,0.0854558089389604,0.046108587519859,0.579074116846475,-0.763254649366913,0.579074116824096,-0.763254649326247,0.0855181831475731,0.0458261588038568
59.5,0.0861666822146491,0.0456960655202706,0.573150018028417,-0.767523455332559,0.573150018007575,-0.767523455292147,0.0862280767194648,0.0454094304443975
60,0.0868701716169589,0.0452726542284884,0.567195809229833,-0.771746690643807,0.567195809210526,-0.77174669060375,0.0869305437495885,0.0449817996163605
60.5,0.0875661374711929,0.0448384641018284,0.561211828556768,-0.775924156637633,0.561211828538992,-0.775924156598033,0.0876254445450508,0.0445433772048943
61,0.088254440409517,0.0443936067946027,0.555198415414215,-0.780055657298286,0.555198415397957,-0.780055657259241,0.088312639720912,0.0440942752781349
61.5,0.0889349413573776,0.043938195247849,0.549155910462076,-0.784140999260908,0.54915591044732,-0.784140999222515,0.0889919901855483,0.0436346071770174
62,0.0896075015259061,0.0434723437801822,0.543084655571876,-0.788179991813805,0.543084655558601,-0.788179991776161,0.0896633571319846,0.0431644876062608
62.5,0.0902719824103448,0.0429961681794882,0.536984993784255,-0.792172446899433,0.536984993772435,-0.792172446862629,0.0903266020352568,0.0426840327262593
63,0.0909282457945467,0.0425097857951858,0.530857269267247,-0.796118179114128,0.530857269256853,-0.796118179078258,0.0909815866558397,0.0421933602455936
63.5,0.0915761537615625,0.042013315630772,0.524701827275384,-0.800017005706664,0.52470182726638,-0.800017005671813,0.0916281730491609,0.0416925895138897
64,0.0922155687103353,0.0415068784363607,0.51851901410963,-0.803868746575639,0.518519014101978,-0.803868746541894,0.0922662235812431,0.0411818416147311
