"Freq [GHz]","re(St(P1,P1)) []","im(St(P1,P1)) []","re(St(P1,P2)) []","im(St(P1,P2)) []","re(St(P2,P1)) []","im(St(P2,P1)) []","re(St(P2,P2)) []","im(St(P2,P2)) []"
0,0.0061821481645552,0,0.993836377354455,0,0.993836394758546,0,0.00618216179282172,0
0.5,0.00684247537954263,-0.000920075886920557,0.993074444824416,-0.00962529761745046,0.993074444960637,-0.00962529706688642,0.00684263248622941,-0.000920133239283416
1,0.00736178451990632,-0.00263597229764656,0.992280398823063,-0.0184443366088765,0.992280399890097,-0.018444335641032,0.00736218025708091,-0.00263623011032976
1.5,0.00764304506300029,-0.00450355087719423,0.99156784500569,-0.0270683861516989,0.991567845759823,-0.0270683861486738,0.00764375084802893,-0.00450396843609902
2,0.00773806734005422,-0.00640189001940605,0.990881032178012,-0.035627877701387,0.990881032494585,-0.0356278779026198,0.0077391675838383,-0.00640254852808653
2.5,0.00772428043120232,-0.00828189894452436,0.990149191562346,-0.0441590688584039,0.990149191636899,-0.044159069000143,0.00772584955504918,-0.00828285860908551
3,0.00764181776892814,-0.0101387230065946,0.989342806734289,-0.0526586878211983,0.989342806719641,-0.0526586878615873,0.00764393429466992,-0.0101400400380811
3.5,0.00751036962075924,-0.0119755434723938,0.988453161934613,-0.0611191854010187,0.98845316191141,-0.061119185370007,0.00751311476880989,-0.0119772771441067
4,0.00734017833458034,-0.0137959185135443,0.987480217005734,-0.0695353072497324,0.987480217003465,-0.069535307190562,0.00734363294341756,-0.0137981327142924
4.5,0.00713704478028632,-0.015602495524571,0.986427133712432,-0.0779045726890892,0.98642713373084,-0.0779045726371495,0.0071412865019358,-0.0156052583800737
5,0.00690457282183665,-0.0173970218045687,0.985297847821132,-0.0862266057597356,0.985297847845866,-0.0862266057365888,0.00690967360106365,-0.0174004047409451
5.5,0.00664521982514199,-0.0191805569369459,0.984096015632531,-0.0945023832990683,0.984096015645543,-0.094502383312796,0.00665124352147284,-0.0191846336953407
6,0.00636081471676919,-0.0209536649535815,0.982824610812142,-0.102733622747414,0.982824610798078,-0.102733622795532,0.00636781480201487,-0.0209585107570343
6.5,0.00605282622129832,-0.0227165562814431,0.981485836753306,-0.110922336740528,0.981485836703003,-0.110922336813656,0.00606084354852399,-0.0227222472361568
7,0.00572250767740867,-0.0244691877359671,0.980081187230709,-0.119070533349882,0.980081187142658,-0.119070533435264,0.00573156835198851,-0.0244758004948569
7.5,0.00537097796288077,-0.0262113327933573,0.978611567699496,-0.127180030511051,0.978611567579997,-0.127180030595565,0.00538109136062759,-0.0262189444796306
8,0.00499926799316119,-0.0279426317361606,0.977077431199066,-0.135252354209654,0.977077431061577,-0.135252354282132,0.00501042497233517,-0.027951320105509
8.5,0.00460834804823829,-0.0296626282585724,0.975478905906539,-0.143288694717922,0.975478905770606,-0.143288694770822,0.00462051939676911,-0.0296724720659487
9,0.00419914414294177,-0.0313707968669683,0.973815904405293,-0.151289900776183,0.973815904295318,-0.151289900806693,0.00421227929266067,-0.0313818763960265
9.5,0.00377254801441586,-0.0330665638983891,0.972088211903614,-0.159256496871511,0.972088211847608,-0.159256496882194,0.00378657404289416,-0.0330789616079401
10,0.00332942334271109,-0.0347493239997476,0.970295554333232,-0.16718871317782,0.97029555436167,-0.167188713176907,0.00334424427185534,-0.0347631252411307
10.5,0.00286825896479313,-0.0364674223296788,0.968449375829276,-0.175078134537382,0.968449375855859,-0.175078134539891,0.00288406322816535,-0.0364824546839317
11,0.00238316799456875,-0.0381820403187612,0.966547171123435,-0.182934144934597,0.966547171147921,-0.182934144940022,0.00239996723280685,-0.0381983687728242
11.5,0.00187399795911344,-0.039892872629864,0.964589073224207,-0.190757802853241,0.96458907324644,-0.190757802861102,0.00189179998653674,-0.0399105623864622
12,0.00134060006226577,-0.0415995987304489,0.96257513094082,-0.198549973308137,0.962575130960718,-0.19854997331798,0.00135940894725559,-0.0416187149492266
12.5,0.000782830275205121,-0.0433018830460532,0.960505338808891,-0.206311348166426,0.96050533882643,-0.20631134817784,0.000802646439864191,-0.0433224905981207
13,0.000200550405348776,-0.0449993751905513,0.95837965993007,-0.214042466366401,0.958379659945276,-0.214042466379011,0.000221370742698929,-0.0450215384279273
13.5,-0.000406370861926464,-0.0466917102702964,0.956198043037333,-0.221743733187153,0.956198043050269,-0.221743733200621,-0.000384552855049014,-0.0467154928114999
14,-0.00103805695393899,-0.0483785092588911,0.953960434943931,-0.22941543806889,0.953960434954689,-0.229415438082922,-0.00101525103022101,-0.048403973791757
14.5,-0.00169462243849716,-0.0500593794389612,0.951666789365655,-0.237057770731121,0.951666789374347,-0.237057770745455,-0.00167084144169863,-0.050086587541474
15,-0.00237617209325475,-0.0517339149069809,0.949317072941052,-0.244670835506147,0.949317072947808,-0.244670835520561,-0.00235143178998759,-0.051762926886751
15.5,-0.00308280002060679,-0.0534016971369677,0.946911269123019,-0.252254663917415,0.946911269127978,-0.252254663931718,-0.00305711892435451,-0.0534325718897288
16,-0.00381458881167174,-0.0550622955985594,0.944449380482235,-0.2598092256015,0.944449380485539,-0.25980922561553,-0.00378798800105518,-0.0550950904858469
16.5,-0.00457160876249368,-0.0567152684248806,0.941931429849666,-0.267334437711685,0.941931429851463,-0.26733443772531,-0.00454411169573815,-0.0567500391708653
17,-0.00535391714512462,-0.0583601631254012,0.939357460631128,-0.274830172959007,0.939357460631564,-0.274830172972119,-0.00532554947262964,-0.0583969637326591
17.5,-0.00616155753582931,-0.0599965173389156,0.936727536549793,-0.282296266450748,0.93672753654901,-0.282296266463262,-0.00613234691266018,-0.0600354000226964
18,-0.00699455920220893,-0.0616238596217289,0.934041741010533,-0.289732521481446,0.93404174100867,-0.289732521493292,-0.00696453510222816,-0.0616648747621684
18.5,-0.00785293655059333,-0.0632417102660625,0.931300176230739,-0.2971387144212,0.931300176227928,-0.297138714432331,-0.0078221300838538,-0.0632849063775982
19,-0.00873668863466054,-0.064849582143766,0.928502962243571,-0.30451459883306,0.92850296223994,-0.304514598843441,-0.00870513236954229,-0.0648950058608857
19.5,-0.00964579872579735,-0.0664469815704296,0.925650235849642,-0.31185990893699,0.925650235845308,-0.311859908946601,-0.00961352651725161,-0.0664946776487734
20,-0.010580233945368,-0.0680334091851145,0.922742149570051,-0.319174362523679,0.922742149565127,-0.31917436253251,-0.0105472807704794,-0.0680834205168346
20.5,-0.0115399449586341,-0.0696083608409852,0.91977887063635,-0.326457663407731,0.91977887063094,-0.326457663415781,-0.0115063467605778,-0.0696607284832043
21,-0.012524865729771,-0.0711713285023297,0.916760580039882,-0.333709503497235,0.916760580034081,-0.333709503504513,-0.0124906592710857,-0.0712260917174499
21.5,-0.0135349133370554,-0.0727218011435486,0.913687471653383,-0.340929564545184,0.913687471647281,-0.340929564551705,-0.0135001360629952,-0.0727789974501378
22,-0.0145699878470167,-0.0742592656459664,0.910559751430777,-0.348117519638147,0.910559751424454,-0.348117519643931,-0.0145346777596173,-0.0743189308788998
22.5,-0.01562997224606,-0.0757832076884284,0.90737763668617,-0.355273034468614,0.907377636679701,-0.355273034473687,-0.0155941677893768,-0.0758453760669575
23,-0.0167147324278132,-0.0772931126279597,0.904141355449727,-0.362395768429835,0.904141355443176,-0.362395768434225,-0.0166784723846687,-0.0773578168303843
23.5,-0.0178241172342243,-0.0787884663669327,0.900851145895888,-0.369485375565251,0.900851145889316,-0.369485375568991,-0.01778744063465,-0.0788557376105572
24,-0.0189579585482311,-0.0802687562034734,0.897507255838106,-0.37654150539907,0.897507255831568,-0.376541505402194,-0.0189209045896644,-0.0803386243285593
24.5,-0.0201160714356571,-0.0817334716620637,0.894109942283555,-0.383563803669718,0.894109942277097,-0.383563803672262,-0.0200786794148241,-0.0818059652185406
25,-0.0212982543338275,-0.0831821053015753,0.890659471041034,-0.390551912983941,0.890659471034698,-0.390551912985942,-0.0212605635901284,-0.0832572516373118
25.5,-0.0225042892842842,-0.0846141534982241,0.887156116375386,-0.397505473405956,0.887156116369209,-0.397505473407451,-0.0224663391543952,-0.0846919788477225
26,-0.0237339422068762,-0.0860291172011916,0.883600160702021,-0.404424122993297,0.883600160696034,-0.404424122994324,-0.0236957719901766,-0.0861096467736395
26.5,-0.0249869632124149,-0.0874265026589167,0.879991894315562,-0.411307498288704,0.879991894309792,-0.411307498289301,-0.0249486121467756,-0.0875097607246125
27,-0.0262630869510554,-0.08880582211434,0.876331615147159,-0.418155234775506,0.87633161514163,-0.418155234775708,-0.026224594198428,-0.0888918320885681
27.5,-0.0275620329934921,-0.0901665944675971,0.87261962854552,-0.424966967302427,0.87261962854025,-0.424966967302273,-0.0275234376347041,-0.0902553789911464
28,-0.0288835062420931,-0.0915083459049504,0.868856247077295,-0.431742330482498,0.8688562470723,-0.431742330482023,-0.0288448472801615,-0.0915999269205097
28.5,-0.0302271973690537,-0.0928306104929213,0.865041790342967,-0.438480959069694,0.865041790338258,-0.438480959068933,-0.0301885137403231,-0.0929250093167289
29,-0.0315927832787131,-0.0941329307368901,0.861176584804899,-0.445182488316192,0.861176584800485,-0.445182488315177,-0.0315541138710626,-0.0942301681250624
29.5,-0.0329799275911864,-0.095414858103577,0.857260963624714,-0.451846554312404,0.857260963620602,-0.451846554311169,-0.0329413112685415,-0.0955149543126488
30,-0.0343882811445443,-0.0966759535070731,0.85329526650754,-0.458472794311508,0.853295266503733,-0.458472794310082,-0.034349756776902,-0.096778928348368
30.5,-0.0358174825128013,-0.0979157877582622,0.849279839551122,-0.465060847039719,0.849279839547623,-0.465060847038134,-0.0357790890109924,-0.0980216606457964
31,-0.0372671585371051,-0.0991339419776676,0.845215035098109,-0.471610352993317,0.845215035094916,-0.471610352991598,-0.0372289348914865,-0.0992427319693732
31.5,-0.0387369248675382,-0.100330007971923,0.841101211590148,-0.478120954723114,0.841101211587259,-0.478120954721289,-0.0386989101898552,-0.100441733804057
32,-0.0402263865131115,-0.101503588574239,0.836938733422682,-0.484592297106948,0.836938733420094,-0.484592297105042,-0.0401886200807499,-0.101618268688915
32.5,-0.0417351383975606,-0.102654297949346,0.832727970799614,-0.491024027610587,0.832727970797321,-0.491024027608624,-0.0416976596994637,-0.102771950515215
33,-0.0432627659187311,-0.103781761863595,0.82846929958715,-0.497415796537372,0.828469299585145,-0.497415796535374,-0.0432256147022622,-0.103902404789733
33.5,-0.0448088455094032,-0.104885617920942,0.824163101166364,-0.503767257266839,0.82416310116464,-0.503767257264825,-0.0447720618274729,-0.105009268864101
34,-0.0463729451975498,-0.105965515765701,0.819809762284136,-0.510078066482509,0.819809762282685,-0.5100780664805,-0.0463365694553735,-0.106092192131117
34.5,-0.0479546251641337,-0.107021117253039,0.815409674902265,-0.516347884389023,0.815409674901076,-0.516347884387035,-0.0479186981650118,-0.107150836189027
35,-0.0495534382966814,-0.108052096588255,0.810963236044622,-0.522576374918759,0.810963236043684,-0.522576374916808,-0.0495180012862431,-0.108184874974904
35.5,-0.0511689307369708,-0.109058140435971,0.806470847642352,-0.528763205928078,0.806470847641656,-0.528763205926181,-0.0511340254453746,-0.109193994868245
36,-0.0528006424213296,-0.110038948000427,0.801932916377146,-0.534908049383339,0.80193291637668,-0.534908049381508,-0.0527663111029483,-0.110177894766053
36.5,-0.0544481076121252,-0.110994231078119,0.797349853522685,-0.541010581536819,0.797349853522438,-0.541010581535066,-0.0544143930822989,-0.111136286130636
37,-0.0561108554191789,-0.111923714084062,0.792722074784402,-0.547070483092701,0.792722074784362,-0.547070483091037,-0.0560778010876692,-0.112068893011462
37.5,-0.0577884103099322,-0.112827134052999,0.78805000013773,-0.553087439363278,0.788050000137884,-0.553087439361713,-0.057756060210751,-0.112975452042369
38,-0.0594802926073309,-0.11370424061689,0.783334053665039,-0.559061140415556,0.783334053665375,-0.559061140414099,-0.0594486914246751,-0.113855712415521
38.5,-0.0611860189744865,-0.114554795960047,0.778574663391466,-0.564991281208429,0.778574663391972,-0.564991281207086,-0.0611552120645517,-0.114709435833448
39,-0.0629051028852986,-0.11537857475328,0.773772261119884,-0.570877561720612,0.773772261120547,-0.570877561719391,-0.0628751362937868,-0.11553639644056
39.5,-0.0646370550803165,-0.11617536406841,0.768927282265206,-0.576719687069552,0.768927282266015,-0.576719687068457,-0.0646079755555132,-0.116336380735477
40,-0.0663813840072363,-0.116944963274531,0.764040165688305,-0.582517367621502,0.764040165689245,-0.582517367620538,-0.0663532390085536,-0.117109187465575
40.5,-0.0681375962455059,-0.117687183917359,0.759111353529727,-0.588270319092995,0.759111353530789,-0.588270319092167,-0.0681104339474463,-0.117854627505053
41,-0.0699051969146242,-0.118401849583015,0.754141291043476,-0.593978262643932,0.754141291044647,-0.593978262643241,-0.0698790662061544,-0.118572523717874
41.5,-0.0716836900657931,-0.119088795747542,0.749130426431055,-0.599640924962504,0.749130426432323,-0.599640924961953,-0.0716586405451441,-0.119262710806865
42,-0.0734725790566816,-0.119747869613468,0.744079210675995,-0.605258038342205,0.744079210677348,-0.605258038341794,-0.073448661021642,-0.119925035150272
42.5,-0.0752713669091183,-0.120378929934658,0.738988097379075,-0.610829340751139,0.738988097380501,-0.610829340750868,-0.0752486313429052,-0.120559354626989
43,-0.07707955664963,-0.120981846830688,0.733857542594418,-0.616354575893889,0.733857542595909,-0.616354575893759,-0.0770580552024583,-0.121165538431693
43.5,-0.0788966516327857,-0.121556501591945,0.728688004666672,-0.621833493266156,0.728688004668216,-0.621833493266165,-0.0788764365992823,-0.121743466881043
44,-0.0807221558473987,-0.122102786476594,0.723479944069415,-0.627265848202438,0.723479944071002,-0.627265848202586,-0.080703280140026,-0.12229303121208
44.5,-0.0825555742056687,-0.122620604500533,0.718233823244981,-0.63265140191695,0.718233823246601,-0.632651401917233,-0.0825380913243564,-0.122814133373929
45,-0.0843964128154394,-0.123109869221418,0.712950106445839,-0.637989921538048,0.712950106447482,-0.637989921538464,-0.0843803768136228,-0.123306685813834
45.5,-0.0862441792357534,-0.12357050451777,0.707629259577676,-0.643281180136378,0.707629259579333,-0.643281180136924,-0.0862296446830547,-0.123770611258559
46,-0.0880983827159796,-0.124002444364172,0.702271750044316,-0.648524956746979,0.702271750045979,-0.648524956747651,-0.0880854046577643,-0.124205842492085
46.5,-0.0899585344187939,-0.124405632603483,0.69687804659459,-0.653721036385562,0.696878046596251,-0.653721036386357,-0.0899471683328539,-0.124612322130553
47,-0.0918241476273542,-0.124780022716965,0.691448619171279,-0.658869210059203,0.69144861917293,-0.658869210060115,-0.0918144493779805,-0.124990002395289
47.5,-0.093694737937042,-0.125125577593186,0.68598393876222,-0.663969274771648,0.685983938763853,-0.663969274772674,-0.0936867637267506,-0.125338844884774
48,-0.095569823432166,-0.125442269296486,0.680484477253678,-0.66902103352346,0.680484477255285,-0.669021033524593,-0.0955636297513498,-0.125658820346302
48.5,-0.0974489248480587,-0.125730078835775,0.67495070728607,-0.674024295307198,0.674950707287646,-0.674024295308433,-0.0974445684228409,-0.125949908448086
49,-0.099331565719024,-0.125988995934377,0.669383102112112,-0.678978875097857,0.669383102113649,-0.67897887509919,-0.0993291034575887,-0.1262120975525
49.5,-0.101217272512606,-0.126219018801586,0.663782135457451,-0.683884593838747,0.663782135458944,-0.683884593840171,-0.10121676145028,-0.126445384491083
50,-0.103105574750674,-0.126420153906549,0.65814828138387,-0.688741278423009,0.658148281385315,-0.688741278424518,-0.103107071994034,-0.12664977434193
50.5,-0.104996005117829,-0.126592415755077,0.652482014155091,-0.693548761670961,0.652482014156481,-0.693548761672549,-0.104999567788107,-0.126825280210023
51,-0.106888099557664,-0.126735826669902,0.646783808105236,-0.698306882303461,0.646783808106568,-0.698306882305121,-0.106893784733708,-0.126971923011013
51.5,-0.108781397357392,-0.126850416574892,0.641054137510004,-0.703015484911449,0.641054137511273,-0.703015484913175,-0.108789262018452,-0.127089731258936
52,-0.110675441221402,-0.126936222783665,0.635293476460572,-0.707674419921864,0.635293476461774,-0.707674419923649,-0.110685542189979,-0.127178740858307
52.5,-0.112569777334272,-0.126993289793037,0.629502298740275,-0.712283543560076,0.629502298741406,-0.712283543561913,-0.112582171219288,-0.12723899490098
53,-0.114463955413797,-0.127021669081664,0.623681077704081,-0.716842717809026,0.623681077705139,-0.716842717810909,-0.114478698554306,-0.127270543468142
53.5,-0.116357528754582,-0.127021418914234,0.61783028616089,-0.72135181036521,0.617830286161872,-0.721351810367133,-0.116374677164259,-0.127273443437778
54,-0.118250054262749,-0.126992604151502,0.611950396258663,-0.725810694591667,0.611950396259566,-0.72581069459362,-0.118269663575363,-0.127247758297875
54.5,-0.120141092482316,-0.126935296066453,0.60604187937241,-0.730219249468116,0.606041879373234,-0.730219249470097,-0.120163217898388,-0.127193557965648
55,-0.122030207613783,-0.126849572166818,0.600105205995039,-0.734577359538404,0.60010520599578,-0.734577359540402,-0.122054903848629,-0.127110918613001
55.5,-0.12391696752548,-0.126735516024156,0.59414084563107,-0.738884914855367,0.594140845631727,-0.738884914857377,-0.123944288758808,-0.126999922498422
56,-0.125800943758208,-0.126593217109674,0.588149266693225,-0.743141810923281,0.588149266693799,-0.743141810925296,-0.125830943585441,-0.126860657805475
56.5,-0.127681711523707,-0.126422770636937,0.582130936401899,-0.747347948638001,0.582130936402387,-0.747347948640013,-0.12771444290919,-0.126693218488033
57,-0.129558849697479,-0.126224277411571,0.576086320687485,-0.751503234224927,0.576086320687887,-0.751503234226931,-0.1295943649297,-0.126497704122356
57.5,-0.13143194080647,-0.12599784368807,0.570015884095584,-0.755607579174929,0.570015884095901,-0.755607579176917,-0.131470291455437,-0.1262742197661
58,-0.133300571012138,-0.125743581033752,0.563920089695067,-0.759660900178324,0.563920089695298,-0.75966090018029,-0.133341807889012,-0.126022875824319
58.5,-0.135164330089376,-0.125461606199915,0.557799398988989,-0.763663119057045,0.557799398989135,-0.763663119058983,-0.135208503208484,-0.125743787922487
59,-0.137022811401806,-0.125152041000215,0.551654271828345,-0.767614162695097,0.551654271828407,-0.767614162696999,-0.137069969945104,-0.125437076786575
59.5,-0.138875611873896,-0.124815012196243,0.545485166328654,-0.77151396296741,0.545485166328633,-0.771513962969272,-0.138925804157971,-0.125102868130143
60,-0.140722331960382,-0.124450651390293,0.539292538789354,-0.775362456667202,0.539292538789251,-0.775362456669017,-0.140775605406052,-0.124741292548449
60.5,-0.142562575613426,-0.124059094925264,0.533076843615996,-0.779159585431937,0.533076843615811,-0.779159585433698,-0.142618976718002,-0.124352485419508
61,-0.144395950247972,-0.12364048379163,0.526838533245212,-0.782905295667981,0.526838533244948,-0.782905295669683,-0.144455524560205,-0.123936586812045
61.5,-0.146222066705719,-0.123194963541408,0.520578058072452,-0.786599538474065,0.520578058072112,-0.786599538475703,-0.146284858803474,-0.123493741400248
62,-0.148040539218103,-0.122722684208997,0.514295866382452,-0.790242269563616,0.514295866382037,-0.790242269565184,-0.14810659268878,-0.123024098385245
62.5,-0.149850985368732,-0.122223800238799,0.507992404282425,-0.79383344918607,0.507992404281937,-0.793833449187562,-0.149920342792428,-0.122527811423153
63,-0.151653026055626,-0.121698470419475,0.501668115637943,-0.797373042047238,0.501668115637384,-0.79737304204865,-0.151725728991038,-0.122005038559603
