"Freq [GHz]","re(St(P1,P1)) []","im(St(P1,P1)) []","re(St(P1,P2)) []","im(St(P1,P2)) []","re(St(P2,P1)) []","im(St(P2,P1)) []","re(St(P2,P2)) []","im(St(P2,P2)) []"
0,0.00599844452085563,0,0.99402240391646,0,0.994022401777329,0,0.00599845091551288,0
0.5,0.00679955611887095,-0.00414617875395074,0.993070221196035,-0.0115007525284554,0.993070222051731,-0.0115007576577799,0.00680011411165182,-0.00414834943201647
1,0.00739493121880486,-0.00929683843327567,0.992049320212182,-0.0219933530489485,0.992049321921403,-0.0219933535001324,0.00739629042490719,-0.00930193981157856
1.5,0.00763604463394607,-0.0146747926315918,0.991113691779692,-0.0322314937271351,0.991113692759278,-0.0322314948808735,0.00763809329341214,-0.0146832027351937
2,0.00757360264207207,-0.0200963941738745,0.990218713619598,-0.0423845629066921,0.990218713926097,-0.0423845640496392,0.00757610543645981,-0.0201083329662577
2.5,0.00730818069125139,-0.0254944143140214,0.989269638719935,-0.0525185335094136,0.989269638642496,-0.0525185343957357,0.00731096756298388,-0.0255099629200899
3,0.00689161272461458,-0.0308607870171915,0.988217670725164,-0.0626366144487616,0.988217670484816,-0.0626366150503124,0.0068945689856621,-0.0308799971084124
3.5,0.00634869883979849,-0.0361982173061506,0.987041696191843,-0.0727301117702783,0.987041695923163,-0.0727301121343054,0.00635173316233484,-0.0362211426064025
4,0.00569179113651064,-0.0415098664833504,0.985733775873081,-0.0827901303379797,0.985733775647904,-0.0827901305301193,0.00569481560417406,-0.0415365668462684
4.5,0.00492748727988568,-0.0467976548865945,0.984292061614318,-0.0928097155392997,0.98429206146351,-0.0928097156216978,0.00493040773128461,-0.0468281926809215
5,0.00405962512427571,-0.0520623291037534,0.982717466440717,-0.10278383895041,0.982717466369767,-0.102783838973828,0.00406233771949127,-0.0520967643663806
5.5,0.00309066549377701,-0.0573037912080601,0.98101205842437,-0.112708969936183,0.981012058424157,-0.11270896993789,0.00309305669394466,-0.0573421776301091
6,0.00202235622004121,-0.0625213833723857,0.979178271047535,-0.122582640012268,0.979178271101714,-0.122582640016633,0.00202430442441326,-0.062563765630304
6.5,0.000856062956580805,-0.0677140887507965,0.977218521587135,-0.132403085545075,0.97721852167712,-0.132403085565306,0.000857440742907833,-0.0677605011039679
7,-0.000407060220796174,-0.0728806640278581,0.975135042529283,-0.142168975840534,0.975135042637486,-0.142168975880898,-0.000406383842595393,-0.0729311299017059
7.5,-0.00176597963520275,-0.0780197244987519,0.972929826300267,-0.151879215326593,0.972929826412049,-0.151879215384688,-0.00176613724602193,-0.0780742567427044
8,-0.0032197312510166,-0.0831297980857695,0.970604629221903,-0.161532805497531,0.970604629326591,-0.161532805566386,-0.00322085542905759,-0.0831883996391403
8.5,-0.00476739101524926,-0.0882093595799551,0.968161004221699,-0.171128753203677,0.968161004312961,-0.171128753273566,-0.00476961313099544,-0.0882720243443629
9,-0.006408056525399,-0.0932568524704305,0.965600344947191,-0.180666013778479,0.965600345022965,-0.180666013838422,-0.00641150588054129,-0.0933235662507483
9.5,-0.00814083499160345,-0.0982707030389145,0.962923931592727,-0.190143459564659,0.962923931654884,-0.190143459603594,-0.0081456382394462,-0.0983414444660493
10,-0.00996483485425664,-0.103249329648436,0.960132973332835,-0.199559866353868,0.96013297338668,-0.199559866361525,-0.00997111563817055,-0.103324071034943
10.5,-0.011866988540947,-0.108185811897107,0.95720771634452,-0.208914773090203,0.957207716397008,-0.208914773109514,-0.0118747837519511,-0.108264412988153
11,-0.0138612223508164,-0.113085925034391,0.954174617860967,-0.21820167470297,0.954174617910846,-0.218201674733254,-0.0138706438113287,-0.113168366408861
11.5,-0.0159469351023349,-0.117947451633979,0.951035581880564,-0.227420071867891,0.951035581926752,-0.227420071908359,-0.0159580946273858,-0.118033708027571
12,-0.0181234294747604,-0.122768176289105,0.947792390388205,-0.236569427046794,0.947792390429783,-0.236569427096585,-0.0181364383132606,-0.122858216710871
12.5,-0.0203899125558032,-0.127545893447822,0.944446727273486,-0.24564915737486,0.944446727309701,-0.245649157433063,-0.020404880874821,-0.127639681355996
13,-0.0227454971807407,-0.132278414877433,0.941000200083406,-0.254658631464389,0.941000200113656,-0.254658631530074,-0.0227625335974712,-0.132375908404688
13.5,-0.0251892039675354,-0.136963576690301,0.93745435939304,-0.263597169289595,0.937454359416862,-0.263597169361822,-0.0252084151317921,-0.137064728908697
14,-0.0277199639517272,-0.141599245881403,0.933810715731321,-0.272464044418646,0.933810715748382,-0.272464044496491,-0.0277414541801949,-0.141704005097834
14.5,-0.0303366217267772,-0.146183326344503,0.930070754109767,-0.281258487966282,0.930070754119851,-0.281258488048843,-0.0303604926888855,-0.146291636417989
15,-0.0330379389996619,-0.150713764348322,0.926235946277132,-0.289979693744964,0.926235946280125,-0.289979693831377,-0.0330642894537956,-0.150825565021373
15.5,-0.035822598477122,-0.155188553466602,0.922307760870257,-0.298626824189285,0.922307760866136,-0.298626824278725,-0.0358515240549823,-0.155303780703697
16,-0.0386892080047213,-0.159605738966389,0.918287671657091,-0.30719901671475,0.918287671645914,-0.307199016806444,-0.0387208010409426,-0.159724325293544
16.5,-0.0416363048882826,-0.163963421667413,0.914177164077808,-0.315695390246953,0.914177164059698,-0.315695390340177,-0.0416706542919493,-0.164085296507734
17,-0.0446623603350013,-0.168259761292061,0.909977740288767,-0.324115051720314,0.909977740263906,-0.324115051814397,-0.0446995514993507,-0.168384851293029
17.5,-0.0477657839592374,-0.17249297933044,0.905690922905376,-0.332457102397973,0.905690922873993,-0.332457102492297,-0.0478058987057088,-0.172621208679552
18,-0.0509449283055589,-0.176661361448618,0.901318257626568,-0.340720643906975,0.901318257588934,-0.340720644000982,-0.0509880448582802,-0.176792652174752
18.5,-0.0541980933487392,-0.180763259470395,0.896861314907691,-0.348904783916889,0.896861314864104,-0.348904784010068,-0.0542442863356167,-0.180897531728928
19,-0.0575235309370518,-0.184797092964118,0.892321690831618,-0.357008641416551,0.892321690782405,-0.357008641508447,-0.0575728714137655,-0.184934265304509
19.5,-0.0609194491512974,-0.188761350466496,0.887701007310925,-0.36503135156433,0.88770100725643,-0.365031351654536,-0.0609720046447101,-0.188901340081493
20,-0.0643840165574552,-0.192654590374898,0.883000911737581,-0.372972070102704,0.88300091167816,-0.372972070190862,-0.0644398511251705,-0.192797313331047
20.5,-0.0679153663357063,-0.196475441538873,0.878223076181388,-0.380829977339535,0.878223076117408,-0.380829977425331,-0.067974540638791,-0.196620812988319
21,-0.0715116002727538,-0.200222603580154,0.873369196224514,-0.388604281706616,0.873369196156343,-0.388604281789781,-0.0715741716589197,-0.200370537954073
21.5,-0.0751707926080818,-0.203894846968982,0.868440989506848,-0.396294222911835,0.868440989434861,-0.396294222992138,-0.0752368152029002,-0.204045258153196
22,-0.0788909937278416,-0.207491012882751,0.863440194045911,-0.403899074705077,0.863440193970476,-0.403899074782325,-0.0789605185318503,-0.207643814376278
22.5,-0.0826702337026481,-0.211010012871093,0.858368566385249,-0.411418147280207,0.85836856630673,-0.411418147354243,-0.0827433086924791,-0.211165117928499
23,-0.0865065256677594,-0.214450828349666,0.853227879616787,-0.418850789336705,0.853227879535543,-0.418850789407403,-0.0865831958996697,-0.214608150108194
23.5,-0.0903978690458027,-0.217812509942988,0.848019921315303,-0.426196389824779,0.848019921231684,-0.426196389892042,-0.0904781767602313,-0.217971961535496
24,-0.0943422526136479,-0.221094176694824,0.84274649141688,-0.433454379397574,0.842746491331226,-0.433454379461336,-0.0944262373396447,-0.221255671349578
24.5,-0.0983376574160876,-0.224295015162882,0.837409400067847,-0.440624231593356,0.837409399980488,-0.440624231653571,-0.0984253560746429,-0.22445846629126
25,-0.102382059529854,-0.227414278412935,0.832010465466118,-0.447705463769652,0.83201046537737,-0.447705463826299,-0.102473506535355,-0.22757959968609
25.5,-0.106473432682047,-0.2304512849259,0.826551511713007,-0.45469763781014,0.826551511623176,-0.45469763786322,-0.106568660041236,-0.230618390341388
26,-0.11060975072757,-0.233405417430038,0.821034366690285,-0.461600360623919,0.821034366599663,-0.46160036067345,-0.110708788135516,-0.233574221369375
26.5,-0.114788989990358,-0.236276121669104,0.815460859974511,-0.468413284455475,0.815460859883374,-0.468413284501492,-0.114891864923073,-0.236446538947169
27,-0.1190091314734,-0.239062905116073,0.809832820798328,-0.475136107022414,0.809832820706942,-0.475136107064968,-0.119115869276855,-0.23923485102323
27.5,-0.123268162942608,-0.241765335641073,0.804152076066493,-0.481768571496851,0.804152075975107,-0.481768571536005,-0.123378786917956,-0.241938725978797
28,-0.127564080889532,-0.244383040141121,0.79842044843275,-0.488310466345091,0.798420448341599,-0.488310466380921,-0.127678612374456,-0.244557791251892
28.5,-0.13189489237791,-0.246915703138452,0.792639754442296,-0.49476162503919,0.792639754351604,-0.494761625071781,-0.132013350824066,-0.247091731930585
29,-0.136258616778876,-0.249363065353464,0.78681180274346,-0.501121925652893,0.786811802653434,-0.501121925682341,-0.136381019825426,-0.249540289321502
29.5,-0.140653287399515,-0.251724922257625,0.780938392371229,-0.507391290353491,0.780938392282063,-0.5073912903799,-0.140779650942831,-0.251903259498867
30,-0.145076953009288,-0.254001122611087,0.775021311104489,-0.513569684800236,0.775021311016364,-0.513569684823715,-0.145207291268917,-0.254180491838761
30.5,-0.149527679268694,-0.256191566989267,0.769062333898158,-0.519657117459095,0.769062333811244,-0.519657117479759,-0.14966200484968,-0.256371887542805
31,-0.154003550064281,-0.258296206302144,0.763063221390849,-0.525653638842877,0.763063221305299,-0.525653638860848,-0.154141874016014,-0.258477398154979
31.5,-0.158502668754027,-0.260315040309689,0.757025718488197,-0.531559340685065,0.757025718404154,-0.531559340700467,-0.158645000625741,-0.260497024074933
32,-0.163023159326816,-0.262248116136409,0.750951553021692,-0.53737435505499,0.750951552939286,-0.53737435506795,-0.163169507219918,-0.262430813070736
32.5,-0.167563167479675,-0.264095526787758,0.744842434482392,-0.543098853421452,0.744842434401741,-0.543098853432099,-0.167713538097051,-0.264278858793796
33,-0.172120861616137,-0.265857409670858,0.738700052828776,-0.548733045671292,0.738700052749986,-0.548733045679758,-0.17227526030863,-0.266041299298317
33.5,-0.176694433769061,-0.267533945121739,0.732526077367644,-0.554277179088968,0.732526077290814,-0.554277179095384,-0.176852864579259,-0.267718315567509
34,-0.181282100450968,-0.269125354941099,0.726322155706889,-0.559731537302657,0.726322155632102,-0.559731537307156,-0.181444566154495,-0.269310130048516
34.5,-0.185882103434903,-0.270631900940427,0.720089912778724,-0.565096439202075,0.720089912706056,-0.565096439204789,-0.186048605579355,-0.270817005197849
35,-0.190492710468626,-0.272053883500131,0.713830949931895,-0.570372237832726,0.71383094986141,-0.570372237833787,-0.19066324941033,-0.272239242038988
35.5,-0.195112215924879,-0.273391640141188,0.707546844091253,-0.575559319270998,0.707546844023008,-0.575559319270535,-0.195286790863602,-0.273577178733622
36,-0.199738941390292,-0.274645544111721,0.70123914698301,-0.58065810148415,0.701239146917052,-0.580658101482292,-0.19991755040207,-0.274831189167909
36.5,-0.204371236195455,-0.275816002989761,0.694909384423906,-0.585669033178962,0.694909384360273,-0.585669033175836,-0.204553876263654,-0.276001681555016
37,-0.209007477888518,-0.276903457303359,0.688559055672483,-0.590592592642498,0.688559055611207,-0.590592592638229,-0.209194144933281,-0.277089097055083
37.5,-0.213646072654654,-0.277908379169134,0.682189632840616,-0.595429286578201,0.682189632781718,-0.59542928657291,-0.213836761560839,-0.278093908413674
38,-0.218285455683609,-0.278831270950225,0.675802560363392,-0.600179648940272,0.675802560306886,-0.600179648934078,-0.218480160327336,-0.279016618619687
38.5,-0.22292409148746,-0.279672663934561,0.669399254525461,-0.604844239769061,0.669399254471358,-0.604844239762081,-0.223122804761377,-0.279857759583616
39,-0.227560474170702,-0.280433117034269,0.662981103041904,-0.609423644029993,0.662981102990204,-0.609423644022339,-0.227763188008072,-0.280617890836988
39.5,-0.23219312765466,-0.281113215506979,0.656549464691699,-0.613918470458336,0.656549464642397,-0.613918470450117,-0.232399833052346,-0.281297598253719
40,-0.236820605858175,-0.281713569699719,0.650105669001849,-0.618329350411939,0.650105668954936,-0.61832935040326,-0.237031292898628,-0.281897492794066
40.5,-0.241441492836487,-0.282234813816017,0.643651015980249,-0.622656936733895,0.643651015935709,-0.622656936724858,-0.241656150708801,-0.282418209271815
41,-0.246054402880143,-0.282677604706783,0.637186775895352,-0.62690190262691,0.637186775853163,-0.626901902617612,-0.246273019900253,-0.282860405145247
41.5,-0.250657980575744,-0.283042620685475,0.630714189100732,-0.631064940541008,0.630714189060868,-0.631064940531543,-0.25088054420583,-0.283224759332392
42,-0.255250900830265,-0.283330560367999,0.62423446590266,-0.635146761076057,0.624234465865092,-0.635146761066516,-0.255477397697436,-0.283511971051027
42.5,-0.259831868860682,-0.283542141537752,0.617748786468808,-0.639148091900463,0.617748786433501,-0.63914809189093,-0.26006228477497,-0.283722758683799
43,-0.264399620150531,-0.283678100036136,0.611258300776231,-0.643069676687238,0.611258300743146,-0.643069676677794,-0.264633940122271,-0.283857858668838
43.5,-0.268952920375069,-0.28373918867886,0.604764128596806,-0.64691227406854,0.604764128565901,-0.646912274059262,-0.269191128631689,-0.283918024416131
44,-0.273490565296567,-0.283726176198269,0.59826735951833,-0.65067665660967,0.59826735948956,-0.65067665660063,-0.273732645298843,-0.283904025249931
44.5,-0.278011380631314,-0.283639846211895,0.591769052999516,-0.654363609803373,0.591769052972833,-0.65436360979464,-0.278257315089125,-0.283816645377384
45,-0.282514221889824,-0.283480996217413,0.585270238457145,-0.657973931085229,0.585270238432499,-0.657973931076867,-0.282763992777429,-0.283656682883538
45.5,-0.286997974191698,-0.283250436614086,0.578771915383685,-0.661508428870785,0.578771915361022,-0.661508428862853,-0.287251562762581,-0.283424948752846
46,-0.291461552056589,-0.282948989750792,0.572275053493703,-0.664967921615016,0.572275053472967,-0.664967921607568,-0.291718938857889,-0.283122265917242
46.5,-0.295903899172638,-0.28257748900066,0.565780592897465,-0.668353236894593,0.5657805928786,-0.668353236887681,-0.296165064059191,-0.282749468330812
47,-0.30032398814375,-0.282136777862309,0.559289444300116,-0.671665210513382,0.559289444283061,-0.671665210507053,-0.300588910291761,-0.282307400071069
47.5,-0.304720820217015,-0.281627709087645,0.55280248922491,-0.67490468563149,0.552802489209605,-0.674904685625786,-0.304989478137386,-0.281796914466768
48,-0.309093424991549,-0.281051143836141,0.546320580258979,-0.678072511918133,0.546320580245362,-0.678072511913092,-0.309365796542876,-0.2812188732522
48.5,-0.313440860110014,-0.280407950855481,0.539844541320177,-0.68116954472851,0.539844541308185,-0.681169544724167,-0.313716922511266,-0.280574145747859
49,-0.317762210934,-0.279699005688438,0.533375167943585,-0.68419664430482,0.533375167933154,-0.684196644301205,-0.318041940776892,-0.279863608067304
49.5,-0.322056590204447,-0.27892518990579,0.526913227586289,-0.687154675001494,0.526913227577354,-0.687154674998633,-0.322339963465533,-0.279088142350087
50,-0.326323137688245,-0.27808739036509,0.520459459949099,-0.690044504534653,0.520459459941595,-0.690044504532568,-0.326610129740721,-0.278248636020503
50.5,-0.330561019812095,-0.277186498495036,0.514014577313932,-0.692867003255766,0.514014577307794,-0.692867003254476,-0.330851605437333,-0.277345981071958
51,-0.3347694292847,-0.276223409605212,0.507579264895581,-0.69562304344942,0.507579264890743,-0.69562304344894,-0.335063582683523,-0.276381073376679
51.5,-0.338947584708308,-0.275199022220884,0.501154181206705,-0.698313498655083,0.501154181203101,-0.698313498655424,-0.339245279512001,-0.275354812020502
52,-0.343094730180588,-0.274114237442582,0.494739958434831,-0.700939243012683,0.494739958432396,-0.700939243013851,-0.343395939461666,-0.274268098662415
52.5,-0.347210134887799,-0.272969958330106,0.488337202830307,-0.703501150631804,0.488337202828975,-0.703501150633806,-0.347514831170526,-0.273121836918549
53,-0.351293092690171,-0.271767089310646,0.481946495104076,-0.70600009498427,0.481946495103783,-0.706000094987104,-0.351601247960843,-0.271916931770259
53.5,-0.355342921700366,-0.27050653561062,0.475568390834284,-0.708436948319815,0.475568390834965,-0.70843694832348,-0.355654507417352,-0.270654288995934
54,-0.359358963855887,-0.269189202710879,0.469203420880701,-0.710812581104579,0.469203420882294,-0.710812581109069,-0.359673950959445,-0.26933481462617
54.5,-0.363340584486232,-0.26781599582486,0.46285209180603,-0.713127861482065,0.462852091808471,-0.713127861487373,-0.36365894340809,-0.267959414421889
55,-0.367287171875582,-0.266387819399301,0.456514886303179,-0.715383654756231,0.456514886306406,-0.715383654762344,-0.367608872548291,-0.266528993375014
55.5,-0.371198136821761,-0.26490557663707,0.450192263627645,-0.717580822896331,0.450192263631598,-0.717580822903235,-0.371523148687833,-0.265044455231274
56,-0.375072912192192,-0.263370169041709,0.443884660034177,-0.719720224063116,0.443884660038795,-0.719720224070794,-0.37540120421301,-0.263506702034708
56.5,-0.37891095247753,-0.26178249598322,0.437592489216929,-0.721802712155986,0.437592489222156,-0.721802712164419,-0.379242493142036,-0.261916633693421
57,-0.382711733343608,-0.260143454284669,0.431316142752368,-0.723829136380666,0.431316142758145,-0.723829136389831,-0.383046490676777,-0.260275147566155
57.5,-0.386474751182328,-0.258453937829135,0.425055990544197,-0.725800340836964,0.425055990550469,-0.725800340846837,-0.386812692753429,-0.258583138069212
58,-0.390199522662091,-0.25671483718655,0.418812381269663,-0.727717164126172,0.418812381276375,-0.727717164136725,-0.390540615592725,-0.256841496303261
58.5,-0.393885584278302,-0.25492703925996,0.412585642826568,-0.729580438977631,0.412585642833667,-0.729580438988838,-0.394229795250235,-0.255051109699577
59,-0.397532491904506,-0.253091426950735,0.406376082780409,-0.731390991894017,0.406376082787844,-0.731390991905845,-0.397879787167285,-0.253212861685227
59.5,-0.40113982034464,-0.251208878842257,0.400183988811067,-0.733149642814843,0.400183988818789,-0.733149642827259,-0.401490165723,-0.251327631366739
60,-0.404707162886871,-0.249280268901617,0.394009629158508,-0.734857204797724,0.394009629166469,-0.734857204810695,-0.405060523787942,-0.249396293231776
60.5,-0.408234130859495,-0.24730646619882,0.387853253066998,-0.736514483716906,0.387853253075152,-0.736514483730397,-0.408590472279786,-0.247419716868335
61,-0.411720353189277,-0.245288334643064,0.381715091227351,-0.738122277978578,0.381715091235654,-0.738122277992549,-0.412079639721466,-0.245398766701003
61.5,-0.415165475962655,-0.243226732735576,0.375595356216778,-0.739681378252465,0.375595356225187,-0.739681378266878,-0.415527671802179,-0.243334301743797
62,-0.418569161990182,-0.241122513338561,0.369494242935916,-0.741192567219248,0.369494242944391,-0.741192567234063,-0.41893423094161,-0.241227175369098
62.5,-0.421931090374527,-0.23897652345978,0.363411929042652,-0.742656619333275,0.363411929051153,-0.74265661934845,-0.422298995857746,-0.239078235092235
63,-0.425250956082381,-0.236789604052292,0.357348575382388,-0.74407430060012,0.357348575390879,-0.744074300615614,-0.425621661138576,-0.236888322371226
63.5,-0.428528469520567,-0.234562589828904,0.351304326414415,-0.745446368368484,0.351304326422861,-0.745446368384252,-0.428901936818009,-0.234658272421235
