"Freq [GHz]","re(St(P1,P1)) []","im(St(P1,P1)) []","re(St(P1,P2)) []","im(St(P1,P2)) []","re(St(P2,P1)) []","im(St(P2,P1)) []","re(St(P2,P2)) []","im(St(P2,P2)) []"
0,0.00625249980402032,0,0.993760514669702,0,0.993760709621711,0,0.00625267178372724,0
0.5,0.00676957329846672,0.00107574581155134,0.993137235955345,-0.00933984031965807,0.993137212033343,-0.00933977225367855,0.00676957858628313,0.00107622549355213
1,0.00718539280455488,0.00155879330187148,0.992440131991771,-0.0180583952926945,0.992440131209086,-0.018058384915232,0.00718557702202638,0.00155957333356227
1.5,0.00743932577846795,0.00192453435460394,0.991734250437829,-0.0266074597688064,0.9917342520677,-0.0266074544962862,0.00743979064487199,0.0019256574597879
2,0.0075680495349193,0.00227182538427506,0.991002129221187,-0.0350684559137076,0.991002130655182,-0.035068453559898,0.00756880860320308,0.00227315501576086
2.5,0.00763147142652443,0.00263997907223157,0.99019916541315,-0.0434723466249469,0.990199166197641,-0.0434723457437087,0.00763251082675165,0.00264143569993536
3,0.00766157022996872,0.00303419889218581,0.989308602567572,-0.0518169015557568,0.989308602780586,-0.0518169013711578,0.00766287757265527,0.00303572334795987
3.5,0.00767502770261386,0.00345319343777106,0.988329574233361,-0.0600961891353613,0.988329574066376,-0.0600961892318201,0.0076765897483706,0.00345473191402323
4,0.0076815562059469,0.00389501447522367,0.987267762941162,-0.0683068250971894,0.987267762592879,-0.0683068252564567,0.00768335453727476,0.00389651546155179
4.5,0.00768768112867257,0.00435800604889458,0.986130758311725,-0.0764485042881127,0.986130757955621,-0.076448504409159,0.00768968992389951,0.00435942153178281
5,0.00769840986938508,0.00484075396809569,0.984925913599166,-0.0845232773328695,0.984925913370524,-0.084523277387234,0.00770059570114701,0.00484204189430848
5.5,0.00771797810782049,0.00534188307814354,0.983659440196855,-0.0925346785979979,0.983659440187213,-0.092534678600515,0.00772030129798273,0.00534300988479419
6,0.00775017748273787,0.00585987774042618,0.982336127923159,-0.10048698649853,0.98233612817926,-0.10048698648591,0.0077525946145533,0.00586082037257452
6.5,0.00779848130906566,0.00639295290443886,0.980959379484944,-0.108384673218179,0.980959380010943,-0.108384673232669,0.00780094854470234,0.00639369997381678
7,0.00786606693501912,0.00693897326246473,0.979531390255149,-0.116232032223758,0.979531391017051,-0.116232032300851,0.00786854378423985,0.00693952512343854
7.5,0.00795578349823263,0.007495414310843,0.978053379587333,-0.124032950762313,0.978053380518751,-0.124032950921849,0.00795823665995191,0.00749578193332212
8,0.00807009203309102,0.00805936024373244,0.976525822982292,-0.131790790991818,0.976525823990713,-0.131790791231946,0.00807249891280692,0.00805956287492693
8.5,0.00821099496071151,0.00862753462304777,0.97494866009839,-0.139508347077919,0.974948661071382,-0.139508347371369,0.00821334647331813,0.00862759635320387
9,0.00837996715106876,0.00919635987675971,0.973321468741971,-0.147187851854606,0.97332146955295,-0.147187852146768,0.00838226946265572,0.00919630534867277
9.5,0.00857789795386149,0.00976204102225786,0.971643603474166,-0.154831013205049,0.971643603987508,-0.154831013413379,0.00858017290220842,0.0097618906350081
10,0.00880505145349084,0.0103206679509888,0.969914301806158,-0.162439066101845,0.969914301881583,-0.162439066116217,0.00880733551076052,0.0103204329874074
10.5,0.00909621700826968,0.0108306822986206,0.968146718829623,-0.170001630101448,0.968146718905618,-0.170001630119337,0.00909832665134541,0.0108310254270951
11,0.0093956553383123,0.0113326140430918,0.966336922889696,-0.177531548588811,0.966336922965735,-0.17753154861034,0.00939757689531256,0.0113334332111994
11.5,0.00970337567243137,0.0118261060655196,0.96448461742094,-0.185030662564105,0.964484617496503,-0.185030662589304,0.00970510148769321,0.0118273105810967
12,0.0100193464688507,0.0123108442309392,0.962589409607098,-0.192500516677702,0.962589409681686,-0.192500516706514,0.0100208727220873,0.0123123535390959
12.5,0.0103434995223961,0.0127865499300555,0.960650851702949,-0.199942392712035,0.960650851776095,-0.199942392744329,0.0103448246075371,0.0127882924572447
13,0.0106757340209532,0.0132529743613352,0.958668471980797,-0.207357342121293,0.958668472052076,-0.207357342156871,0.0106768573525023,0.0132548864635482
13.5,0.0110159203996454,0.0137098941528433,0.956641797313632,-0.214746216540695,0.956641797382669,-0.214746216579309,0.0110168415438489,0.0137119191820876
14,0.0113639039170396,0.0141571080085787,0.954570369139875,-0.222109695662872,0.954570369206346,-0.222109695704234,0.0113646219688751,0.0141591954984466
14.5,0.0117195079241894,0.0145944341340447,0.952453754279774,-0.229448312218185,0.952453754343407,-0.229448312261975,0.0117200210699144,0.0145965390977985
15,0.0120825368248729,0.0150217082516171,0.950291551814395,-0.236762474023448,0.950291551874975,-0.236762474069325,0.0120828420443312,0.0150237905825477
15.5,0.0124527787407673,0.0154387820603228,0.948083397006581,-0.244052483208693,0.948083397063943,-0.244052483256307,0.0124528716147904,0.0154408060227622
16,0.0128300079031107,0.0158455220287734,0.945828963043628,-0.251318552817706,0.94582896309766,-0.2513185528667,0.0128298824997893,0.0158474558280337
16.5,0.0132139867955324,0.016241808436485,0.943527961213928,-0.258560821022769,0.943527961264562,-0.258560821072789,0.0132136356155615,0.0162436238566321
17,0.0136044680731726,0.0166275345991356,0.941180139991995,-0.265779363211015,0.941180140039211,-0.265779363261716,0.0136038820393027,0.0166292066984799
17.5,0.014001196282059,0.01700260622887,0.938785283394756,-0.272974202198615,0.938785283438569,-0.272974202249663,0.0140003647613413,0.0170041130841661
18,0.0144039094008312,0.0173669408927408,0.936343208882822,-0.280145316816614,0.936343208923286,-0.280145316867694,0.014402820251097,0.0173682633842311
18.5,0.0148123402246648,0.0177204675414551,0.933853765010165,-0.287292649093661,0.933853765047363,-0.287292649144476,0.01481097985874,0.0177215891719389
19,0.0152262176089812,0.0180631260876039,0.931316828970559,-0.29441611023907,0.931316829004603,-0.294416110289344,0.0152245710717013,0.0180640328296917
19.5,0.0156452675883567,0.0183948670178549,0.928732304146645,-0.30151558560715,0.928732304177669,-0.301515585656634,0.0156433186426214,0.0183955471844421
20,0.0160692143840545,0.018715651027668,0.92610011773484,-0.308590938801593,0.926100117762999,-0.308590938850057,0.016066945603046,0.0187160951614187
20.5,0.0164977813118334,0.0190254486702153,0.923420218494612,-0.315642015057898,0.923420218520073,-0.31564201510514,0.0164951741751934,0.0190256494484971
21,0.0169306916001335,0.0193242400135356,0.920692574652092,-0.322668644022774,0.920692574675039,-0.322668644068617,0.0169277265923894,0.0193241921658338
21.5,0.0173676691273648,0.0196120143017799,0.917917171974317,-0.329670642032264,0.917917171994938,-0.329670642076555,0.0173643258373054,0.0196117145370869
22,0.0178084390859227,0.0198887696177739,0.915094012020375,-0.336647813975151,0.915094012038867,-0.336647814017759,0.0178046963058837,0.0198882165598773
22.5,0.0182527285795103,0.0201545125451401,0.912223110568713,-0.343599954814891,0.912223110585275,-0.343599954855712,0.018248564403776,0.0201537066740807
23,0.0187002671595547,0.0204092578290467,0.909304496214856,-0.350526850831716,0.909304496229688,-0.350526850870667,0.0186956590812533,0.0204082014273161
23.5,0.0191507873057916,0.0206530280351933,0.906338209130626,-0.357428280636566,0.906338209143929,-0.357428280673586,0.0191457123117736,0.020651725137502
24,0.0196040248554816,0.0208858532070957,0.903324299973878,-0.364304015999976,0.903324299985846,-0.364304016035021,0.019598459518804,0.020884309552748
24.5,0.0200597193852481,0.0211077705220359,0.900262828936677,-0.371153822531721,0.900262828947502,-0.371153822564767,0.0200536399549401,0.02110599350914
25,0.0205176145490851,0.0213188239462734,0.897153864919439,-0.377977460240842,0.897153864929306,-0.377977460271884,0.0205109970369548,0.0213168225871592
25.5,0.0209774583757347,0.0215190638902318,0.893997484818561,-0.384774684000446,0.893997484827649,-0.384774684029491,0.0209702786400206,0.021516848767593
26,0.0214390035283461,0.0217085468645206,0.890793772915477,-0.39154524393725,0.890793772923955,-0.391545243964323,0.0214312373540526,0.0217061300878854
26.5,0.0219020075290504,0.021887335137643,0.887542820355647,-0.398288885762177,0.887542820363676,-0.398288885787314,0.0218936307048607,0.0218847302998957
27,0.0223662329508895,0.0220554963963073,0.884244724706735,-0.405005351055191,0.884244724714467,-0.405005351078439,0.022357221342554,0.0220527185300412
27.5,0.0228314475793501,0.0222131034092344,0.88089958958605,-0.411694377515006,0.880899589593625,-0.411694377536424,0.0228217771994945,0.0222101689427862
28,0.0232974245455785,0.0223602336953136,0.877507524348151,-0.418355699182181,0.8775075243557,-0.418355699201835,0.0232870716198858,0.022357160408392
28.5,0.0237639424332441,0.0224969691969659,0.874068643824397,-0.424989046642317,0.87406864383204,-0.424989046660281,0.0237528834629843,0.0224937761758183
29,0.0242307853608559,0.0226233959594646,0.870583068107004,-0.431594147214676,0.870583068114851,-0.431594147231032,0.0242189971817608,0.0226201035515734
29.5,0.0246977430412749,0.0227396038169695,0.867050922371007,-0.438170725130307,0.867050922379157,-0.438170725145139,0.0246852028787633,0.0227362335852889
30,0.0251646108200401,0.0228456860859217,0.863472336728239,-0.444718501702817,0.863472336736781,-0.444718501716216,0.0251512963408138,0.0228422607627069
30.5,0.0256311896940398,0.0229417392664145,0.859847446108124,-0.45123719549416,0.859847446117134,-0.451237195506219,0.0256170790540899,0.0229382827066926
31,0.0260972863120044,0.0230278627520744,0.856176390160743,-0.45772652247715,0.85617639017029,-0.457726522487964,0.0260823582010646,0.0230243998868414
31.5,0.0265627129581909,0.0231041585489351,0.852459313178187,-0.464186196195935,0.852459313188329,-0.4641861962056,0.0265469466407023,0.0231007153381615
32,0.0270272875205982,0.0231707310037178,0.848696364030745,-0.470615927925242,0.84869636404153,-0.470615927933857,0.0270106628732386,0.0231673343892607
32.5,0.0274908334449473,0.0232276865418655,0.844887696114931,-0.477015426828925,0.844887696126398,-0.477015426836587,0.0274733309908098,0.0232243644003827
33,0.0279531796756439,0.0232751334156306,0.841033467310816,-0.483384400118069,0.841033467322997,-0.483384400124874,0.0279347806151356,0.023271914511611
33.5,0.0284141605848442,0.0233131814624481,0.837133839946457,-0.489722553208743,0.837133839959373,-0.489722553214787,0.0283948468233956,0.0233100954014522
34,0.0288736158907251,0.0233419418737865,0.833188980767579,-0.496029589879363,0.833188980781243,-0.496029589884739,0.0288533700633993,0.023339019056012
34.5,0.0293313905659689,0.0233615269745951,0.829199060910949,-0.502305212427504,0.829199060925369,-0.502305212432303,0.0293101960590749,0.0233587985488689
35,0.0297873347374608,0.0233720500134449,0.825164255880149,-0.508549121825963,0.825164255895325,-0.508549121830273,0.0297651757072638,0.0233695478317405
35.5,0.0302413035781178,0.023373624963397,0.821084745522656,-0.514761017877791,0.821084745538582,-0.514761017881697,0.0302181649667602,0.0233713815359796
36,0.0306931571917369,0.0233663663336056,0.816960714007359,-0.52094059937004,0.816960714024021,-0.520940599373624,0.0306690247404738,0.0233644147848958
36.5,0.0311427604916953,0.0233503889916072,0.812792349801794,-0.527087564225903,0.812792349819175,-0.527087564229243,0.0311176207515589,0.0233487630168571
37,0.031589983074295,0.0233258079962371,0.808579845648543,-0.533201609654972,0.808579845666619,-0.533201609658142,0.0315638234142989,0.0233245418190977
37.5,0.0320346990874988,0.0232927384410595,0.804323398540333,-0.539282432301326,0.804323398559076,-0.539282432304396,0.0320075077005013,0.0232918667721225
38,0.032476787095763,0.023251295308186,0.800023209693526,-0.545329728389173,0.800023209712904,-0.545329728392209,0.0324485530020984,0.0232508533045729
38.5,0.0329161299416276,0.0232015933323285,0.795679484519745,-0.551343193865812,0.795679484539723,-0.551343193868876,0.0328868429906326,0.0232016165583913
39,0.0333526146046965,0.0231437468748994,0.791292432595467,-0.557322524541674,0.791292432616005,-0.557322524544822,0.0333222654742351,0.0231442712640999
39.5,0.0337861320585808,0.0230778698079697,0.786862267629481,-0.563267416227256,0.786862267650536,-0.563267416230541,0.033754712252696,0.0230789316259883
40,0.0342165771263697,0.0230040754078678,0.78238920742817,-0.569177564866755,0.782389207449699,-0.569177564870223,0.0341840789711698,0.0230057112169958
40.5,0.0346438483351297,0.0229224762581876,0.777873473858605,-0.57505266666826,0.77787347388056,-0.575052666671955,0.0346102649730275,0.0229247228830437
41,0.0350678477699214,0.022833184161962,0.77331529280947,-0.580892418230381,0.773315292831804,-0.580892418234343,0.0350331731523397,0.0228360786565757
41.5,0.0354884809277764,0.0227363100627583,0.76871489414991,-0.586696516665196,0.768714894172571,-0.586696516669459,0.0354527098064291,0.0227398896790511
42,0.0359056565720532,0.0226319639744222,0.764072511686337,-0.592464659717442,0.764072511709274,-0.592464659722036,0.0358687844889153,0.0226362661321159
42.5,0.0363192865875549,0.0225202549192108,0.75938838311734,-0.598196545879897,0.759388383140502,-0.598196545884846,0.0362813098636303,0.0225253171771878
43,0.0367292858367745,0.0224012908740435,0.754662749986776,-0.603891874504901,0.754662750010109,-0.603891874510227,0.0366902015597619,0.0224071509031704
43.5,0.0371355720175909,0.0222751787245835,0.749895857635185,-0.609550345912001,0.749895857658636,-0.609550345917722,0.0370953780285588,0.0222818742820254
44,0.037538065522725,0.022142024226888,0.745087955149644,-0.61517166149171,0.745087955173161,-0.615171661497838,0.0374967604018953,0.0221495931319087
44.5,0.0379366893012428,0.0220019319763302,0.740239295312209,-0.620755523805391,0.740239295335739,-0.620755523811935,0.0378942723529789,0.0220104120875945
45,0.0383313687223523,0.0218550053835279,0.735350134547057,-0.626301636681288,0.735350134570548,-0.626301636688253,0.0382878399594547,0.0218644345779009
45.5,0.0387220314417501,0.0217013466569921,0.730420732866485,-0.631809705306732,0.730420732889885,-0.631809705314121,0.0386773915691462,0.0217117628098367
46,0.0391086072707129,0.0215410567922214,0.725451353815873,-0.637279436316578,0.725451353839131,-0.637279436324388,0.0390628576686412,0.0215524977591867
46.5,0.0394910280481536,0.0213742355669643,0.720442264417768,-0.642710537877918,0.720442264440835,-0.642710537886144,0.0394441707549251,0.0213867391672621
47,0.0398692275158121,0.0212009815423907,0.715393735115201,-0.648102719771127,0.715393735138028,-0.648102719779761,0.0398212652102376,0.0212145855435344
47.5,0.0402431411967465,0.0210213920698848,0.710306039714347,-0.653455693467324,0.710306039736888,-0.653455693476355,0.0401940771803124,0.0210361341738953
48,0.0406127062772743,0.0208355633032195,0.705179455326675,-0.658769172202313,0.705179455348884,-0.658769172211725,0.0405625444561529,0.0208514811342617
48.5,0.0409778614925027,0.0206435902158333,0.700014262310668,-0.664042871047077,0.700014262332503,-0.664042871056854,0.0409266063594703,0.0206607213092768
49,0.0413385470155636,0.0204455666229685,0.694810744213248,-0.669276506974923,0.694810744234665,-0.669276506985045,0.0412862036319065,0.0204639484158444
49.5,0.0416947043506686,0.0202415852084189,0.689569187710979,-0.674469798925349,0.689569187731939,-0.674469798935795,0.0416412783281507,0.0202612550312484
50,0.0420462762300786,0.0200317375556378,0.684289882551169,-0.679622467864733,0.684289882571633,-0.679622467875478,0.0419917737130412,0.020052732625607
50.5,0.0423932065150772,0.0198161141829753,0.678973121492938,-0.684734236843918,0.678973121512872,-0.684734236854936,0.0423376341627429,0.0198384715984287
51,0.0427354401010288,0.0195948045828058,0.673619200248363,-0.689804831052808,0.67361920026773,-0.68980483106407,0.0426788050700727,0.0196185613190225
51.5,0.0430729228265863,0.0193678972643184,0.668228417423735,-0.694833977872033,0.668228417442505,-0.69483397788351,0.0430152327540449,0.0193930901705476
52,0.0434056013871131,0.0191354797997454,0.662801074461057,-0.699821406921819,0.662801074479201,-0.699821406933479,0.0433468643736912,0.0191621455974597
52.5,0.0437334232523769,0.0188976388738171,0.657337475579802,-0.704766850108104,0.657337475597292,-0.704766850119915,0.043673647846212,0.0189258141561482
53,0.0440563365885533,0.0186544603362158,0.65183792771902,-0.709670041666038,0.651837927735832,-0.709670041677966,0.0439955317695002,0.0186841815685403
53.5,0.0443742901845918,0.0184060292568322,0.646302740479844,-0.714530718200926,0.646302740495955,-0.714530718212934,0.0443124653490827,0.0184373327784639
54,0.0446872333829725,0.0181524299836112,0.640732226068453,-0.719348618726712,0.640732226083842,-0.719348618738766,0.0446243983295069,0.0181853520105608
54.5,0.0449951160148869,0.0178937462027922,0.635126699239528,-0.724123484702104,0.635126699254179,-0.724123484714166,0.0449312809302073,0.0179283228315505
55,0.0452978883398692,0.0176300610013358,0.629486477240269,-0.728855060064404,0.629486477254166,-0.728855060076438,0.0452330637858697,0.0176663282136424
55.5,0.045595500989895,0.017361456931359,0.623811879754991,-0.733543091261153,0.623811879768121,-0.73354309127312,0.0455296978913204,0.0173994505999031
56,0.0458879049179743,0.0170880160763733,0.618103228850347,-0.738187327279648,0.618103228862699,-0.73818732729151,0.0458211345509486,0.0171277719713862
56.5,0.0461750513512412,0.0168098201191483,0.612360848921211,-0.74278751967444,0.612360848932776,-0.742787519686159,0.0461073253326778,0.0168513739158349
57,0.0464568917485576,0.0165269504110077,0.606585066637255,-0.747343422592869,0.606585066648028,-0.747343422604405,0.0463882220264962,0.016570337697774
57.5,0.046733377762638,0.0162394880423868,0.600776210890234,-0.751854792798724,0.600776210900212,-0.75185479281004,0.0466637766075448,0.0162847443298015
58,0.0470044612066916,0.0159475139144538,0.594934612742027,-0.756321389694111,0.594934612751206,-0.756321389705168,0.0469339412037724,0.0159946746449011
58.5,0.0472700940255917,0.0156511088116373,0.589060605373423,-0.760742975339583,0.589060605381806,-0.760742975350343,0.0471986680681502,0.0157002093696004
59,0.0475302282715624,0.0153503534748622,0.58315452403371,-0.765119314472625,0.583154524041299,-0.76511931448305,0.0474579095554454,0.0154014291977824
59.5,0.0477848160843803,0.0150453286753324,0.577216705991051,-0.769450174524544,0.577216705997851,-0.769450174534597,0.0477116181035415,0.0150984148649875
60,0.0480338096760816,0.0147361152886799,0.571247490483679,-0.773735325635851,0.571247490489697,-0.773735325645496,0.0479597462193028,0.0147912472230191
60.5,0.0482771613201613,0.0144227943693038,0.565247218671921,-0.777974540670184,0.565247218677165,-0.777974540679386,0.0482022464689573,0.0144800073146819
61,0.0485148233452527,0.0141054472247308,0.55921623359106,-0.782167595226844,0.559216233595543,-0.782167595235567,0.0484390714729912,0.0141647764484732
61.5,0.048746748133263,0.013784155489817,0.553154880105049,-0.786314267652,0.553154880108783,-0.786314267660211,0.0486701739055304,0.0138456362730563
62,0.0489728881219519,0.0134590012006238,0.547063504861074,-0.790414339048637,0.547063504864073,-0.790414339056303,0.0488955064981821,0.0135226688513357
62.5,0.0491931958119173,0.01313006686779,0.540942456244986,-0.794467593285279,0.540942456247268,-0.794467593292368,0.0491150220483139,0.0131959567339643
63,0.0494076237779645,0.012797435549223,0.534792084337598,-0.798473817003573,0.53479208433918,-0.798473817010054,0.0493286734317323,0.0128655830320993
63.5,0.0496161246848272,0.0124611909219464,0.528612740871852,-0.802432799624761,0.528612740872753,-0.802432799630606,0.0495364136197292,0.0125316314892368
64,0.0498186513071972,0.0121214173529142,0.52240477919086,-0.806344333355113,0.522404779191103,-0.806344333360294,0.0497381957004551,0.0121941865519469
