"Freq [GHz]","re(St(P1,P1)) []","im(St(P1,P1)) []","re(St(P1,P2)) []","im(St(P1,P2)) []","re(St(P2,P1)) []","im(St(P2,P1)) []","re(St(P2,P2)) []","im(St(P2,P2)) []"
0,0.00657386948483918,0,0.993445837797481,0,0.993445835556486,0,0.00657387235872875,0
0.5,0.00733939270935835,-0.00182509755788018,0.99257628522151,-0.0100539263391219,0.992576284954893,-0.0100539255554359,0.00733978852825246,-0.00182692120552375
1,0.0079254822631043,-0.00457661231518181,0.991706591334305,-0.0191775548692661,0.991706591360455,-0.0191775553866709,0.00792644737063242,-0.00458069717046428
1.5,0.00821865304203229,-0.00746454891575787,0.990939729807344,-0.0280994265889447,0.990939729557738,-0.0280994270761337,0.008209142216689,-0.00747583275027885
2,0.00831510225339027,-0.0104242289414564,0.990228501681175,-0.0369486587660877,0.990228501277161,-0.0369486591258461,0.00830747776520813,-0.0104355007949106
2.5,0.00827547177377674,-0.0133796689103658,0.989489953705734,-0.045780819653535,0.989489953243395,-0.0457808198775034,0.00827168845980175,-0.0133916975023816
3,0.00814117552040017,-0.0163146876811187,0.98868275147826,-0.0545979690789089,0.988682751017183,-0.0545979691879772,0.00814091893966662,-0.0163285875452708
3.5,0.00793497061432324,-0.019228801031554,0.987789886455147,-0.0633926659929838,0.987789886029701,-0.0633926660146606,0.00793760946390565,-0.0192452684397058
4,0.00766920069645094,-0.0221247098485371,0.986805731454943,-0.0721578156534051,0.986805731083389,-0.072157815614311,0.00767419833240002,-0.0221441382165146
4.5,0.00735078723707705,-0.0250051591553868,0.985729792939364,-0.080888358893306,0.98572979262957,-0.0808883588166776,0.00735775099247116,-0.0250277745515488
5,0.00698378181955306,-0.0278722971487939,0.984563779248787,-0.0895811565996878,0.984563779001834,-0.0895811565046696,0.00699243794140414,-0.0278982391344824
5.5,0.00657065875013596,-0.0307276638619962,0.98331018680849,-0.0982345413997496,0.983310186621071,-0.0982345413012826,0.00658082027224283,-0.030757028875195
6,0.00611298899305779,-0.0335723097417313,0.981971609417439,-0.106847876733169,0.981971609283533,-0.106847876642211,0.00612452998754187,-0.0336051739835836
6.5,0.0056118054469898,-0.0364069162188123,0.980550412852136,-0.115421194418269,0.980550412764199,-0.115421194342163,0.00562464245700212,-0.0364433477986488
7,0.00506780891664993,-0.0392318916135466,0.979048602490843,-0.123954916222585,0.979048602440661,-0.123954916165455,0.00508188794830744,-0.0392719570565401
7.5,0.00448148867589515,-0.0420474421120467,0.977467794402986,-0.132449649203677,0.977467794382278,-0.132449649166873,0.00449677610346411,-0.0420912098629893
8,0.0038531955006792,-0.0448536230864809,0.975809240327296,-0.140906041555888,0.97580924032812,-0.140906041538416,0.00386967164816193,-0.0449011653827709
8.5,0.00318318731331924,-0.0476503760430704,0.974073878053468,-0.149324686134752,0.974073878068495,-0.14932468613365,0.00320084185799852,-0.0477017698862099
9,0.00247165853237186,-0.0504375553292826,0.972262390733009,-0.157706060315885,0.972262390755677,-0.15770606032657,0.00249048715565325,-0.0504928829501665
9.5,0.00171875944328745,-0.0532149475893657,0.970375265845938,-0.166050492647466,0.970375265870551,-0.166050492664021,0.00173876134427967,-0.053274296625645
10,0.000924609294960299,-0.0559822860707979,0.968412848966036,-0.174358148575748,0.968412848987789,-0.174358148591192,0.000945785308232361,-0.0560457495789954
10.5,9.94632179954213E-005,-0.0587400910712397,0.966359791867749,-0.182631272833622,0.966359791887687,-0.182631272849984,0.000121846510547613,-0.0588074803988867
11,-0.000769407911894504,-0.061489355388828,0.964236308420372,-0.190863820296944,0.964236308438451,-0.190863820313937,-0.000745819836532408,-0.0615607410418457
11.5,-0.00168220843428935,-0.0642292209557054,0.962043276488744,-0.199056443310998,0.962043276504968,-0.199056443328352,-0.00165742159534274,-0.0643046706769805
12,-0.00263910521001323,-0.0669588027128323,0.959781422964459,-0.207209696409343,0.959781422978871,-0.207209696426804,-0.00261312864819535,-0.0670383813692701
12.5,-0.00364022594935348,-0.0696771922715445,0.957451352348381,-0.215324032032845,0.957451352361059,-0.215324032050184,-0.00361307124324442,-0.0697609618073183
13,-0.00468565797054066,-0.0723834615735606,0.955053572146333,-0.223399800158255,0.955053572157382,-0.223399800175269,-0.00465733877797403,-0.0724714810230891
13.5,-0.00577544736229196,-0.0750766665020239,0.952588515041566,-0.231437250846881,0.952588515051109,-0.231437250863398,-0.005745978992686,-0.0751689920556951
14,-0.00690959852021633,-0.0777558504029319,0.950056557953503,-0.239436538884092,0.950056557961681,-0.239436538899964,-0.00687899754240759,-0.0778525355182822
14.5,-0.00808807402413333,-0.0804200474828649,0.947458038186637,-0.247397729832738,0.9474580381936,-0.247397729847851,-0.00805635791296513,-0.0805211430338737
15,-0.00931079482176866,-0.0830682860555259,0.944793266927981,-0.255320806961701,0.944793266933883,-0.255320806975965,-0.00927798164547905,-0.0831738405127722
15.5,-0.0105776406836745,-0.0856995916156564,0.942062540376754,-0.263205678631022,0.94206254038175,-0.263205678644376,-0.0105437488330411,-0.0858096512504072
16,-0.0118884508944753,-0.088312989724638,0.939266148794343,-0.271052185817003,0.939266148798587,-0.271052185829405,-0.0118534988537214,-0.0884275988303256
16.5,-0.0132430251464591,-0.0909075086971924,0.936404383753076,-0.278860109544626,0.936404383756716,-0.278860109556061,-0.0132070313051142,-0.0910267098222461
17,-0.0146411246030636,-0.0934821820832124,0.933477543843976,-0.286629178062622,0.933477543847151,-0.286629178073092,-0.0146041071072948,-0.0936060162697721
17.5,-0.0160824731017271,-0.0960360509427223,0.93048593908048,-0.29435907365017,0.930485939083321,-0.294359073659693,-0.0160444497431099,-0.096164557966373
18,-0.0175667584677794,-0.0985681659153541,0.92742989420977,-0.302049438985893,0.927429894212395,-0.302049438994505,-0.017527746607076,-0.0987013845216334
18.5,-0.0190936339135333,-0.101077589088568,0.924309751117723,-0.309699883041509,0.924309751120241,-0.309699883049252,-0.0190536504367305,-0.101215557222622
19,-0.0206627194992001,-0.103563395671111,0.921125870488936,-0.317309986485977,0.921125870491442,-0.317309986492908,-0.0206217808028678,-0.103706150697458
19.5,-0.0222736036348599,-0.106024675480014,0.917878632860321,-0.32487930660311,0.917878632862899,-0.32487930660929,-0.0222317256377867,-0.106172254389965
20,-0.0239258446051922,-0.108460534250733,0.914568439186059,-0.332407381737436,0.914568439188778,-0.332407381742934,-0.0238830427832232,-0.108612973855529
20.5,-0.0256189721011416,-0.110870094781053,0.911195711013117,-0.33989373529119,0.911195711016036,-0.33989373529608,-0.0255752615421686,-0.11102743188926
21,-0.0273524887449393,-0.11325249791989,0.907760890350371,-0.347337879300218,0.907760890353535,-0.347337879304572,-0.0273078842210966,-0.113414769498054
21.5,-0.0291258715970977,-0.115606903412475,0.904264439300231,-0.354739317619309,0.904264439303677,-0.354739317623202,-0.029080387651329,-0.115774146728401
22,-0.0309385736359391,-0.117932490613493,0.900706839509599,-0.362097548748601,0.900706839513351,-0.362097548752108,-0.030892224680266,-0.118104743361853
22.5,-0.0327900252020217,-0.120228459079511,0.897088591486683,-0.369412068332524,0.897088591490755,-0.369412068335719,-0.0327428256250302,-0.120405759489794
23,-0.034679635401454,-0.122494029051827,0.893410213821489,-0.376682371361904,0.893410213825888,-0.376682371364855,-0.0346315996826858,-0.122676415978871
23.5,-0.0366067934634812,-0.12472844184038,0.889672242340518,-0.383907954108327,0.889672242345241,-0.383907954111102,-0.0365579362926564,-0.124915954837923
24,-0.0385708700490346,-0.126930960118841,0.885875229220057,-0.39108831581812,0.885875229225095,-0.391088315820782,-0.0385212064481991,-0.127123639496731
24.5,-0.0405712185079761,-0.129100868140463,0.88201974207744,-0.398222960191272,0.882019742082776,-0.398222960193881,-0.0405207639548922,-0.129298755006228
25,-0.0426071760837191,-0.131237471883551,0.878106363055427,-0.405311396668606,0.87810636306104,-0.405311396671213,-0.0425559466350126,-0.131440608169207
25.5,-0.0446780650647315,-0.133340099134874,0.874135687911437,-0.412353141548433,0.874135687917301,-0.412353141551088,-0.0446260774774727,-0.133548527609839
26,-0.0467831938830025,-0.135408099518556,0.870108325120565,-0.419347718951963,0.870108325126648,-0.419347718954707,-0.0467304657336194,-0.135621863789662
26.5,-0.0489218581602011,-0.137440844477456,0.866024894998995,-0.426294661654812,0.866024895005265,-0.426294661657684,-0.0488684079597431,-0.137659988977007
27,-0.0510933417025946,-0.139437727213294,0.86188602885265,-0.433193511800204,0.861886028859068,-0.433193511803235,-0.0510391890075546,-0.139662297176178
27.5,-0.0532969174462121,-0.141398162591267,0.857692368154338,-0.440043821507792,0.85769236816087,-0.44004382151101,-0.0532420829642316,-0.141628204022094
28,-0.0555318483539518,-0.143321587014259,0.853444563751593,-0.446845153390523,0.853444563758198,-0.446845153393947,-0.0554763540438792,-0.143557146645491
28.5,-0.0577973882665616,-0.145207458271208,0.849143275106348,-0.453597080990569,0.849143275112987,-0.453597080994216,-0.0577412574324341,-0.145448583513234
29,-0.0600927827095202,-0.147055255363709,0.84478916956698,-0.460299189144107,0.844789169573614,-0.460299189147988,-0.0600360400881597,-0.147301994247745
29.5,-0.0624172696579734,-0.148864478314457,0.840382921672606,-0.46695107428361,0.840382921679196,-0.46695107428773,-0.062359941499959,-0.14911687942915
30,-0.0647700802618744,-0.150634647960632,0.835925212489137,-0.473552344685239,0.835925212495644,-0.473552344689602,-0.0647121944057595,-0.150892760383204
30.5,-0.0671504395335273,-0.152365305735056,0.831416728976253,-0.480102620668095,0.831416728982641,-0.480102620672697,-0.0670920254732067,-0.152629178957731
31,-0.0695575669996709,-0.154056013437455,0.826858163384278,-0.486601534751206,0.826858163390512,-0.486601534756041,-0.0694986559449032,-0.15432569728993
31.5,-0.0719906773202327,-0.155706352997937,0.822250212679707,-0.493048731773445,0.822250212685754,-0.493048731778503,-0.0719313022503449,-0.155981897566562
32,-0.0744489808757908,-0.157315926234448,0.817593577998122,-0.499443868980924,0.817593578003951,-0.499443868986193,-0.0743891765866502,-0.157597381778751
32.5,-0.0769316843257195,-0.158884354605715,0.812888964123099,-0.505786616085821,0.812888964128682,-0.505786616091285,-0.0768714874700939,-0.159171771472862
33,-0.0794379911389044,-0.160411278960974,0.808137078989763,-0.512076655300123,0.808137078995072,-0.512076655305764,-0.0793774402603666,-0.160704707498699
33.5,-0.0819671020988283,-0.161896359287541,0.803338633211576,-0.518313681347318,0.80333863321659,-0.518313681353116,-0.0819062376593738,-0.16219584975605
34,-0.084518215784707,-0.163339274457135,0.798494339629063,-0.524497401454664,0.79849433963376,-0.524497401460596,-0.0844570801862935,-0.163644876940426
34.5,-0.0870905290302851,-0.164739721971671,0.793604912879126,-0.530627535328345,0.79360491288349,-0.530627535334387,-0.0870291666305021,-0.1650514862887
35,-0.0896832373617829,-0.166097417709135,0.788671068983731,-0.536703815113502,0.788671068987745,-0.536703815119631,-0.089621694483879,-0.166415393325189
35.5,-0.0922955354163839,-0.167412095670002,0.783693524956761,-0.542725985340895,0.783693524960414,-0.542725985347084,-0.0922338603538886,-0.167736331608624
36,-0.094926617342566,-0.16868350772458,0.778672998427929,-0.548693802861677,0.778672998431213,-0.548693802867901,-0.0948648603587542,-0.169014052480348
36.5,-0.0975756771834827,-0.169911423361551,0.773610207282685,-0.554607036771616,0.773610207285592,-0.554607036777848,-0.0975138905059136,-0.170248324813993
37,-0.100241909244487,-0.17109562943793,0.768505869317146,-0.560465468325875,0.768505869319674,-0.560465468332087,-0.100180147054883,-0.171438934766807
37.5,-0.102924508445849,-0.172235929930569,0.763360701907125,-0.566268890845357,0.763360701909273,-0.566268890851525,-0.102862826865549,-0.172585685532752
38,-0.10562267066159,-0.173332145689318,0.75817542169042,-0.572017109615452,0.758175421692189,-0.572017109621548,-0.105561127732823,-0.173688397097446
38.5,-0.108335593045285,-0.174384114191866,0.752950744261584,-0.577709941777925,0.752950744262979,-0.577709941783924,-0.108274248708521,-0.174746905994953
39,-0.111062474343658,-0.17539168930029,0.747687383878455,-0.583347216216604,0.747687383879482,-0.583347216222482,-0.111001390411254,-0.175761065066427
39.5,-0.113802515198651,-0.176354741019292,0.742386053179793,-0.588928773437412,0.742386053180459,-0.588928773443145,-0.113741755325043,-0.176730743220573
40,-0.116554918438638,-0.17727315525607,0.737047462913415,-0.594454465443225,0.737047462913733,-0.59445446544879,-0.116494548087302,-0.177655825195846
40.5,-0.119318889359384,-0.178146833581785,0.731672321674305,-0.599924155603999,0.731672321674286,-0.599924155609375,-0.119258975766781,-0.178536211324339
41,-0.122093635995278,-0.178975692994538,0.726261335652163,-0.605337718522525,0.726261335651823,-0.605337718527693,-0.122034248132012,-0.179371817297257
41.5,-0.124878369381326,-0.179759665683779,0.720815208387984,-0.610695039896137,0.720815208387339,-0.610695039901079,-0.124819577910719,-0.180162573931886
42,-0.12767230380636,-0.180498698796075,0.715334640539227,-0.615996016374672,0.715334640538294,-0.615996016379369,-0.127614181040639,-0.180908426939967
42.5,-0.130474657057841,-0.181192754202129,0.709820329653217,-0.621240555414929,0.709820329652014,-0.621240555419367,-0.130417276912146,-0.18160933669736
43,-0.133284650658626,-0.181841808264979,0.704272969948453,-0.626428575131867,0.704272969947001,-0.626428575136033,-0.133228088603019,-0.182265278014915
43.5,-0.13610151009602,-0.182445851609279,0.69869325210351,-0.631560004146742,0.698693252101828,-0.631560004150624,-0.136045843105675,-0.182876239910445
44,-0.138924465043397,-0.183004888891582,0.693081863053264,-0.636634781432374,0.693081863051375,-0.636634781435962,-0.138869771547154,-0.183442225381702
44.5,-0.141752749574654,-0.183518938571545,0.687439485792214,-0.641652856155717,0.68743948579014,-0.641652856159002,-0.141699109402094,-0.183963251180283
45,-0.144585602371726,-0.183988032683981,0.681766799184657,-0.646614187517893,0.681766799182421,-0.64661418752087,-0.144533096698936,-0.184439347586371
45.5,-0.147422266925375,-0.184412216611688,0.676064477781536,-0.651518744591845,0.67606447777916,-0.651518744594508,-0.147370978219553,-0.184870558184241
46,-0.150261991729438,-0.184791548858994,0.670333191643778,-0.656366506157731,0.670333191641286,-0.656366506160079,-0.150212003692487,-0.185256939638466
46.5,-0.153104030468702,-0.185126100825967,0.664573606171961,-0.661157460536226,0.664573606169376,-0.661157460538259,-0.153055427979949,-0.185598561470762
47,-0.155947642200548,-0.185415956583241,0.658786381942163,-0.66589160541983,0.65878638193951,-0.665891605421548,-0.155900511258729,-0.185895505837405
47.5,-0.158792091530514,-0.185661212647405,0.65297217454787,-0.670568947702318,0.65297217454517,-0.670568947703723,-0.158746519195154,-0.186147867307209
48,-0.161636648781884,-0.185861977756952,0.64713163444781,-0.675189503306461,0.647131634445087,-0.675189503307557,-0.161592723114186,-0.186355752639993
48.5,-0.164480590159415,-0.186018372648733,0.641265406819622,-0.679753297010124,0.641265406816899,-0.679753297010918,-0.164438400162787,-0.186519280565531
49,-0.167323197907311,-0.186130529834919,0.635374131419241,-0.684260362270868,0.635374131416539,-0.684260362271367,-0.167282833467625,-0.186638581562958
49.5,-0.170163760461515,-0.186198593380446,0.629458442445918,-0.688710741049156,0.629458442443258,-0.688710741049369,-0.170125312287225,-0.186713797640616
50,-0.173001572596412,-0.186222718680958,0.623518968412793,-0.693104483630294,0.623518968410196,-0.693104483630232,-0.172965132158621,-0.186745082116341
50.5,-0.175835935566022,-0.186203072241226,0.617556332022928,-0.697441648445206,0.617556332020415,-0.697441648444879,-0.175801595038583,-0.186732599398184
51,-0.178666157239737,-0.186139831454088,0.611571150050741,-0.701722301890156,0.61157115004833,-0.701722301889579,-0.178634009439499,-0.186676524765583
51.5,-0.181491552232683,-0.186033184379879,0.605564033228747,-0.70594651814554,0.605564033226456,-0.705946518144727,-0.181461690559955,-0.186577044150991
52,-0.184311442030748,-0.185883329526426,0.59953558613957,-0.710114378993836,0.599535586137416,-0.710114378992802,-0.184283960410063,-0.186434353921984
52.5,-0.18712515511035,-0.185690475629587,0.593486407113125,-0.714225973636842,0.593486407111124,-0.714225973635603,-0.187100147931611,-0.186248660663882
53,-0.189932027052996,-0.1854548414344,0.587417088128928,-0.718281398512293,0.587417088127095,-0.718281398510866,-0.18990958911307,-0.186020180962897
53.5,-0.192731400654671,-0.185176655476861,0.581328214723473,-0.722280757109982,0.581328214721821,-0.722280757108387,-0.192711627099499,-0.185749141189854
54,-0.195522626030118,-0.18485615586637,0.575220365902592,-0.72622415978748,0.575220365901134,-0.726224159785734,-0.19550561229742,-0.185435777284537
54.5,-0.198305060712069,-0.184493590068913,0.569094114058764,-0.730111723585552,0.569094114057511,-0.730111723583676,-0.198290902474676,-0.18508033454067
55,-0.20107806974545,-0.184089214690992,0.562950024893292,-0.733943572043406,0.562950024892254,-0.733943572041419,-0.201066862855348,-0.184683067391621
55.5,-0.203841025776632,-0.183643295264386,0.556788657343294,-0.737719835013834,0.556788657342479,-0.737719835011757,-0.20383286620975,-0.184244239196847
56,-0.206593309137764,-0.183156106031782,0.550610563513449,-0.741440648478389,0.550610563512865,-0.741440648476243,-0.206588292939565,-0.183764122029156
56.5,-0.209334307926247,-0.182627929733339,0.544416288612427,-0.745106154362666,0.54441628861208,-0.745106154360474,-0.209332531158167,-0.183242996462833
57,-0.212063418079385,-0.182059057394233,0.538206370893953,-0.74871650035181,0.538206370893848,-0.74871650034959,-0.212064976766155,-0.182681151362683
57.5,-0.21478004344428,-0.181449788113265,0.531981341602426,-0.752271839706326,0.531981341602567,-0.752271839704102,-0.214785033522181,-0.182078883674071
58,-0.217483595843011,-0.180800428852572,0.525741724923038,-0.755772331078312,0.525741724923426,-0.755772331076106,-0.217492113109082,-0.181436498214002
58.5,-0.220173495133151,-0.180111294228519,0.519488037936329,-0.759218138328182,0.519488037936966,-0.759218138326015,-0.220185635195401,-0.180754307463313
59,-0.222849169263687,-0.179382706303833,0.513220790577102,-0.76260943034199,0.513220790577986,-0.762609430339884,-0.222865027492323,-0.180032631360049
59.5,-0.225510054326378,-0.178614994381047,0.506940485597639,-0.765946380849433,0.506940485598768,-0.765946380847409,-0.225529725806083,-0.179271797094074
60,-0.228155594602631,-0.177808494797317,0.500647618535142,-0.769229168242625,0.500647618536515,-0.769229168240704,-0.228179174085921,-0.178472138903
60.5,-0.230785242605933,-0.176963550720677,0.494342677683339,-0.772457975395725,0.494342677684951,-0.772457975393929,-0.230812824467603,-0.177633997869488
61,-0.233398459119919,-0.176080511947813,0.48802614406817,-0.775632989485501,0.488026144070016,-0.775632989483849,-0.233430137312599,-0.176757721719995
61.5,-0.235994713232111,-0.175159734703402,0.481698491427495,-0.778754401812908,0.481698491429568,-0.77875440181142,-0.236030581242954,-0.17584366462504
62,-0.238573482363421,-0.174201581441096,0.475360186194738,-0.781822407625759,0.475360186197031,-0.781822407624454,-0.238613633171927,-0.17489218700104
62.5,-0.241134252293457,-0.173206420646221,0.46901168748641,-0.784837205942561,0.469011687488914,-0.784837205941458,-0.241178778330451,-0.173903655313799
63,-0.243676517181717,-0.172174626640241,0.462653447093415,-0.787798999377593,0.462653447096121,-0.78779899937671,-0.243725510289476,-0.172878441883709
63.5,-0.246199779584724,-0.171106579387068,0.456285909476085,-0.790707993967279,0.456285909478982,-0.790707993966633,-0.246253330978279,-0.171816924692728
