"Freq [GHz]","re(St(P1,P1)) []","im(St(P1,P1)) []","re(St(P1,P2)) []","im(St(P1,P2)) []","re(St(P2,P1)) []","im(St(P2,P1)) []","re(St(P2,P2)) []","im(St(P2,P2)) []"
0,0.00559399037211961,0,0.994423126394395,0,0.994423128067865,0,0.00559399017777196,0
0.5,0.00619192869932306,-0.000564243829305866,0.993701554237425,-0.00961221949266999,0.993701554126062,-0.00961222036278642,0.00619216226750652,-0.000565446039804129
1,0.0066562789990634,-0.00186351710172872,0.992899752492153,-0.0184654910848749,0.992899752339737,-0.0184654912798372,0.00665686508479801,-0.00186628255381294
1.5,0.00687287055591135,-0.00330627340340506,0.992144841751502,-0.0271170614368401,0.992144841572166,-0.0271170615150798,0.00687370540625665,-0.00331076500128979
2,0.00690595372982727,-0.00475646025266308,0.991389944769363,-0.0356887442545268,0.991389944612245,-0.0356887442721092,0.00690692535609028,-0.00476272523436094
2.5,0.00683275331141209,-0.00617302160395461,0.990572341368951,-0.0442135671740633,0.990572341240439,-0.0442135671616573,0.0068337936299101,-0.00618105785307321
3,0.0066920698085462,-0.00755240803769475,0.98966794489712,-0.0526868212830323,0.989667944796006,-0.0526868212556337,0.00669313887600564,-0.00756220328137402
3.5,0.00650383932549659,-0.00889714766544891,0.988672603745301,-0.0611002608177103,0.988672603669693,-0.0611002607835225,0.00650491192705038,-0.00890868906894404
4,0.00627969293648256,-0.0102100262581821,0.9875903886218,-0.0694486332952176,0.987590388569962,-0.069448633259511,0.00628075166637099,-0.010223302062923
4.5,0.00602741976892296,-0.0114933569637019,0.986428134010838,-0.0777301108991901,0.986428133980962,-0.0777301108658319,0.00602845170264099,-0.0115083562987106
5,0.005752852646568,-0.012749128485356,0.985192951850401,-0.085945507589833,0.985192951840321,-0.0859455075618296,0.0057538477646697,-0.0127658408961073
5.5,0.00546069375575842,-0.0139792144454916,0.983891137251575,-0.0940973811598438,0.983891137258586,-0.0940973811394592,0.00546164422171214,-0.013997629504142
6,0.00515488994545121,-0.0151855114701327,0.982527761764234,-0.102189273550123,0.98252776178505,-0.102189273538869,0.00515578980513831,-0.0152056185288671
6.5,0.00483881055311658,-0.0163700077428919,0.981106615842825,-0.110225135114845,0.981106615873595,-0.110225135113394,0.00483965563975797,-0.0163917958162028
7,0.00451533772268603,-0.0175348037051721,0.979630322783839,-0.118208920443419,0.979630322820232,-0.118208920451538,0.00451612565467807,-0.0175582614511747
7.5,0.00418691882040467,-0.0186821040068699,0.978100525514218,-0.12614432616648,0.978100525551534,-0.12614432618298,0.00418764903225505,-0.0187072197777907
8,0.00385560361814813,-0.0198141943071635,0.976518091244347,-0.13403463805649,0.97651809127764,-0.134034638079204,0.00385627739330563,-0.0198409562433239
8.5,0.00352307634119993,-0.0209334118922127,0.974883304800771,-0.141882657422259,0.974883304824963,-0.141882657448041,0.00352369683186569,-0.0209618080387104
9,0.00319068665792113,-0.02204211571244,0.973196036995652,-0.149690681812116,0.973196037005645,-0.149690681836864,0.00319125888650552,-0.0220721341425274
9.5,0.00285948081928231,-0.0231426591103587,0.971455883536087,-0.157460520577616,0.971455883526851,-0.15746052059631,0.00286001166171301,-0.0231742880437209
10,0.00253023285946605,-0.024237366933705,0.969662275042739,-0.165193530963715,0.9696622750094,-0.165193530970461,0.00253073101363781,-0.0242705948415747
10.5,0.0022263121103569,-0.0254127952750327,0.967832725417508,-0.172878377587687,0.967832725364671,-0.172878377589355,0.002226658877057,-0.0254477918379412
11,0.001906654522025,-0.0265834129112514,0.965958253761459,-0.180530355334874,0.965958253692318,-0.18053035532783,0.00190686315069684,-0.0266201799920718
11.5,0.00157120092556579,-0.0277490740139599,0.964038447462536,-0.188151163990512,0.964038447380554,-0.188151163972112,0.00157128548708696,-0.0277876118797553
12,0.00121989918325477,-0.0289096352065141,0.962072832136384,-0.195742206971324,0.962072832045099,-0.195742206939823,0.00121987440307236,-0.0289499426008457
12.5,0.0008527042315504,-0.0300649547550345,0.9600609065708,-0.203304630061794,0.960060906473663,-0.203304630016245,0.000852585339888634,-0.0301070289900554
13,0.000469578046042807,-0.031214891818542,0.958002167658889,-0.210839357143086,0.958002167559152,-0.210839357083219,0.000469380646098305,-0.0312587288828787
13.5,7.04895421915208E-005,-0.0323593057631735,0.955896127599622,-0.218347122310764,0.955896127500252,-0.218347122236878,7.02294965761741E-005,-0.0324049004418661
14,-0.000344585575031947,-0.033498055543201,0.953742325237764,-0.225828498198767,0.953742325141398,-0.225828498111613,-0.000344892239910327,-0.0335454015462591
14.5,-0.000775665000435188,-0.0346309991495,0.951540333045641,-0.233283920594513,0.951540332954551,-0.233283920495195,-0.000776002172799994,-0.0346800892460211
15,-0.00122276004583299,-0.0357579931244789,0.949289760929533,-0.240713709587937,0.949289760845618,-0.240713709477819,-0.00122311159086674,-0.0358088192796728
15.5,-0.00168587587546232,-0.0368788921412584,0.946990257776198,-0.24811808758001,0.946990257700989,-0.248118087460628,-0.00168622568285914,-0.0369314456541026
16,-0.00216501175113348,-0.0379935486438772,0.944641511437161,-0.25549719450874,0.944641511371838,-0.255497194381738,-0.00216534376937683,-0.038047820283531
16.5,-0.00266016127992397,-0.0391018125446196,0.942243247674288,-0.262851100651385,0.9422432476197,-0.262851100518456,-0.00266045953884975,-0.0391577926840898
17,-0.00317131265844017,-0.0402035309741908,0.939795228453298,-0.270179817343146,0.939795228409989,-0.270179817205976,-0.00317156128169888,-0.0402612097200434
17.5,-0.00369844890880322,-0.0412985480801422,0.9372972498658,-0.277483305923687,0.937297249834041,-0.277483305783919,-0.00369863211778942,-0.0413579153974091
18,-0.00424154810253174,-0.0423867048689885,0.934749139879273,-0.284761485189331,0.934749139859096,-0.284761485048536,-0.00424165021330869,-0.0424477507006196
18.5,-0.00480058356941737,-0.0434678390874494,0.932150756053085,-0.292014237594157,0.932150756044309,-0.29201423745381,-0.00480058898406743,-0.0435305534679256
19,-0.00537552408927627,-0.0445417851384604,0.92950198331284,-0.299241414409935,0.929501983315112,-0.299241414271393,-0.00537541728301244,-0.0446061583013417
19.5,-0.00596633406516273,-0.0456083740278397,0.926802731841708,-0.306442840023974,0.92680273185452,-0.306442839888469,-0.00596609957042421,-0.0456743965071953
20,-0.00657297367720311,-0.0466674333377668,0.924052935122859,-0.313618315526219,0.924052935145586,-0.31361831539485,-0.00657259606582455,-0.0467350960635318
20.5,-0.00719539901667565,-0.0477187872235629,0.921252548149847,-0.320767621712462,0.921252548181769,-0.32076762158619,-0.00719486288112453,-0.0477880816109797
21,-0.00783356220038878,-0.0487622564305976,0.918401545809604,-0.32789052160935,0.918401545849928,-0.327890521489,-0.00783285213492546,-0.0488331744639556
21.5,-0.00848741146569126,-0.0497976583284849,0.915499921434593,-0.334986762608641,0.915499921482477,-0.334986762494909,-0.00848651204820611,-0.0498701926394209
22,-0.00915689124669949,-0.0508248069600419,0.91254768551544,-0.342056078282766,0.912547685570008,-0.342056078176212,-0.00915578702187847,-0.0508989509006947
22.5,-0.00984194223252011,-0.0518435131028046,0.909544864562194,-0.349098189940704,0.909544864622556,-0.349098189841772,-0.00984061769688793,-0.0519192608141328
23,-0.0105425014083694,-0.0528535843412206,0.906491500100775,-0.356112807972416,0.906491500166037,-0.356112807881431,-0.0105409409976776,-0.052930930816792
23.5,-0.0112585020805853,-0.0538548251478399,0.903387647790554,-0.363099633020936,0.903387647859836,-0.363099632938118,-0.011256690159923,-0.0539337662933965
24,-0.0119898738865776,-0.0548470369721596,0.900233376649206,-0.370058357013882,0.900233376721647,-0.37005835693935,-0.0119877947435317,-0.0549275696612486
24.5,-0.0127365427908059,-0.055830018335929,0.897028768371526,-0.376988664079944,0.897028768446294,-0.376988664013729,-0.012734180631914,-0.0559121404618736
25,-0.0134984310678562,-0.0568035649339751,0.893773916729855,-0.383890231370922,0.893773916806154,-0.383890231312974,-0.013495770018556,-0.0568872754584207
25.5,-0.0142754572737058,-0.057767469739753,0.890468927044792,-0.390762729805807,0.890468927121868,-0.390762729756003,-0.0142724813819305,-0.057852768738023
26,-0.0150675362062103,-0.0587215231150038,0.887113915716005,-0.397605824750071,0.887113915793148,-0.397605824708226,-0.0150642294497407,-0.0588084118184515
26.5,-0.0158745788558379,-0.0596655129230323,0.883709009804057,-0.404419176640669,0.883709009880608,-0.404419176606539,-0.0158709251534923,-0.0597539937585461
27,-0.0166964923476274,-0.0605992246452216,0.880254346655316,-0.411202441565081,0.880254346730664,-0.411202441538378,-0.016692475574327,-0.0606893012720375
27.5,-0.0175331798752962,-0.0615224415005322,0.876750073562959,-0.417955271801033,0.876750073636546,-0.417955271781427,-0.01752878388103,-0.0616141188444388
28,-0.0183845406283852,-0.062434944567791,0.873196347458095,-0.42467731632213,0.873196347529416,-0.424677316309256,-0.0183797492610757,-0.0625282288528177
28.5,-0.0192504697132769,-0.0633365129106522,0.86959333462586,-0.43136822127355,0.869593334694461,-0.43136822126702,-0.019245266845523,-0.0634314116882935
29,-0.0201308580688852,-0.0642269237052031,0.86594121044209,-0.438027630421114,0.865941210507569,-0.438027630420516,-0.0201252276285471,-0.0643234458811937
29.5,-0.0210255923777461,-0.065105952370174,0.862240159126916,-0.444655185576316,0.862240159188922,-0.444655185581223,-0.0210195183823219,-0.0652041082288308
30,-0.0219345549732202,-0.0659733726998328,0.858490373512139,-0.451250526999434,0.858490373570369,-0.451250527009408,-0.0219280215679571,-0.0660731739259277
30.5,-0.0228576237434701,-0.066828956999597,0.854692054819841,-0.457813293782366,0.854692054874041,-0.457813293796963,-0.0228506152431293,-0.066930416697724
31,-0.0237946720328162,-0.0676724762244789,0.850845412450101,-0.464343124212577,0.850845412500058,-0.464343124231351,-0.0237871729670173,-0.0677756089358497
31.5,-0.0247455685410694,-0.0685037001204731,0.846950663776056,-0.470839656119257,0.846950663821603,-0.470839656141764,-0.0247375637031202,-0.0686085218370529
32,-0.0257101772213784,-0.0693223973690035,0.843008033944928,-0.477302527202628,0.843008033985939,-0.477302527228429,-0.0257016517204897,-0.0694289255448879
32.5,-0.0266883571771209,-0.0701283357345822,0.839017755683859,-0.483731375347193,0.839017755720246,-0.483731375375855,-0.0266792964938986,-0.0702365892944972
33,-0.02767996255831,-0.0709212822158031,0.834980069109673,-0.490125838919602,0.834980069141382,-0.490125838950703,-0.0276703526034114,-0.0710312815605855
33.5,-0.0286848424580019,-0.0717010031998269,0.830895221541849,-0.496485557051764,0.830895221568861,-0.496485557084894,-0.0286746696338274,-0.0718127702087444
34,-0.0297028408091274,-0.0724672646204972,0.826763467318183,-0.50281016990974,0.826763467340511,-0.502810169944504,-0.029692092074415,-0.0725808226502369
34.5,-0.0307337962821723,-0.0732198321202217,0.822585067612727,-0.509099318948938,0.822585067630408,-0.509099318984956,-0.0307224592193511,-0.0733352060003768
35,-0.0317775421841067,-0.0739584712157644,0.818360290255699,-0.515352647156077,0.8183602902688,-0.515352647192983,-0.0317656050692559,-0.0740756872406207
35.5,-0.0328339063589453,-0.0746829474680747,0.814089409555188,-0.521569799278387,0.8140894095638,-0.521569799315838,-0.0328213582341954,-0.0748020333845111
36,-0.033902711090305,-0.0753930266562723,0.80977270612049,-0.52775042204049,0.809772706124723,-0.527750422078158,-0.0338895418384977,-0.0755140116475514
36.5,-0.0349837730063111,-0.0760884749559166,0.805410466687006,-0.533894164349369,0.80541046668699,-0.533894164386947,-0.0349699734277369,-0.0762113896211551
37,-0.0360769029871977,-0.0767690591216507,0.80100298394268,-0.540000677487862,0.801002983938562,-0.540000677525061,-0.0360624648781966,-0.0768939354507412
37.5,-0.0371819060759231,-0.0774345466743392,0.796550556355962,-0.546069615297081,0.796550556347904,-0.546069615333633,-0.0371668223091378,-0.0775614180180805
38,-0.0382985813921278,-0.0780847060927801,0.792053488005324,-0.552100634348164,0.792053487993502,-0.552100634383822,-0.0382828459981618,-0.0782136071279788
38.5,-0.0394267220497374,-0.0787193070100651,0.787512088410386,-0.558093394103745,0.787512088394986,-0.558093394138282,-0.0394103302999699,-0.0788502736993602
39,-0.0405661150785174,-0.0793381204146887,0.782926672364683,-0.564047557069544,0.782926672345901,-0.564047557102752,-0.040549063568794,-0.0794711899608321
39.5,-0.0417165413498666,-0.0799409188564414,0.778297559770158,-0.569962788936441,0.778297559748199,-0.569962788968133,-0.0416988280847673,-0.0800761296507914
40,-0.0428777755071423,-0.0805274766571674,0.773625075473453,-0.575838758713422,0.773625075448526,-0.575838758743429,-0.0428593999845049,-0.0806648682221144
40.5,-0.0440495859007934,-0.0810975701264344,0.768909549104039,-0.581675138851751,0.768909549076359,-0.581675138879926,-0.0440305491961389,-0.0812371830515023
41,-0.045231734528576,-0.0816509777821556,0.764151314914289,-0.587471605360738,0.764151314884075,-0.58747160538695,-0.0452120393790661,-0.0817928536535043
41.5,-0.0464239769811227,-0.0821874805762161,0.759350711621546,-0.593227837915426,0.759350711589018,-0.593227837939563,-0.0464036278686264,-0.0823316618992757
42,-0.0476260623931253,-0.0827068621251383,0.754508082252245,-0.598943519956566,0.754508082217625,-0.598943519978535,-0.0476050656259656,-0.0828533922401088
42.5,-0.0488377334003957,-0.0832089089458178,0.749623773988162,-0.604618338783184,0.749623773951671,-0.604618338802909,-0.0488160971932834,-0.0833578319357614
43,-0.0500587261030634,-0.08369341069638,0.744698138014829,-0.61025198563807,0.744698137976688,-0.610251985655491,-0.0500364606547044,-0.0838447712876527
43.5,-0.0512887700351528,-0.0841601604221821,0.739731529372183,-0.615844155786496,0.73973152933261,-0.615844155801567,-0.0512658876029626,-0.0843140038769354
44,-0.0525275881408094,-0.0846089548070119,0.734724306807476,-0.62139454858845,0.734724306766686,-0.621394548601144,-0.0525041031121205,-0.0847653268075297
44.5,-0.0537748967574098,-0.085039594429523,0.729676832630491,-0.626902867564699,0.729676832588695,-0.626902867575001,-0.0537508257165134,-0.0851985409541507
45,-0.0550304056058235,-0.0854518840249727,0.724589472571101,-0.632368820456926,0.724589472528507,-0.632368820464836,-0.055005767396119,-0.0856134512154199
45.5,-0.0562938177880685,-0.0858456327523194,0.719462595639188,-0.637792119282231,0.719462595595998,-0.637792119287761,-0.0562686335685463,-0.086009866772133
46,-0.0575648297926268,-0.0862206544667667,0.714296573986958,-0.643172480382239,0.714296573943368,-0.643172480385415,-0.0575391230878359,-0.0863876013507995
46.5,-0.0588431315076843,-0.0865767679978491,0.709091782773654,-0.648509624467071,0.709091782729854,-0.648509624467928,-0.0588169282502641,-0.0867464734925768
47,-0.0601284062425712,-0.0869137974331845,0.703848600032692,-0.653803276654403,0.703848599988864,-0.653803276652989,-0.0601017348073556,-0.0870863068277515
47.5,-0.0614203307576873,-0.087231572408029,0.698567406541225,-0.659053166503851,0.698567406497546,-0.659053166500225,-0.0613932219862992,-0.0874069303559634
48,-0.0627185753032207,-0.0875299284008129,0.693248585692135,-0.66425902804689,0.693248585648775,-0.664259028041119,-0.0626910625179903,-0.0877081787323889
48.5,-0.064022803666992,-0.087808707034865,0.687892523368467,-0.669420599812511,0.687892523325586,-0.66942059980467,-0.0639949226729224,-0.0879898925601592
49,-0.0653326732317691,-0.0880677563865618,0.682499607820287,-0.674537624848833,0.682499607778037,-0.674537624839008,-0.0653044623051838,-0.08825191868933
49.5,-0.0666478350424577,-0.0883069313002043,0.677070229543965,-0.679609850740835,0.677070229502492,-0.679609850729117,-0.066619334904843,-0.0884941105227781
50,-0.067967933883594,-0.0885260937099354,0.671604781163888,-0.68463702962441,0.671604781123328,-0.684637029610899,-0.0679391876590252,-0.0887163283294723
50.5,-0.0692926083676373,-0.0887251129691109,0.666103657316571,-0.689618918196901,0.666103657277051,-0.6896189181817,-0.0692636615220523,-0.0889184395656256
51,-0.0706214910346121,-0.0889038661875559,0.660567254537171,-0.694555277724289,0.66056725449881,-0.694555277707509,-0.0705923912950688,-0.089100319204335
51.5,-0.0719542084637502,-0.0890622385772199,0.654995971148382,-0.699445874045196,0.654995971111291,-0.699445874026953,-0.071925005715643,-0.0892618500743856
52,-0.0732903813978532,-0.089200123806824,0.649390207151702,-0.704290477571846,0.649390207115982,-0.704290477552259,-0.0732611275579313,-0.0894029232090143
52.5,-0.0746296248812456,-0.0893174243661356,0.643750364121044,-0.709088863288134,0.643750364086786,-0.709088863267324,-0.0746003737441126,-0.0895234382055289
53,-0.0759715484122953,-0.0894140519406169,0.638076845098681,-0.713840810744933,0.63807684506597,-0.713840810723028,-0.0759423554679183,-0.0896233035967962
53.5,-0.0773157561116746,-0.0894899277972526,0.632370054493514,-0.718546104052788,0.632370054462424,-0.718546104029917,-0.0772866783312744,-0.0897024372357438
54,-0.0786618469077146,-0.089544983182452,0.62663039798162,-0.723204531872103,0.626630397952217,-0.723204531848396,-0.078632942495256,-0.0897607666941588
54.5,-0.0800094147404466,-0.089579159732989,0.620858282409082,-0.727815887400945,0.620858282381424,-0.727815887376535,-0.0799807428468101,-0.0897982296772061
55,-0.0813580487861981,-0.0895924099010383,0.615054115697065,-0.7323799683606,0.615054115671201,-0.73237996833562,-0.0813296691829917,-0.0898147744552312
55.5,-0.0827073337049414,-0.0895846973944068,0.609218306749128,-0.736896576978961,0.609218306725098,-0.736896576953544,-0.082679306414809,-0.0898103603145785
56,-0.0840568499129626,-0.0895559976331334,0.603351265360731,-0.741365519971874,0.603351265338568,-0.741365519946155,-0.084029234793199,-0.0897849580292766
56.5,-0.0854061738838683,-0.08950629822364,0.597453402130946,-0.745786608522535,0.597453402110674,-0.745786608496647,-0.0853790301601365,-0.0897385503555994
57,-0.0867548784814624,-0.0894355994516324,0.591525128376308,-0.750159658259039,0.591525128357942,-0.750159658233113,-0.0867282642284872,-0.0896711325516122
57.5,-0.0881025333286135,-0.0893439147948932,0.585566856046819,-0.75448448923016,0.58556685603037,-0.754484489204329,-0.088076504894897,-0.0895827129239061
58,-0.0894487052169294,-0.0892312714570161,0.579578997644068,-0.758760925879478,0.579578997629536,-0.758760925853871,-0.0894233165908271,-0.0894733134037559
58.5,-0.0907929585628345,-0.0890977109229431,0.573561966141437,-0.762988797017901,0.573561966128815,-0.762988796992645,-0.0907682606778007,-0.089342970154916
59,-0.0921348559165449,-0.0889432895368978,0.567516174906381,-0.767167935794695,0.567516174895658,-0.767167935769916,-0.0921108958940417,-0.0891917342151388
59.5,-0.0934739585314607,-0.0887680791028931,0.561442037624757,-0.771298179667084,0.561442037615911,-0.771298179642904,-0.0934507788609639,-0.0890196721732602
60,-0.0948098270026275,-0.0885721675074181,0.555339968227174,-0.775379370368496,0.555339968220179,-0.775379370345035,-0.0947874646594657,-0.088826866883272
60.5,-0.0961420219842077,-0.0883556593631345,0.549210380817347,-0.779411353875539,0.549210380812171,-0.779411353852912,-0.0961205074876652,-0.0886134182161629
61,-0.0974701049973001,-0.0881186766713451,0.543053689602429,-0.783393980373754,0.543053689599034,-0.783393980352075,-0.0974494614136503,-0.0883794438493691
61.5,-0.0987936393409887,-0.0878613594996577,0.536870308825303,-0.787327104222236,0.536870308823643,-0.787327104201612,-0.0987738812389659,-0.088125080092364
62,-0.100112191121135,-0.0875838666694464,0.530660652698803,-0.791210583917171,0.530660652698828,-0.791210583897707,-0.100093323490954,-0.0878504827451305
62.5,-0.101425330413149,-0.0872863764454809,0.52442513534185,-0.795044282054357,0.524425135343506,-0.795044282036154,-0.101407347564681,-0.0875558279838432
