"Freq [GHz]","re(St(P1,P1)) []","im(St(P1,P1)) []","re(St(P1,P2)) []","im(St(P1,P2)) []","re(St(P2,P1)) []","im(St(P2,P1)) []","re(St(P2,P2)) []","im(St(P2,P2)) []"
0,0.00638010712657433,0,0.993636003302527,0,0.993635992912459,0,0.00638010261684485,0
0.5,0.00697905715304614,-1.49148827830459E-005,0.992942241474701,-0.00936453325983422,0.992942241988356,-0.00936453342387367,0.00697933731112954,-1.57520091796926E-005
1,0.00746167058762914,-0.000737060982583415,0.99220666371731,-0.0180046401954179,0.992206663763577,-0.0180046405974394,0.0074624093287099,-0.000739123248582274
1.5,0.00774708254456513,-0.00159572098671035,0.991523356059774,-0.0264655510639731,0.991523356056094,-0.0264655512228149,0.00774825658228906,-0.00159918183386587
2,0.0078777388919784,-0.00248467151668308,0.990850760547691,-0.0348566533464787,0.990850760582642,-0.0348566533971191,0.00787926695759911,-0.00248965232445819
2.5,0.00792216812753166,-0.00335809662426456,0.990128564195191,-0.0432118697520529,0.990128564263692,-0.0432118697631534,0.00792399850939685,-0.00336464313961571
3,0.00791663760348138,-0.00421084193086507,0.989332075854942,-0.0515286360248286,0.989332075938623,-0.0515286360252123,0.00791874972991824,-0.00421898150080757
3.5,0.00787919035320339,-0.0050455084987,0.988455185941339,-0.0598003621330463,0.988455186024023,-0.0598003621334975,0.00788158089746682,-0.00505526873682527
4,0.00781936082524592,-0.00586527005249682,0.987499496118581,-0.0680227235067221,0.987499496188365,-0.0680227235097179,0.00782203414529259,-0.00587668337925695
4.5,0.00774267878990509,-0.00667259707960888,0.986469281884808,-0.0761941404416993,0.986469281933862,-0.076194140445776,0.00774564140665857,-0.0066857009632626
5,0.00765270857944911,-0.0074692220445165,0.985369239859517,-0.0843151101195883,0.985369239883615,-0.0843151101216035,0.00765596596041385,-0.00748405798374741
5.5,0.00755201041034048,-0.00825631197672738,0.984203525219473,-0.0923874414428454,0.98420352521753,-0.0923874414393051,0.00755556498364474,-0.00827292413638592
6,0.00744261744670494,-0.00903463142354077,0.982975409812205,-0.100413626713715,0.982975409785824,-0.100413626701644,0.00744646727690834,-0.00905306519758042
6.5,0.00732628421414872,-0.00980466248734668,0.981687242522008,-0.10839638429601,0.981687242475026,-0.108396384273573,0.00733042204093654,-0.00982496307262704
7,0.0072046211931846,-0.0105666870880468,0.980340549168516,-0.116338353195717,0.980340549106549,-0.116338353162625,0.007209033669206,-0.0105888980977022
7.5,0.00707916980686282,-0.0113208416513695,0.978936185582853,-0.124241907487664,0.978936185512867,-0.124241907445423,0.00708383683901626,-0.0113450037835356
8,0.00695144466321607,-0.012067152635256,0.977474498540897,-0.132109058571927,0.977474498470806,-0.132109058523964,0.00695633879678698,-0.0120933024126777
8.5,0.00682295695528817,-0.0128055588419604,0.975955472415099,-0.139941417905076,0.975955472353418,-0.13994141785679,0.00682804275942422,-0.0128337274414498
9,0.00669522649320752,-0.0135359245437745,0.974378852560268,-0.147740198765696,0.974378852515801,-0.147740198724434,0.00670045991745585,-0.0135661367386462
9.5,0.00656978651449691,-0.0142580461390129,0.972744243644256,-0.155506241271174,0.972744243625848,-0.15550624124616,0.00657511419375373,-0.0142903193816797
10,0.00644818362732053,-0.0149716542003722,0.971051184756731,-0.163240049630952,0.971051184773059,-0.163240049633195,0.0064535421188299,-0.0150059978760315
10.5,0.00631866875427037,-0.0157362166448953,0.969322725370165,-0.170929035095279,0.969322725386103,-0.170929035098949,0.00632405658203607,-0.0157725650167695
11,0.00618117650653746,-0.0165026825542762,0.967543750835676,-0.17858948826618,0.967543750851067,-0.178589488271172,0.00618657172309275,-0.0165410691347447
11.5,0.00603549440906587,-0.0172710428599303,0.965713998825754,-0.186222240267533,0.965713998840467,-0.186222240273729,0.00604087243729612,-0.0173115009181921
12,0.00588140568659043,-0.0180412758570259,0.963833224949102,-0.193827932805673,0.963833224963027,-0.193827932812947,0.00588673934497477,-0.0180838382238093
12.5,0.00571868997437058,-0.0188133469250489,0.961901214348441,-0.201407052914096,0.961901214361493,-0.201407052922318,0.00572394951702326,-0.0188580458008931
13,0.00554712404724375,-0.0195872082882422,0.959917787520998,-0.208959962205864,0.95991778753311,-0.208959962214904,0.00555227721833237,-0.0196340750565245
13.5,0.00536648256476005,-0.0203627988173523,0.957882802196885,-0.216486921105472,0.95788280220801,-0.2164869211152,0.00537149466679154,-0.0204118638632567
14,0.00517653883004057,-0.0211400438741109,0.955796152637703,-0.223988108651905,0.955796152647812,-0.223988108662195,0.00518137280539258,-0.0211913364106175
14.5,0.00497706555982003,-0.0219188551996714,0.953657767345823,-0.231463638494098,0.9536577673549,-0.23146363850483,0.00498168208481387,-0.0219724031016364
15,0.0047678356630303,-0.0226991308480931,0.951467605888895,-0.238913571676607,0.951467605896938,-0.238913571687664,0.00477219325374223,-0.0227549604953912
15.5,0.00454862302511533,-0.0234807551658163,0.949225655328588,-0.246337926761938,0.949225655335609,-0.246337926773214,0.00455267815404259,-0.0235388912964574
16,0.00431920329518737,-0.0242635988178428,0.946931926582637,-0.253736687772103,0.946931926588655,-0.2537366877835,0.0043229105178117,-0.0243240643918705
16.5,0.00407935467298937,-0.0250475188611716,0.944586450932516,-0.261109810365439,0.944586450937559,-0.261109810376864,0.00408266676321245,-0.0251103349360826
17,0.00382885869257127,-0.0258323588658076,0.942189276805225,-0.268457226600715,0.942189276809329,-0.268457226612085,0.00383172678593924,-0.025897544484115
17.5,0.00356750099949954,-0.0266179490834504,0.939740466898529,-0.275778848582162,0.939740466901733,-0.275778848593402,0.00356987474308257,-0.0266855211729078
18,0.00329507211836599,-0.0274041066636832,0.937240095678174,-0.283074571227345,0.937240095680524,-0.283074571238388,0.00329689982612291,-0.0274740799506021
18.5,0.00301136820733311,-0.0281906359173105,0.934688247248278,-0.290344274355171,0.934688247249821,-0.290344274365959,0.00301259701976603,-0.0282630228532605
19,0.00271619179645033,-0.0289773286261465,0.932085013578478,-0.297587824253309,0.932085013579266,-0.297587824263792,0.00271676784333136,-0.0290521393282326
19.5,0.00240935250646745,-0.0297639643983698,0.929430493060789,-0.304805074852548,0.929430493060872,-0.304805074862682,0.00240922107142078,-0.0298412066031637
20,0.00209066774494338,-0.0305503110682273,0.926724789363423,-0.311995868609131,0.926724789362852,-0.311995868618878,0.00208977343067007,-0.030629990099315
20.5,0.00175996337647477,-0.0313361251386746,0.923968010546475,-0.319160037174483,0.923968010545303,-0.319160037183813,0.00175825026942461,-0.0314182438876638
21,0.0014170743639863,-0.0321211522652083,0.921160268404357,-0.326297401914035,0.921160268402636,-0.326297401922924,0.00141448619731666,-0.0322057111859333
21.5,0.00106184537813442,-0.0329051277789294,0.918301678001283,-0.333407774322508,0.918301677999063,-0.333407774330936,0.00105832569182318,-0.0329921248944838
22,0.00069413137200236,-0.0336877772466087,0.915392357368434,-0.340490956371606,0.915392357365764,-0.340490956379561,0.000689623669048178,-0.0337772081687375
22.5,0.000313798118442621,-0.0344688170653036,0.912432427334291,-0.347546740816858,0.912432427331218,-0.347546740824329,0.000308246016138269,-0.0345606750255796
23,-7.92772923758345E-005,-0.0352479550888098,0.909422011462632,-0.354574911483113,0.909422011459201,-0.354574911490095,-8.59299170470895E-005,-0.035342230980947
23.5,-0.000485205997487914,-0.0360248912830758,0.906361236075787,-0.361575243542577,0.906361236072041,-0.361575243549068,-0.000493014869187292,-0.0361215737156428
24,-0.000904086949701954,-0.0367993184074755,0.903250230343666,-0.368547503794818,0.903250230339647,-0.368547503800821,-0.000913107263593005,-0.036898393766196
24.5,-0.00133600655199756,-0.0375709227186702,0.900089126421914,-0.375491450954811,0.900089126417659,-0.375491450960329,-0.00134629285081272,-0.0376723752374548
25,-0.00178103833924115,-0.0383393846936788,0.896878059625007,-0.382406835952563,0.896878059620553,-0.382406835957603,-0.00179264439914129,-0.0384431965334544
25.5,-0.00223924270840881,-0.0391043797685877,0.893617168622514,-0.389293402245907,0.893617168617892,-0.389293402250479,-0.00225222143414644,-0.0392105311029836
26,-0.00271066669825881,-0.0398655790893223,0.890306595648692,-0.396150886146737,0.890306595643937,-0.396150886150851,-0.00272507002801137,-0.0399740481962059
26.5,-0.0031953438190242,-0.0406226502707521,0.886946486717485,-0.402979017159904,0.886946486712623,-0.402979017163573,-0.00321122263920975,-0.0407334136286279
27,-0.00369329393246537,-0.041375258160425,0.883536991836465,-0.409777518333394,0.883536991831523,-0.409777518336631,-0.00371069800269586,-0.0414882905486671
27.5,-0.00420452318223047,-0.042123065603187,0.880078265214707,-0.416546106617949,0.880078265209709,-0.416546106620769,-0.0042235010705024,-0.0422383402051081
28,-0.00472902397422742,-0.0428657342029779,0.876570465460658,-0.423284493234087,0.876570465455626,-0.423284493236506,-0.00474962300231768,-0.0429832227107365
28.5,-0.00526677500635375,-0.0436029250781274,0.87301375576711,-0.429992384044347,0.873013755762062,-0.429992384046381,-0.00528904120530455,-0.0437225977985107
29,-0.00581774134666224,-0.0443342996065901,0.869408304081143,-0.43666947992862,0.869408304076097,-0.436669479930284,-0.00584171942214623,-0.0444561255667286
29.5,-0.00638187455872136,-0.0450595201576174,0.865754283257645,-0.443315477160484,0.865754283252616,-0.443315477161798,-0.00640760786599304,-0.0451834672097569
30,-0.0069591128726838,-0.0457782508065503,0.862051871195527,-0.449930067782605,0.862051871190528,-0.449930067783584,-0.00698664340073407,-0.0459042857310266
30.5,-0.00754938140026851,-0.0464901580295312,0.858301250956244,-0.456512939979395,0.858301250951288,-0.456512939980055,-0.00757874976474154,-0.0466182466351817
31,-0.00815259239165933,-0.0471949113751425,0.854502610864583,-0.463063778445314,0.854502610859678,-0.463063778445674,-0.00818383783601406,-0.0473250185964337
31.5,-0.00876864553206497,-0.047892184110174,0.850656144591953,-0.469582264747398,0.850656144587109,-0.469582264747474,-0.00880180593641589,-0.0480242741004022
32,-0.00939742827549878,-0.0485816538369498,0.846762051222688,-0.476068077680746,0.846762051217911,-0.476068077680552,-0.00943254017251632,-0.048715690056944
32.5,-0.0100388162131452,-0.0492630030798609,0.84282053530397,-0.482520893615897,0.842820535299266,-0.482520893615451,-0.0100759148103666,-0.0493989483816977
33,-0.0106926734735323,-0.0499359198390391,0.838831806880176,-0.488940386837225,0.838831806875549,-0.488940386836542,-0.0107317926813962,-0.0500737365443504
33.5,-0.011358853151594,-0.0506000981093335,0.834796081512487,-0.495326229871587,0.834796081507939,-0.495326229870681,-0.0114000256164959,-0.0507397480818783
34,-0.0120371977635952,-0.0512552383630334,0.83071358028468,-0.501678093806647,0.830713580280215,-0.501678093805534,-0.0120804549052538,-0.051396683075273
34.5,-0.0127275397248324,-0.0519010479950803,0.826584529796052,-0.507995648598444,0.826584529791669,-0.507995648597135,-0.0127729117772506,-0.052044248588579
35,-0.0134297018469565,-0.0525372417297258,0.82240916214242,-0.514278563367838,0.82240916213812,-0.514278563366349,-0.0134772179022608,-0.0526821590692842
35.5,-0.0141434978517451,-0.0531635419879513,0.818187714886154,-0.520526506685655,0.818187714881936,-0.520526506683996,-0.0141931859062145,-0.0533101367094293
36,-0.0148687328981521,-0.0537796792151571,0.813920431016172,-0.526739146846368,0.813920431012033,-0.526739146844552,-0.0149206198997571,-0.0539279117670431
36.5,-0.0156052041194833,-0.0543853921689611,0.809607558898802,-0.532916152130311,0.809607558894741,-0.532916152128349,-0.0156593160162871,-0.0545352228477757
37,-0.0163527011676151,-0.0549804281671563,0.805249352220376,-0.539057191054435,0.805249352216391,-0.539057191052337,-0.0164090629564214,-0.0551318171468683
37.5,-0.0171110067612047,-0.0555645432961507,0.800846069922394,-0.545161932611709,0.80084606991848,-0.545161932609485,-0.017169642535874,-0.0557174506518207
38,-0.0178798972349832,-0.0561375025804569,0.796397976130022,-0.551230046499324,0.796397976126176,-0.551230046496983,-0.0179408302338826,-0.0562918883063684
38.5,-0.0186591430872838,-0.0566990801139809,0.791905340074698,-0.55726120333588,0.791905340070916,-0.55726120333343,-0.0187223957393812,-0.0568549041365817
39,-0.0194485095231196,-0.0572490591541233,0.787368436011508,-0.563255074867804,0.787368436007784,-0.563255074865253,-0.0195141034922806,-0.0574062813401064
39.5,-0.0202477569902483,-0.0577872321798305,0.782787543132001,-0.569211334165232,0.782787543128331,-0.569211334162586,-0.0203157132173436,-0.0579458123397482
40,-0.0210566417058277,-0.0583134009149816,0.778162945473034,-0.575129655807673,0.778162945469413,-0.575129655804939,-0.0211269804483121,-0.0584732988027771
40.5,-0.0218749161714136,-0.058827376318572,0.773494931822212,-0.581009716059731,0.773494931818636,-0.581009716056916,-0.0219476570400883,-0.0589885516274533
41,-0.0227023296742476,-0.0593289785433606,0.768783795620434,-0.586851193037209,0.768783795616895,-0.586851193034317,-0.0227774916669723,-0.0594913908984421
41.5,-0.023538628772946,-0.0598180368647134,0.76402983486201,-0.592653766863921,0.764029834858504,-0.592653766860956,-0.0236162303051095,-0.0599816458128595
42,-0.0243835577658915,-0.0602943895815011,0.759233351992809,-0.598417119819534,0.75923335198933,-0.5984171198165,-0.0244636166975111,-0.0604591545788107
42.5,-0.0252368591408224,-0.0607578838909931,0.754394653806797,-0.604140936478789,0.754394653803339,-0.604140936475689,-0.0253193928001792,-0.0609237642883482
43,-0.0260982740042862,-0.0612083757397178,0.749514051341362,-0.60982490384241,0.74951405133792,-0.609824903839248,-0.0261832992080562,-0.061375330766826
43.5,-0.0269675424898357,-0.0616457296523458,0.744591859771731,-0.615468711460051,0.744591859768298,-0.61546871145683,-0.0270550755597125,-0.0618137184006815
44,-0.0278444041440137,-0.0620698185406557,0.739628398304784,-0.621072051545603,0.739628398301356,-0.621072051542322,-0.0279344609198618,-0.0622387999456938
44.5,-0.0287285982893477,-0.0624805234946473,0.734623990072546,-0.626634619085164,0.734623990069116,-0.626634619081827,-0.0288211941389668,-0.0626504563177608
45,-0.0296198643637823,-0.0628777335578868,0.729578962025574,-0.632156111938019,0.729578962022138,-0.632156111934626,-0.0297150141893806,-0.0630485763682597
45.5,-0.0305179422361094,-0.063261345489129,0.724493644826488,-0.6376362309309,0.72449364482304,-0.637636230927452,-0.0306156604776301,-0.0634330566460111
46,-0.0314225724971498,-0.0636312635122414,0.719368372743818,-0.643074679945853,0.719368372740352,-0.643074679942348,-0.0315228731326085,-0.0638038011478387
46.5,-0.0323334967265683,-0.063987399056406,0.71420348354635,-0.648471166001977,0.714203483542863,-0.648471165998417,-0.032436393269587,-0.0641607210596875
47,-0.0332504577353726,-0.0643296704885329,0.708999318398141,-0.653825399331335,0.708999318394627,-0.653825399327719,-0.0333559632301153,-0.0645037344901862
47.5,-0.0341731997842696,-0.0646580028397405,0.703756221754309,-0.659137093449291,0.703756221750763,-0.659137093445617,-0.03428132679799,-0.0648327661984944
48,-0.0351014687781787,-0.0649723275276984,0.698474541257758,-0.66440596521953,0.698474541254177,-0.664405965215797,-0.0352122293916138,-0.0651477473181972
48.5,-0.0360350124373239,-0.06527258207655,0.693154627636926,-0.669631734914032,0.693154627633305,-0.669631734910239,-0.0361484182331682,-0.0654486150789332
49,-0.0369735804454303,-0.0655587098360455,0.687796834604644,-0.674814126268212,0.687796834600978,-0.674814126264356,-0.0370896424951322,-0.0657353125273559
49.5,-0.0379169245756451,-0.0658306597014258,0.682401518758213,-0.679952866531473,0.6824015187545,-0.679952866527553,-0.0380356534247669,-0.0660077882489494
50,-0.0388647987948868,-0.066088385835506,0.676969039480752,-0.685047686513386,0.676969039476989,-0.685047686509399,-0.0389862044472755,-0.066265996092113
50.5,-0.0398169593474126,-0.0663318473943291,0.671499758843886,-0.690098320625704,0.671499758840067,-0.690098320621648,-0.0399410512484183,-0.0665098948958581
51,-0.0407731648184428,-0.0665610082576248,0.665994041511825,-0.695104506920422,0.665994041507949,-0.695104506916293,-0.0408999518374162,-0.0667394482223395
51.5,-0.0417331761787574,-0.0667758367652614,0.660452254646889,-0.700065987124058,0.660452254642953,-0.700065987119855,-0.0418626665910631,-0.0669546240953714
52,-0.0426967568112062,-0.0669763054607367,0.654874767816502,-0.704982506668357,0.654874767812504,-0.704982506664075,-0.0428289582799549,-0.0671553947459648
52.5,-0.0436636725201304,-0.067162390842684,0.649261952901704,-0.709853814717574,0.649261952897641,-0.709853814713211,-0.0437985920778563,-0.0673417363658375
53,-0.0446336915247169,-0.0673340731252638,0.643614184007191,-0.714679664192518,0.643614184003062,-0.71467966418807,-0.0447713355551773,-0.0675136288697503
53.5,-0.0456065844373255,-0.0674913360082172,0.637931837372919,-0.719459811791509,0.637931837368721,-0.719459811786973,-0.0457469586576187,-0.0676710556674311
54,-0.0465821242278501,-0.0676341664572687,0.632215291287276,-0.724194018008396,0.632215291283007,-0.724194018003768,-0.0467252336710148,-0.0678140034457623
54.5,-0.0475600861751849,-0.0677625544954736,0.626464926001841,-0.728882047147789,0.626464925997502,-0.728882047143065,-0.0477059351734389,-0.0679424619618093
55,-0.0485402478068648,-0.0678764930060252,0.620681123647746,-0.733523667337636,0.620681123643335,-0.733523667332813,-0.0486888399756155,-0.0680564238472001
55.5,-0.0495223888279442,-0.067975977546941,0.614864268153621,-0.738118650539275,0.614864268149138,-0.738118650534349,-0.0496737270507078,-0.0681558844242674
56,-0.0505062910401842,-0.0680610061779925,0.609014745165159,-0.742666772555092,0.609014745160603,-0.74266677255006,-0.0506603774545147,-0.0682408415343018
56.5,-0.0514917382525859,-0.0681315793001352,0.603132941966272,-0.747167813033898,0.603132941961642,-0.747167813028756,-0.0516485742371084,-0.0683112953781836
57,-0.0524785161843044,-0.0681876995076528,0.597219247401853,-0.751621555474141,0.59721924739715,-0.751621555468884,-0.0526381023469376,-0.0683672483695881
57.5,-0.0534664123609588,-0.0682293714531506,0.591274051802131,-0.756027787225056,0.591274051797356,-0.756027787219681,-0.0536287485283857,-0.068408705000904
58,-0.0544552160053147,-0.0682566017254621,0.585297746908619,-0.760386299485869,0.585297746903772,-0.760386299480373,-0.0546203012137594,-0.0684356717219305
58.5,-0.0554447179233112,-0.0682693987404897,0.579290725801646,-0.764696887303134,0.579290725796727,-0.764696887297513,-0.0556125504106499,-0.068448156831366
59,-0.0564347103863568,-0.0682677726449302,0.573253382829454,-0.768959349566313,0.573253382824465,-0.768959349560563,-0.0566052875855957,-0.0684461703810514
59.5,-0.0574249870108008,-0.0682517352327919,0.567186113538871,-0.773173489001675,0.567186113533815,-0.773173488995793,-0.0575983055449252,-0.0684297240928669
60,-0.0584153426354476,-0.068221299874562,0.561089314607532,-0.777339112164617,0.561089314602408,-0.777339112158599,-0.0585913983136457,-0.0683988312881536
60.5,-0.0594055731979484,-0.0681764814588327,0.554963383777639,-0.781456029430462,0.55496338377245,-0.781456029424305,-0.0595843610131994,-0.0683535068294621
61,-0.0603954756108815,-0.0681172963461639,0.548808719791255,-0.785524054983842,0.548808719786001,-0.785524054977543,-0.0605769897388799,-0.0682937670744238
61.5,-0.0613848476382725,-0.0680437623349112,0.54262572232711,-0.789543006806714,0.542625722321795,-0.789543006800268,-0.0615690814376636,-0.0682196298414662
62,-0.0623734877733055,-0.0679558986387243,0.536414791938913,-0.793512706665094,0.536414791933538,-0.7935127066585,-0.0625604337871884,-0.0681311143870942
62.5,-0.0633611951178995,-0.067853725875383,0.530176329995152,-0.79743298009458,0.53017632998972,-0.797432980087834,-0.0635508450765531,-0.0680282413944058
