"Freq [GHz]","re(St(P1,P1)) []","im(St(P1,P1)) []","re(St(P1,P2)) []","im(St(P1,P2)) []","re(St(P2,P1)) []","im(St(P2,P1)) []","re(St(P2,P2)) []","im(St(P2,P2)) []"
0,0.00494473042624577,0,0.99506918656698,0,0.995069192009396,0,0.00494475311870701,0
0.5,0.00545108058869204,-9.29249265659848E-005,0.994389518107489,-0.00981794305894823,0.99438951503781,-0.00981793961310728,0.00545139524705007,-9.3753830764598E-005
1,0.00579577527630448,-0.000812765779599545,0.993566466128918,-0.0189530973546503,0.993566464924246,-0.0189530981282786,0.00579657981313275,-0.000814848403315693
1.5,0.00589043172416392,-0.0016348930332164,0.99270730589321,-0.0278811421588543,0.992707305067367,-0.0278811419858727,0.00589169153986546,-0.00163842062472597
2,0.00579717028562055,-0.00243829405730445,0.991790087980288,-0.0366925483975269,0.991790087647035,-0.0366925480697411,0.00579878934704681,-0.00244335691161091
2.5,0.00558967256748755,-0.00318060349635729,0.990771511648528,-0.0454138067246692,0.990771511572369,-0.04541380651923,0.00559160162203964,-0.00318721017318424
3,0.00530980148857241,-0.00385480528592197,0.989640742136246,-0.0540383755781342,0.989640742131382,-0.0540383755258471,0.00531203018722737,-0.00386294342047933
3.5,0.00498315972617402,-0.00446162110225767,0.988404360882491,-0.062558242808465,0.988404360850451,-0.0625582428589118,0.00498570035711476,-0.00447127515830648
4,0.0046275733907597,-0.00500400143849156,0.987075484302415,-0.0709700693441038,0.987075484208648,-0.0709700694332813,0.00463045136420837,-0.00501515696255517
4.5,0.00425655810040659,-0.0054860212629535,0.985668384424325,-0.0792752446096996,0.985668384272765,-0.0792752446852205,0.00425980704830509,-0.00549866552303424
5,0.0038807379470952,-0.00591253364286448,0.984196013020646,-0.0874786510060428,0.984196012834594,-0.0874786510345738,0.00388439720708456,-0.005926655397122
5.5,0.00350850130080083,-0.00628890716837027,0.982668999585355,-0.0955873332086083,0.98266899939444,-0.095587333175648,0.00351261458778873,-0.006304496290789
6,0.00314638559750269,-0.0066207649281802,0.981095417658652,-0.103609385966313,0.981095417490566,-0.103609385872764,0.00315100027490733,-0.00663781206129599
6.5,0.00279937029093649,-0.00691374450463567,0.979480945047724,-0.11155312528874,0.979480944923488,-0.111553125146487,0.00280453695359148,-0.00693224075927024
7,0.00247113635804705,-0.00717330081789136,0.977829205038728,-0.119426524720987,0.977829204970467,-0.119426524548521,0.00247690858333299,-0.00719323750493928
7.5,0.00216430589709682,-0.00740456071793227,0.976142165526575,-0.127236869660147,0.976142165516963,-0.127236869478794,0.00217074009132649,-0.00742592909439166
8,0.00188066083919954,-0.00761222762253411,0.974420527769565,-0.13499057668432,0.974420527812319,-0.134990576515237,0.00188781614104221,-0.00763501863870264
8.5,0.00162133704947419,-0.00780052860972047,0.972664070794123,-0.142693129342711,0.972664070875067,-0.14269312920466,0.00162927526950599,-0.00782473264970651
9,0.00138699135939735,-0.00797319419946296,0.970871938461839,-0.150349090561715,0.970871938560236,-0.150349090469529,0.00139577694352994,-0.00799880081117088
9.5,0.00117794115894983,-0.00813346117986402,0.969042868275616,-0.157962161342819,0.969042868365557,-0.157962161306438,0.00118764116794434,-0.00816045879328042
10,0.000994277909755856,-0.00828409011536824,0.967175367235593,-0.165535264038845,0.96717536728731,-0.165535264062791,0.00100496200947681,-0.00831246574955058
10.5,0.000853011807778997,-0.00844741621623468,0.965289488081668,-0.173056097371842,0.965289488123125,-0.173056097398415,0.000868338646758671,-0.00847695388303782
11,0.000722895518954741,-0.00861617650434487,0.963372727142145,-0.180544022228098,0.963372727174183,-0.180544022255392,0.000742439550125068,-0.00864741641564404
11.5,0.000602212949095959,-0.00879067167431291,0.961423685796686,-0.188001709640997,0.961423685820332,-0.188001709667475,0.000625558661062009,-0.00882402625805545
12,0.000489454721475907,-0.00897106582383111,0.959440943327586,-0.195431347274215,0.959440943343969,-0.195431347298681,0.000516208196122164,-0.00900684207120772
12.5,0.000383291196338176,-0.00915742305320721,0.957423103230994,-0.202834709268555,0.957423103241282,-0.202834709290125,0.000413087277921886,-0.00919584162341991
13,0.000282548189082354,-0.00934973458654254,0.955368824334203,-0.210213218888223,0.955368824339554,-0.21021321890629,0.000315054570471984,-0.0093909459894288
13.5,0.000186185567069064,-0.00954793881130911,0.953276840497457,-0.217568003608068,0.953276840498978,-0.217568003622257,0.000221104731713773,-0.0095920370352065
14,9.32786435082766E-005,-0.00975193604084934,0.951145971907932,-0.224899942832365,0.951145971906658,-0.224899942842502,0.000130348333346908,-0.00979896998893359
14.5,3.00215430021344E-006,-0.0099615993517097,0.948975130313086,-0.232209708752125,0.94897513030996,-0.232209708758199,4.19948395267711E-005,-0.0100115824207525
15,-8.53834525321728E-005,-0.0101767825057033,0.946763319994256,-0.239497801007331,0.946763319990119,-0.239497801009464,-4.46617656461035E-005,-0.0102297006017618
15.5,-0.000172543697843364,-0.0103973257098595,0.94450963584101,-0.246764575877901,0.944509635836598,-0.246764575876312,-0.000130255084745456,-0.0104531439540203
16,-0.000259079994766043,-0.0106230597755541,0.942213259538772,-0.254010270721303,0.942213259534715,-0.254010270716292,-0.000215356490891216,-0.0106817281136571
16.5,-0.000345538063795114,-0.0108538090950678,0.939873454611651,-0.261235024332247,0.939873454608474,-0.261235024324166,-0.000300483688606912,-0.0109152669902055
17,-0.000432415061484837,-0.0110893937472218,0.937489560854806,-0.268438893838272,0.937489560852936,-0.268438893827509,-0.000386107909265021,-0.0111535741034203
17.5,-0.000520165616673118,-0.0113296309644122,0.935060988533429,-0.27562186867591,0.935060988533204,-0.27562186866287,-0.000472659960130906,-0.0113964634041079
18,-0.000609206941505458,-0.0115743361341483,0.93258721260755,-0.282783882122259,0.932587212609222,-0.282783882107356,-0.000560535311857346,-0.0116437497305708
18.5,-0.000699923160378646,-0.0118233234641647,0.930067767154596,-0.28992482079057,0.930067767158341,-0.289924820774212,-0.000650098379796016,-0.0118952490119328
19,-0.000792668978522093,-0.0120764064071288,0.927502240097827,-0.297044532437709,0.927502240103755,-0.297044532420293,-0.000741686129293762,-0.0121507782997741
19.5,-0.000887772793368324,-0.0123333979164018,0.924890268302708,-0.304142832377419,0.924890268310871,-0.30414283235932,-0.000835611113917667,-0.0124101556876255
20,-0.000985539335886965,-0.0125941105858005,0.922231533070592,-0.311219508745886,0.922231533080988,-0.311219508727457,-0.000932164037730499,-0.012673200161571
20.5,-0.00108625191551848,-0.0128583567125111,0.919525756036462,-0.318274326825397,0.91952575604905,-0.318274326806964,-0.00103161591783307,-0.0129397314132589
21,-0.00119017433078061,-0.0131259483118955,0.916772695462154,-0.325307032596968,0.916772695476852,-0.325307032578826,-0.0011342199110061,-0.0132095696376973
21.5,-0.0012975524979682,-0.0133966971051553,0.913972142906599,-0.3323173556633,0.913972142923299,-0.332317355645715,-0.00124021285794351,-0.0134825353316426
22,-0.00140861584215218,-0.0136704144949453,0.911123920248679,-0.339305011658648,0.911123920267248,-0.339305011641854,-0.00134981658999001,-0.0137584491035401
22.5,-0.00152357848782247,-0.0139469115396382,0.908227877035071,-0.346269704241334,0.908227877055358,-0.346269704225532,-0.00146323903613627,-0.0140371315023156
23,-0.00164264028072897,-0.014225998933638,0.905283888124265,-0.353211126747421,0.905283888146107,-0.353211126732784,-0.00158067516207994,-0.014318402869727
23.5,-0.00176598766762065,-0.0145074869986601,0.902291851598042,-0.360128963569646,0.902291851621264,-0.360128963556317,-0.0017023077681817,-0.0146020832189631
24,-0.00189379445647114,-0.014791185689081,0.899251686912694,-0.36702289131392,0.899251686937119,-0.367022891302016,-0.00182830816900531,-0.0148879921408034
24.5,-0.00202622247634227,-0.0150769046130406,0.896163333263863,-0.373892579775851,0.89616333328931,-0.373892579765462,-0.00195883677364339,-0.0151759487375496
25,-0.00216342215310805,-0.015364453070019,0.893026748140718,-0.380737692771787,0.893026748167006,-0.380737692762977,-0.00209404358311321,-0.0154657715842428
25.5,-0.00230553301482517,-0.0156536401048268,0.88984190604725,-0.387557888852233,0.889841906074205,-0.387557888845046,-0.00223406861865727,-0.0157572787161038
26,-0.0024526841384071,-0.0159442745774634,0.88660879737055,-0.394352821920161,0.886608797397998,-0.394352821914618,-0.00237904229270569,-0.016050287640804
26.5,-0.00260499454754326,-0.0162361652478544,0.883327427377923,-0.401122141772295,0.8833274274057,-0.401122141768401,-0.00252908573249916,-0.0163446153738771
27,-0.0027625735702414,-0.0165291208743152,0.879997815326687,-0.407865494577933,0.879997815354636,-0.407865494575676,-0.00268431106489647,-0.0166400784954819
27.5,-0.00292552116314554,-0.016822950324326,0.876619993672276,-0.414582523306912,0.876619993700247,-0.414582523306265,-0.00284482166960764,-0.0169364932265803
28,-0.00309392820864085,-0.0171174626961768,0.873194007361962,-0.421272868116035,0.873194007389818,-0.421272868116957,-0.00301071240702117,-0.0172336755225948
28.5,-0.00326787678985119,-0.0174124674499696,0.869719913203052,-0.427936166701336,0.869719913230664,-0.427936166703778,-0.00318206982587077,-0.0175314411825931
29,-0.00344744044782019,-0.0177077745464427,0.866197779295754,-0.434572054622066,0.866197779323004,-0.434572054625965,-0.00335897235517318,-0.0178296059720513
29.5,-0.00363268442448178,-0.0180031945921422,0.862627684522192,-0.441180165601053,0.862627684548974,-0.441180165606342,-0.00354149048421543,-0.018127985757352
30,-0.00382366589443628,-0.0182985389894686,0.859009718084131,-0.447760131805086,0.859009718110349,-0.447760131811689,-0.00372968693373366,-0.0184263966501471
30.5,-0.00402043418804021,-0.018593620090223,0.855343979082941,-0.454311584108261,0.85534397910851,-0.454311584116098,-0.00392361682096015,-0.0187246551598789
31,-0.0042230310078788,-0.0188882513513059,0.851630576136212,-0.460834152340506,0.851630576161057,-0.460834152349493,-0.00412332782073099,-0.0190225783527485
31.5,-0.00443149064031184,-0.0191822474913491,0.847869627026179,-0.467327465523128,0.847869627050236,-0.467327465533177,-0.00432886032448365,-0.0193199840155736
32,-0.00464584016347047,-0.0194754246470982,0.844061258375781,-0.473791152092734,0.844061258398993,-0.473791152103757,-0.00454024759863014,-0.019616690823012
32.5,-0.00486609965278617,-0.0197676005284775,0.840205605348745,-0.480224840114671,0.840205605371071,-0.480224840126577,-0.00475751594349022,-0.0199125185067551
33,-0.00509228238490306,-0.0200585945713466,0.836302811370629,-0.486628157486821,0.836302811392032,-0.48662815749952,-0.00498068485372632,-0.0202072880253613
33.5,-0.00532439504062654,-0.0203482280870455,0.832353027868124,-0.493000732134453,0.832353027888577,-0.493000732147855,-0.00520976718098604,-0.0205008217335082
34,-0.00556243790736011,-0.0206363244079142,0.828356414024374,-0.499342192196685,0.828356414043858,-0.499342192210702,-0.00544476929927357,-0.0207929435495255
34.5,-0.00580640508136593,-0.0209227090280497,0.824313136548331,-0.505652166204985,0.824313136566837,-0.505652166219531,-0.0056856912733903,-0.0210834791201553
35,-0.00605628467001623,-0.0212072097386634,0.820223369456498,-0.511930283254098,0.820223369474021,-0.511930283269088,-0.00593252703065106,-0.0213722559815981
35.5,-0.00631205899413945,-0.0214896567574603,0.816087293865595,-0.518176173165686,0.81608729388214,-0.518176173181039,-0.00618526453594642,-0.0216591037159671
36,-0.00657370479043012,-0.021769882851551,0.811905097794964,-0.524389466644958,0.811905097810538,-0.524389466660596,-0.00644388597010892,-0.0219438541023698
36.5,-0.00684119341384853,-0.0220477234534863,0.807676975977625,-0.530569795430517,0.807676975992246,-0.530569795446364,-0.00670836791145973,-0.0222263412619202
37,-0.00711449103985778,-0.0223230167700565,0.803403129679131,-0.53671679243764,0.803403129692817,-0.536716792453626,-0.00697868152032299,-0.022506401796076
37.5,-0.00739355886630244,-0.0225956038835872,0.799083766523417,-0.542830091895184,0.799083766536193,-0.542830091911241,-0.0072547927262267,-0.0227838749177501
38,-0.00767835331468225,-0.0228653288455001,0.794719100325019,-0.548909329476297,0.794719100336915,-0.548909329492363,-0.00753666241746598,-0.0230586025747513
38.5,-0.00796882623056427,-0.0231320387620009,0.79030935092709,-0.554954142423139,0.790309350938139,-0.554954142439155,-0.00782424663264358,-0.0233304295651658
39,-0.00826492508282756,-0.023395583871772,0.785854744044737,-0.560964169665747,0.785854744054975,-0.560964169681657,-0.00811749675378309,-0.023599203644361
39.5,-0.00856659316144426,-0.0236558176156353,0.781355511113259,-0.566939051935257,0.781355511122725,-0.566939051951013,-0.00841635970056703,-0.0238647756233807
40,-0.00887376977347315,-0.0239125966981806,0.776811889140947,-0.572878431871633,0.776811889149683,-0.572878431887188,-0.00872077812525207,-0.0241269994585328
40.5,-0.0091863904369443,-0.0241657811413936,0.772224120566126,-0.578781954126073,0.772224120574176,-0.578781954141386,-0.00903069060778067,-0.0243857323320683
41,-0.0095043870723181,-0.0244152343303851,0.767592453118185,-0.584649265458275,0.767592453125593,-0.584649265473309,-0.00934603185061694,-0.0246408347238753
41.5,-0.00982768819119623,-0.0246608230513214,0.762917139682354,-0.590480014828712,0.762917139689167,-0.590480014843434,-0.0096667328728261,-0.0248921704741899
42,-0.0101562190819846,-0.0249024175217337,0.758198438168045,-0.59627385348611,0.758198438174311,-0.596273853500491,-0.00999272120293004,-0.0251396068373672
42.5,-0.0104899019921986,-0.0251398914133759,0.75343661138056,-0.602030435050271,0.753436611386329,-0.602030435064288,-0.0103239210700615,-0.0253830145267977
43,-0.0108286563071403,-0.0253731218678509,0.748631926896035,-0.607749415590425,0.748631926901353,-0.607749415604057,-0.010660253592976,-0.0256222677511084
43.5,-0.0111723987246677,-0.0256019895052452,0.743784656939455,-0.613430453699259,0.743784656944372,-0.61343045371249,-0.0110016369664755,-0.0258572442418222
44,-0.0115210434258099,-0.025826378426025,0.738895078265652,-0.619073210562806,0.738895078270218,-0.619073210575623,-0.0113479866448266,-0.0260878252726812
44.5,-0.0118745022409913,-0.0260461762064764,0.733963472043143,-0.624677350026323,0.733963472047406,-0.624677350038718,-0.0116992155217766,-0.0263138956708863
45,-0.01223268481166,-0.0262612738879836,0.728990123740731,-0.630242538656349,0.728990123744737,-0.630242538668315,-0.0120552341067872,-0.0265353438205167
45.5,-0.0125954987471025,-0.0264715659604383,0.723975323016764,-0.63576844579906,0.723975323020561,-0.635768445810596,-0.0124159506971391,-0.0267520616584409
46,-0.0129628497763139,-0.0266769503401229,0.718919363610989,-0.6412547436351,0.718919363614624,-0.641254743646207,-0.0127812715455754,-0.0269639446630127
46.5,-0.0133346418947138,-0.0268773283423598,0.713822543238895,-0.646701107231014,0.713822543242413,-0.646701107241698,-0.0131511010231956,-0.0271708918359431
47,-0.0137107775056288,-0.027072604649288,0.708685163488508,-0.652107214587435,0.708685163491951,-0.652107214597701,-0.0135253417773114,-0.0273728056776504
47.5,-0.0140911575563988,-0.0272626872730782,0.703507529719531,-0.657472746684153,0.703507529722943,-0.657472746694013,-0.0139038948840399,-0.0275695921565029
48,-0.0144756816690256,-0.0274474875149437,0.698289950964817,-0.662797387522211,0.698289950968238,-0.662797387531677,-0.0142866599954037,-0.0277611606723105
48.5,-0.0148642482652914,-0.0276269199202678,0.693032739834065,-0.668080824163147,0.693032739837534,-0.668080824172233,-0.0146735354807567,-0.0279474240144714
49,-0.0152567546863009,-0.0278009022301983,0.687736212419712,-0.673322746765504,0.687736212423266,-0.673322746774228,-0.0150644185623738,-0.0281282983151633
49.5,-0.0156530973064027,-0.0279693553300316,0.68240068820497,-0.678522848618744,0.682400688208646,-0.678522848627126,-0.0154592054450738,-0.0283037029979786
50,-0.0160531716414892,-0.0281322031947291,0.677026489973934,-0.683680826174664,0.677026489977764,-0.683680826182724,-0.0158577914397647,-0.0284735607224091
50.5,-0.0164568724516693,-0.0282893728318773,0.671613943723733,-0.688796379076435,0.671613943727749,-0.688796379084197,-0.0162600710808356,-0.0286377973245753
51,-0.0168640938383329,-0.0284407942224241,0.666163378578669,-0.693869210185366,0.6661633785829,-0.693869210192855,-0.0166659382373417,-0.0287963417545996
51.5,-0.0172747293356529,-0.0285864002594937,0.660675126706293,-0.698899025605505,0.660675126710767,-0.698899025612746,-0.0170752862179445,-0.0289491260110195
52,-0.0176886719965609,-0.0287261266855888,0.655149523235383,-0.703885534706159,0.655149523240125,-0.70388553471318,-0.0174880078696079,-0.0290960850726215
52.5,-0.0181058144732724,-0.0288599120284728,0.649586906175772,-0.708828450142453,0.649586906180805,-0.708828450149283,-0.0179039956700598,-0.0292371568280799
53,-0.0185260490924342,-0.0289876975360204,0.643987616339996,-0.713727487873989,0.64398761634534,-0.713727487880657,-0.0183231418140581,-0.0293722820037688
53.5,-0.0189492679249838,-0.0291094271103119,0.638351997266709,-0.71858236718172,0.638351997272384,-0.718582367188256,-0.0187453382935119,-0.0295014040901088
54,-0.0193753628508226,-0.0292250472412358,0.632680395145833,-0.723392810683098,0.632680395151855,-0.723392810689534,-0.0191704769715402,-0.0296244692667987
54.5,-0.0198042256184175,-0.0293345069398556,0.626973158745405,-0.728158544345605,0.626973158751789,-0.728158544351972,-0.0195984496505485,-0.0297414263272687
55,-0.0202357478994455,-0.0294377576717865,0.621230639340085,-0.732879297498707,0.621230639346843,-0.732879297505036,-0.0200291481344417,-0.0298522266026833
55.5,-0.0206698213386191,-0.0295347532908107,0.615453190641279,-0.737554802844338,0.615453190648421,-0.737554802850662,-0.0204624642850867,-0.0299568238858036
56,-0.0211063375988205,-0.0296254499729567,0.609641168728863,-0.742184796465963,0.609641168736396,-0.742184796472315,-0.0208982900731655,-0.0300551743550093
56.5,-0.0215451884017026,-0.0297098061512539,0.603794931984447,-0.746769017836303,0.603794931992378,-0.746769017842714,-0.0213365176235699,-0.0301472364987677
57,-0.0219862655638917,-0.0297877824513534,0.597914841026182,-0.751307209823762,0.597914841034514,-0.751307209830265,-0.0217770392554874,-0.0302329710408165
57.5,-0.0224294610289649,-0.0298593416282133,0.592001258645028,-0.755799118697649,0.592001258653763,-0.755799118704277,-0.0222197475173596,-0.0303123408663201
58,-0.022874666895348,-0.0299244485040152,0.586054549742509,-0.760244494132232,0.586054549751648,-0.760244494139016,-0.0226645352168842,-0.0303853109492375
58.5,-0.0233217754403149,-0.0299830699074811,0.580075081269881,-0.764643089209682,0.58007508127942,-0.764643089216653,-0.0231112954462506,-0.0304518482811346
59,-0.0237706791402399,-0.0300351746147398,0.574063222168706,-0.76899466042197,0.574063222178642,-0.76899466042916,-0.0235599216028007,-0.0305119218016465
59.5,-0.024221270687295,-0.0300807332918956,0.568019343312794,-0.773298967671769,0.56801934332312,-0.773298967679207,-0.0240103074053201,-0.0305655023307944
60,-0.0246734430027437,-0.0301197184394151,0.561943817451491,-0.777555774272394,0.5619438174622,-0.77755577428011,-0.0244623469061522,-0.0306125625033351
60.5,-0.0251270892470312,-0.0301521043384683,0.555837019154286,-0.781764846946847,0.555837019165368,-0.781764846954869,-0.0249159344993599,-0.0306530767053176
61,-0.0255821028268245,-0.0301778669993235,0.549699324756709,-0.785925955826006,0.549699324768153,-0.785925955834363,-0.0253709649251314,-0.0306870210129984
61.5,-0.0260383773992016,-0.0301969841119066,0.543531112307488,-0.790038874445997,0.543531112319283,-0.790038874454714,-0.0258273332706595,-0.0307143731342597
62,-0.0264958068731478,-0.0302094349986043,0.537332761516962,-0.794103379744795,0.537332761529092,-0.794103379753899,-0.0262849349676949,-0.0307351123526571
