"Freq [GHz]","re(St(P1,P1)) []","im(St(P1,P1)) []","re(St(P1,P2)) []","im(St(P1,P2)) []","re(St(P2,P1)) []","im(St(P2,P1)) []","re(St(P2,P2)) []","im(St(P2,P2)) []"
0,0.00696885076894205,0,0.993045945026097,0,0.993045941664604,0,0.00696884172873524,0
0.5,0.00749592946991839,0.00142453846403257,0.992426492716646,-0.0092516158328575,0.992426492894062,-0.00925161545192843,0.00749619408281887,0.00142404144960295
1,0.00792189774747065,0.00225650813500167,0.99175856815952,-0.0178885213188487,0.991758567793752,-0.017888521035454,0.00792269418561098,0.00225526330924453
1.5,0.00821026543223624,0.00298094343188993,0.991088524647858,-0.0263706346739152,0.991088524491717,-0.026370634359786,0.00821178112032328,0.00297886635684996
2,0.00838832967783887,0.0036763324219109,0.990396049541774,-0.0347725942613621,0.990396049513476,-0.0347725940329759,0.0083906622553318,0.00367323643226669
2.5,0.00851176314284308,0.00438394508756268,0.989636846546898,-0.0431238587904499,0.989636846562169,-0.0431238586649165,0.00851499630213093,0.00437971882595178
3,0.00861134150771692,0.00510964921084955,0.988794123119349,-0.0514223828608493,0.988794123126479,-0.0514223828183598,0.00861557390243872,0.00510420167559911
3.5,0.00870287716951146,0.00585197427574258,0.987866343907054,-0.0596627348330712,0.987866343880537,-0.0596627348453831,0.00870821500634267,0.0058452121095609
4,0.00879506161586829,0.00660859715251494,0.986858165265336,-0.0678418727048387,0.986858165196713,-0.0678418727457091,0.00880160973207533,0.00660041863101313
4.5,0.00889323633218919,0.00737759403702398,0.985776024867018,-0.0759595612838062,0.985776024758112,-0.0759595613324358,0.00890109202352574,0.00736788929645638
5,0.00900113407330894,0.00815752600972441,0.984626147340876,-0.0840176564271218,0.984626147199192,-0.0840176564688688,0.00901038315717373,0.00814617971805998
5.5,0.00912171111711435,0.00894730094095841,0.983413727348062,-0.0920192829170707,0.983413727183733,-0.0920192829429967,0.0091324255532953,0.0089341961508147
6,0.00925756480405682,0.00974602214081166,0.982142695962507,-0.0999681565385782,0.982142695786334,-0.0999681565445627,0.00926980152104845,0.00973104490756427
6.5,0.00941115227767353,0.0105528620153565,0.980815771533274,-0.107868093540961,0.980815771355533,-0.107868093526685,0.00942495310284786,0.0105359066314339
7,0.00958490788836783,0.0113669602684849,0.979434636004492,-0.115722689230613,0.979434635834276,-0.115722689198618,0.00960030063768558,0.0113479350310075
7.5,0.0097813049798524,0.0121873396271925,0.978000150697767,-0.12353513033812,0.978000150542693,-0.123535130292967,0.00979830586221442,0.0121661730430018
8,0.0100028841353709,0.013012832814475,0.976512566792996,-0.13130810474497,0.976512566659141,-0.131308104692583,0.0100215016906543,0.0129894800936432
8.5,0.0102522586103087,0.01384201644859,0.974971709689906,-0.139043777213599,0.974971709581869,-0.13904377716075,0.010272499438014,0.0138164660573548
9,0.0105321019617434,0.0146731493559886,0.973377130087794,-0.146743806623705,0.973377130008846,-0.146743806577624,0.0105539785093271,0.0146454292963152
9.5,0.0108451198951031,0.015504114274083,0.971728221952539,-0.154409386862153,0.971728221904794,-0.15440938683027,0.0108686605563834,0.0154742976321107
10,0.011194006772565,0.0163323631709908,0.970024311038247,-0.162041299099449,0.970024311022839,-0.162041299089203,0.011219268487854,0.0163005723343628
10.5,0.0115744393975147,0.0170857470993675,0.96827710085729,-0.169630729567088,0.968277100841551,-0.169630729557431,0.0116007146310585,0.0170515671157458
11,0.0119701577321257,0.0178300007694796,0.966484194137655,-0.177187887846121,0.966484194121579,-0.177187887836877,0.0119975481416204,0.0177933639060432
11.5,0.0123807789321262,0.018564744701322,0.964645498530531,-0.184714331403897,0.964645498514142,-0.18471433139491,0.0124093865111423,0.0185255861699472
12,0.0128059158834413,0.0192896120373747,0.962760823629829,-0.192211365797462,0.962760823613173,-0.1922113657886,0.0128358423353335,0.0192478698281402
12.5,0.0132451778708528,0.0200042493103378,0.960829918821513,-0.199680071346561,0.960829918804651,-0.19968007133772,0.0132765240458169,0.0199598639705978
13,0.013698171194859,0.0207083171115605,0.958852502109148,-0.207121329720002,0.958852502092148,-0.207121329711102,0.0137310365920069,0.0206612314841004
13.5,0.0141644997453189,0.0214014906592312,0.956828281549822,-0.214535849342141,0.956828281532762,-0.214535849333122,0.0141989820795357,0.0213516495919022
14,0.0146437655395893,0.022083460267446,0.954756970751618,-0.221924188962111,0.95475697073457,-0.221924188952935,0.0146799603712197,0.0220308103053348
14.5,0.015135569231804,0.0227539317187495,0.952638299679941,-0.229286779041918,0.95263829966298,-0.229286779032562,0.0151735696559417,0.0226984207884713
15,0.0156395105988888,0.0234126265440737,0.950472021818702,-0.236623940837083,0.950472021801895,-0.236623940827542,0.0156794069901114,0.0233542036383074
15.5,0.0161551890078105,0.0240592822148207,0.948257918546207,-0.243935903188605,0.948257918529618,-0.243935903178886,0.0161970688156033,0.0239978970837997
16,0.0166822038675482,0.0246936522525563,0.945995801421256,-0.251222817136537,0.945995801404938,-0.251222817126656,0.016726151457335,0.0246292551078211
16.5,0.0172201550683266,0.025315506262098,0.943685512933869,-0.258484768518781,0.94368551291787,-0.258484768508763,0.0172662516029254,0.0252480474966328
17,0.0177686434098356,0.0259246298940448,0.941326926157034,-0.26572178874524,0.941326926141392,-0.265721788735116,0.0178169667662179,0.0258540598217951
17.5,0.0183272710194249,0.0265208247428059,0.938919943638569,-0.272933863945959,0.938919943623314,-0.272933863935766,0.0183778957358791,0.0264470933596226
18,0.0188956417606795,0.0271039081861417,0.93646449579337,-0.280120942688684,0.936464495778524,-0.280120942678458,0.0189486390097673,0.0270269649533792
18.5,0.0194733616322883,0.0276737131720415,0.933960538993079,-0.287282942450863,0.933960538978658,-0.287282942440645,0.0195287992153524,0.0275935068233426
19,0.0200600391567542,0.0282300879585449,0.931408053500058,-0.294419755016631,0.931408053486068,-0.294419755006461,0.0201179815161288,0.0281465663298219
19.5,0.0206552857582004,0.0287728958118521,0.92880704135316,-0.301531250952956,0.928807041339601,-0.301531250942872,0.0207157940037007,0.0286860056939877
20,0.0212587161283602,0.0293020146677492,0.926157524282155,-0.308617283302286,0.926157524269023,-0.308617283292327,0.021321848075024,0.0292117016812439
20.5,0.0218699485796956,0.0298173367610646,0.923459541703999,-0.315677690612653,0.923459541691284,-0.315677690602854,0.0219357587941636,0.0297235452515723
21,0.0224886053845615,0.0303187682275843,0.920713148836084,-0.32271229941066,0.920713148823771,-0.322712299401053,0.0225571452378502,0.0302214411811179
21.5,0.0231143130993277,0.0308062286825002,0.917918414947996,-0.329720926208663,0.917918414936066,-0.329720926199276,0.0231856308240951,0.0307053076589661
22,0.0237467028724006,0.0312796507791893,0.915075421763114,-0.336703379124621,0.915075421751545,-0.336703379115482,0.0238208436231285,0.0311750758628508
22.5,0.0243854107351791,0.0317389797518215,0.912184262013951,-0.343659459181686,0.912184262002721,-0.343659459172816,0.0244624166499738,0.0316306895172618
23,0.0250300778750799,0.0321841729450341,0.909245038149764,-0.350588961344535,0.909245038138845,-0.350588961335953,0.0251099881380373,0.0320721044371941
23.5,0.0256803508898576,0.032615199333613,0.906257861191204,-0.357491675340729,0.906257861180568,-0.35749167533245,0.0257632017931785,0.0324992880605299
24,0.0263358820226196,0.0330320390349226,0.903222849724299,-0.364367386307698,0.903222849713919,-0.364367386299733,0.0264217070278177,0.0329122189718254
24.5,0.0269963293770211,0.0334346828165681,0.90014012902443,-0.371215875299428,0.900140129014277,-0.371215875291785,0.0270851591747586,0.03331088642006
25,0.0276613571123081,0.0338231316015709,0.897009830300117,-0.378036919681256,0.897009830290163,-0.378036919673939,0.0277532196805031,0.0336952898327088
25.5,0.0283306356179672,0.0341973959731405,0.893832090046039,-0.384830293436377,0.893832090036254,-0.384830293429387,0.0284255562779473,0.0340654383282828
26,0.0290038416679119,0.0345574956809349,0.890607049494719,-0.391595767403548,0.890607049485078,-0.391595767396884,0.0291018431384712,0.0344213502293267
26.5,0.0296806585542354,0.0349034591505444,0.887334854156606,-0.39833310946201,0.88733485414708,-0.398333109455667,0.0297817610035232,0.034763052577677
27,0.0303607762006786,0.0352353229977502,0.884015653438678,-0.405042084676686,0.884015653429244,-0.405042084670657,0.0304649972959222,0.0350905806536193
27.5,0.0310438912560901,0.0355531315489922,0.880649600332338,-0.411722455414249,0.880649600322972,-0.411722455408524,0.0311512462111765,0.0354039775004522
28,0.031729707168221,0.035856936369297,0.87723685116195,-0.418373981438594,0.877236851152629,-0.418373981433164,0.031840208789218,0.0357032934557782
28.5,0.0324179342383248,0.0361467957988316,0.873777565386087,-0.424996419992475,0.873777565376792,-0.424996419987325,0.032531592967033,0.0359885856907753
29,0.0331082896570777,0.0364227744990967,0.870271905444234,-0.431589525870653,0.870271905434947,-0.431589525865769,0.0332251136127257,0.0362599177584982
29.5,0.0338004975224256,0.0366849430096666,0.866720036642364,-0.438153051488693,0.866720036633067,-0.438153051484058,0.033920492541635,0.0365173591522071
30,0.0344942888400195,0.0369333773162863,0.863122127071465,-0.444686746950564,0.863122127062144,-0.444686746946162,0.0346174585151636,0.0367609848745698
30.5,0.0351894015069451,0.0371681584310116,0.85947834755373,-0.451190360117382,0.859478347544373,-0.451190360113195,0.035315747223029,0.036990875018487
31,0.0358855802795016,0.0373893719850147,0.855788871611686,-0.457663636678981,0.855788871602283,-0.45766363667499,0.0360151012496965,0.0372071143602117
31.5,0.0365825767258158,0.0375971078345662,0.852053875456104,-0.464106320229466,0.852053875446647,-0.464106320225652,0.0367152700257593,0.037409791965303
32,0.0372801491641009,0.0377914596806312,0.848273537989025,-0.470518152347457,0.848273537979505,-0.470518152343801,0.0374160097650855,0.0375990008079142
32.5,0.0379780625873934,0.0379725247024461,0.844448040818686,-0.476898872681428,0.844448040809101,-0.476898872677911,0.0381170833885447,0.0377748374037987
33,0.0386760885756066,0.0381404032053559,0.84057756828359,-0.483248219040232,0.840577568273936,-0.483248219036835,0.0388182604351504,0.037937401457359
33.5,0.0393740051957535,0.03829519828314,0.836662307483273,-0.489565927488743,0.836662307473551,-0.489565927485447,0.0395193169614567,0.0380867955229948
34,0.0400715968911826,0.0384370154949878,0.832702448313744,-0.495851732448358,0.832702448303952,-0.495851732445143,0.040220035430048,0.0382231246809306
34.5,0.0407686543606743,0.0385659625572259,0.828698183505797,-0.502105366802004,0.828698183495939,-0.502105366798854,0.0409202045879568,0.0383464962276626
35,0.0414649744282347,0.0386821490498425,0.824649708664741,-0.50832656200322,0.82464970865482,-0.508326562000116,0.0416196193358336,0.0384570193810845
35.5,0.0421603599044025,0.038785686137821,0.820557222310273,-0.514515048188796,0.820557222300296,-0.514515048185723,0.0423180805886854,0.0385548050003228
36,0.0428546194398869,0.0388766863072297,0.816420925915477,-0.520670554294485,0.816420925905449,-0.520670554291427,0.0430153951289812,0.0386399653202543
36.5,0.0435475673723214,0.0389552631159893,0.812241023944084,-0.526792808173213,0.812241023934013,-0.526792808170153,0.0437113754529026,0.0387126137006387
37,0.0442390235668941,0.0390215309591939,0.808017723885329,-0.532881536715272,0.808017723875224,-0.532881536712198,0.0444058396105027,0.0387728643897542
37.5,0.0449288132516101,0.0390756048488325,0.803751236285841,-0.53893646596997,0.803751236275712,-0.538936465966868,0.0450986110405112,0.0388208323024078
38,0.0456167668479019,0.0391176002077243,0.799441774778171,-0.544957321268216,0.79944177476803,-0.544957321265075,0.0457895184004944,0.0388566328121288
38.5,0.0463027197972818,0.0391476326774575,0.795089556105633,-0.550943827345564,0.79508955609549,-0.550943827342373,0.0464783953930705,0.0388803815573635
39,0.0469865123847022,0.0391658179400883,0.790694800143242,-0.556895708465272,0.790694800133109,-0.556895708462021,0.0471650805888267,0.0388921942614229
39.5,0.0476679895592696,0.0391722715533538,0.786257729914619,-0.562812688540929,0.78625772990451,-0.562812688537608,0.0478494172465875,0.0388921865659531
40,0.0483470007529214,0.0391671087991046,0.781778571604777,-0.568694491258275,0.781778571594705,-0.568694491254878,0.0485312531316376,0.0388804738776463
40.5,0.0490233996976445,0.0391504445446819,0.777257554568782,-0.574540840195857,0.77725755455876,-0.574540840192378,0.0492104403324791,0.0388571712279097
41,0.0496970442418063,0.0391223931169198,0.772694911336308,-0.580351458944189,0.772694911326352,-0.580351458940622,0.0498868350766771,0.0388223931451959
41.5,0.0503677961661109,0.0390830681884552,0.768090877612169,-0.586126071223127,0.768090877602291,-0.586126071219468,0.0505602975463226,0.0387762535396715
42,0.0510355209996896,0.0390325826760219,0.763445692272909,-0.591864400997206,0.763445692263125,-0.591864400993453,0.0512306916936079,0.0387188655999079
42.5,0.0517000878368012,0.0389710486503853,0.758759597359595,-0.597566172588705,0.758759597349918,-0.597566172584856,0.0518978850569899,0.0386503417012602
43,0.0523613691545876,0.0388985772575783,0.754032838066941,-0.603231110788247,0.754032838057387,-0.6032311107843,0.0525617485783887,0.0385707933255932
43.5,0.0530192406323022,0.0388152786510924,0.749265662728941,-0.608858940962752,0.749265662719524,-0.608858940958709,0.0532221564218386,0.0384803309920086
44,0.0536735809724194,0.038721261934663,0.744458322801158,-0.61444938916062,0.744458322791891,-0.614449389156481,0.0538789857939936,0.0383790641982303
44.5,0.0543242717239877,0.038616635115311,0.73961107283988,-0.62000218221399,0.739611072830778,-0.620002182209759,0.0545321167668608,0.0382671013722928
45,0.0549711971085877,0.0385015050662709,0.734724170478303,-0.625517047838016,0.734724170469379,-0.625517047833695,0.0551814321031048,0.0381445498341819
45.5,0.0556142438492098,0.0383759774994599,0.729797876399936,-0.630993714727045,0.729797876391202,-0.630993714722639,0.0558268170842635,0.038011515767075
46,0.056253301002374,0.0382401569471348,0.724832454309424,-0.636431912647666,0.724832454300895,-0.63643191264318,0.0564681593421754,0.0378681041978299
46.5,0.056888259793767,0.0380941467523765,0.719828170900964,-0.64183137252857,0.719828170892652,-0.641831372524011,0.0571053486939058,0.0377144189863736
47,0.0575190134576734,0.0379380490680659,0.714785295824507,-0.647191826547207,0.714785295816423,-0.647191826542581,0.0577382769804494,0.0375505628236363
47.5,0.0581454570804438,0.0377719648639896,0.709704101649917,-0.652513008213215,0.709704101642072,-0.652513008208528,0.0583668379094496,0.0373766372376956
48,0.0587674874482373,0.0375959939417446,0.704584863829277,-0.657794652448633,0.704584863821683,-0.657794652443896,0.0589909269021768,0.0371927426077752
48.5,0.0593850028992535,0.0374102349570893,0.699427860657501,-0.663036495664912,0.699427860650167,-0.663036495660132,0.059610440944979,0.0369989781857713
49,0.059997903180658,0.037214785449423,0.694233373231421,-0.668238275836721,0.694233373224356,-0.668238275831907,0.0602252784454121,0.0367954421249647
49.5,0.0606060893103782,0.037009741878037,0.689001685407502,-0.673399732572609,0.689001685400717,-0.673399732567773,0.0608353390932332,0.0365822315155856
50,0.0612094634439604,0.0367951996648336,0.683733083758354,-0.678520607182547,0.683733083751855,-0.678520607177698,0.0614405237264363,0.0363594424269091
50.5,0.0618079287466313,0.0365712532431718,0.67842785752816,-0.683600642742389,0.678427857521955,-0.683600642737539,0.062040734202489,0.0361271699555539
51,0.0624013892707199,0.0363379961125321,0.673086298587182,-0.688639584155314,0.673086298581277,-0.688639584150474,0.0626358732749279,0.0358855082796665
51.5,0.0629897498385816,0.0360955208986745,0.667708701385461,-0.693637178210296,0.667708701379862,-0.693637178205478,0.0632258444754413,0.0356345507186747
52,0.0635729159311437,0.0358439194189872,0.662295362905845,-0.69859317363767,0.662295362900557,-0.698593173632885,0.063810552001578,0.0353743897983011
52.5,0.0641507935821899,0.035583282752713,0.65684658261645,-0.703507321161846,0.656846582611478,-0.703507321157107,0.0643899006101961,0.0351051173205251
53,0.0647232892784993,0.0353137013157525,0.651362662422689,-0.708379373551249,0.651362662418035,-0.708379373546567,0.0649637955167629,0.0348268244381956
53.5,0.065290309865925,0.0350352649397424,0.645843906618938,-0.713209085665544,0.645843906614605,-0.713209085660934,0.0655321423006068,0.0345396017339884
54,0.0658517624615152,0.0347480629551081,0.640290621839974,-0.717996214500229,0.640290621835964,-0.717996214495702,0.0660948468162106,0.034243539303411
54.5,0.0664075543717498,0.0344521842778083,0.634703117012254,-0.722740519228642,0.634703117008569,-0.722740519224212,0.0666518151106383,0.0339387268415669
55,0.0669575930169728,0.0341477174994644,0.629081703305127,-0.727441761241494,0.629081703301766,-0.727441761237172,0.0672029533471633,0.0336252537333805
55.5,0.0675017858620812,0.0338347509805952,0.623426694082061,-0.732099704183959,0.623426694079023,-0.732099704179758,0.0677481677351718,0.033303209146994
56,0.0680400403535346,0.0335133729466698,0.617738404851959,-0.736714113990429,0.617738404849244,-0.736714113986362,0.0682873644664067,0.0329726821300537
56.5,0.0685722638627393,0.0331836715866893,0.612017153220642,-0.741284758916986,0.612017153218247,-0.741284758913065,0.0688204496575985,0.0326337617085942
57,0.069098363635846,0.0328457351540163,0.606263258842548,-0.745811409571676,0.606263258840471,-0.745811409567914,0.0693473292995424,0.0322865369882397
57.5,0.0696182467500043,0.032499652069168,0.600477043372719,-0.75029383894265,0.600477043370956,-0.750293838939059,0.0698679092126546,0.0319310972574368
58,0.07013182007611,0.0321455110242959,0.594658830419139,-0.754731822424253,0.594658830417686,-0.754731822420844,0.0703820950090501,0.0315675320924399
58.5,0.07063899024806,0.0317834010890604,0.588808945495451,-0.759125137841123,0.588808945494302,-0.759125137837908,0.0708897920611615,0.0311959314637639
59,0.0711396636385443,0.0314134118176375,0.58292771597413,-0.763473565470378,0.582927715973281,-0.763473565467367,0.0713909054769314,0.0308163858438223
59.5,0.0716337463413793,0.0310356333565575,0.577015471040137,-0.767776888061959,0.577015471039579,-0.767776888059163,0.0718853400815833,0.0304289863154766
60,0.0721211441603861,0.0306501565531103,0.571072541645094,-0.772034890857196,0.571072541644821,-0.772034890854626,0.0723730004059824,0.0300338246812034
60.5,0.0726017626048207,0.0302570730640324,0.565099260462036,-0.776247361605662,0.565099260462042,-0.776247361603328,0.0728537906815901,0.0296309935726126
61,0.0730755068913296,0.0298564754641911,0.559095961840756,-0.780414090580391,0.559095961841031,-0.780414090578302,0.0733276148419948,0.0292205865600188
61.5,0.0735422819524268,0.0294484573549937,0.553062981763771,-0.784534870591509,0.553062981764307,-0.784534870589674,0.0737943765310188,0.0288026982617982
62,0.0740019924514572,0.0290331134722319,0.547000657802966,-0.788609496998356,0.547000657803753,-0.788609496996783,0.0742539791173604,0.028377424453238
62.5,0.0744545428040129,0.0286105397930864,0.540909329076901,-0.792637767720156,0.540909329077929,-0.792637767718852,0.074706325715759,0.0279448621745987
63,0.0748998372057648,0.028180833642007,0.534789336208846,-0.796619483245287,0.534789336210104,-0.79661948324426,0.0751513192146255,0.0275051098381065
63.5,0.0753377796666443,0.0277440937951844,0.528641021285528,-0.800554446639228,0.528641021287006,-0.800554446638485,0.075588862310101,0.0270582673335888
64,0.075768274051326,0.0273004205833384,0.522464727816638,-0.804442463551222,0.522464727818324,-0.804442463550768,0.0760188575464785,0.0266044361324671
