"Freq [GHz]","re(St(P1,P1)) []","im(St(P1,P1)) []","re(St(P1,P2)) []","im(St(P1,P2)) []","re(St(P2,P1)) []","im(St(P2,P1)) []","re(St(P2,P2)) []","im(St(P2,P2)) []"
0,0.00315342244084604,0,0.996858626196627,0,0.996858621336287,0,0.00315341925048074,0
0.5,0.00349871065667173,0.000317450433293232,0.996494307117842,-0.0030808449641313,0.996494306971002,-0.00308084574404788,0.00349863168149511,0.000317658047244151
1,0.00387176322904992,0.000196220323793739,0.996097772623955,-0.00572181725349807,0.996097772443562,-0.00572181732474775,0.00387155273880069,0.000196719614578456
1.5,0.00414677456257095,-2.46208039307305E-005,0.995818887514648,-0.00836697435654443,0.995818887380903,-0.00836697443783407,0.00414639978915332,-2.38996026880045E-005
2,0.00433024790913095,-0.000310432657816051,0.995568271067111,-0.0109006139254078,0.995568270987071,-0.0109006140037202,0.00432965677100228,-0.000309426917386446
2.5,0.00445145943733039,-0.000608118969743998,0.995360087035248,-0.0133703509875502,0.995360087004997,-0.0133703510542595,0.00445063239840238,-0.000606791970593434
3,0.00453590944339766,-0.000901760369757199,0.995186423204437,-0.0158079260887192,0.99518642321393,-0.0158079261389368,0.00453482920816128,-0.000900096084841095
3.5,0.0045992042301588,-0.00118828094569423,0.995034884372801,-0.0182308535243507,0.995034884410364,-0.0182308535564282,0.00459784829048715,-0.00118627344765088
4,0.00465036670042807,-0.001468375375552,0.994894835094433,-0.0206480987859159,0.994894835149353,-0.0206480988006348,0.00464870700032449,-0.00146602300151599
4.5,0.00469468241518456,-0.00174361637828113,0.994758522864815,-0.0230640877241264,0.994758522928437,-0.0230640877238457,0.00469268628950914,-0.00174091907969398
5,0.00473535540181391,-0.00201560043493743,0.994620645842687,-0.0254809174849626,0.994620645908542,-0.0254809174727875,0.00473298640056274,-0.00201255864185867
5.5,0.00477440886369962,-0.00228573437698643,0.99447767179836,-0.0278994912510591,0.994477671861914,-0.0278994912302792,0.00477162726602742,-0.00228234853221565
6,0.00481317680566118,-0.00255521589569163,0.994327268794906,-0.0303200950736215,0.99432726885315,-0.030320095047335,0.0048099398746535,-0.00255148628190227
6.5,0.00485257918754201,-0.00282506601836019,0.994167898539444,-0.0327426956221526,0.994167898590505,-0.0327426955931376,0.00484884123958551,-0.00282099271416492
7,0.00489328089372743,-0.00309616945462565,0.993998543064342,-0.0351670973779168,0.993998543107158,-0.0351670973485412,0.00488899323757996,-0.00309175234791148
7.5,0.00493578668150541,-0.0033693103838548,0.99381852561184,-0.0375930272886915,0.993818525645898,-0.0375930272609182,0.00493089746238073,-0.0033645492111134
8,0.0049804997982501,-0.00364520135977919,0.99362739429866,-0.0400201808694156,0.993627394323823,-0.0400201808448628,0.00497495376793733,-0.00364009575815594
8.5,0.00502775937853661,-0.00392450599046867,0.993424846593263,-0.0424482472440015,0.99342484660963,-0.0424482472239411,0.00502149760310688,-0.00391905555716932
9,0.00507786511579322,-0.00420785670314494,0.993210680083681,-0.0448769224359182,0.993210680091489,-0.0448769224213734,0.00507082462628627,-0.00420206106100629
9.5,0.00513109412666601,-0.00449586884262487,0.992984760165764,-0.0473059160150111,0.99298476016534,-0.047305916006783,0.00512320751393291,-0.00448972771216383
10,0.00518771293923681,-0.0047891521185619,0.992746998661718,-0.0497349539754754,0.992746998653427,-0.049734953974184,0.00517890789109332,-0.004782665397979
10.5,0.00523491910514284,-0.00508144644605046,0.992516340198861,-0.05215628862946,0.992516340190454,-0.0521562886275291,0.00521987425140424,-0.00507694606061015
11,0.00528016931508146,-0.00537605122154616,0.99227983524328,-0.0545716122481625,0.992279835234821,-0.0545716122455957,0.0052591759752274,-0.00537255274108972
11.5,0.00532354166481963,-0.0056728101920438,0.992037789893256,-0.0569811619361396,0.992037789884804,-0.0569811619329421,0.00529696035523219,-0.00566949198707967
12,0.00536510928240053,-0.00597159759310983,0.99179047235835,-0.0593851830414707,0.991790472349964,-0.0593851830376462,0.00533334139093844,-0.00596778345613913
12.5,0.00540493812331544,-0.00627231271761275,0.991538114978492,-0.0617839248999434,0.991538114970224,-0.0617839248955114,0.00536840457445797,-0.006267454576939
13,0.00544308573214281,-0.00657487519621824,0.991280916541849,-0.0641776371836382,0.991280916533749,-0.0641776371786165,0.00540221117089867,-0.00656853666679247
13.5,0.00547960070039011,-0.00687922095947258,0.991019044793586,-0.0665665668290156,0.991019044785703,-0.066566566823429,0.00543480198628288,-0.00687106213405109
14,0.00551452261325536,-0.00718529882561469,0.990752639043966,-0.068950955507419,0.990752639036339,-0.0689509555012924,0.00546620065014491,-0.00717506248745536
14.5,0.00554788232910419,-0.00749306764655522,0.990481812800364,-0.0713310375927776,0.990481812793032,-0.0713310375861402,0.00549641645614452,-0.00748056694529353
15,0.0055797024757358,-0.00780249394189259,0.990206656362871,-0.0737070385767371,0.990206656355865,-0.0737070385696263,0.00552544680953837,-0.00778760149017632
15.5,0.00560999807856766,-0.00811354995334579,0.989927239336854,-0.0760791738797275,0.989927239330204,-0.0760791738721744,0.00555327933011507,-0.00809618825467684
16,0.00563877725974982,-0.00842621205742944,0.989643613027955,-0.0784476480068923,0.989643613021686,-0.0784476479989307,0.00557989365603107,-0.00840634515228267
16.5,0.00566604196496401,-0.00874045948072055,0.989355812695367,-0.080812653999736,0.989355812689499,-0.0808126539914023,0.00560526298940822,-0.00871808568980725
17,0.00569178868802844,-0.00905627326908576,0.98906385964793,-0.0831743731375738,0.989063859642479,-0.0831743731289016,0.00562935541968757,-0.00903141891351478
17.5,0.00571600917319892,-0.00937363546883407,0.988767763174722,-0.0855329748465872,0.988767763169702,-0.0855329748376157,0.00565213505598405,-0.00934634945314983
18,0.00573869108220115,-0.00969252848387558,0.988467522307495,-0.0878886167784128,0.988467522302918,-0.0878886167691784,0.00567356299529564,-0.00966287763684903
18.5,0.00575981861816549,-0.0100129345785556,0.988163127416692,-0.0902414450246551,0.988163127412561,-0.090241445015188,0.00569359814954817,-0.00998099965668064
19,0.00577937310229226,-0.0103348355004389,0.987854561646107,-0.0925915944377085,0.987854561642427,-0.0925915944280442,0.00571219795108613,-0.0103007077693782
19.5,0.00579733350167133,-0.0106582122016814,0.987541802193626,-0.094939189032555,0.987541802190399,-0.0949391890227256,0.00572931895329626,-0.0106219905206277
20,0.00581367690842965,-0.0109830446408772,0.987224821447114,-0.0972843424477476,0.98722482144434,-0.0972843424377894,0.00574491734063004,-0.0109448329840474
20.5,0.00582837897154881,-0.0113093116504741,0.986903587985471,-0.0996271584473734,0.986903587983144,-0.0996271584373094,0.00575894936016241,-0.0112692170080884
21,0.00584141428349499,-0.011636990857177,0.986578067455437,-0.10196773144876,0.986578067453554,-0.101967731438624,0.00577137168510655,-0.0115951214658017
21.5,0.00585275672424918,-0.0119660586450143,0.986248223334847,-0.10430614706354,0.9862482233334,-0.104306147053359,0.00578214171921115,-0.0119225225034798
22,0.00586237976555121,-0.0122964901523872,0.985914017592838,-0.106642482641941,0.985914017591821,-0.106642482631736,0.00579121784972292,-0.0122513937853324
22.5,0.00587025673832076,-0.0126282592959059,0.985575411257213,-0.108976807812288,0.985575411256614,-0.108976807802089,0.00579855965556683,-0.0125817067319121
23,0.00587636106616823,-0.0129613388151224,0.985232364898607,-0.111309185009513,0.985232364898416,-0.111309184999344,0.00580412807648273,-0.0129134307506904
23.5,0.00588066646787644,-0.0132957003331873,0.984884839040549,-0.113639669987832,0.984884839040755,-0.11363966997771,0.00580788554815281,-0.0132465334575791
24,0.0058831471315853,-0.0136313144293778,0.984532794503802,-0.115968312314111,0.98453279450439,-0.115968312304059,0.00580979610766597,-0.0135809808885714
24.5,0.00588377786329894,-0.0139681507201388,0.984176192692746,-0.118295155839417,0.984176192693705,-0.118295155829449,0.00580982547316466,-0.0139167377009066
25,0.0058825342121606,-0.0143061779458957,0.983814995830862,-0.120620239147116,0.983814995832178,-0.120620239137256,0.00580794110103461,-0.0142537673634857
25.5,0.00587939257478333,-0.0146453640613302,0.983449167151692,-0.122943595976557,0.983449167153351,-0.122943595966817,0.00580411222358912,-0.0145920323362665
26,0.00587433028076416,-0.0149856763273108,0.983078671051083,-0.125265255621919,0.98307867105307,-0.125265255612312,0.00579830986987971,-0.014931494238712
26.5,0.00586732566133796,-0.0153270814029867,0.982703473205833,-0.127585243306289,0.982703473208132,-0.127585243296831,0.00579050687192842,-0.0152721140073115
27,0.00585835810297826,-0.0156695454368032,0.982323540663396,-0.12990358053132,0.982323540665994,-0.129903580522022,0.00578067785843998,-0.0156138520423843
27.5,0.00584740808762053,-0.0160130341555362,0.981938841906705,-0.132220285403077,0.981938841909585,-0.13222028539395,0.00576879923780328,-0.0159566683443648
28,0.0058344572210038,-0.0163575129505498,0.981549346897748,-0.134535372934938,0.981549346900896,-0.134535372925993,0.00575484917199565,-0.0163005226399395
28.5,0.00581948825054958,-0.0167029469607138,0.981155027103101,-0.136848855328434,0.981155027106501,-0.136848855319678,0.00573880754282304,-0.0166453744982689
29,0.00580248507400858,-0.01704930115155,0.980755855504197,-0.139160742233125,0.980755855507834,-0.139160742224567,0.0057206559117553,-0.016991183437788
29.5,0.00578343274007503,-0.0173965403903047,0.980351806594813,-0.141471040986602,0.980351806598672,-0.141471040978248,0.00570037747449312,-0.0173379090238797
30,0.00576231744196737,-0.0177446295167085,0.979942856367899,-0.143779756835717,0.979942856371966,-0.143779756827572,0.00567795701125416,-0.0176855109578904
30.5,0.00573912650496386,-0.0180935334093149,0.979528982293624,-0.146086893140194,0.979528982297884,-0.146086893132265,0.00565338083366254,-0.0180339491579034
31,0.00571384836873147,-0.018443217047333,0.979110163290259,-0.148392451559719,0.979110163294697,-0.148392451552011,0.00562663672903052,-0.0183831838316468
31.5,0.00568647256522137,-0.0187936455680124,0.978686379689276,-0.150696432225645,0.978686379693879,-0.150696432218159,0.00559771390269272,-0.018733175542073
32,0.00565698969285258,-0.0191447843195225,0.978257613195905,-0.152998833898286,0.978257613200658,-0.152998833891025,0.0055666029190309,-0.0190838852658932
32.5,0.00562539138758235,-0.0194965989095039,0.977823846846141,-0.155299654110906,0.977823846851031,-0.155299654103874,0.00553329564168738,-0.0194352744456125
33,0.00559167029144514,-0.0198490552493555,0.97738506496112,-0.157598889301314,0.977385064966133,-0.157598889294511,0.0054977851734366,-0.0197873050353996
33.5,0.00555582001906266,-0.0202021195943947,0.976941253099612,-0.15989653493199,0.976941253104736,-0.159896534925418,0.00546006579612543,-0.0201399395412341
34,0.00551783512256768,-0.0205557585800489,0.976492398009255,-0.162192585599625,0.976492398014477,-0.162192585593282,0.00542013291100579,-0.0204931410556859
34.5,0.00547771105534217,-0.0209099392542464,0.976038487577101,-0.164487035134866,0.976038487582409,-0.164487035128757,0.00537798297977632,-0.0208468732877365
35,0.00543544413492908,-0.0212646291061929,0.975579510779906,-0.166779876693056,0.975579510785288,-0.166779876687176,0.00533361346656736,-0.021201100587974
35.5,0.00539103150542458,-0.0216197960916849,0.975115457634552,-0.169071102836657,0.975115457639996,-0.169071102831006,0.0052870227810928,-0.0215557879695529
36,0.0053444710996266,-0.0219754086551869,0.974646319148924,-0.171360705610034,0.974646319154419,-0.171360705604611,0.00523821022313975,-0.0219109011251803
36.5,0.00529576160118247,-0.0223314357488205,0.974172087273493,-0.173648676607213,0.974172087279028,-0.173648676602014,0.00518717592854551,-0.0222664064405196
37,0.00524490240693576,-0.0226878468484966,0.973692754853813,-0.175935007033192,0.973692754859378,-0.175935007028218,0.0051339208167698,-0.0226222710042654
37.5,0.00519189358967048,-0.0230446119673284,0.973208315584116,-0.178219687759335,0.9732083155897,-0.178219687754581,0.00507844654016948,-0.0229784626151868
38,0.00513673586138319,-0.023401701666542,0.97271876396212,-0.180502709373334,0.972718763967715,-0.180502709368796,0.0050207554350287,-0.0233349497864048
38.5,0.00507943053723936,-0.0237590870640441,0.972224095245176,-0.182784062224191,0.97222409525077,-0.182784062219869,0.00496085047440875,-0.0236917017471696
39,0.0050199795003063,-0.0241167398408315,0.971724305407798,-0.185063736462673,0.971724305413385,-0.185063736458563,0.00489873522284234,-0.0240486884423525
39.5,0.00495838516716787,-0.0244746322453895,0.971219391100683,-0.187341722077573,0.971219391106251,-0.187341722073671,0.00483441379289468,-0.0244058805298955
40,0.00489465045448584,-0.0248327370962564,0.97070934961119,-0.189618008928181,0.970709349616734,-0.189618008924481,0.00476789080359413,-0.0247632493764249
40.5,0.00482877874658233,-0.0251910277828884,0.970194178825371,-0.191892586773255,0.97019417883088,-0.191892586769754,0.00469917134073061,-0.0251207670512055
41,0.00476077386407298,-0.0255494782649972,0.969673877191495,-0.194165445296844,0.969673877196964,-0.194165445293539,0.00462826091899743,-0.0254784063186428
41.5,0.00469064003360853,-0.0259080630704589,0.969148443685122,-0.19643657413117,0.969148443690542,-0.196436574128055,0.00455516544596374,-0.0258361406294716
42,0.00461838185872349,-0.026266757291967,0.96861787777566,-0.198705962876903,0.968617877781024,-0.198705962873976,0.00447989118783509,-0.0261939441108359
42.5,0.00454400429183638,-0.026625536582519,0.968082179394428,-0.200973601120995,0.968082179399731,-0.20097360111825,0.00440244473697177,-0.0265517915553257
43,0.00446751260738232,-0.0269843771498741,0.967541348904174,-0.203239478452339,0.967541348909409,-0.203239478449771,0.00432283298112146,-0.0269096584092012
43.5,0.00438891237610473,-0.0273432557500737,0.96699538707003,-0.205503584475412,0.96699538707519,-0.205503584473016,0.00424106307431965,-0.027267520759831
44,0.00430820944047422,-0.027702149680144,0.966444295031855,-0.20776590882212,0.966444295036935,-0.207765908819891,0.00415714240940446,-0.0276253553225394
44.5,0.00422540989124581,-0.0280610367700755,0.965888074277947,-0.21002644116198,0.965888074282942,-0.210026441159913,0.00407107859210232,-0.0279831394269157
45,0.00414052004513021,-0.0284198953741379,0.965326726620067,-0.212285171210803,0.965326726624973,-0.212285171208892,0.00398287941662573,-0.0283408510026812
45.5,0.00405354642355582,-0.0287787043616654,0.964760254169746,-0.214542088738038,0.964760254174556,-0.214542088736279,0.00389255284272538,-0.0286984685652447
46,0.00396449573250807,-0.0291374431073401,0.96418865931582,-0.216797183572863,0.964188659320531,-0.216797183571252,0.00380010697414818,-0.0290559712009575
46.5,0.00387337484341277,-0.0294960914810711,0.963611944703161,-0.219050445609181,0.963611944707769,-0.219050445607711,0.00370555003844014,-0.0294133385522097
47,0.00378019077504604,-0.0298546298375308,0.963030113212557,-0.221301864809604,0.963030113217056,-0.221301864808269,0.00360889036803891,-0.0297705508023696
47.5,0.00368495067642666,-0.0302130390054094,0.962443167941685,-0.223551431208541,0.962443167946074,-0.223551431207337,0.0035101363826005,-0.0301275886606773
48,0.00358766181067804,-0.0305713002764354,0.961851112187162,-0.225799134914464,0.961851112191437,-0.225799134913387,0.00340929657250705,-0.030484433347103
48.5,0.00348833153981271,-0.0309293953942222,0.961253949427594,-0.228044966111447,0.961253949431751,-0.228044966110489,0.00330637948349694,-0.0308410665772434
49,0.00338696731041671,-0.0312873065429815,0.960651683307613,-0.230288915060044,0.960651683311649,-0.230288915059201,0.00320139370236783,-0.0311974705472946
49.5,0.00328357664019968,-0.0316450163361535,0.960044317622845,-0.232530972097591,0.960044317626758,-0.232530972096857,0.00309434784370166,-0.0315536279191164
50,0.00317816710537155,-0.032002507804985,0.95943185630577,-0.234771127637974,0.959431856309557,-0.234771127637345,0.00298525053755427,-0.0319095218054599
50.5,0.00307074632882276,-0.0323597643870857,0.958814303412433,-0.237009372170942,0.958814303416092,-0.237009372170414,0.00287411041806873,-0.0322651357553525
51,0.00296132196906368,-0.0327167699150221,0.958191663109981,-0.239245696261002,0.958191663113511,-0.239245696260566,0.00276093611295858,-0.0326204537396828
51.5,0.00284990170990196,-0.0330735086049327,0.957563939664964,-0.241480090545958,0.957563939668362,-0.241480090545612,0.0026457362338152,-0.032975460137008
52,0.00273649325082082,-0.0334299650452312,0.956931137432394,-0.243712545735117,0.956931137435659,-0.243712545734855,0.00252851936720266,-0.0333301397195895
52.5,0.00262110429801676,-0.0337861241854016,0.956293260845494,-0.24594305260724,0.956293260848626,-0.245943052607058,0.00240929406647883,-0.033684477639699
53,0.00250374255608876,-0.0341419713249045,0.95565031440614,-0.248171602008234,0.955650314409137,-0.248171602008126,0.00228806884432736,-0.0340384594161733
53.5,0.00238441572032549,-0.0344974921022145,0.95500230267593,-0.250398184848633,0.955002302678791,-0.250398184848595,0.00216485216593709,-0.0343920709212608
54,0.00226313146957402,-0.034852672484023,0.954349230267869,-0.252622792100928,0.954349230270593,-0.252622792100955,0.00203965244280047,-0.0347452983677607
54.5,0.00213989745965859,-0.0352074987545716,0.953691101838637,-0.254845414796714,0.953691101841224,-0.254845414796799,0.00191247802710315,-0.0350981282964353
55,0.00201472131731834,-0.035561957505196,0.953027922081402,-0.257066044023739,0.953027922083851,-0.257066044023881,0.00178333720665091,-0.0354505475637574
55.5,0.00188761063464338,-0.0359160356240329,0.952359695719161,-0.259284670922847,0.952359695721473,-0.259284670923038,0.00165223820031685,-0.0358025433299334
56,0.00175857296397836,-0.036269720285925,0.95168642749858,-0.261501286684829,0.951686427500754,-0.261501286685067,0.00151918915397509,-0.0361541030472567
56.5,0.00162761581327009,-0.0366229989425242,0.951008122184298,-0.263715882547227,0.951008122186334,-0.263715882547507,0.00138419813687962,-0.0365052144487499
57,0.00149474664183197,-0.036975859312621,0.950324784553688,-0.265928449791096,0.950324784555587,-0.265928449791414,0.00124727313847312,-0.0368558655371469
57.5,0.0013599728565093,-0.0373282893726556,0.949636419392031,-0.268138979737724,0.949636419393793,-0.268138979738074,0.0011084220655907,-0.0372060445741518
58,0.00122330180821884,-0.0376802773474636,0.948943031488103,-0.270347463745349,0.948943031489729,-0.27034746374573,0.000967652740039904,-0.0375557400700295
58.5,0.00108474078883503,-0.0380318117012497,0.94824462563013,-0.272553893205884,0.948244625631621,-0.27255389320629,0.00082497289651734,-0.0379049407734962
59,0.000944297028419083,-0.0383828811287503,0.947541206602113,-0.274758259541623,0.947541206603469,-0.27475825954205,0.000680390180862134,-0.0382536356619063
59.5,0.000801977692750699,-0.038733474546653,0.94683277918048,-0.276960554201997,0.946832779181703,-0.276960554202442,0.000533912148601101,-0.0386018139317494
60,0.00065778988116183,-0.0390835810852124,0.946119348131075,-0.279160768660349,0.946119348132166,-0.279160768660808,0.000385546263780512,-0.0389494649894324
60.5,0.000511740624643431,-0.0394331900801008,0.945400918206436,-0.281358894410737,0.945400918207397,-0.281358894411206,0.000235299898058206,-0.0392965784423562
61,0.00036383688421332,-0.0397822910644745,0.944677494143366,-0.283554922964794,0.944677494144197,-0.28355492296527,8.3180330038346E-005,-0.0396431440902829
61.5,0.000214085549526455,-0.0401308737612625,0.943949080660771,-0.285748845848637,0.943949080661474,-0.285748845849117,-7.08052551685046E-005,-0.0399891519169744
62,6.24934377136954E-005,-0.0404789280756725,0.943215682457751,-0.287940654599829,0.943215682458329,-0.287940654600309,-0.000226649766174536,-0.0403345920821159
