"Freq [GHz]","re(St(P1,P1)) []","im(St(P1,P1)) []","re(St(P1,P2)) []","im(St(P1,P2)) []","re(St(P2,P1)) []","im(St(P2,P1)) []","re(St(P2,P2)) []","im(St(P2,P2)) []"
0,0.00520755967403375,0,0.99480941380898,0,0.994809417752549,0,0.00520756125428079,0
0.5,0.00581287798334529,-0.000953844768080359,0.994111656670139,-0.00846861140999522,0.994111656706931,-0.00846861141724631,0.0058128191571214,-0.000953746658421295
1,0.00630913999459182,-0.00265793926732627,0.993370091045584,-0.016176459724619,0.993370090207019,-0.016176459525834,0.00630896705036577,-0.00265768741927985
1.5,0.00656396137330617,-0.00451766948511079,0.992725964955085,-0.0236900302583578,0.992725964524205,-0.0236900298143361,0.00656361200160838,-0.004517210643467
2,0.00663932183247873,-0.00639573422585471,0.992122671434197,-0.0311438147543157,0.992122671297857,-0.0311438144067768,0.00663884292613481,-0.00639497729576988
2.5,0.00661219231835908,-0.00825014826060233,0.99149143675813,-0.0385727649735337,0.991491436746407,-0.0385727647917999,0.0066116339311213,-0.00824906586660745
3,0.00652063989872609,-0.0100781476941059,0.990803431388044,-0.0459737447511408,0.990803431399172,-0.0459737447031952,0.00652003633153786,-0.0100767349422366
3.5,0.00638311808611958,-0.0118832154499611,0.990049971088268,-0.0533394496486306,0.990049971079287,-0.0533394496794166,0.00638249259922086,-0.011881474334194
4,0.00620935522955524,-0.0136687620286882,0.989230846785093,-0.0606647509072591,0.989230846749991,-0.0606647509671419,0.00620872480646151,-0.0136666968728427
4.5,0.00600508305728997,-0.0154372741344879,0.988349052150057,-0.0679471984028126,0.988349052102466,-0.0679471984566451,0.00600446116316666,-0.0154348906353778
5,0.00577410241644749,-0.0171904648066228,0.987408424762386,-0.0751864155256863,0.987408424723496,-0.075186415553989,0.0057735003651902,-0.0171877702056369
5.5,0.00551923211570826,-0.0189295302896779,0.986412599673315,-0.082383399865738,0.986412599663828,-0.0823833998624313,0.00551865960757802,-0.0189265338740316
6,0.00524276820510461,-0.0206553549459176,0.98536458726193,-0.0895399428662893,0.985364587297123,-0.0895399428350991,0.00524223336269913,-0.0206520686111613
6.5,0.00494671603416164,-0.02236865439873,0.984266659221514,-0.0966581977583685,0.984266659308632,-0.0966581977089582,0.00494622511748377,-0.0223650931764121
7,0.00463291089503315,-0.0240700718500824,0.983120384549225,-0.103740379966889,0.983120384686502,-0.103740379911267,0.00463246779844428,-0.0240662543630492
7.5,0.00430308136873025,-0.0257602421268031,0.981926731614263,-0.110788573831701,0.981926731791082,-0.110788573781237,0.00430268696246561,-0.0257561909560655
8,0.00395888206531736,-0.0274398339523199,0.980686191018524,-0.117804619386449,0.980686191216245,-0.117804619349552,0.00395853342307556,-0.0274355759080116
8.5,0.00360190958528761,-0.0291095774789234,0.979398895601207,-0.124790056320981,0.979398895794367,-0.124790056301431,0.00360159912789948,-0.0291051437723882
9,0.00323370918677413,-0.0307702817296143,0.978064726421265,-0.131746106693195,0.978064726578908,-0.131746106689016,0.00323342376505598,-0.030765708046526
9.5,0.00285577636727702,-0.0324228450489921,0.976683400678514,-0.138673682357943,0.976683400765521,-0.138673682360777,0.0028554963026346,-0.0324181715258556
10,0.00246955580193536,-0.0340682606707796,0.975254541413805,-0.14557340693402,0.975254541392112,-0.145573406928815,0.00246925389980132,-0.0340635317790046
10.5,0.00203748894019382,-0.0357386451408876,0.973764957401333,-0.152480101858759,0.973764957380011,-0.152480101855848,0.0020372901692054,-0.0357337114859
11,0.00158460096947655,-0.0374041830886025,0.972231408371783,-0.15935397719836,0.972231408350559,-0.159353977197695,0.00158450887898051,-0.037399049055542
11.5,0.00111092945959559,-0.0390646407499271,0.970655045881751,-0.166196225610227,0.970655045860375,-0.166196225611727,0.00111094739191617,-0.0390593108726325
12,0.000616513978695957,-0.0407197839896072,0.969036819060112,-0.173008009502745,0.969036819038356,-0.173008009506304,0.000616645060565871,-0.0407142629421227
12.5,0.00010139612626707,-0.042369378294306,0.967377496009103,-0.179790443314062,0.967377495986766,-0.179790443319556,0.000101643260393289,-0.0423636708819699
13,-0.000434380432664638,-0.0440131887671105,0.965677684989728,-0.186544580133992,0.965677684966635,-0.186544580141279,-0.000434014575887959,-0.0440072999172263
13.5,-0.000990769932181668,-0.0456509801234315,0.963937854855412,-0.193271402105473,0.96393785483141,-0.193271402114406,-0.000990282922813418,-0.045644914875524
14,-0.00156772446900313,-0.0472825166883726,0.96215835435396,-0.19997181404502,0.962158354328922,-0.199971814055438,-0.00156711412554336,-0.0472762801840005
14.5,-0.00216519396494419,-0.0489075623956041,0.960339430048808,-0.206646639748231,0.96033943002263,-0.20664663975997,-0.00216445836216822,-0.0489011598677571
15,-0.00278312612833731,-0.0505258807878128,0.95848124271669,-0.213296620488506,0.958481242689292,-0.213296620501405,-0.00278226360496736,-0.0505193175498571
15.5,-0.00342146641446606,-0.0521372350187836,0.956583882162161,-0.219922415267927,0.95658388213348,-0.219922415281823,-0.00342047558068637,-0.0521305164529635
16,-0.00408015798506456,-0.0537413878571833,0.954647380452454,-0.226524602433586,0.954647380422448,-0.226524602448316,-0.00407903772987284,-0.0537345194026675
16.5,-0.0047591416669216,-0.0553381016920742,0.952671723622061,-0.233103682327027,0.952671723590703,-0.233103682342435,-0.00475789116531233,-0.0553310888325442
17,-0.00545835590965121,-0.0569271385402614,0.950656861927962,-0.23966008068634,0.950656861895242,-0.239660080702277,-0.00545697462963751,-0.0569199867910202
17.5,-0.00617773674267008,-0.0585082600554823,0.948602718756678,-0.246194152568131,0.948602718722599,-0.24619415258445,-0.00617622445213967,-0.0585009749500882
18,-0.0069172177314541,-0.0600812275395484,0.946509198295535,-0.252706186599516,0.946509198260113,-0.252706186616082,-0.00691557450486086,-0.0600738146159521
18.5,-0.00767672993312113,-0.0616458019554589,0.944376192085061,-0.259196409407841,0.944376192048322,-0.259196409424524,-0.00767495615801606,-0.0616382667416415
19,-0.00845620185139978,-0.0632017439425705,0.942203584568989,-0.265664990108216,0.942203584530969,-0.265664990124894,-0.00845429823480398,-0.0631940919416549
19.5,-0.0092555593910596,-0.064748813833881,0.939991257754392,-0.272112044756431,0.939991257715134,-0.272112044772993,-0.00925352696568454,-0.06474105050872
20,-0.0100747258118514,-0.0662867716754629,0.937739095088241,-0.278537640697706,0.937739095047797,-0.278537640714045,-0.0100725659421703,-0.066278902432674
20.5,-0.0109136216820377,-0.0678153772481531,0.935446984648966,-0.284941800760626,0.93544698460739,-0.284941800776647,-0.0109113360702209,-0.0678074074215904
21,-0.0117721648315855,-0.0693343900915222,0.933114821743196,-0.291324507260954,0.933114821700551,-0.291324507276568,-0.0117697555233027,-0.0693263249251692
21.5,-0.0126502703050752,-0.0708435695302105,0.930742510989189,-0.297685705792237,0.93074251094554,-0.297685705807365,-0.012647739695188,-0.070835414160455
22,-0.0135478503144342,-0.0723426747026785,0.92832996795987,-0.304025308789905,0.928329967915283,-0.304025308804473,-0.0135452011525752,-0.0723344341399741
22.5,-0.0144648141915404,-0.0738314645924534,0.925877120450219,-0.310343198863055,0.925877120404766,-0.310343198876998,-0.0144620495876181,-0.0738231437023158
23,-0.0154010683408002,-0.0753096980619279,0.923383909426035,-0.316639231893852,0.923383909379789,-0.316639231907113,-0.0153981917704293,-0.0753013015452582
23.5,-0.0163565161917749,-0.0767771338887888,0.92085028970398,-0.322913239908832,0.920850289657013,-0.32291323992136,-0.0163535315016738,-0.0767686662614784
24,-0.017331058151946,-0.0782335308051358,0.918276230406349,-0.329165033729429,0.918276230358736,-0.329165033741178,-0.0173279695653132,-0.0782249963769304
24.5,-0.0183245915597076,-0.0796786475393756,0.915661715228184,-0.335394405411279,0.915661715179998,-0.335394405422213,-0.0183214036816199,-0.0796700503919525
25,-0.0193370106376826,-0.0811122428609632,0.913006742549117,-0.341601130483256,0.913006742500434,-0.341601130493342,-0.0193337284605469,-0.0811035868251857
25.5,-0.020368206446454,-0.0825340756280706,0.910311325417775,-0.347784969998025,0.910311325368666,-0.347784970007235,-0.0203648353555599,-0.0825253642603712
26,-0.0214180668388158,-0.0839439048382573,0.90757549143245,-0.353945672406297,0.90757549138299,-0.353945672414611,-0.0214146126180303,-0.0839351413961049
26.5,-0.022486476414647,-0.0853414896822586,0.904799282538265,-0.360082975267065,0.904799282488525,-0.360082975274464,-0.0224829452523148,-0.085332677098644
27,-0.023573316476505,-0.0867265896009493,0.901982754757918,-0.366196606805826,0.901982754707969,-0.366196606812301,-0.0235697149716179,-0.0867177304578413
27.5,-0.0246784649860637,-0.0880989643456083,0.899125977870459,-0.372286287332517,0.89912597782037,-0.372286287338058,-0.0246748001547673,-0.088090060846302
28,-0.0258017965214933,-0.0894583740415809,0.89622903505021,-0.378351730530299,0.896229035000049,-0.378351730534902,-0.0257980758040227,-0.0894494279818732
28.5,-0.0269431822359105,-0.0908045792554553,0.893292022475969,-0.384392644625818,0.893292022425801,-0.384392644629484,-0.0269394135040456,-0.0907955919935555
29,-0.02810248981701,-0.092137341065877,0.890315048918948,-0.390408733450898,0.890315048868837,-0.39040873345363,-0.0280986813821656,-0.0921283134909734
29.5,-0.0292795834480061,-0.093456421138139,0.887298235316416,-0.396399697404974,0.887298235266424,-0.396399697406779,-0.029275744070078,-0.0934473536375122
30,-0.0304743237700057,-0.0947615818026895,0.884241714336808,-0.40236523432693,0.884241714286996,-0.402365234327817,-0.0304704626671211,-0.0947524742272676
30.5,-0.0316865678459502,-0.0960525861377279,0.881145629941,-0.40830504028435,0.881145629891426,-0.408305040284332,-0.0316826947052823,-0.096043437765962
31,-0.0329161691262459,-0.0973291980560622,0.878010136943557,-0.41421881028756,0.878010136894276,-0.414218810286651,-0.0329122941160891,-0.0973200075559824
31.5,-0.0341629774162361,-0.0985911823964287,0.874835400577023,-0.420106238935252,0.87483540052809,-0.42010623893347,-0.0341591111995461,-0.0985819477857408
32,-0.0354268388456384,-0.0998383050194964,0.871621596061688,-0.4259670209979,0.871621596013154,-0.425967020995265,-0.0354229925952923,-0.0998290236235471
32.5,-0.0367075958400931,-0.101070332908807,0.868368908182734,-0.431800851944654,0.868368908134649,-0.431800851941186,-0.0367037812561533,-0.101061001316242
33,-0.0380050870949709,-0.102287034276914,0.865077530876238,-0.437607428418884,0.865077530828648,-0.437607428414607,-0.0380013164242697,-0.102277648292834
33.5,-0.0393191475515726,-0.103488178677058,0.861747666825115,-0.443386448667119,0.861747666778067,-0.443386448662057,-0.0393154336099977,-0.10347873327344
34,-0.0406496083758754,-0.104673537120713,0.858379527065819,-0.449137612925649,0.858379527019355,-0.44913761291983,-0.0406459645737823,-0.104664026383866
34.5,-0.0419962969399638,-0.105842882201408,0.854973330606327,-0.454860623768714,0.854973330560489,-0.454860623762164,-0.04199273731121,-0.1058332992762
35,-0.0433590368062838,-0.106995988225287,0.851529304055774,-0.460555186421786,0.8515293040106,-0.460555186414534,-0.0433555760414512,-0.106986325255839
35.5,-0.0447376477148593,-0.108132631348923,0.848047681265887,-0.466221009043202,0.848047681221415,-0.466221009035279,-0.0447343011993285,-0.108122879415455
36,-0.0461319455736012,-0.10925258972497,0.84452870298429,-0.471857802977007,0.844528702940554,-0.471857802968444,-0.0461287294312344,-0.109242738776454
36.5,-0.0475417424518259,-0.110355643656357,0.840972616519583,-0.477465282979668,0.840972616476615,-0.477465282970496,-0.0475386735951354,-0.110345682438576
37,-0.0489668465770821,-0.11144157575977,0.837379675418073,-0.483043167423035,0.837379675375905,-0.483043167413287,-0.0489639427649183,-0.111431491738383
37.5,-0.0504070623353779,-0.112510171139348,0.833750139151921,-0.488591178475694,0.833750139110581,-0.488591178465403,-0.0504043422393156,-0.112499950417489
38,-0.0518621902748643,-0.113561217571613,0.830084272818442,-0.494109042264687,0.830084272777957,-0.494109042253886,-0.0518596735556764,-0.113550844801547
38.5,-0.0533320271129858,-0.114594505702832,0.826382346850257,-0.499596489019331,0.826382346810652,-0.499596489008055,-0.0533297345088171,-0.114583963991112
39,-0.0548163657470798,-0.115609829260187,0.82264463673596,-0.505053253198753,0.822644636697259,-0.505053253187038,-0.0548143191752163,-0.115599100065775
39.5,-0.0563149952683329,-0.116606985278362,0.818871422750953,-0.510479073604579,0.818871422713176,-0.510479073592457,-0.0563132179427731,-0.116596048303088
40,-0.057827700978919,-0.117585774343405,0.815062989698081,-0.515873693480067,0.815062989661248,-0.515873693467574,-0.057826217546349,-0.11757460741415
40.5,-0.0593542644120436,-0.118546000856018,0.811219626657712,-0.521236860596885,0.811219626621841,-0.521236860584058,-0.0593531011092783,-0.118534579797966
41,-0.0608944633544808,-0.119487473316824,0.807341626746881,-0.52656832733059,0.807341626711988,-0.526568327317463,-0.0608936481909667,-0.119475771817123
41.5,-0.062448071871004,-0.120410004636527,0.80342928688715,-0.531867850725762,0.803429286853248,-0.53186785071237,-0.0624476348406559,-0.120397994097737
42,-0.0640148603298925,-0.121313412474424,0.799482907580801,-0.537135192551696,0.799482907547905,-0.537135192538075,-0.0640148336573104,-0.121301061857146
42.5,-0.0655945954283904,-0.122197519609312,0.795502792695051,-0.542370119349409,0.79550279266317,-0.542370119335594,-0.0655950138554466,-0.122184795263508
43,-0.0671870402166144,-0.123062154347507,0.791489249253905,-0.54757240247071,0.79148924922305,-0.547572402456737,-0.0671879413365506,-0.12304901983217
43.5,-0.068791954117908,-0.123907150973566,0.78744258723736,-0.552741818109964,0.787442587207538,-0.552741818095866,-0.0687933787654528,-0.123893566864615
44,-0.0704090929429984,-0.124732350250232,0.783363119387606,-0.557878147329139,0.783363119358824,-0.557878147314952,-0.0704110856506788,-0.124718273936927
44.5,-0.0720382088944665,-0.125537599975353,0.779251161021958,-0.562981176076685,0.779251160994221,-0.562981176062443,-0.0720408184273188,-0.125522985445985
45,-0.073679050556984,-0.126322755604849,0.775107029852201,-0.568050695200717,0.775107029825513,-0.568050695186455,-0.0736823305403071,-0.126307553223293
45.5,-0.0753313628673165,-0.127087680952509,0.770931045810083,-0.573086500456948,0.770931045784446,-0.573086500442698,-0.0753353725251275,-0.127071837228259
46,-0.0769948870562953,-0.127832248979287,0.766723530878692,-0.578088392511777,0.766723530854107,-0.578088392497572,-0.0769996920817629,-0.127815706335163
46.5,-0.078669360552523,-0.128556342687135,0.762484808929468,-0.583056176940885,0.762484808905935,-0.583056176926761,-0.0786750341361234,-0.128539039230964
47,-0.0803545168344375,-0.129259856135074,0.758215205564606,-0.587989664223696,0.758215205542123,-0.587989664209682,-0.0803611408810153,-0.129241725444634
47.5,-0.082050085213213,-0.129942695598442,0.753915047964631,-0.592888669733972,0.753915047943195,-0.5928886697201,-0.0820577517857636,-0.129923666533108
48,-0.0837557905235198,-0.130604780895939,0.749584664740933,-0.597753013726856,0.74958466472054,-0.597753013713159,-0.0837646035596313,-0.130584777454197
48.5,-0.0854713526919401,-0.131246046913404,0.745224385793051,-0.602582521322589,0.745224385773697,-0.602582521309097,-0.08548143004874,-0.13122498816338
49,-0.0871964861433109,-0.131866445358106,0.740834542170531,-0.607377022487143,0.740834542152209,-0.607377022473886,-0.0872079620387807,-0.131844245479297
49.5,-0.0889308989925447,-0.132465946782737,0.736415465939162,-0.612136352009987,0.736415465921864,-0.612136351996993,-0.0889439269256475,-0.132442515272479
50,-0.0906742919526201,-0.133044542924079,0.731967490051435,-0.616860349479169,0.731967490035154,-0.616860349466468,-0.0906890482021606,-0.133019785043624
50.5,-0.092426356866869,-0.133602249407117,0.727490948221055,-0.621548859253908,0.727490948205781,-0.621548859241528,-0.0924430446897718,-0.133576066971856
51,-0.0941867747435775,-0.134139108870529,0.722986174801362,-0.626201730434848,0.722986174787085,-0.626201730422815,-0.094205629417436,-0.13411140153035
51.5,-0.095955213130584,-0.13465519457284,0.718453504667516,-0.630818816832128,0.718453504654224,-0.63081881682047,-0.0959765080127136,-0.134625861786443
52,-0.0977313226135708,-0.135150614537925,0.713893273102308,-0.63539997693142,0.713893273089991,-0.635399976920162,-0.0977553764183122,-0.135119558525865
52.5,-0.0995147321495373,-0.135625516290535,0.709305815685491,-0.63994507385805,0.709305815674134,-0.639945073847217,-0.0995419176746617,-0.135592646365165
53,-0.10130504285059,-0.136080092211291,0.704691468186478,-0.644453975339324,0.704691468176067,-0.644453975328941,-0.101335797407008,-0.136045331040583
53.5,-0.103101819705323,-0.136514585496541,0.700050566460327,-0.648926553665186,0.70005056645085,-0.648926553655276,-0.103136657511712,-0.13647787808112
54,-0.104904580556857,-0.136929296626341,0.695383446346902,-0.653362685647289,0.69538344633834,-0.653362685637873,-0.104944107333427,-0.136890623079345
54.5,-0.106712781438643,-0.137324590098807,0.690690443573081,-0.657762252576589,0.690690443565422,-0.657762252567691,-0.106757711338629,-0.137283983748861
55,-0.108525797093256,-0.137700900942249,0.685971893657975,-0.66212514017956,0.685971893651199,-0.6621251401712,-0.108576971888253,-0.137658473871601
55.5,-0.11034289516426,-0.138058740106917,0.681228131821,-0.666451238573089,0.681228131815091,-0.666451238565287,-0.110401305149731,-0.138014719036326
56,-0.112163202172237,-0.138398697172804,0.676459492892782,-0.670740442218155,0.676459492887722,-0.670740442210931,-0.112230007413141,-0.138353473654699
56.5,-0.113985659017864,-0.138721437750689,0.671666311228779,-0.674992649872356,0.671666311224549,-0.674992649865726,-0.114062208031792,-0.138675637944352
57,-0.115808963531638,-0.139027691305604,0.666848920625552,-0.679207764541347,0.666848920622132,-0.679207764535329,-0.115896803859793,-0.138982272100557
57.5,-0.11763149780001,-0.1393182226425,0.662007654239624,-0.683385693429273,0.662007654236996,-0.683385693423885,-0.117732368456866,-0.139274602257135
58,-0.119451239210235,-0.139593776690969,0.657142844508854,-0.687526347888242,0.657142844506997,-0.687526347883498,-0.119567027751158,-0.139554008287295
58.5,-0.121265657413114,-0.139854981355088,0.652254823076267,-0.691629643366898,0.65225482307516,-0.691629643362813,-0.121398293115083,-0.139821975845548
59,-0.123071606460556,-0.140102187381732,0.647343920716265,-0.695695499358171,0.647343920715888,-0.695695499354758,-0.123222844917682,-0.140079982748944
59.5,-0.124865234855109,-0.140335219047299,0.642410467263197,-0.69972383934622,0.642410467263528,-0.699723839343492,-0.125036268910297,-0.140329271365961
60,-0.126641959253525,-0.140553009330378,0.637454791542188,-0.703714590752661,0.637454791543205,-0.703714590750629,-0.126832772742057,-0.140570434517556
60.5,-0.128396581685701,-0.140753107412262,0.632477221302218,-0.707667684882093,0.632477221303898,-0.707667684880768,-0.128604964742126,-0.140802719678539
61,-0.130123669992021,-0.140931090633889,0.627478083151376,-0.711583056866987,0.627478083153697,-0.711583056866379,-0.130343879868285,-0.141022959726862
61.5,-0.131818343837549,-0.141080006280859,0.622457702494253,-0.715460645611984,0.622457702497193,-0.715460645612101,-0.132039593947128,-0.141224127286628
62,-0.13347756182371,-0.141190114654224,0.617416403471426,-0.719300393737628,0.617416403474961,-0.719300393738479,-0.133682919953091,-0.14139378501408
62.5,-0.135101813594422,-0.141249351732329,0.612354508900994,-0.723102247523593,0.612354508905102,-0.723102247525184,-0.135268618131557,-0.141513248139744
63,-0.13669675064461,-0.141244924923307,0.607272340222127,-0.72686615685143,0.607272340226784,-0.726866156853766,-0.136799875118104,-0.14155891886095
