"Freq [GHz]","re(St(P1,P1)) []","im(St(P1,P1)) []","re(St(P1,P2)) []","im(St(P1,P2)) []","re(St(P2,P1)) []","im(St(P2,P1)) []","re(St(P2,P2)) []","im(St(P2,P2)) []"
0,0.00283870442913781,0,0.997175209922716,0,0.997175207812688,0,0.00283869922520807,0
0.5,0.0032460781621495,-0.000647601455298741,0.996708417609135,-0.00474907768929711,0.996708417476171,-0.00474907793051216,0.00324605262343169,-0.000647733746156121
1,0.00363255769713078,-0.00183502078652964,0.996179692812163,-0.00894799713047689,0.996179692550058,-0.00894799717509898,0.00363244930166218,-0.00183531650759505
1.5,0.00371667249439156,-0.00323584788833742,0.995836221143829,-0.013246166188349,0.995836220938681,-0.0132461662451959,0.00371611385815385,-0.00323635342550688
2,0.00371844940825738,-0.00455754059674263,0.995440191294016,-0.017398998197212,0.99544019114839,-0.0173989982575051,0.00371753411999265,-0.00455813271246797
2.5,0.0036858099570356,-0.00583852017590303,0.995028427056191,-0.0214240255630926,0.995028426963852,-0.0214240256193463,0.00368453677103631,-0.00583917395676892
3,0.00363222466916113,-0.00709510208698916,0.994619731205772,-0.0253501577124098,0.994619731156259,-0.0253501577596822,0.00363055836526094,-0.0070958060054167
3.5,0.00356266671159666,-0.0083346820216974,0.994219606721037,-0.0292059229272965,0.99421960670317,-0.0292059229633601,0.00356055929705157,-0.00833542462449088
4,0.00347938547712978,-0.00956081091284844,0.993826239110414,-0.0330144339980656,0.993826239114251,-0.0330144340227925,0.00347678402741369,-0.0095615784067391
4.5,0.00338359083947193,-0.0107752079414141,0.993434803277851,-0.0367925504334004,0.9934348032954,-0.0367925504480091,0.00338044082783018,-0.0107759838794621
5,0.00327604664520553,-0.0119786436416014,0.993039846438174,-0.0405518023456111,0.993039846463414,-0.0405518023519882,0.00327229355631431,-0.0119794090562362
5.5,0.0031573105241951,-0.0131713648664036,0.992636359121165,-0.0442997204348234,0.992636359149782,-0.0442997204350757,0.00315290073640728,-0.0131720984876349
6,0.00302784120481325,-0.0143533158155602,0.992220132833431,-0.0480410255421138,0.992220132862427,-0.0480410255382484,0.00302272252752145,-0.0143539942925983
6.5,0.00288805035740181,-0.0155242607036552,0.991787787414448,-0.0517785372215425,0.991787787441826,-0.0517785372153927,0.00288217239008182,-0.0155248588146506
7,0.00273832906467231,-0.0166838556741187,0.99133667139399,-0.0555138180988486,0.99133667141844,-0.0555138180919617,0.00273164345495314,-0.0166843465240589
7.5,0.00257906181574707,-0.0178316929806446,0.990864730415358,-0.0592476132975523,0.990864730436076,-0.0592476132912267,0.00257152245501713,-0.0178320481906162
8,0.00241063398423447,-0.0189673292504757,0.990370382711621,-0.0629801436586437,0.990370382728133,-0.062980143653931,0.00240219716079437,-0.0189675191407925
8.5,0.00223343572531132,-0.0200903042086971,0.989852414349932,-0.0667112989642451,0.989852414361994,-0.0667112989619945,0.00222406024620248,-0.0200902979777453
9,0.00204786381833766,-0.0212001534623116,0.989309895797677,-0.0704407642865537,0.989309895805196,-0.070440764287433,0.00203751110619121,-0.0211999193621075
9.5,0.00185432228775917,-0.0222964174533562,0.988742117273562,-0.074168102140062,0.988742117276535,-0.074168102144597,0.00184295645655252,-0.0222959229621367
10,0.00165322227672893,-0.0233786478597953,0.988148539325988,-0.0778928056002677,0.988148539324476,-0.0778928056088581,0.00164081018893847,-0.0233778598516796
10.5,0.00148315684750422,-0.0244866877433108,0.987592202088354,-0.081576621584837,0.987592202086361,-0.0815766215935003,0.00145492362521926,-0.0245006917503279
11,0.00131026454709249,-0.0255944620564632,0.987027545489228,-0.085245932578184,0.987027545486764,-0.0852459325868917,0.00126463902025742,-0.0256195973299329
11.5,0.00113415458986077,-0.0267023359891612,0.986454983534074,-0.0889018625439908,0.986454983531151,-0.08890186255271,0.00107026777090014,-0.0267349691376912
12,0.000954434223085499,-0.0278105980071528,0.985874798579847,-0.0925454725857113,0.985874798576478,-0.0925454725944181,0.000872055757721202,-0.0278472334967734
12.5,0.000770716604247212,-0.028919469072811,0.985287160784672,-0.0961777539797879,0.985287160780872,-0.0961777539884547,0.000670179258089543,-0.0289568393026194
13,0.000582626507998563,-0.0300291112908999,0.984692146045231,-0.0997996242830759,0.984692146041015,-0.0997996242916805,0.000464743084368169,-0.0300642463029828
13.5,0.000389804320330644,-0.0311396358372207,0.984089752233981,-0.1034119258926,0.984089752229365,-0.103411925901122,0.000255780992528765,-0.0311699133743319
14,0.000191908700003074,-0.0322511101135703,0.983479913666412,-0.107015426507305,0.983479913661413,-0.107015426515723,4.32582738246756E-005,-0.0322742872960351
14.5,-1.13817836268071E-005,-0.0333635641281358,0.982862513814573,-0.110610821018597,0.982862513809211,-0.110610821026892,-0.000172923679411741,-0.033377792475588
15,-0.000220367788754894,-0.034476996134174,0.982237396342824,-0.114198734432511,0.982237396337114,-0.114198734440674,-0.0003929211424889,-0.0344808219990913
15.5,-0.000435328919534683,-0.0355913775791938,0.981604374580011,-0.117779725497815,0.981604374573973,-0.117779725505826,-0.000616940540660749,-0.0355837302810444
16,-0.000656523871565562,-0.0367066574258033,0.980963239564276,-0.121354290778347,0.980963239557926,-0.121354290786199,-0.000845230061587265,-0.0366868274764593
16.5,-0.000884190885662106,-0.0378227659081993,0.980313766806369,-0.124922868964157,0.980313766799726,-0.124922868971836,-0.00107807081921854,-0.037790375707651
17,-0.00111854841845371,-0.0389396177868351,0.979655721918347,-0.128485845263423,0.97965572191143,-0.128485845270919,-0.00131576796595864,-0.0388945870568573
17.5,-0.00135979595992164,-0.040057115160165,0.978988865249496,-0.132043555756916,0.97898886524232,-0.132043555764223,-0.00155864210249052,-0.0399996231911999
18,-0.00160811494484489,-0.041175149887609,0.978312955662497,-0.135596291629305,0.97831295565508,-0.135596291636412,-0.00180702127143401,-0.0411055964231597
18.5,-0.00186366971815949,-0.0422936056725227,0.977627753571843,-0.139144303217495,0.977627753564202,-0.139144303224399,-0.00206123374979142,-0.042212571968574
19,-0.00212660852442867,-0.0434123598486629,0.976933023354424,-0.142687803836904,0.976933023346575,-0.142687803843601,-0.00232160178276611,-0.0433205711447116
19.5,-0.00239706449929203,-0.0445312849086026,0.97622853522996,-0.146226973362413,0.976228535221919,-0.146226973368896,-0.00258843633369468,-0.0444295752506196
20,-0.00267515664683093,-0.0456502498078359,0.975514066697079,-0.149761961552916,0.975514066688861,-0.149761961559188,-0.00286203286555314,-0.0455395298864163
20.5,-0.00296099079128279,-0.0467691210742078,0.974789403599591,-0.153292891117451,0.974789403591212,-0.153292891123505,-0.00314266812117214,-0.0466503494937998
21,-0.00325466049502213,-0.0478877637483413,0.974054340887331,-0.156819860527341,0.974054340878804,-0.156819860533175,-0.00343059783272837,-0.0477619219321621
21.5,-0.0035562479374173,-0.0490060421776608,0.973308683126535,-0.16034294658354,0.973308683117876,-0.160342946589155,-0.00372605526617792,-0.0488741129399424
22,-0.00386582475111119,-0.0501238206834955,0.972552244806597,-0.16386220675124,0.972552244797817,-0.163862206756635,-0.00402925049166261,-0.0499867703659183
22.5,-0.00418345281384161,-0.0512409641183211,0.971784850482696,-0.167377681275878,0.971784850473809,-0.167377681281052,-0.00434037026518638,-0.0510997280883476
23,-0.00450918499503034,-0.0523573383279938,0.971006334787524,-0.170889395095586,0.971006334778543,-0.170889395100541,-0.00465957840797887,-0.0522128095689931
23.5,-0.00484306585721117,-0.0534728105318285,0.970216542339865,-0.174397359565499,0.970216542330803,-0.174397359570236,-0.00498701657620765,-0.0533258310140661
24,-0.00518513231302134,-0.0545872496318132,0.969415327573073,-0.177901574009274,0.969415327563941,-0.177901574013795,-0.00532280532332624,-0.054438604134297
24.5,-0.00553541423889414,-0.0557005264607144,0.968602554502544,-0.181402027112659,0.968602554493353,-0.181402027116965,-0.00566704536896956,-0.0555509385118835
25,-0.00589393504696062,-0.0568125139776572,0.967778096447843,-0.184898698173333,0.967778096438603,-0.184898698177426,-0.00601981900075099,-0.0566626435935693
25.5,-0.00626071221684446,-0.0579230874185703,0.966941835722315,-0.188391558220372,0.966941835713036,-0.188391558224254,-0.00638119154766678,-0.0577735303367728
26,-0.00663575778921474,-0.0590321244080259,0.966093663300592,-0.191880571015857,0.966093663291286,-0.191880571019531,-0.00675121287560609,-0.0588834125404945
26.5,-0.00701907882302252,-0.0601395050381215,0.965233478472401,-0.195365693950166,0.965233478463076,-0.195365693953636,-0.00712991886611794,-0.059992107895019
27,-0.00741067781840474,-0.0612451119193298,0.964361188489383,-0.198846878841584,0.964361188480048,-0.198846878844852,-0.00751733284904571,-0.0610994387848374
27.5,-0.00781055310721768,-0.0623488302076187,0.963476708210278,-0.202324072649937,0.963476708200942,-0.202324072653006,-0.00791346696772943,-0.0622052328783025
28,-0.0082186992131747,-0.0634505476115979,0.962579959748624,-0.20579721811314,0.962579959739296,-0.205797218116015,-0.00831832346227951,-0.063309323535687
28.5,-0.00863510718347849,-0.0645501543829385,0.961670872126223,-0.209266254314636,0.961670872116911,-0.209266254317319,-0.00873189586194578,-0.0644115500647642
29,-0.00905976489382559,-0.0656475432928789,0.960749380934809,-0.212731117189016,0.960749380925521,-0.212731117191511,-0.0091541700820375,-0.0655117578503104
29.5,-0.00949265732854687,-0.0667426095973154,0.959815428007741,-0.216191739972354,0.959815427998483,-0.216191739974665,-0.00958512542428963,-0.0666097983809206
30,-0.00993376683761837,-0.0678352509925593,0.958868961103006,-0.219648053603143,0.958868961093786,-0.219648053605274,-0.0100247354821499,-0.0677055291936726
30.5,-0.0103830733721663,-0.0689253675636574,0.95790993359842,-0.22309998707915,0.957909933589244,-0.223099987081106,-0.010472968954378,-0.0687988137543742
31,-0.010840554700005,-0.0700128617267977,0.956938304199575,-0.226547467774875,0.95693830419045,-0.226547467776659,-0.0109297903716073,-0.0698895212884949
31.5,-0.0113061866026949,-0.0710976381672146,0.955954036660801,-0.229990421723914,0.955954036651733,-0.229990421725531,-0.0113951607414254,-0.0709775265755823
32,-0.0117799430554915,-0.0721796037737654,0.95495709951921,-0.233428773870002,0.954957099510206,-0.233428773871455,-0.0118690381179756,-0.072062709717819
32.5,-0.0122617963914883,-0.0732586675711544,0.95394746584173,-0.236862448290136,0.953947465832794,-0.236862448291432,-0.0123513781022893,-0.0731449558914767
33,-0.0127517174511702,-0.0743347406506842,0.952925112984905,-0.240291368392811,0.952925112976043,-0.24029136839395,-0.0128421342795605,-0.0742241550884546
33.5,-0.0132496757185298,-0.0754077361002321,0.951890022367137,-0.243715457094048,0.951890022358354,-0.243715457095038,-0.0133412585994056,-0.0753002018536266
34,-0.0137556394448039,-0.0764775689341048,0.950842179252978,-0.2471346369737,0.950842179244279,-0.247134636974544,-0.0138487017048916,-0.0763729950225893
34.5,-0.0142695757608158,-0.0775441560232228,0.949781572549053,-0.250548830414078,0.949781572540443,-0.25054883041478,-0.0143644132157642,-0.0774424374633145
35,-0.0147914507788817,-0.0786074160261214,0.948708194611102,-0.253957959722924,0.948708194602584,-0.25395795972349,-0.01488834197096,-0.0785084358244679
35.5,-0.015321229685097,-0.0796672693210616,0.947622041061687,-0.257361947242368,0.947622041053267,-0.2573619472428,-0.015420436235041,-0.0795709002923335
36,-0.0158588768228308,-0.0807236379395833,0.946523110618044,-0.260760715445413,0.946523110609724,-0.260760715445719,-0.0159606438728438,-0.0806297443578425
36.5,-0.0164043557681618,-0.0817764455016934,0.945411404929556,-0.264154187021329,0.945411404921341,-0.264154187021509,-0.0165089124961813,-0.0816848845946012
37,-0.0169576293979266,-0.0828256171528978,0.94428692842439,-0.267542284951112,0.944286928416284,-0.267542284951173,-0.0170651895861072,-0.0827362404485554
37.5,-0.0175186599510229,-0.0838710795031745,0.943149688164758,-0.270924932574129,0.943149688156763,-0.270924932574075,-0.0176294225938543,-0.0837837340395486
38,-0.0180874090835544,-0.0849127605680438,0.941999693710362,-0.274302053646897,0.941999693702482,-0.274302053646734,-0.0182015590232482,-0.0848272899748297
38.5,-0.0186638379183452,-0.0859505897117652,0.940836956989532,-0.277673572394845,0.940836956981771,-0.277673572394575,-0.0187815464970726,-0.085866835174393
39,-0.0192479070893206,-0.086984497592709,0.939661492177638,-0.2810394135578,0.939661492169997,-0.281039413557428,-0.0193693328095913,-0.0869022987078503
39.5,-0.0198395767812192,-0.0880144161109642,0.938473315582317,-0.284399502429928,0.938473315574801,-0.284399502429457,-0.0199648659671587,-0.0879336116424967
40,-0.0204388067650444,-0.0890402783581243,0.937272445535153,-0.28775376489467,0.937272445527763,-0.287753764894108,-0.0205680942186351,-0.0889607069021015
40.5,-0.0210455564296524,-0.0900620185693075,0.936058902289371,-0.291102127455275,0.936058902282108,-0.291102127454623,-0.0211789660771032,-0.089983519135941
41,-0.0216597848098139,-0.0910795720773296,0.934832707923223,-0.29444451726134,0.934832707916093,-0.294444517260605,-0.0217974303341933,-0.0910019845975487
41.5,-0.0222814506110914,-0.0920928752690333,0.933593886248704,-0.297780862131849,0.933593886241706,-0.297780862131032,-0.0224234360681688,-0.0920160410326396
42,-0.0229105122318257,-0.0931018655437184,0.932342462725244,-0.301111090575057,0.93234246271838,-0.301111090574164,-0.0230569326467714,-0.0930256275756767
42.5,-0.0235469277824904,-0.094106481273613,0.931078464378119,-0.304435131805561,0.931078464371392,-0.304435131804597,-0.0236978697256757,-0.094030684654518
43,-0.0241906551026806,-0.0951066617663465,0.92980191972125,-0.30775291575887,0.929801919714661,-0.307752915757838,-0.0243461972433285,-0.0950311539026436
43.5,-0.0248416517759606,-0.0961023472293601,0.928512858684126,-0.31106437310374,0.928512858677677,-0.311064373102644,-0.0250018654128009,-0.0960269780784477
44,-0.0254998751427688,-0.0970934787361815,0.927211312542607,-0.314369435252511,0.927211312536298,-0.314369435251356,-0.0256648247112243,-0.0970181009910887
44.5,-0.0261652823115878,-0.0980799981945126,0.925897313853348,-0.317668034369672,0.925897313847181,-0.317668034368461,-0.0263350258672917,-0.0980044674324447
45,-0.0268378301685378,-0.0990618483160639,0.924570896391635,-0.320960103378827,0.924570896385612,-0.320960103377565,-0.027012419847232,-0.0989860231147532
45.5,-0.0275174753855622,-0.100038972588054,0.923232095092415,-0.324245575968258,0.923232095086536,-0.324245575966949,-0.0276969578396096,-0.0999627146134581
46,-0.0282041744273461,-0.101011315246326,0.921880945994317,-0.32752438659521,0.921880945988583,-0.327524386593856,-0.0283885912392645,-0.100934489314939
46.5,-0.0288978835571043,-0.101978821250007,0.920517486186485,-0.330796470489051,0.920517486180897,-0.330796470487658,-0.0290872716306316,-0.101901295368713
47,-0.0295985588413504,-0.102941436257631,0.919141753758059,-0.334061763653435,0.919141753752617,-0.334061763652004,-0.0297929507706634,-0.102863081643761
47.5,-0.0303061561537721,-0.103899106604698,0.917753787750116,-0.337320202867545,0.917753787744822,-0.337320202866083,-0.0305055805715425,-0.103819797688713
48,-0.0310206311782952,-0.10485177928256,0.91635362810995,-0.340571725686563,0.916353628104803,-0.340571725685073,-0.0312251130833343,-0.104771393695505
48.5,-0.031741939411435,-0.105799401918605,0.914941315647535,-0.343816270441389,0.914941315642535,-0.343816270439872,-0.0319515004766998,-0.105717820466316
49,-0.0324700361640281,-0.106741922757672,0.913516891994027,-0.347053776237749,0.913516891989176,-0.347053776236212,-0.0326846950257903,-0.106659029383485
49.5,-0.0332048765623936,-0.107679290644624,0.912080399562221,-0.350284182954721,0.912080399557517,-0.350284182953165,-0.0334246490913943,-0.107594972382167
50,-0.0339464155490219,-0.108611455008049,0.910631881508792,-0.353507431242744,0.910631881504236,-0.353507431241174,-0.0341713151044237,-0.108525601925537
50.5,-0.0346946078828321,-0.109538365845009,0.909171381698264,-0.356723462521187,0.909171381693857,-0.356723462519605,-0.034924645549776,-0.109450870982315
51,-0.0354494081390578,-0.110459973706799,0.907698944668585,-0.3599322189755,0.907698944664325,-0.359932218973911,-0.0356845929506406,-0.110370733006435
51.5,-0.0362107707088226,-0.111376229685673,0.906214615598198,-0.363133643554006,0.906214615594085,-0.363133643552411,-0.0364511098532629,-0.111285141918685
52,-0.0369786497984377,-0.112287085402461,0.904718440274554,-0.366327679964368,0.904718440270588,-0.366327679962772,-0.0372241488122071,-0.112194052090165
52.5,-0.03775299942847,-0.11319249299506,0.903210465063962,-0.369514272669764,0.903210465060143,-0.36951427266817,-0.0380036623761288,-0.113097418327399
53,-0.0385337734326179,-0.114092405107747,0.901690736882708,-0.372693366884807,0.901690736879036,-0.372693366883218,-0.0387896030740716,-0.113995195858989
53.5,-0.0393209254564277,-0.114986774881253,0.900159303169368,-0.375864908571227,0.900159303165842,-0.375864908569646,-0.039581923402295,-0.114887340323671
54,-0.0401144089558849,-0.115875555943593,0.898616211858251,-0.379028844433352,0.898616211854869,-0.379028844431782,-0.0403805758116453,-0.115773807759678
54.5,-0.0409141771958976,-0.116758702401575,0.897061511353908,-0.382185121913396,0.89706151135067,-0.382185121911841,-0.0411855126954472,-0.116654554595272
55,-0.0417201832487117,-0.117636168832981,0.895495250506653,-0.385333689186588,0.895495250503559,-0.385333689185048,-0.0419966863779403,-0.117529537640389
55.5,-0.0425323799922694,-0.118507910279368,0.893917478589037,-0.388474495156143,0.893917478586085,-0.388474495154623,-0.0428140491032347,-0.118398714079286
56,-0.0433507201085317,-0.119373882239464,0.892328245273223,-0.391607489448107,0.892328245270413,-0.39160748944661,-0.0436375530247832,-0.119262041464097
56.5,-0.0441751560817896,-0.120234040663121,0.890727600609224,-0.394732622406077,0.890727600606555,-0.394732622404605,-0.0444671501953644,-0.120119477709266
57,-0.0450056401969752,-0.121088341945806,0.889115595003947,-0.397849845085815,0.889115595001416,-0.397849845084369,-0.0453027925575644,-0.120970981086737
57.5,-0.0458421245379856,-0.121936742923578,0.887492279201007,-0.400959109249759,0.887492279198614,-0.400959109248343,-0.0461444319347406,-0.121816510221877
58,-0.0466845609860396,-0.122779200868562,0.885857704261276,-0.404060367361457,0.885857704259021,-0.404060367360075,-0.0469920200224649,-0.122656024090054
58.5,-0.0475329012180657,-0.123615673484849,0.884211921544132,-0.407153572579911,0.884211921542012,-0.407153572578563,-0.0478455083804196,-0.12348948201382
59,-0.0483870967051508,-0.124446118904831,0.882554982689352,-0.410238678753854,0.882554982687367,-0.410238678752543,-0.0487048484247518,-0.12431684366066
59.5,-0.0492470987110375,-0.125270495685938,0.880886939599654,-0.413315640415963,0.880886939597802,-0.41331564041469,-0.0495699914208522,-0.125138069041245
60,-0.0501128582906963,-0.126088762807747,0.879207844423828,-0.416384412777009,0.879207844422107,-0.416384412775777,-0.0504408884765619,-0.125953118508166
60.5,-0.050984326288964,-0.126900879669453,0.877517749540435,-0.419444951719959,0.877517749538844,-0.419444951718771,-0.0513174905357845,-0.126761952755092
61,-0.0518614533392684,-0.127706806087668,0.875816707542068,-0.422497213794024,0.875816707540605,-0.422497213792881,-0.0521997483724908,-0.127564532816331
61.5,-0.0527441898624347,-0.128506502294554,0.874104771220113,-0.425541156208664,0.874104771218776,-0.425541156207569,-0.0530876125851081,-0.128360820066761
62,-0.0536324860655837,-0.129299928936239,0.872381993550018,-0.428576736827557,0.872381993548807,-0.428576736826512,-0.0539810335912789,-0.12915077622209
62.5,-0.0545262919411244,-0.130087047071534,0.870648427677044,-0.431603914162526,0.870648427675957,-0.43160391416153,-0.0548799616229716,-0.129934363339428
