"Freq [GHz]","re(St(P1,P1)) []","im(St(P1,P1)) []","re(St(P1,P2)) []","im(St(P1,P2)) []","re(St(P2,P1)) []","im(St(P2,P1)) []","re(St(P2,P2)) []","im(St(P2,P2)) []"
0,0.00420180387516211,0,0.99580957069702,0,0.995809567146352,0,0.00420180448645624,0
0.5,0.00472684881210483,-0.00104377485164164,0.99519752154675,-0.00729827280996886,0.995197521633493,-0.0072982732785789,0.0047268782267551,-0.00104407791291905
1,0.00517248785586588,-0.00275138557010024,0.994529431843741,-0.0139122996365373,0.994529431859721,-0.0139122996390846,0.00517260647243489,-0.00275201812824122
1.5,0.00527441927335737,-0.00468668657255122,0.993937138473402,-0.0205972771754297,0.993937138487905,-0.0205972771785987,0.00527512357736093,-0.0046875961706867
2,0.00525852296117968,-0.00653994740066466,0.993286116785862,-0.0270957940725935,0.993286116798792,-0.027095794075997,0.00525945901675406,-0.00654141376731943
2.5,0.00518847553215807,-0.00834685086801201,0.992629672845809,-0.0334560274844939,0.992629672857191,-0.0334560274878974,0.0051894731534281,-0.00834891769007839
3,0.00508308781403866,-0.010124937259004,0.991983489295816,-0.0397244711082347,0.991983489305719,-0.0397244711115512,0.00508405532637823,-0.0101276121206091
3.5,0.0049494597900841,-0.0118825814551062,0.991343637328149,-0.0459340128906884,0.991343637336633,-0.0459340128939232,0.00495033822534463,-0.0118858692164334
4,0.00479084030279253,-0.0136239031374767,0.990699132147632,-0.0521044808986133,0.990699132154748,-0.0521044809018338,0.00479158541526559,-0.0136278120343771
4.5,0.00460898810246002,-0.0153509197432964,0.99003804633899,-0.058246518887108,0.99003804634477,-0.0582465188904067,0.00460956265891532,-0.0153554621669638
5,0.00440501755136058,-0.0170645365478972,0.989349794043735,-0.0643651103427203,0.989349794048202,-0.064365110346202,0.00440538768838916,-0.0170697287444863
5.5,0.00417974394168241,-0.018765036073713,0.988625667989705,-0.0704619960055357,0.988625667992879,-0.0704619960093194,0.004179877288367,-0.0187708976840231
6,0.00393383922516399,-0.0204523369983978,0.987858721438371,-0.0765371586902894,0.987858721440272,-0.0765371586944834,0.0039337038596936,-0.0204588906345649
6.5,0.0036679077666677,-0.0221261395101431,0.987043469466979,-0.0825896875817582,0.987043469467629,-0.0825896875864709,0.00366747159772052,-0.0221334103973234
7,0.00338252532245797,-0.0237860112240353,0.986175587408367,-0.0886182655003971,0.986175587407796,-0.0886182655057359,0.00338175570212296,-0.0237940268977255
7.5,0.00307825986542343,-0.0254314402906415,0.985251659649683,-0.0946214360942692,0.985251659647923,-0.0946214361003213,0.00307712333663568,-0.0254402303352927
8,0.00275568290020856,-0.0270618695355704,0.984268985181659,-0.100597744956053,0.984268985178745,-0.100597744962908,0.00275414502736593,-0.0270714653526314
8.5,0.00241537553713667,-0.0286767191721742,0.983225431490751,-0.106545809274617,0.983225431486724,-0.106545809282345,0.00241340079139707,-0.0286871537688782
9,0.00205793154907696,-0.030275402372026,0.982119325669809,-0.112464347405693,0.982119325664712,-0.112464347414363,0.00205548323187321,-0.030286710165079
9.5,0.00168395862560666,-0.0318573362185379,0.980949372893787,-0.118352186371499,0.980949372887666,-0.118352186381162,0.00168099882046824,-0.0318695528487423
10,0.00129407851588159,-0.0334219495809487,0.979714594588782,-0.124208257643876,0.979714594581682,-0.124208257654574,0.00129056806237965,-0.0334351117363552
10.5,0.00092465820298393,-0.0350668018878979,0.978553175590775,-0.130085440579996,0.97855317558307,-0.130085440591261,0.000920519147405874,-0.0350805672241226
11,0.000537465097889128,-0.0367078161222993,0.97736245714034,-0.135935934416775,0.97736245713199,-0.135935934428555,0.000532664601508109,-0.0367221761471628
11.5,0.000132534945896573,-0.0383448101981445,0.9761433012475,-0.141761105645746,0.976143301238469,-0.141761105657973,0.000127039858957956,-0.0383597559085214
12,-0.000290094762517401,-0.0399776021371245,0.97489637596177,-0.14756226174311,0.974896375952031,-0.147562261755724,-0.000296317915491423,-0.0399931240046341
12.5,-0.000730384780634752,-0.0416060100764337,0.973622179782158,-0.153340637139698,0.973622179771693,-0.153340637152632,-0.000737369815628053,-0.0416220980325903
13,-0.00118829409398474,-0.0432298522768537,0.972321064950698,-0.159097383587728,0.972321064939497,-0.159097383600919,-0.00119607518236992,-0.0432464956977388
13.5,-0.00166377990838673,-0.0448489471312787,0.9709932592055,-0.1648335642044,0.970993259193556,-0.164833564217785,-0.00167239159193022,-0.0448661348217456
14,-0.00215679763755675,-0.046463113173552,0.969638885735415,-0.170550150519198,0.96963888572273,-0.170550150532715,-0.00216627484355478,-0.0464808333509898
14.5,-0.00266730089027901,-0.048072169087753,0.968257981209385,-0.176248021916877,0.968257981195965,-0.176248021930469,-0.00267767894685995,-0.0480904093654448
15,-0.00319524145714627,-0.0496759337178241,0.966850511852961,-0.181927966941442,0.966850511838818,-0.18192796695505,-0.00320655610874764,-0.0496946810879249
15.5,-0.003740569296876,-0.0512742260776351,0.965416387616773,-0.187590686002166,0.965416387601924,-0.187590686015739,-0.00375285671993525,-0.0512934668938154
16,-0.00430323252220946,-0.0528668653614348,0.963955474531628,-0.193236795095671,0.963955474516091,-0.193236795109158,-0.00431652934108437,-0.0528865853212115
16.5,-0.00488317738539296,-0.0544536709547083,0.962467605376784,-0.198866830225812,0.962467605360583,-0.198866830239164,-0.00489752068854674,-0.0544738550815334
17,-0.00548034826325686,-0.0560344624454516,0.96095258880601,-0.204481252263853,0.96095258878917,-0.204481252277029,-0.00549577561973316,-0.0560550950705849
17.5,-0.00609468764187837,-0.0576090596358605,0.959410217083497,-0.210080452044513,0.959410217066047,-0.210080452057472,-0.00611123711810926,-0.057630124380073
18,-0.00672613610085815,-0.0591772825544168,0.957840272581716,-0.215664755538882,0.957840272563685,-0.215664755551589,-0.0067438462778287,-0.0591987623096069
18.5,-0.00737463229719859,-0.0607389514683998,0.956242533188,-0.221234428983456,0.956242533169419,-0.221234428995875,-0.00739354228800881,-0.0607608283791503
19,-0.00804011294878615,-0.0622938868967666,0.954616776757961,-0.226789683875992,0.954616776738864,-0.226789683888095,-0.00806026241665769,-0.0623161423419467
19.5,-0.00872251281750347,-0.0638419096234717,0.952962784743095,-0.232330681774685,0.952962784723514,-0.232330681786444,-0.00874394199425865,-0.0638645241979199
20,-0.00942176469195233,-0.0653828407111301,0.951280345108232,-0.237857538857539,0.951280345088201,-0.237857538868929,-0.00944451439701677,-0.0654057942075297
20.5,-0.0101377993698089,-0.0669165015150748,0.949569254642474,-0.243370330215192,0.949569254622028,-0.243370330226195,-0.0101619110297807,-0.0669397729060925
21,-0.010870545639815,-0.0684427136977743,0.947829320755551,-0.248869093862937,0.947829320734722,-0.248869093873534,-0.0108960613086453,-0.0684662811185626
21.5,-0.0116199302634034,-0.0699612992435772,0.946060362840375,-0.254353834467248,0.946060362819199,-0.254353834477421,-0.0116468926432339,-0.0699851399747464
22,-0.0123858779559682,-0.0714720804737823,0.944262213272234,-0.259824526789312,0.944262213250744,-0.259824526799049,-0.0124143304186797,-0.0714961709249606
22.5,-0.0131683113677989,-0.0729748800620063,0.942434718105591,-0.265281118853214,0.942434718083821,-0.265281118862504,-0.0131982979773076,-0.0729991957561054
23,-0.0139671510646607,-0.0744695210498096,0.940577737521012,-0.270723534850012,0.940577737498995,-0.270723534858846,-0.0139987166000238,-0.0744940366081455
23.5,-0.0147823155080558,-0.0759558268625637,0.938691146067104,-0.276151677791364,0.938691146044873,-0.276151677799735,-0.0148155054874211,-0.0759805159909668
24,-0.0156137210351552,-0.0774336213255098,0.936774832735727,-0.281565431927793,0.936774832713313,-0.281565431935695,-0.01564858174061,-0.0774584568016046
24.5,-0.0164612818384283,-0.0789027286799731,0.934828700902853,-0.286964664947419,0.934828700880288,-0.28696466495485,-0.0164978603417876,-0.0789276823417966
25,-0.0173249099449683,-0.08036297359968,0.932852668162408,-0.292349229971129,0.932852668139721,-0.292349229978086,-0.0173632541345365,-0.0803880163358333
25.5,-0.0182045151955385,-0.0818141812071431,0.930846666075996,-0.297718967360032,0.930846666053217,-0.297718967366516,-0.0182446738038921,-0.081839282948692
26,-0.0191000052233565,-0.083256177090032,0.928810639857678,-0.303073706350445,0.928810639834837,-0.303073706356456,-0.0191420278561629,-0.0832813068043827
26.5,-0.0200112854326265,-0.0846887873174782,0.926744548009701,-0.308413266531082,0.926744547986824,-0.308413266536622,-0.0200552225985332,-0.0847139130044861
27,-0.0209382589768538,-0.0861118384562387,0.924648361922352,-0.313737459176231,0.924648361899467,-0.313737459181305,-0.0209841621184475,-0.0861369271468144
27.5,-0.0218808267369648,-0.0875251575866449,0.922522065448766,-0.319046088447895,0.922522065425899,-0.319046088452505,-0.0219287482628073,-0.0875501753441534
28,-0.0228388872992714,-0.0889285723182507,0.920365654463533,-0.324338952478921,0.920365654440709,-0.324338952483074,-0.0228888806169932,-0.0889534842430251
28.5,-0.0238123369333004,-0.0903219108050655,0.918179136412291,-0.329615844348242,0.918179136389534,-0.329615844351945,-0.0238644564837232,-0.0903466810423816
29,-0.0248010695695619,-0.0917050017602976,0.915962529858091,-0.334876552958496,0.915962529835424,-0.334876552961756,-0.0248553708617844,-0.091729593512174
29.5,-0.0258049767772831,-0.0930776744704789,0.91371586402915,-0.340120863825382,0.913715864006596,-0.340120863828206,-0.0258615164246627,-0.0931020500117059
30,-0.026823947742188,-0.0944397588088499,0.911439178371633,-0.345348559787336,0.911439178349213,-0.345348559789733,-0.0268827834991003,-0.0944638795076762
30.5,-0.0278578692443897,-0.0957910852478787,0.909132522110281,-0.350559421643314,0.909132522088015,-0.350559421645294,-0.0279190600436227,-0.0958149115918152
31,-0.0289066256364861,-0.0971314848707727,0.906795953819058,-0.355753228725778,0.906795953796966,-0.355753228727351,-0.028970231627082,-0.0971549764979982
31.5,-0.0299700988219517,-0.0984607893818277,0.904429541003408,-0.360929759415291,0.904429540981509,-0.360929759416467,-0.0300361814072667,-0.0984839051187187
32,-0.0310481682339571,-0.0997788311154573,0.902033359695269,-0.366088791602533,0.902033359673582,-0.366088791603322,-0.0311167901096486,-0.0998015290207961
32.5,-0.0321407108147416,-0.101085443043732,0.899607494061639,-0.371230103102978,0.89960749404018,-0.371230103103392,-0.0322119360063305,-0.101107680460161
33,-0.0332476009957047,-0.10238045878225,0.897152036027149,-0.376353472028972,0.897152036005934,-0.376353472029023,-0.0333214948952942,-0.102402192395594
33.5,-0.0343687106783986,-0.103663712594148,0.894667084910898,-0.381458677123463,0.894667084889943,-0.381458677123162,-0.034445340080044,-0.103684898501218
34,-0.0355039092166321,-0.104935039392055,0.892152747077594,-0.386545498059216,0.892152747056914,-0.386545498058577,-0.035583342349763,-0.104955633177599
34.5,-0.0366530633999383,-0.106194274737809,0.889609135602876,-0.391613715706994,0.889609135582483,-0.391613715706027,-0.0367353699601362,-0.106214231561264
35,-0.0378160374386735,-0.107441254839688,0.88703636995261,-0.396663112375759,0.887036369932519,-0.396663112374479,-0.0379012886149825,-0.10746052953242
35.5,-0.0389926929510798,-0.108675816547009,0.88443457567583,-0.401693472027737,0.884434575656053,-0.401693472026155,-0.0390809614489078,-0.108694363720692
36,-0.0401828889526686,-0.109897797341846,0.881803884110937,-0.406704580470803,0.881803884091486,-0.406704580468934,-0.0402742490111771,-0.109915571508651
36.5,-0.0413864818483394,-0.111107035327681,0.879144432104732,-0.411696225530467,0.879144432085617,-0.411696225528323,-0.0414810092510797,-0.1111239910329
37,-0.0426033254277047,-0.112303369214835,0.876456361743794,-0.416668197203465,0.876456361725025,-0.416668197201059,-0.0427010975050598,-0.112319461182509
37.5,-0.0438332708641435,-0.113486638302466,0.873739820097734,-0.421620287794766,0.87373982007932,-0.421620287792112,-0.0439343664859676,-0.11350182159454
38,-0.0450761667181724,-0.114656682457048,0.870994958973804,-0.426552292039633,0.870994958955756,-0.426552292036744,-0.0451806662747997,-0.11467091264645
38.5,-0.0463318589457966,-0.11581334208719,0.868221934682364,-0.431464007212181,0.868221934664688,-0.431464007209071,-0.0464398443153824,-0.115826575445119
39,-0.0476001909125647,-0.116956458114762,0.865420907812693,-0.436355233221756,0.865420907795398,-0.436355233218438,-0.0477117454124823,-0.116968651812319
39.5,-0.0488810034141355,-0.118085871942336,0.862592043018662,-0.4412257726983,0.862592043001754,-0.441225772694788,-0.0489962117339205,-0.11809698426638
40,-0.0501741347042361,-0.119201425417026,0.859735508813757,-0.44607543106777,0.859735508797242,-0.446075431064075,-0.0502930828173325,-0.119211415999917
40.5,-0.0514794205309683,-0.120302960790883,0.856851477375017,-0.450904016618527,0.856851477358901,-0.450904016614666,-0.051602195582268,-0.12031179085344
41,-0.0527966941825088,-0.121390320678174,0.853940124355385,-0.455711340559602,0.853940124339673,-0.455711340555586,-0.0529233843484663,-0.121397953284792
41.5,-0.0541257865432943,-0.122463348009925,0.851001628704074,-0.460497217071537,0.851001628688771,-0.460497217067379,-0.054256480861167,-0.12246974833436
42,-0.0554665261618792,-0.12352188598635,0.848036172494501,-0.465261463350535,0.848036172479611,-0.465261463346249,-0.0556013143244515,-0.123527021586119
42.5,-0.0568187393316737,-0.124565778027894,0.845043940759403,-0.470003899646512,0.845043940744929,-0.470003899642111,-0.0569577114436997,-0.124569619124661
43,-0.058182250185833,-0.125594867725918,0.842025121332739,-0.474724349295623,0.842025121318684,-0.474724349291119,-0.0583254964783262,-0.12559738748849
43.5,-0.0595568808075613,-0.126608998794193,0.838979904698025,-0.479422638747733,0.838979904684391,-0.479422638743141,-0.0597044913060707,-0.126610173619987
44,-0.0609424513570781,-0.127608015022743,0.83590848384276,-0.484098597589311,0.835908483829549,-0.484098597584641,-0.0610945155001916,-0.127607824812676
44.5,-0.0623387802164505,-0.128591760235799,0.832811054118604,-0.488752058562129,0.832811054105818,-0.488752058557395,-0.0624953864210029,-0.128590188656583
45,-0.0637456841533715,-0.129560078256002,0.829687813107016,-0.493382857578146,0.829687813094655,-0.493382857573359,-0.0639069193232281,-0.129557112982753
45.5,-0.0651629785048142,-0.1305128128773,0.826538960490047,-0.497990833730886,0.826538960478112,-0.497990833726059,-0.0653289274807062,-0.130508445808281
46,-0.0665904773812515,-0.131449807849376,0.823364697926038,-0.502575829303617,0.823364697914527,-0.502575829298761,-0.0667612223299592,-0.131444035283494
46.5,-0.0680279938918372,-0.132370906876824,0.820165228929924,-0.507137689774602,0.820165228918839,-0.507137689769729,-0.0682036136341163,-0.132363729643351
47,-0.0694753403905131,-0.133275953636581,0.816940758757962,-0.511676263819642,0.816940758747301,-0.511676263814765,-0.0696559096685507,-0.133267377165454
47.5,-0.0709323287425407,-0.134164791817573,0.813691494296595,-0.516191403312152,0.813691494286357,-0.516191403307279,-0.0711179174294597,-0.134154826137546
48,-0.0723987706103201,-0.135037265186705,0.810417643955282,-0.520682963320943,0.810417643945465,-0.520682963316086,-0.0725894428663368,-0.135025924837803
48.5,-0.0738744777566585,-0.135893217685668,0.807119417563074,-0.525150802105905,0.807119417553676,-0.525150802101078,-0.0740702911389517,-0.135880521531734
49,-0.0753592623628102,-0.136732493563078,0.803797026268756,-0.529594781111748,0.803797026259774,-0.529594781106959,-0.075560266898973,-0.136718464489938
49.5,-0.076852937357668,-0.137554937546497,0.800450682444369,-0.53401476495993,0.800450682435801,-0.534014764955189,-0.0770591745957956,-0.137539602031461
50,-0.0783553167534692,-0.138360395058739,0.797080599591972,-0.538410621438925,0.797080599583813,-0.538410621434243,-0.0785668188053791,-0.138343782597903
50.5,-0.0798662159822645,-0.13914871248248,0.793686992253447,-0.542782221492949,0.793686992245696,-0.542782221488335,-0.0800830045800288,-0.139130854863744
51,-0.0813854522262698,-0.139919737476592,0.790270075923259,-0.547129439209226,0.79027007591591,-0.547129439204688,-0.0816075378159915,-0.13990066788862
51.5,-0.0829128447340913,-0.140673319346778,0.786830066963978,-0.551452151803932,0.786830066957026,-0.551452151799481,-0.083140225634567,-0.14065307131731
52,-0.0844482151137321,-0.141409309471924,0.783367182524481,-0.555750239606879,0.783367182517924,-0.555750239602524,-0.0846808767710614,-0.141387915633071
52.5,-0.0859913875923901,-0.142127561786122,0.779881640460697,-0.56002358604503,0.779881640454528,-0.56002358604078,-0.0862293019645012,-0.142105052469572
53,-0.0875421892322965,-0.142827933314581,0.776373659258773,-0.564272077624921,0.776373659252987,-0.564272077620783,-0.0877853143394718,-0.142804334985929
53.5,-0.0891004500914486,-0.143510284759576,0.772843457960588,-0.568495603914062,0.772843457955181,-0.568495603910043,-0.0893487297699261,-0.143485618308305
54,-0.0906660033180399,-0.144174481130356,0.769291256091487,-0.572694057521366,0.769291256086451,-0.572694057517475,-0.0909193672133438,-0.144148760040033
54.5,-0.0922386851678092,-0.144820392408451,0.765717273590161,-0.576867334076687,0.765717273585492,-0.576867334072932,-0.0924970490022999,-0.14479362084033
55,-0.0938183349345225,-0.145447894237339,0.762121730740587,-0.581015332209498,0.762121730736277,-0.581015332205886,-0.0940816010794794,-0.145420065069315
55.5,-0.0954047947853387,-0.146056868622988,0.758504848105939,-0.585137953526771,0.758504848101982,-0.585137953523307,-0.0956728531615489,-0.146027961494306
56,-0.0969979094949999,-0.146647204629517,0.754866846464408,-0.589235102590097,0.754866846460797,-0.589235102586789,-0.0972706388171822,-0.14661718404923
56.5,-0.0985975260755638,-0.147218799052364,0.751207946746852,-0.593306686892101,0.75120794674358,-0.593306686888954,-0.0988747954451186,-0.147187612635649
57,-0.100203493301719,-0.147771557049974,0.747528369976211,-0.597352616832169,0.74752836997327,-0.597352616829189,-0.100485164139472,-0.147739133950415
57.5,-0.101815661135473,-0.148305392714351,0.743828337208631,-0.601372805691548,0.743828337206015,-0.601372805688741,-0.102101589431722,-0.148271642321534
58,-0.103433880058063,-0.148820229560994,0.740108069476239,-0.605367169607833,0.74010806947394,-0.605367169605203,-0.103723918901938,-0.148785040530742
58.5,-0.105058000321028,-0.149316000919789,0.736367787731504,-0.609335627548884,0.736367787729513,-0.609335627546437,-0.105352002655774,-0.149279240598704
59,-0.10668787113239,-0.149792650210463,0.732607712793149,-0.613278101286201,0.732607712791458,-0.61327810128394,-0.106985692668587,-0.149754164506935
59.5,-0.10832333979746,-0.150250131089237,0.728828065293551,-0.617194515367777,0.728828065292153,-0.617194515365705,-0.108624842003462,-0.150209744829893
60,-0.109964250836684,-0.150688407457088,0.725029065627608,-0.621084797090464,0.725029065626494,-0.621084797088587,-0.110269303915705,-0.150645925251123
60.5,-0.111610445105084,-0.151107453324658,0.721210933902991,-0.624948876471882,0.721210933902152,-0.624948876470202,-0.111918930862275,-0.151062660939322
61,-0.113261758938793,-0.151507252533791,0.717373889891786,-0.628786686221871,0.717373889891214,-0.628786686220389,-0.113573573440149,-0.151459918763535
61.5,-0.114918023354099,-0.151887798340969,0.713518152983462,-0.632598161713535,0.713518152983147,-0.632598161712256,-0.115233079282493,-0.151837677331515
62,-0.116579063323037,-0.152249092873023,0.709643942139124,-0.636383240953886,0.709643942139057,-0.63638324095281,-0.116897291945267,-0.152195926841241
62.5,-0.11824469714709,-0.152591146470241,0.705751475847051,-0.640141864554104,0.705751475847224,-0.640141864553233,-0.118566049819208,-0.152534668742639
63,-0.119914735947042,-0.152913976936063,0.701840972079447,-0.643873975699445,0.701840972079851,-0.643873975698782,-0.120239185102793,-0.152853915214015
