"Freq [GHz]","re(St(P1,P1)) []","im(St(P1,P1)) []","re(St(P1,P2)) []","im(St(P1,P2)) []","re(St(P2,P1)) []","im(St(P2,P1)) []","re(St(P2,P2)) []","im(St(P2,P2)) []"
0,0.00789834594525018,0,0.992114588036202,0,0.992114588036202,0,0.00789834629563302,0
0.5,0.00888034236725233,0.00347418543537259,0.99109584226693,-0.0106147514359201,0.991095842267381,-0.0106147514347619,0.00888013336257032,0.00347405080956165
1,0.0104860974475134,0.00601912252310299,0.98941190818249,-0.0203005261831777,0.989411908181484,-0.02030052618416,0.0104852452712443,0.00601893339567106
1.5,0.0123748445110339,0.00774550400545593,0.987386707942423,-0.029172276019187,0.987386707941655,-0.0291722760190449,0.0123728377878223,0.00774537155241717
2,0.0141811719076914,0.00881920019487215,0.985399254798118,-0.0373799451970616,0.985399254797971,-0.0373799451967596,0.0141779111886233,0.00881945794726224
2.5,0.0157794660863724,0.0094593563104679,0.983575370962231,-0.0451554766091089,0.983575370962357,-0.0451554766090263,0.0157748704870615,0.00946005214331436
3,0.0171430837848647,0.00983119725271209,0.981934880595692,-0.0526656151875677,0.981934880595839,-0.0526656151876681,0.0171369580427814,0.00983231521898897
3.5,0.018290290090806,0.0100486518163798,0.980456793165583,-0.0600209004706347,0.980456793165687,-0.0600209004707999,0.0182823857290475,0.0100502023608318
4,0.0192557914809717,0.010184700879825,0.979106905592619,-0.0672914924635046,0.979106905592706,-0.0672914924636592,0.0192458530499311,0.0101867211615021
4.5,0.0200762087770849,0.0102832909763224,0.977849989687378,-0.0745201018320536,0.977849989687491,-0.0745201018321806,0.0200639868042698,0.0102858290964418
5,0.0207839743431903,0.0103694378719075,0.976654750080995,-0.0817315655006574,0.976654750081165,-0.081731565500764,0.0207692233884145,0.0103725431166568
5.5,0.0214056304950268,0.0104564756550749,0.975495248363614,-0.088939488693824,0.975495248363851,-0.0889394886939279,0.0213881039768193,0.0104601956378767
6,0.0219620504118505,0.0105507957351754,0.974350746509479,-0.0961506137342734,0.974350746509779,-0.0961506137343964,0.0219414963806142,0.0105551774370305
6.5,0.0224693131456186,0.010654787768178,0.973204972425983,-0.103367587637304,0.973204972426331,-0.103367587637455,0.0224454717992073,0.0106598801628288
7,0.0229396741770336,0.0107686113065233,0.972045273917043,-0.110590672437381,0.972045273917414,-0.110590672437562,0.022912276854917,0.0107744683410402
7.5,0.0233824248538951,0.0108912437242341,0.970861848712858,-0.117818784841212,0.970861848713231,-0.117818784841415,0.0233511940714753,0.0108979271168019
8,0.0238045888072158,0.0110210915165263,0.969647106890644,-0.125050120410428,0.969647106890992,-0.125050120410644,0.0237692389692236,0.0110286731814027
8.5,0.0242114633320102,0.0111563416261649,0.968395166585131,-0.132282523848298,0.96839516658543,-0.132282523848503,0.0241717018750061,0.0111649056883332
9,0.0246070320223378,0.0112951590546286,0.967101464329846,-0.139513705354648,0.967101464330071,-0.139513705354815,0.0245625608237255,0.0113048034739247
9.5,0.0249942767012484,0.0114357940120566,0.965762457359427,-0.146741364155516,0.965762457359558,-0.146741364155616,0.024944793650177,0.0114466318526909
10,0.0253754128305938,0.0115766361120877,0.964375397153134,-0.153963256349293,0.964375397153151,-0.153963256349288,0.0253206134918073,0.0115887964937245
10.5,0.0257936296059962,0.0117169017562566,0.962961906329217,-0.161178605563725,0.962961906328846,-0.161178605563529,0.0257294964877311,0.0117292841255305
11,0.0262005280648688,0.0118521541688641,0.961499214564398,-0.16838779157785,0.961499214563732,-0.168387791577453,0.0261272193161295,0.0118655473218703
11.5,0.0265979969285642,0.0119829153880771,0.959986266577459,-0.175589098423588,0.959986266576572,-0.17558909842299,0.0265156925676443,0.0119979743102063
12,0.0269876651569545,0.0121094818972298,0.958422305396612,-0.182780978113656,0.958422305395572,-0.182780978112862,0.0268965490253024,0.0121267481474576
12.5,0.027370927651873,0.0122319837157705,0.956806807183463,-0.189962034983665,0.956806807182323,-0.189962034982688,0.027271174927231,0.0122519037956037
13,0.0277489709833351,0.0123504298246759,0.955139430900742,-0.197131010335222,0.955139430899548,-0.19713101033408,0.0276407398146764,0.0123733713987053
13.5,0.028122797892278,0.012464742949915,0.953419979139825,-0.204286767992849,0.953419979138613,-0.204286767991556,0.028006224063207,0.0124910089732406
14,0.0284932499254202,0.0125747861014291,0.951648367410996,-0.211428281037718,0.951648367409798,-0.211428281036294,0.028368443723371,0.0126046270068656
14.5,0.0288610279319842,0.0126803827465887,0.94982459990732,-0.218554619788607,0.949824599906159,-0.218554619787071,0.0287280726091627,0.0127140068875191
15,0.0292267103770105,0.01278133207952,0.947948750263479,-0.225664940998757,0.947948750262376,-0.22566494099713,0.0290856617475811,0.01281891463498
15.5,0.029590769554806,0.0128774205170978,0.946020946201607,-0.232758478187704,0.946020946200576,-0.232758478186003,0.0294416563921016,0.0129191110586646
16,0.029953585853946,0.0129684302938875,0.944041357226956,-0.23983453300684,0.944041357226008,-0.239834533005084,0.0297964108406086,0.0130143591978873
16.5,0.0303154602553248,0.0130541458276117,0.942010184735593,-0.246892467533348,0.942010184734736,-0.246892467531555,0.0301502013055069,0.0131044296963856
17,0.0306766252521709,0.0131343583718355,0.939927654044118,-0.253931697391357,0.939927654043355,-0.253931697389544,0.0305032370739399,0.0131891046073047
17.5,0.0310372543752176,0.0132088693533481,0.937794007961741,-0.260951685607361,0.937794007961076,-0.260951685605542,0.0308556701774732,0.0132681800065793
18,0.031397470493572,0.0132774927001493,0.935609501608113,-0.267951937116573,0.935609501607546,-0.267951937114764,0.0312076037683897,0.0133414677028023
18.5,0.0317573530459325,0.0133400563956843,0.93337439824324,-0.274931993846619,0.933374398242768,-0.274931993844831,0.031559099376805,0.0134087962635092
19,0.0321169443400216,0.0133964034410421,0.931088965923908,-0.281891430314104,0.931088965923531,-0.281891430312349,0.0319101832007712,0.0134700115259279
19.5,0.0324762550416505,0.0134463923654271,0.928753474838052,-0.288829849677847,0.928753474837764,-0.288829849676135,0.032260851561266,0.0135249767208325
20,0.0328352689595152,0.013489897393411,0.926368195197215,-0.295746880199735,0.926368195197013,-0.295746880198076,0.0326110756358088,0.0135735723080888
20.5,0.0331939472179225,0.013526808352947,0.92393339558974,-0.302642172070503,0.923933395589617,-0.302642172068903,0.032960805568461,0.0136156955995621
21,0.0335522318972569,0.0135570303893153,0.921449341714987,-0.309515394563012,0.921449341714936,-0.309515394561478,0.0333099740400596,0.0136512602275096
21.5,0.0339100492111402,0.0135804835355429,0.918916295432993,-0.316366233480243,0.91891629543301,-0.316366233478781,0.0336584993705719,0.0136801955031649
22,0.0342673122797891,0.0135971021786128,0.916334514075243,-0.323194388869059,0.916334514075319,-0.323194388867674,0.0340062882151768,0.0137024456999197
22.5,0.0346239235508949,0.0136068344520257,0.913704249971302,-0.329999572974125,0.913704249971431,-0.329999572972819,0.0343532379069271,0.0137179692875642
23,0.0349797769123367,0.0136096415785025,0.911025750153529,-0.33678150840917,0.911025750153705,-0.336781508407946,0.0346992384913807,0.0137267381379351
23.5,0.0353347595349846,0.0136054971813195,0.9082992562081,-0.343539926525222,0.908299256208314,-0.343539926524083,0.0350441744922447,0.0137287367175953
24,0.0356887534787086,0.0135943865786721,0.905525004245627,-0.350274565957477,0.905525004245876,-0.350274565956422,0.035387926441691,0.0137239612795104
24.5,0.0360416370902811,0.0135763060722169,0.902703224968842,-0.3569851713343,0.902703224969116,-0.356985171333331,0.035730372204418,0.0137124190628275
25,0.036393286218082,0.0135512622384268,0.899834143818253,-0.363671492133402,0.899834143818547,-0.363671492132516,0.0360713881206372,0.0136941275076767
25.5,0.0367435752652823,0.0135192712294165,0.896917981179687,-0.370333281671595,0.896917981179995,-0.370333281670793,0.0364108499898537,0.013669113490145
26,0.0370923781004264,0.0134803580882958,0.893954952640065,-0.37697029621579,0.893954952640381,-0.37697029621507,0.0367486339144633,0.0136374125812628
26.5,0.0374395688419389,0.0134345560829288,0.890945269279895,-0.383582294203906,0.890945269280216,-0.383582294203266,0.0370846170197976,0.01359906833275
27,0.0377850225310588,0.0133819060609284,0.887889137992758,-0.39016903556543,0.887889137993077,-0.390169035564868,0.0374186780651508,0.0135541315914491
27.5,0.0381286157059414,0.0133224558279985,0.884786761823594,-0.396730281132129,0.884786761823906,-0.39673028113164,0.0377506979585616,0.0135026598437189
28,0.0384702268881629,0.0132562595510823,0.881638340318937,-0.403265792130294,0.881638340319239,-0.403265792129877,0.0380805601865891,0.0134447165905318
28.5,0.0388097369915366,0.0131833771872898,0.87844406988336,-0.409775329746587,0.878444069883648,-0.40977532974624,0.0384081511689913,0.0133803707536269
29,0.0391470296620323,0.0131038739391792,0.875204144137368,-0.416258654760219,0.875204144137638,-0.416258654759936,0.038733360547075,0.0133096961127165
29.5,0.0394819915565933,0.0130178197366756,0.871918754272816,-0.422715527234783,0.871918754273066,-0.42271552723456,0.0390560814135001,0.0132327707735425
30,0.0398145125677876,0.0129252887456132,0.868588089402663,-0.429145706263674,0.868588089402891,-0.429145706263509,0.0393762104904261,0.0131496766663096
30.5,0.0401444860004674,0.0128263589027274,0.865212336902466,-0.435548949763489,0.865212336902668,-0.435548949763379,0.0396936482621593,0.0130604990739288
31,0.0404718087059683,0.0127211114767403,0.861791682741556,-0.441925014310302,0.861791682741731,-0.44192501431024,0.0400082990677707,0.0129653261893367
31.5,0.0407963811787765,0.012609630655064,0.858326311802322,-0.448273655014142,0.858326311802468,-0.448273655014126,0.0403200711585822,0.012864248701089
32,0.041118107620087,0.0124920031555374,0.854816408186356,-0.454594625427433,0.854816408186473,-0.454594625427459,0.040628876724883,0.0127573594063436
32.5,0.041436895972229,0.0123683178625384,0.851262155506615,-0.460887677483486,0.851262155506701,-0.46088767748355,0.0409346318958004,0.0126447528502942
33,0.0417526579275082,0.0122386654867563,0.847663737164968,-0.467152561461522,0.847663737165022,-0.46715256146162,0.0412372567158159,0.0125265249910849
33.5,0.0420653089146784,0.0121031382478533,0.84402133661478,-0.47338902597501,0.844021336614804,-0.473389025975139,0.0415366751010824,0.0124027728892109
34,0.0423747680659119,0.0119618295792138,0.84033513760837,-0.479596817980407,0.840335137608361,-0.479596817980562,0.0418328147783359,0.012273594420387
34.5,0.042680958166868,0.011814833853969,0.836605324429316,-0.485775682803646,0.836605324429277,-0.485775682803825,0.0421256072089479,0.0121390880108733
35,0.0429838055921828,0.0116622461314405,0.83283208210978,-0.491925364181999,0.83283208210971,-0.491925364182197,0.0424149875003548,0.0119993523942346
35.5,0.0432832402284833,0.0115041619231857,0.829015596633065,-0.498045604319137,0.829015596632964,-0.498045604319352,0.0427008943069186,0.011854486388537
36,0.0435791953868088,0.011340676977765,0.825156055121753,-0.504136143951471,0.825156055121624,-0.5041361439517,0.0429832697220061,0.0117045886929715
36.5,0.04387160770614,0.011171887083416,0.821253646011845,-0.510196722423997,0.821253646011687,-0.510196722424236,0.0432620591629285,0.0115497577029392
37,0.0441604170495585,0.0109978878877899,0.817308559213332,-0.516227077774095,0.817308559213148,-0.516227077774342,0.0435372112501864,0.0113900913426312
37.5,0.0444455663944125,0.0108187747339195,0.813320986257745,-0.522226946821887,0.813320986257535,-0.522226946822138,0.0438086776823127,0.0112256869141701
38,0.0447270017177044,0.0106346425116288,0.80929112043318,-0.528196065265866,0.809291120432947,-0.52819606526612,0.0440764131074691,0.0110566409624024
38.5,0.0450046718778182,0.0104455855235751,0.805219156907376,-0.534134167782729,0.805219156907121,-0.534134167782984,0.0443403749928244,0.0108830491544601
39,0.0452785284935543,0.0102516973651652,0.80110529283941,-0.540040988130382,0.801105292839133,-0.540040988130635,0.0446005234926208,0.0107050061732348
39.5,0.0455485258213639,0.0100530708175892,0.79694972748057,-0.545916259253259,0.796949727480275,-0.545916259253508,0.0448568213157357,0.0105226056239389
40,0.0458146206315566,0.00984979775324712,0.792752662264996,-0.551759713389183,0.792752662264683,-0.551759713389426,0.0451092335934483,0.0103359399529589
40.5,0.0460767720841813,0.00964196905285808,0.788514300890637,-0.557571082177076,0.788514300890309,-0.557571082177313,0.0453577277480404,0.010145100378238
41,0.0463349416051948,0.00942967453357801,0.784234849391086,-0.563350096764941,0.784234849390745,-0.563350096765169,0.0456022733627702,0.00995017683045429
41.5,0.0465890927634658,0.0092130028874684,0.77991451619885,-0.569096487917571,0.779914516198497,-0.569096487917788,0.045842842053702,0.00975125790428744
42,0.046839191149085,0.00899204162967959,0.77555351220055,-0.574809986123557,0.775553512200189,-0.574809986123765,0.0460794073438054,0.00954843081911239
42.5,0.0470852042534143,0.00876687705575085,0.771152050784605,-0.580490321701203,0.771152050784236,-0.580490321701398,0.0463119445396759,0.00934178138846964
43,0.047327101351228,0.00853759420744282,0.766710347881854,-0.586137224902995,0.76671034788148,-0.586137224903177,0.0465404306111836,0.0091313939977038
43.5,0.0475648533852721,0.008304276846544,0.762228621999614,-0.591750426018372,0.762228621999236,-0.59175042601854,0.0467648440743119,0.00891735158919582
44,0.0477984328535127,0.00806700743612654,0.757707094249611,-0.597329655474537,0.757707094249231,-0.597329655474691,0.0469851648773942,0.00869973565462812
44.5,0.048027813699307,0.00782586712873989,0.75314598837023,-0.60287464393512,0.75314598836985,-0.60287464393526,0.0472013742909342,0.00847862623376427
45,0.0482529712046943,0.00758093576106122,0.748545530743478,-0.608385122396528,0.748545530743101,-0.608385122396653,0.047413454801156,0.00825410191924481
45.5,0.0484738818869748,0.00733229185454709,0.743905950407067,-0.61386082228185,0.743905950406694,-0.613860822281961,0.0476213900073924,0.00802623986693041
46,0.0486905233987138,0.00708001262164115,0.739227479061978,-0.619301475532223,0.739227479061611,-0.619301475532319,0.0478251645234094,0.00779511581134629
46.5,0.0489028744312799,0.00682417397713619,0.73451035107585,-0.624706814695555,0.73451035107549,-0.624706814695638,0.0480247638827251,0.00756080408581383
47,0.0491109146220041,0.00656485055428524,0.72975480348254,-0.63007657301259,0.729754803482189,-0.630076573012657,0.0482201744479738,0.00732337764686763
47.5,0.0493146244650335,0.00630211572530237,0.724961075978149,-0.635410484500229,0.724961075977809,-0.635410484500283,0.0484113833243371,0.00708290810258883
48,0.0495139852259239,0.00603604162588756,0.72012941091382,-0.640708284032135,0.720129410913492,-0.640708284032176,0.0485983782770499,0.00683946574450278
48.5,0.0497089788600003,0.00576669918345685,0.715260053285564,-0.645969707416572,0.715260053285249,-0.6459697074166,0.0487811476529902,0.00659311958271358
49,0.0498995879345143,0.00549415814875109,0.710353250721397,-0.651194491471519,0.710353250721097,-0.651194491471534,0.0489596803063155,0.00634393738395989
49.5,0.050085795554593,0.00521848713054118,0.705409253466008,-0.656382374097052,0.705409253465724,-0.656382374097055,0.0491339655281403,0.00609198571230674
50,0.0502675852929817,0.00493975363312948,0.700428314363191,-0.661533094345046,0.700428314362924,-0.661533094345037,0.0493039929802022,0.00583732997219433
50.5,0.0504449411235631,0.00465802409640492,0.695410688836253,-0.666646392486198,0.695410688836005,-0.666646392486179,0.0494697526324836,0.00558003445359423
51,0.0506178473586293,0.00437336393819077,0.690356634866601,-0.671722010074452,0.690356634866371,-0.671722010074424,0.0496312347047338,0.00532016237902233
51.5,0.0507862885898777,0.00408583759865022,0.685266412970672,-0.676759690008846,0.685266412970462,-0.676759690008809,0.0497884296118368,0.00505777595219481
52,0.050950249633093,0.00379550858653893,0.680140286175402,-0.681759176592837,0.680140286175212,-0.681759176592791,0.0499413279129635,0.0047929364081023
52.5,0.0511097154764778,0.00350243952708468,0.674978519992371,-0.686720215591172,0.674978519992202,-0.68672021559112,0.0500899202644509,0.00452570406432062
53,0.051264671232582,0.00320669221130931,0.66978138239079,-0.691642554284362,0.669781382390643,-0.691642554284304,0.0502341973763308,0.0042561383733537
53.5,0.0514151020937808,0.00290832764659632,0.664549143769453,-0.6965259415208,0.664549143769327,-0.696525941520737,0.0503741499724512,0.00398429797585043
54,0.0515609932912589,0.00260740610834859,0.659282076927786,-0.701370127766617,0.659282076927684,-0.70137012776655,0.0505097687541121,0.0037102407545227
54.5,0.0517023300574347,0.00230398719255054,0.653980457036123,-0.706174865153323,0.653980457036042,-0.706174865153252,0.0506410443671492,0.0034340238886148
55,0.0518390975917754,0.0019981298690992,0.648644561605287,-0.710939907523296,0.648644561605229,-0.710939907523223,0.0507679673723896,0.00315570390877962
55.5,0.051971281029948,0.00168989253574897,0.643274670455621,-0.715665010473199,0.643274670455585,-0.715665010473125,0.0508905282194132,0.00287533675222812
56,0.0520988654162399,0.00137933307253307,0.637871065685519,-0.720349931395379,0.637871065685506,-0.720349931395305,0.051008717223543,0.00259297781801981
56.5,0.0522218356792025,0.00106650889653381,0.632434031639578,-0.724994429517322,0.632434031639588,-0.724994429517248,0.0511225245459949,0.00230868202238249
57,0.0523401766104485,0.000751477016879887,0.626963854876424,-0.729598265939219,0.626963854876456,-0.729598265939146,0.051231940177117,0.00202250385393926
57.5,0.0524538728465484,0.000434294089845022,0.621460824136304,-0.734161203669725,0.621460824136357,-0.734161203669654,0.0513369539226474,0.00173449742874177
58,0.0525629088539712,0.000115016473951901,0.615925230308501,-0.738683007659958,0.615925230308574,-0.73868300765989,0.0514375553929198,0.00144471654500905
58.5,0.0526672689170093,-0.000206299715041047,0.610357366398638,-0.743163444835812,0.610357366398732,-0.743163444835748,0.0515337339949539,0.0011532147374686
59,0.0527669371286227,-0.00052959854935869,0.604757527495932,-0.747602284128642,0.604757527496046,-0.747602284128582,0.0516254789273557,0.000860045331217196
59.5,0.052861897384159,-0.000854824234739038,0.599126010740435,-0.75199929650438,0.599126010740568,-0.751999296504325,0.0517127791779703,0.000565261495009906
60,0.0529521333778816,-0.00118192105635756,0.59346311529033,-0.756354254991149,0.593463115290481,-0.756354254991098,0.0517956235242144,0.000268916293891697
60.5,0.0530376286022596,-0.00151083332524299,0.587769142289315,-0.76066693470542,0.587769142289484,-0.760666934705377,0.0518740005360308,-2.89372589016845E-005
61,0.0531183663499526,-0.00184150532527066,0.58204439483411,-0.764937112876793,0.582044394834295,-0.764937112876756,0.0519478985813983,-0.000328246150858635
61.5,0.0531943297184496,-0.00217388126080664,0.576289177942139,-0.76916456887142,0.576289177942339,-0.769164568871389,0.0520173058343361,-0.000628957319989687
62,0.0532655016172975,-0.00250790520509281,0.570503798519404,-0.773349084214161,0.570503798519618,-0.773349084214137,0.0520822102853427,-0.00093101760558445
62.5,0.0533318647778731,-0.00284352104945096,0.564688565328588,-0.777490442609506,0.564688565328816,-0.777490442609489,0.0521425997542069,-0.00123437369999341
63,0.0533934017656375,-0.00318067245337428,0.558843788957427,-0.781588429961314,0.558843788957666,-0.781588429961304,0.0521984619051333,-0.00153897210150894
63.5,0.0534500949948324,-0.00351930279558577,0.552969781787343,-0.785642834391427,0.552969781787593,-0.785642834391425,0.0522497842641214,-0.00184475906840298
64,0.0535019267455527,-0.00385935512613728,0.547066857962402,-0.7896534462572,0.547066857962661,-0.789653446257206,0.0522965542385401,-0.00215168057419385
