"Freq [GHz]","re(St(P1,P1)) []","im(St(P1,P1)) []","re(St(P1,P2)) []","im(St(P1,P2)) []","re(St(P2,P1)) []","im(St(P2,P1)) []","re(St(P2,P2)) []","im(St(P2,P2)) []"
0,0.0137171022412304,0,0.986304578516865,0,0.986304578924319,0,0.01371773811411,0
0.5,0.0157331520746808,0.00290004275551947,0.984117036602033,-0.0204404195909076,0.984117036592728,-0.0204404195877963,0.0157457890433843,0.00289364150801497
1,0.018629173508355,0.00364393154920784,0.980728487548598,-0.0387180244839955,0.980728487546055,-0.0387180244861307,0.0186749233991437,0.00362365349997962
1.5,0.021627093631325,0.00288865733050336,0.976907159930726,-0.0555017668219442,0.976907159901192,-0.0555017670227276,0.0217352815414316,0.00285525026576394
2,0.0241121822871455,0.00110970250769338,0.97328431957541,-0.0712051981752619,0.973284319409148,-0.0712051984643907,0.0242912225754979,0.00103537321881131
2.5,0.0260328731583941,-0.00120476425330551,0.969931604556391,-0.0863375899854919,0.969931604268097,-0.0863375902467709,0.0262800933690026,-0.00133037686989734
3,0.0274669483096557,-0.00379440559007715,0.966762884022706,-0.101169569914934,0.966762883680482,-0.101169570090281,0.0277849711595661,-0.00397194255722821
3.5,0.0284990694540981,-0.00652061111552893,0.963683498321708,-0.115834865337748,0.963683497994307,-0.11583486542113,0.0288964534214673,-0.00674989406163196
4,0.0292000126587735,-0.00930521590217515,0.960618446320938,-0.130401232779688,0.960618446056364,-0.130401232794418,0.0296880258058023,-0.00958831829764506
4.5,0.0296264527870046,-0.0121024891544228,0.9575112461999,-0.144904008032211,0.957511246022352,-0.144904008011823,0.0302167746031726,-0.0124437453712085
5,0.029823306347065,-0.0148855159718413,0.954319219838139,-0.159361246909431,0.954319219752459,-0.159361246885941,0.0305270540171136,-0.0152907605881101
5.5,0.0298259619386729,-0.0176387260015991,0.951009798147372,-0.173781069858354,0.951009798145202,-0.173781069856507,0.0306534801654184,-0.0181146316473311
6,0.0296621893756671,-0.020353441560192,0.947557977012399,-0.18816561991,0.947557977077647,-0.18816561994526,0.0306231481820223,-0.0209071218498416
6.5,0.0293537459881768,-0.0230251306601126,0.943944531137768,-0.20251338599401,0.943944531250746,-0.202513386072559,0.030457312696289,-0.0236639558402958
7,0.0289176972554719,-0.0256516989681392,0.940154707647143,-0.216820637115175,0.940154707787436,-0.21682063723484,0.0301726901180455,-0.0263832414511724
7.5,0.0283674759102261,-0.0282324321953089,0.936177242268315,-0.231082327902484,0.936177242416644,-0.231082328053946,0.0297824743181966,-0.0290644794710198
8,0.0277137143673635,-0.0307673474119183,0.932003607149309,-0.24529267379586,0.932003607288693,-0.245292673963892,0.0292971269384134,-0.0317079442438979
8.5,0.0269648899898832,-0.0332568005168303,0.92762743201119,-0.259445515110627,0.927627432127634,-0.259445515275194,0.0287249895197928,-0.0343142998547834
9,0.0261278211816795,-0.0357012532475165,0.923044057493232,-0.273534545191587,0.923044057576107,-0.273534545328798,0.0280727558468541,-0.0368843658724201
9.5,0.0252080473613987,-0.0381011389247052,0.91825018993962,-0.28755345108606,0.918250189981852,-0.287553451168962,0.0273458357386236,-0.0394189776454612
10,0.0242101198727921,-0.04045678884862,0.913243634091358,-0.301495998137399,0.913243634089504,-0.301495998136632,0.0265486352473632,-0.0419189060090881
10.5,0.0233228638719551,-0.042470205940333,0.907853560155145,-0.31559788089559,0.907853560153377,-0.315597880894911,0.0258942023178165,-0.0441777189064831
11,0.0223795841062464,-0.0444752113298699,0.902244956979716,-0.329575748144476,0.902244956978024,-0.329575748143891,0.0251791674888659,-0.0464421290176835
11.5,0.0213791254434164,-0.0464699177404575,0.896422126357512,-0.343426983732584,0.896422126355883,-0.343426983732099,0.0244016304310966,-0.048709157954848
12,0.020320418353496,-0.0484522894081663,0.89038926339346,-0.35714917229082,0.890389263391884,-0.357149172290437,0.0235599518425814,-0.0509756522185307
12.5,0.0192024929691478,-0.0504201477159572,0.884150449790281,-0.370740077532829,0.884150449788748,-0.37074007753255,0.0226527640831437,-0.053238313042941
13,0.0180244926889252,-0.0523711781119309,0.877709649805575,-0.384197621385398,0.877709649804074,-0.384197621385223,0.0216789782346073,-0.0554937261390804
13.5,0.0167856872002817,-0.0543029382746605,0.871070708579373,-0.397519864199999,0.871070708577891,-0.397519864199928,0.0206377877891501,-0.0577383909307758
14,0.0154854848016058,-0.05621286747548,0.864237352523871,-0.410704986235251,0.8642373525224,-0.410704986235282,0.0195286692056707,-0.0599687489301071
14.5,0.0141234439065732,-0.0580982970745814,0.857213191469685,-0.423751270543742,0.857213191468214,-0.423751270543872,0.0183513796019844,-0.0621812109515538
15,0.0126992836197261,-0.0599564620749753,0.850001722273237,-0.436657087346304,0.850001722271755,-0.436657087346529,0.0171059518693568,-0.0643721829166375
15.5,0.0112128932794258,-0.0617845136461048,0.842606333606151,-0.449420879932916,0.842606333604652,-0.449420879933231,0.0157926875061582,-0.0665380900517176
16,0.00966434087312101,-0.0635795325173296,0.83503031166805,-0.462041152092207,0.835030311666526,-0.462041152092608,0.0144121474703355,-0.0686753993298256
16.5,0.00805388024018555,-0.0653385431308138,0.827276846587493,-0.474516457040764,0.827276846585935,-0.474516457041243,0.0129651413469191,-0.070780640052114
17,0.0063819569892487,-0.0670585284339039,0.819349039300738,-0.486845387798907,0.81934903929914,-0.48684538779946,0.011452715118018,-0.0728504225052427
17.5,0.00464921306989541,-0.0687364451829646,0.811249908723482,-0.499026568940757,0.811249908721839,-0.499026568941376,0.00987613780969354,-0.0748814546673445
18,0.00285648995256421,-0.0703692396240369,0.802982399055843,-0.511058649632631,0.80298239905415,-0.511058649633308,0.00823688727376026,-0.0768705569670319
18.5,0.00100483038534294,-0.0719538634108552,0.794549387085062,-0.522940297864536,0.794549387083315,-0.522940297865264,0.00653663534378918,-0.0788146751271436
19,-0.000904521288222271,-0.0734872896177198,0.785953689373145,-0.534670195774086,0.78595368937134,-0.534670195774857,0.00477723258423024,-0.0807108911477911
19.5,-0.00287012025035721,-0.0749665287035856,0.777198069237647,-0.546247035959881,0.777198069235782,-0.546247035960687,0.00296069283030465,-0.0825564325018981
20,-0.00489032375351117,-0.076388644284617,0.768285243452864,-0.557669518681751,0.768285243450936,-0.557669518682584,0.00108917769474082,-0.0843486796311368
20.5,-0.00696329505648685,-0.077750768575239,0.759217888615685,-0.568936349847671,0.759217888613693,-0.568936349848525,-0.000835018803928334,-0.0860851718413017
21,-0.00908700870547746,-0.0790501173625203,0.749998647135319,-0.58004623969114,0.749998647133263,-0.580046239692005,-0.00280948535758674,-0.087763611704084
21.5,-0.0112592570986746,-0.0802840043852833,0.740630132819092,-0.590997902047943,0.740630132816971,-0.590997902048813,-0.00483170811518219,-0.0893818680773227
22,-0.0134776582597009,-0.0814498549977433,0.731114936037547,-0.60179005414718,0.731114936035362,-0.601790054148047,-0.00689908496446634,-0.0909379778582772
22.5,-0.0157396647325484,-0.0825452190073269,0.721455628461463,-0.612421416837836,0.721455628459215,-0.612421416838692,-0.00900893927086116,-0.0924301465852411
23,-0.0180425735000577,-0.0835677825877058,0.711654767371046,-0.622890715178861,0.711654767368737,-0.622890715179701,-0.0111585330115189,-0.0938567480012517
23.5,-0.0203835368184215,-0.084515379180508,0.701714899543874,-0.633196679327435,0.701714899541505,-0.63319667932825,-0.0133450792571609,-0.0952163226911776
24,-0.0227595738526404,-0.0853859993126004,0.691638564733138,-0.643338045666683,0.691638564730712,-0.643338045667469,-0.0155657539673492,-0.0965075758995102
24.5,-0.0251675829920197,-0.0861777992699228,0.681428298751585,-0.653313558120523,0.681428298749104,-0.653313558121271,-0.0178177070764671,-0.0977293746314675
25,-0.0276043547207835,-0.0868891085833421,0.671086636179473,-0.663121969609327,0.67108663617694,-0.663121969610033,-0.020098072857889,-0.0988807441346019
25.5,-0.0300665849168058,-0.0875184362966771,0.660616112716894,-0.672762043605855,0.660616112714314,-0.672762043606513,-0.0224039795627213,-0.0999608638522357
26,-0.0325508884511335,-0.0880644760015487,0.65001926720222,-0.682232555756138,0.650019267199595,-0.682232555756743,-0.0247325583371107,-0.100969062933866
26.5,-0.0350538129625056,-0.088526109637975,0.639298643319158,-0.691532295534892,0.639298643316492,-0.691532295535439,-0.0270809514286066,-0.101904815381387
27,-0.0375718526842092,-0.0889024100731877,0.62845679101526,-0.700660067909486,0.628456791012557,-0.700660067909972,-0.0294463196974771,-0.102767734903606
27.5,-0.040101462205327,-0.0891926424840458,0.617496267654615,-0.70961469499048,0.617496267651879,-0.709614694990899,-0.0318258494533069,-0.103557569545291
28,-0.0426390700545285,-0.0893962645802812,0.606419638927072,-0.718395017650369,0.606419638924308,-0.718395017650719,-0.0342167586408065,-0.104274196150827
28.5,-0.0451810920018416,-0.0895129257165935,0.595229479535716,-0.726999897095411,0.595229479532929,-0.726999897095687,-0.0366163024015412,-0.104917614716665
29,-0.0477239439821854,-0.0895424649511716,0.583928373683525,-0.735428216378224,0.583928373680719,-0.735428216378424,-0.0390217780404134,-0.105487942681096
29.5,-0.0502640545535875,-0.0894849081164604,0.572518915379164,-0.74367888184141,0.572518915376342,-0.743678881841531,-0.0414305294272428,-0.105985409194491
30,-0.0527978768127765,-0.0893404639748661,0.561003708580887,-0.751750824484629,0.561003708578055,-0.751750824484669,-0.0438399508647731,-0.106410349408112
30.5,-0.055321899701049,-0.0891095195375907,0.54938536719641,-0.759643001249485,0.549385367193572,-0.759643001249441,-0.046247490454979,-0.106763198814862
31,-0.0578326586437174,-0.0887926346288898,0.537666514955497,-0.767354396218236,0.537666514952657,-0.767354396218108,-0.048650652995695,-0.107044487670942
31.5,-0.0603267454769325,-0.0883905357808225,0.525849785170917,-0.774884021723804,0.52584978516808,-0.774884021723589,-0.0510470024394166,-0.107254835523307
32,-0.0628008176259973,-0.0879041095450089,0.513937820402278,-0.78223091936972,0.51393782039945,-0.782230919369418,-0.0534341639456903,-0.107394945864096
32.5,-0.0652516065093766,-0.087334395308191,0.501933272036204,-0.789394160959746,0.501933272033388,-0.789394160959356,-0.0558098255578365,-0.107465600929741
33,-0.0676759251522366,-0.0866825776974973,0.48983879979523,-0.796372849337741,0.489838799792429,-0.796372849337261,-0.0581717395339059,-0.10746765665939
33.5,-0.0700706750024853,-0.0859499786594452,0.477657071186813,-0.803166119139079,0.477657071184032,-0.803166119138509,-0.0605177233607907,-0.107402037824396
34,-0.0724328519507726,-0.0851380492939111,0.465390760902887,-0.809773137455543,0.465390760900131,-0.809773137454884,-0.0628456604793057,-0.107269733338119
34.5,-0.0747595515637205,-0.0842483615207375,0.453042550179468,-0.816193104416085,0.453042550176742,-0.816193104415336,-0.0651535007468821,-0.107071791752953
35,-0.077047973546676,-0.0832825996524164,0.440615126124974,-0.822425253686252,0.44061512612228,-0.822425253685412,-0.0674392606632768,-0.106809316949448
35.5,-0.0792954254585694,-0.0822425519415311,0.428111181025097,-0.828468852889383,0.428111181022439,-0.828468852888455,-0.0697010233834351,-0.106483464020582
36,-0.0814993257068801,-0.0811301021664598,0.415533411631339,-0.834323203952937,0.415533411628721,-0.834323203951921,-0.0719369385403457,-0.106095435352609
36.5,-0.0836572058553798,-0.0799472213133783,0.402884518439597,-0.83998764338345,0.402884518437023,-0.839987643382347,-0.0741452218994343,-0.105646476902461
37,-0.0857667122811518,-0.0786959594069264,0.390167204964529,-0.845461542473781,0.390167204962002,-0.845461542472591,-0.0763241548647633,-0.105137874670474
37.5,-0.0878256072204843,-0.077378437536163,0.37738417701485,-0.850744307446387,0.377384177012373,-0.850744307445112,-0.0784720838560283,-0.104570951366078
38,-0.0898317692455671,-0.07599684011666,0.364538141974119,-0.855835379536374,0.364538141971695,-0.855835379535016,-0.0805874195741024,-0.103947063263174
38.5,-0.0917831932155788,-0.0745534074239267,0.351631808091086,-0.86073423501812,0.351631808088719,-0.860734235016679,-0.0826686361716817,-0.103267597241095
39,-0.0936779897467751,-0.0730504284278072,0.338667883783178,-0.865440385179224,0.338667883780869,-0.865440385177701,-0.084714270344402,-0.102533968006368
39.5,-0.095514384246613,-0.0714902339521812,0.325649076956254,-0.869953376245516,0.325649076954007,-0.869953376243915,-0.0867229203566783,-0.101747615489917
40,-0.0972907155568522,-0.0698751901792228,0.312578094343402,-0.874272789260806,0.312578094341219,-0.874272789259127,-0.0886932450154299,-0.100910002413834
40.5,-0.0990054342500166,-0.0682076925126877,0.29945764086512,-0.878398239924939,0.299457640863004,-0.878398239923185,-0.0906239626038285,-0.100022612021506
41,-0.100657100622631,-0.0664901598102506,0.286290419012934,-0.882329378393732,0.286290419010885,-0.882329378391904,-0.0925138497862029,-0.0990869459644942
41.5,-0.102244382427317,-0.0647250289907857,0.273079128258175,-0.88606588904416,0.273079128256197,-0.88606588904226,-0.094361740494298,-0.0981045223393713
42,-0.103766052384255,-0.0629147500187258,0.259826464487364,-0.889607490208175,0.259826464485458,-0.889607490206207,-0.0961665248042017,-0.0970768738675069
42.5,-0.10522098551061,-0.0610617812642242,0.246535119465374,-0.892953933878355,0.246535119463543,-0.89295393387632,-0.097927147812385,-0.0960055462106491
43,-0.106608156304566,-0.0591685852347979,0.233207780327343,-0.896105005388515,0.233207780325586,-0.896105005386414,-0.0996426085185228,-0.0948920964150809
43.5,-0.107926635818352,-0.0572376246714279,0.219847129100039,-0.899060523072291,0.219847129098359,-0.899060523070127,-0.101311958721979,-0.0937380914770681
44,-0.109175588652415,-0.0552713589997369,0.20645584225325,-0.901820337902609,0.206455842251648,-0.901820337900385,-0.102934301938151,-0.0925451070223086
44.5,-0.110354269900548,-0.0532722411248369,0.193036590281525,-0.904384333114815,0.193036590280002,-0.904384333112533,-0.104508792340175,-0.0913147260921139
45,-0.111462022073391,-0.051242714556708,0.179592037316479,-0.906752423816164,0.179592037315037,-0.906752423813827,-0.106034633730863,-0.0900485380290973
45.5,-0.112498272025392,-0.0491852108515488,0.1661248407697,-0.908924556584225,0.166124840768339,-0.908924556581835,-0.10751107854916,-0.088748137455216
46,-0.11346252790795,-0.0471021473533691,0.15263765100617,-0.910900709056679,0.152637651004889,-0.910900709054237,-0.108937426914808,-0.0874151233350986
46.5,-0.114354376169177,-0.0449959252191883,0.13913311104798,-0.912680889514854,0.139133111046781,-0.912680889512363,-0.110313025714427,-0.0860510981177041
47,-0.115173478618516,-0.0428689277105134,0.125613856308029,-0.91426513646326,0.125613856306913,-0.914265136460723,-0.11163726773168,-0.0846576669494691
47.5,-0.115919569572273,-0.0407235187332892,0.112082514353263,-0.915653518207268,0.112082514352229,-0.915653518204688,-0.11290959082374,-0.0832364369522407
48,-0.116592453094092,-0.0385620416082174,0.0985417046969303,-0.916846132430973,0.098541704695979,-0.916846132428351,-0.114129477145821,-0.0817890165594315
48.5,-0.117192000342461,-0.0363868180532058,0.0849940386192734,-0.917843105777205,0.0849940386184045,-0.917843105774544,-0.11529645242514,-0.0803170149039853
49,-0.117718147035457,-0.0342001473597149,0.0714421190159421,-0.918644593431541,0.0714421190151555,-0.918644593428843,-0.116410085285258,-0.0788220412519024
49.5,-0.118170891041214,-0.0320043057449044,0.057888540273398,-0.919250778712067,0.0578885402726934,-0.919250778709334,-0.117469986621385,-0.0773057044752365
50,-0.118550290101003,-0.0298015458617202,0.0443358881704897,-0.919661872666576,0.0443358881698668,-0.91966187266381,-0.118475809026879,-0.075769612558649
50.5,-0.11885645969021,-0.027594096449392,0.0307867398053183,-0.919878113678774,0.0307867398047769,-0.919878113675978,-0.11942724627085,-0.0742153721337767
51,-0.119089571021184,-0.0253841621072191,0.0172436635464808,-0.919899767085007,0.0172436635460201,-0.919899767082183,-0.120324032826425,-0.0726445880358569
51.5,-0.119249849190529,-0.0231739231749899,0.0037092190077056,-0.919727124802901,0.00370921900732511,-0.919727124800051,-0.121165943448973,-0.0710588628772279
52,-0.11933757147227,-0.0209655357039,-0.0098140429551245,-0.91936050497327,-0.00981404295542594,-0.919360504970396,-0.121952792803264,-0.0694597966325184
52.5,-0.119353065757164,-0.0187611315023931,-0.0233235802256262,-0.918800251616539,-0.023323580225849,-0.918800251613644,-0.122684435138287,-0.067848986230526
53,-0.119296709137423,-0.0165628182419414,-0.0368168593883257,-0.918046734304856,-0.0368168593884707,-0.91804673430194,-0.123360764008179,-0.0662280251479814
53.5,-0.119168926635187,-0.0143726796083917,-0.0502913556709578,-0.917100347851006,-0.0502913556710263,-0.91710034784807,-0.12398171203746,-0.0645985030005952
54,-0.118970190072198,-0.0121927754851367,-0.063744552868796,-0.915961512015158,-0.0637445528687891,-0.915961512012207,-0.124547250728551,-0.0629620051269839
54.5,-0.118701017077355,-0.010025142155008,-0.0771739432521954,-0.914630671230408,-0.0771739432521136,-0.914630671227441,-0.125057390309302,-0.0613201121612833
55,-0.118361970228115,-0.00787179250843517,-0.0905770274585454,-0.913108294348001,-0.0905770274583904,-0.913108294345022,-0.125512179618037,-0.0596743995904668
55.5,-0.117953656321033,-0.0057347162460621,-0.103951314369856,-0.911394874403083,-0.103951314369629,-0.911394874400093,-0.125911706023448,-0.058026437292606
56,-0.117476725766139,-0.00361588006465921,-0.117294320977218,-0.909490928401717,-0.11729432097692,-0.909490928398717,-0.126256095376418,-0.0563777890525312
56.5,-0.116931872099304,-0.00151722781581677,-0.130603572233391,-0.907396997129885,-0.130603572233023,-0.907396997126876,-0.1265455119907,-0.0547300120515813
57,-0.116319831606223,0.000559319372454084,-0.143876600894793,-0.905113644985095,-0.143876600894358,-0.905113644982079,-0.126780158649186,-0.0530846563283686
57.5,-0.115641383051216,0.00261186302045145,-0.157110947354188,-0.902641459831181,-0.157110947353684,-0.902641459828159,-0.126960276632323,-0.0514432642077191
58,-0.114897347503568,0.00463852727644555,-0.170304159465344,-0.899981052876802,-0.170304159464775,-0.899981052873776,-0.127086145765088,-0.0498073696952102
58.5,-0.1140885882538,0.00663745895924764,-0.183453792361003,-0.897133058578106,-0.183453792360371,-0.897133058575076,-0.127158084478751,-0.0481784978349708
59,-0.113216010811846,0.00860682767103654,-0.196557408265452,-0.894098134565939,-0.196557408264756,-0.894098134562908,-0.127176449883556,-0.0465581640286857
59.5,-0.112280562978821,0.0105448259871629,-0.209612576303035,-0.890876961597975,-0.209612576302277,-0.890876961594942,-0.127141637848283,-0.0449478733140056
60,-0.111283234983726,0.0124496697290333,-0.222616872303934,-0.88747024353601,-0.222616872303117,-0.887470243532978,-0.127054083082555,-0.0433491196008568
60.5,-0.110225059676191,0.0143195983255495,-0.235567878608565,-0.883878707348695,-0.235567878607689,-0.883878707345663,-0.12691425921765,-0.0417633848644204
61,-0.10910711276605,0.0161528752679503,-0.248463183871908,-0.880103103139843,-0.248463183870975,-0.880103103136813,-0.126722678881488,-0.0401921382938568
61.5,-0.107930513100367,0.0179477886622738,-0.261300382869144,-0.876144204202467,-0.261300382868155,-0.876144204199439,-0.126479893763367,-0.0386368353961456
62,-0.106696422968256,0.0197026518830187,-0.27407707630393,-0.872002807098593,-0.274077076302886,-0.872002807095567,-0.126186494663995,-0.0370989170547304
62.5,-0.105406048423714,0.0214158043309365,-0.286790870620662,-0.867679731764877,-0.286790870619564,-0.867679731761855,-0.1258431115263,-0.0355798085429655
63,-0.104060639616454,0.0230856122972372,-0.299439377822081,-0.863175821643985,-0.299439377820933,-0.863175821640967,-0.12545041344246,-0.0340809184926997
