"Freq [GHz]","re(St(P1,P1)) []","im(St(P1,P1)) []","re(St(P1,P2)) []","im(St(P1,P2)) []","re(St(P2,P1)) []","im(St(P2,P1)) []","re(St(P2,P2)) []","im(St(P2,P2)) []"
0,0.0109416326390601,0,0.989067440634244,0,0.989067440648796,0,0.0109416346587068,0
0.5,0.0125248970407235,0.00235518094858289,0.987473009011676,-0.00551618690503908,0.987473008987159,-0.00551618689139843,0.0125248230279773,0.00235492595384912
1,0.0136262627957926,0.00336957937397209,0.98635334262841,-0.00968898713647892,0.986353342606476,-0.0096889871646697,0.0136262487095635,0.00336917414601068
1.5,0.0147152724459669,0.00415054653748204,0.985579312664868,-0.0139907948452436,0.985579312617556,-0.0139907948826652,0.0147155868349813,0.00415037573845556
2,0.0156411667360317,0.00460853713271003,0.984685330266377,-0.0178936895404602,0.984685330205796,-0.0178936895784494,0.015642032289481,0.00460817748762921
2.5,0.0164168909075908,0.00491667575240573,0.983776575760752,-0.0214795321303267,0.983776575698439,-0.0214795321620418,0.0164181861050654,0.0049158372362017
3,0.0170906122148189,0.00514878612847891,0.98291591330331,-0.0248435562144165,0.982915913247118,-0.0248435562367488,0.01709215199533,0.00514738177720098
3.5,0.0176980419376047,0.00533122516721285,0.982128901609451,-0.0280656714069849,0.982128901563637,-0.0280656714196779,0.0176996931732933,0.00532928552245515
4,0.0182594775097575,0.00547271748168665,0.981417964608363,-0.0312036706532757,0.981417964574655,-0.0312036706575505,0.0182611772919739,0.00547031646403973
4.5,0.0187850345577329,0.00557670047268655,0.980774367042795,-0.0342959705689676,0.980774367021379,-0.0342959705665349,0.0187867762936218,0.00557391364316828
5,0.0192792329002058,0.00564571124407109,0.980185512651546,-0.0373667346178896,0.980185512641788,-0.037366734610436,0.0192810466534006,0.00564259680567414
5.5,0.0197438875207192,0.00568264673707297,0.979638614899506,-0.0404305060670067,0.9796386149004,-0.0404305060559889,0.0197458229645822,0.00567923948909854
6,0.0201797251183473,0.00569090198860511,0.979122229625939,-0.0434956390096088,0.979122229636358,-0.0434956389962124,0.0201818389833299,0.00568721395494798
6.5,0.0205872113374967,0.00567416988809022,0.978626702883132,-0.0465666214636249,0.978626702901969,-0.0465666214487728,0.0205895591041196,0.0056701939589745
7,0.0209669258159888,0.00563619362371259,0.978144133330021,-0.0496455773469044,0.978144133356246,-0.0496455773313027,0.0209695567978736,0.00563190816617087
7.5,0.0213196927878774,0.00558056750065905,0.977668152624288,-0.0527332133571274,0.97766815265698,-0.0527332133413081,0.0213226476824708,0.00557594086167601
8,0.0216465888723483,0.00551060578527718,0.977193664111172,-0.0558294072132677,0.977193664149512,-0.0558294071976286,0.0216498989793865,0.00550560018600521
8.5,0.0219488965794565,0.00542927193847387,0.976716597977869,-0.0589335695180644,0.976716598021151,-0.0589335695029023,0.0219525840622103,0.00542384658847261
9,0.0222280403876738,0.00533915317218714,0.976233702402017,-0.0620448644127807,0.976233702449627,-0.0620448643983114,0.0222321191223247,0.00533326661123024
9.5,0.0224855238404094,0.00524246554876129,0.975742373336696,-0.0651623426738563,0.9757423733881,-0.0651623426602406,0.0224900005424136,0.00523607730889708
10,0.0227228757460658,0.00514107766719984,0.975240519027201,-0.0682850206947281,0.975240519081941,-0.068285020682076,0.0227277511731212,0.00513414937847578
10.5,0.0230252892680243,0.00519210075876053,0.974716599730953,-0.0714407783813744,0.974716599786817,-0.0714407783719135,0.0230274917946138,0.00519033564613114
11,0.0233240707106352,0.0052257820306334,0.974190912032527,-0.0745786259516601,0.974190912089162,-0.0745786259453745,0.023324100808594,0.00522930288443746
11.5,0.0236182974712276,0.00524310453140497,0.973664094915104,-0.0777000347365613,0.973664094972184,-0.0777000347333958,0.0236166445376813,0.00525197419386192
12,0.0239071824316435,0.00524506522914159,0.973136614137717,-0.0808064142892393,0.973136614194943,-0.0808064142891132,0.0239043188712098,0.00525929217270527
12.5,0.024190064869924,0.0052326607539861,0.97260878490809,-0.0838991009473311,0.972608784965193,-0.0838991009501404,0.0241864414120354,0.0052522049059549
13,0.0244664006047259,0.0052068754993071,0.97208079328369,-0.0869793503187637,0.972080793340427,-0.0869793503243823,0.0244624427576128,0.00523165411504323
13.5,0.0247357517584474,0.00516867192132953,0.971552715962076,-0.0900483330033612,0.971552716018233,-0.0900483330116542,0.0247318572837361,0.005198565347734
14,0.0249977764539604,0.00511898284267609,0.971024538271347,-0.093107132918659,0.971024538326738,-0.093107132929477,0.0249943137370086,0.00515384005038744
14.5,0.0252522186931539,0.00505870554646393,0.970496170286714,-0.0961567476682226,0.970496170341175,-0.0961567476814134,0.0252495258825742,0.00509834934203734
15,0.0254988986058606,0.00498869744158847,0.969967461084738,-0.0991980904658107,0.96996746113813,-0.0991980904812153,0.0254972833992286,0.00503292929958565
15.5,0.0257377032054453,0.00490977308327301,0.96943821120693,-0.102231993203346,0.969438211259135,-0.102231993220808,0.025737443165502,0.00495837756206186
16,0.0259685777431455,0.0048227023432017,0.968908183444195,-0.105259210321088,0.968908183495118,-0.105259210340451,0.0259699210385371,0.00487545106794052
16.5,0.0261915177166558,0.00472820953859054,0.968377112077425,-0.108280423202198,0.968377112126986,-0.108280423223307,0.0261946841923775,0.00478486475019801
17,0.0264065615590883,0.00462697334695061,0.967844710721161,-0.111296244870329,0.967844710769296,-0.111296244893034,0.0264117440534291,0.00468729102771359
17.5,0.026613784011455,0.00451962735226941,0.967310678920096,-0.114307224817352,0.967310678966756,-0.114307224841506,0.026621149847835,0.0045833599472509
18,0.0268132901644209,0.00440676108734595,0.966774707644698,-0.117313853829236,0.966774707689849,-0.117313853854702,0.02682298275754,0.00447365984671277
18.5,0.0270052101424217,0.00428892145540205,0.966236483824686,-0.120316568712065,0.966236483868302,-0.120316568738711,0.0270173506684056,0.00435873842647228
19,0.0271896943944826,0.00416661443152311,0.965695694048944,-0.123315756847729,0.965695694091012,-0.123315756875425,0.0272043834840111,0.00423910413129303
19.5,0.0273669095505512,0.0040403069602859,0.965152027549026,-0.126311760531071,0.965152027589541,-0.1263117605597,0.0273842289721712,0.00411522775981243
20,0.027537034799049,0.00391042898032001,0.96460517857142,-0.129304881057706,0.964605178610383,-0.129304881087152,0.0275570491070737,0.00398754423192305
20.5,0.0277002587402864,0.00377737551917523,0.964054848231928,-0.132295382545299,0.964054848269349,-0.132295382575453,0.0277230168678537,0.00385645445623561
21,0.0278567766706825,0.00364150881289582,0.963500745934202,-0.135283495481509,0.963500745970094,-0.135283495512275,0.0278823134537394,0.00372232725040567
21.5,0.0280067882541629,0.00350316041423637,0.962942590423904,-0.138269419999431,0.962942590458287,-0.138269420030713,0.0280351258764959,0.00358550127625579
22,0.0281504955392184,0.00336263326153707,0.962380110540334,-0.141253328887018,0.96238011057323,-0.141253328918726,0.0281816448922135,0.00344628695954707
22.5,0.0282881012827193,0.00322020368707898,0.961813045718627,-0.144235370340883,0.961813045750064,-0.144235370372939,0.0283220632364131,0.00330496837098737
23,0.0284198075444694,0.00307612334936991,0.961241146287917,-0.147215670477485,0.961241146317924,-0.14721567050981,0.0284565741287393,0.00316180505075891
23.5,0.0285458145194556,0.00293062107853315,0.960664173603991,-0.150194335616321,0.960664173632599,-0.150194335648844,0.0285853700160025,0.00301703376351625
24,0.0286663195778126,0.00278390462771716,0.960081900049027,-0.15317145435053,0.96008190007627,-0.153171454383187,0.0287086415249331,0.00287087017481946
24.5,0.028781516485393,0.00263616232646324,0.959494108925793,-0.156147099420657,0.959494108951705,-0.156147099453387,0.0288265765985578,0.00272351044302299
25,0.0288915947806929,0.0024875646344924,0.958900594269233,-0.159121329407033,0.95890059429385,-0.15912132943978,0.0289393597926813,0.00257513272332055
25.5,0.0289967392865,0.00233826559612238,0.958301160594546,-0.162094190255913,0.958301160617905,-0.162094190288626,0.0290471717112964,0.00242589858260889
26,0.02909712973708,0.00218840419708322,0.957695622597549,-0.165065716653707,0.957695622619686,-0.165065716686338,0.0291501885620591,0.0022759543254951
26.5,0.0291929405039587,0.0020381056265073,0.95708380482037,-0.168035933262944,0.957083804841323,-0.168035933295449,0.0292485818150352,0.00212543223294803
27,0.0292843404054617,0.00188748244770309,0.956465541293164,-0.171004855832688,0.956465541312971,-0.171004855865028,0.029342517949868,0.00197445171608956
27.5,0.0293714925869254,0.00173663568181626,0.955840675160522,-0.173972492195249,0.955840675179218,-0.173972492227386,0.0294321582782849,0.00182312038820953
28,0.0294545544602743,0.00158565580888936,0.955209058299617,-0.176938843160075,0.955209058317242,-0.176938843191975,0.0295176588304547,0.00167153505866358
28.5,0.0295336776930518,0.00143462369096659,0.954570550935728,-0.179903903314891,0.954570550952317,-0.179903903346523,0.0295991702951383,0.00151978265252328
29,0.0296090082383658,0.00128361142200228,0.953925021259573,-0.182867661743235,0.953925021275162,-0.182867661774573,0.029676838004886,0.00136794106009264
29.5,0.0296806863983644,0.00113268310930659,0.953272345049995,-0.185830102666763,0.95327234506462,-0.185830102697782,0.0297508019586559,0.00121607992044925
30,0.0297488469148819,0.000981895591162019,0.952612405304668,-0.188791206019916,0.952612405318364,-0.188791206050591,0.0298211968752631,0.00106426134314264
30.5,0.0298136190818177,0.000831299095132021,0.951945091880879,-0.191750947963811,0.95194509189368,-0.191750947994124,0.0298881522719753,0.0009125405721786
31,0.02987512687458,0.000680937841346818,0.951270301147863,-0.194709301345632,0.951270301159803,-0.194709301375563,0.0299517925633435,0.000760966596210277
31.5,0.0299334890926456,0.00053085059495217,0.950587935651776,-0.197666236109066,0.950587935662889,-0.197666236138599,0.0300122371760764,0.000609582708809508
32,0.0299888195118708,0.000381071171566827,0.949897903793971,-0.200621719660923,0.949897903804289,-0.200621719690043,0.0300696006763654,0.000458427022425933
32.5,0.030041227043711,0.000231628899449721,0.949200119522995,-0.203575717198447,0.949200119532547,-0.203575717227139,0.0301239929066015,0.000307532939530564
33,0.0300908158989801,8.2549041861224E-005,0.948494502040479,-0.206528192001421,0.948494502049298,-0.206528192029675,0.0301755191288996,0.000156929584226528
33.5,0.030137685754149,-6.61468172302726E-005,0.947780975520915,-0.209479105692773,0.947780975529031,-0.209479105720579,0.0302242801732309,6.64219737123162E-006
34,0.0301819319185328,-0.00021444042102603,0.947059468845154,-0.212428418470954,0.947059468852596,-0.212428418498303,0.0302703725883383,-0.000143307501873302
34.5,0.030223645501003,-0.000362316518621952,0.946329915347361,-0.215376089317073,0.946329915354155,-0.215376089343956,0.0303138887938959,-0.000292900985396916
35,0.0302629135751122,-0.000509762571961225,0.945592252575081,-0.218322076179422,0.945592252581257,-0.218322076205833,0.0303549172326335,-0.000442122613873774
35.5,0.0302998193417264,-0.000656768488676907,0.944846422062006,-0.221266336137798,0.944846422067589,-0.221266336163732,0.0303935425213918,-0.000590959360582399
36,0.0303344422884488,-0.000803326378584046,0.944092369112961,-0.224208825549731,0.944092369117976,-0.224208825575183,0.0304298456002374,-0.000739400559134573
36.5,0.0303668583452679,-0.000949430331816048,0.943330042600656,-0.227149500180527,0.94333004260513,-0.227149500205494,0.0304639038789647,-0.000887437673124047
37,0.0303971400359874,-0.00109507621675564,0.942559394773667,-0.230088315318855,0.942559394777624,-0.230088315343332,0.0304957913804223,-0.00103506408589404
37.5,0.0304253566251287,-0.00124026149601719,0.941780381075149,-0.233025225879374,0.941780381078612,-0.233025225903362,0.0305255788802489,-0.00118227490867295
38,0.0304515742600588,-0.00138498505895801,0.940992959971757,-0.235960186493811,0.940992959974748,-0.235960186517308,0.0305533340426804,-0.00132906680558409
38.5,0.0304758561081993,-0.00152924706923052,0.940197092792267,-0.238893151591662,0.940197092794809,-0.238893151614667,0.0305791215522031,-0.00147543783404203
39,0.0304982624892202,-0.00167304882611341,0.939392743575396,-0.241824075471672,0.939392743577511,-0.241824075494185,0.0306030032408711,-0.0016213872992783
39.5,0.0305188510021933,-0.00181639263836253,0.938579878926323,-0.244752912365012,0.938579878928031,-0.244752912387032,0.0306250382111976,-0.00176691562171927
40,0.0305376766476998,-0.00195928170952864,0.93775846788145,-0.24767961649109,0.93775846788277,-0.24767961651262,0.0306452829545545,-0.00191202421618719
40.5,0.0305547919449499,-0.00210172003370501,0.936928481780928,-0.250604142106738,0.936928481781881,-0.250604142127779,0.0306637914650707,-0.00205671538184493
41,0.0305702470439806,-0.00224371230079479,0.936089894148534,-0.253526443549497,0.936089894149138,-0.253526443570052,0.030680615349054,-0.00220099220199743
41.5,0.030584089833032,-0.00238526381046489,0.935242680578443,-0.256446475275637,0.935242680578716,-0.256446475295709,0.0306958039299824,-0.00234485845287979
42,0.0305963660412154,-0.00252638039399899,0.934386818628535,-0.259364191893447,0.934386818628494,-0.259364191913036,0.0307094043491444,-0.00248831852065812
42.5,0.0306071193366064,-0.00266706834337671,0.93352228771982,-0.262279548192327,0.933522287719483,-0.262279548211437,0.0307214616620108,-0.00263137732593322
43,0.0306163914198969,-0.00280733434692149,0.932649069041648,-0.265192499168126,0.93264906904103,-0.265192499186762,0.0307320189304536,-0.00277404025509287
43.5,0.0306242221137581,-0.00294718543093908,0.931767145462331,-0.268103000045124,0.931767145461449,-0.26810300006329,0.0307411173109179,-0.00291631309792306
44,0.0306306494480658,-0.00308662890682165,0.930876501444886,-0.271011006295023,0.930876501443755,-0.271011006312721,0.0307487961386829,-0.00305820199092421
44.5,0.0306357097411442,-0.00322567232311588,0.929977122967569,-0.27391647365327,0.929977122966203,-0.273916473670506,0.0307550930083343,-0.00319971336584768
45,0.0306394376771777,-0.00336432342213322,0.929068997448913,-0.276819358133005,0.929068997447327,-0.276819358149783,0.0307600438505824,-0.00334085390297689
45.5,0.030641866379956,-0.00350259010069331,0.928152113677013,-0.279719616036897,0.92815211367522,-0.279719616053222,0.0307636830055673,-0.00348163048877503
46,0.0306430274831045,-0.00364048037461395,0.927226461742788,-0.282617203967088,0.927226461740801,-0.282617203982964,0.0307660432927815,-0.00362205017746775
46.5,0.0306429511969478,-0.00377800234664472,0.926292032976973,-0.28551207883347,0.926292032974805,-0.285512078848903,0.0307671560777533,-0.00376212015627342
47,0.0306416663721618,-0.0039151641775077,0.925348819890647,-0.288404197860459,0.92534881988831,-0.288404197875455,0.030767051335619,-0.00390184771389746
47.5,0.0306392005603533,-0.00405197405979285,0.924396816119032,-0.291293518592471,0.924396816116539,-0.291293518607035,0.0307657577117195,-0.0040412402120773
48,0.0306355800717194,-0.00418844019442743,0.923436016368419,-0.294179998898196,0.923436016365781,-0.294179998912334,0.030763302579353,-0.00418030505983724
48.5,0.0306308300299095,-0.00432457076950965,0.922466416365989,-0.297063596973861,0.922466416363217,-0.297063596987578,0.0307597120948112,-0.00431904969026919
49,0.0306249744242392,-0.00446037394128784,0.921488012812378,-0.299944271345554,0.921488012809482,-0.299944271358855,0.0307550112498152,-0.00445748153958814
49.5,0.030618036159365,-0.00459585781708216,0.920500803336811,-0.302821980870751,0.920500803333801,-0.302821980883644,0.0307492239214803,-0.00459560802827874
50,0.0306100371025642,-0.00473103043998968,0.919504786454654,-0.30569668473912,0.919504786451541,-0.30569668475161,0.0307423729199209,-0.00473343654412273
50.5,0.0306009981287122,-0.00486589977520069,0.918499961527241,-0.308568342472698,0.918499961524034,-0.308568342484791,0.0307344800336039,-0.00487097442696438
51,0.0305909391631086,-0.0050004736977749,0.917486328723825,-0.311436913925516,0.917486328720533,-0.311436913937219,0.0307255660725648,-0.00500822895507347
51.5,0.0305798792222022,-0.00513475998177482,0.916463888985549,-0.314302359282744,0.91646388898218,-0.314302359294061,0.0307156509095824,-0.00514520733288726
52,0.0305678364523884,-0.00526876629058615,0.915432643991298,-0.3171646390594,0.915432643987862,-0.317164639070341,0.0307047535194164,-0.00528191668011724
52.5,0.0305548281669182,-0.00540250016835575,0.91439259612533,-0.320023714098719,0.914392596121834,-0.320023714109287,0.0306928920161976,-0.0054183640220129
53,0.0305408708810473,-0.00553596903242082,0.913343748446576,-0.322879545570168,0.913343748443028,-0.322879545580371,0.030680083689071,-0.005554556280712
53.5,0.0305259803455045,-0.00566918016665463,0.912286104659511,-0.325732094967219,0.912286104655919,-0.325732094977062,0.0306663450361601,-0.00569050026757623
54,0.0305101715783625,-0.00580214071562568,0.911219669086509,-0.328581324104864,0.911219669082879,-0.328581324114354,0.0306516917969583,-0.00582620267642309
54.5,0.0304934588953988,-0.00593485767950996,0.910144446641589,-0.331427195116943,0.910144446637928,-0.331427195126086,0.0306361389832042,-0.00596167007756021
55,0.0304758559390178,-0.00606733790967295,0.909060442805472,-0.334269670453291,0.909060442801788,-0.334269670462094,0.0306197009083349,-0.0060969089125682
55.5,0.0304573757058144,-0.00619958810487065,0.907967663601876,-0.337108712876753,0.907967663598174,-0.337108712885223,0.0306023912155709,-0.00623192548974361
56,0.0304380305728431,-0.00633161480799549,0.906866115574975,-0.339944285460074,0.906866115571261,-0.339944285468216,0.030584222904717,-0.00636672598014942
56.5,0.0304178323226604,-0.00646342440332615,0.905755805767955,-0.342776351582691,0.905755805764236,-0.342776351590513,0.0305652083577337,-0.00650131641421736
57,0.0303967921672085,-0.00659502311422999,0.904636741702608,-0.345604874927455,0.904636741698889,-0.345604874934963,0.0305453593631438,-0.00663570267883973
57.5,0.03037492077059,-0.0067264170012673,0.903508931359896,-0.348429819477288,0.903508931356181,-0.348429819484488,0.0305246871393311,-0.0067698905149205
58,0.0303522282708044,-0.00685761196066226,0.902372383161443,-0.351251149511792,0.902372383157737,-0.351251149518691,0.0305032023567932,-0.00690388551531806
58.5,0.0303287243004836,-0.00698861372310855,0.901227105951889,-0.354068829603834,0.901227105948198,-0.354068829610437,0.0304809151593917,-0.00703769312316616
59,0.0303044180066923,-0.00711942785286213,0.90007310898207,-0.356882824616101,0.900073108978399,-0.356882824622416,0.0304578351846558,-0.00717131863051468
59.5,0.0302793180698366,-0.00725005974710125,0.898910401892971,-0.359693099697652,0.898910401889324,-0.359693099703685,0.0304339715831908,-0.00730476717726769
60,0.0302534327217153,-0.00738051463552813,0.897738994700404,-0.362499620280466,0.897738994696786,-0.362499620286222,0.0304093330372232,-0.00743804375039292
60.5,0.0302267697627856,-0.00751079758017359,0.896558897780391,-0.365302352075992,0.896558897776804,-0.365302352081479,0.0303839277783438,-0.00757115318335844
61,0.0301993365786467,-0.00764091347539098,0.895370121855181,-0.36810126107172,0.895370121851629,-0.368101261076942,0.0303577636044718,-0.00770410015578826
61.5,0.0301711401558153,-0.00777086704802477,0.894172677979904,-0.370896313527765,0.89417267797639,-0.370896313532729,0.0303308478960918,-0.00783688919330849
62,0.0301421870968091,-0.00790066285771429,0.892966577529796,-0.373687475973476,0.892966577526326,-0.373687475978189,0.0303031876317951,-0.00796952466755418
62.5,0.0301124836345804,-0.00803030529733584,0.891751832187986,-0.376474715204072,0.891751832184561,-0.37647471520854,0.0302747894031554,-0.00810201079633255
63,0.0300820356463298,-0.00815979859355331,0.890528453933795,-0.379257998277313,0.890528453930418,-0.379257998281542,0.0302456594289862,-0.00823435164391428
