"Freq [GHz]","re(St(P1,P1)) []","im(St(P1,P1)) []","re(St(P1,P2)) []","im(St(P1,P2)) []","re(St(P2,P1)) []","im(St(P2,P1)) []","re(St(P2,P2)) []","im(St(P2,P2)) []"
0,0.00732483089029756,0,0.992691174673382,0,0.992691177874804,0,0.00732482765511122,0
0.5,0.0079880755008972,3.34640935903963E-005,0.991970389560844,-0.0081121318454116,0.99197039134102,-0.00811213284298873,0.00798787505507192,3.44749151999224E-005
1,0.00852320072600676,-0.000717916259967311,0.99129115878795,-0.0154354384350714,0.991291159013837,-0.0154354380187769,0.00852275193976126,-0.000715600640727843
1.5,0.00885301907115554,-0.00160472060494321,0.990727302682011,-0.0226117380406556,0.990727302916275,-0.0226117378902178,0.00885242121907659,-0.0016009250455884
2,0.00903757309380016,-0.00251982086951585,0.990227769150152,-0.0297370585218122,0.990227769310757,-0.0297370584667895,0.00903691287308828,-0.00251448027773904
2.5,0.0091491218067743,-0.00342510735212009,0.989723789760212,-0.0368531115178055,0.989723789867193,-0.0368531114854616,0.00914847257548423,-0.00341815226505737
3,0.00922165901107608,-0.00431946687337792,0.989182526273553,-0.0439606188458477,0.989182526351057,-0.0439606188153352,0.00922110400601817,-0.00431082265155247
3.5,0.009270248459194,-0.00520701775112897,0.988590796409468,-0.051053817085835,0.988590796471166,-0.0510538170556938,0.00926988596712075,-0.00519661183983366
4,0.00930178507497326,-0.00609125924353471,0.987944298414727,-0.0581276690328227,0.987944298465319,-0.0581276690070727,0.00930172699978726,-0.00607902643974079
4.5,0.00931962075616877,-0.00697446561476411,0.98724259640425,-0.0651789120897464,0.987242596442909,-0.0651789120723416,0.00931998926627298,-0.00696035072223378
5,0.00932553401463143,-0.00785798698268714,0.986486823106028,-0.0722058282008691,0.986486823129326,-0.0722058281937441,0.00932645810255228,-0.0078419455365939
5.5,0.00932058647966105,-0.00874259523972576,0.985678602394033,-0.0792078193326038,0.985678602398077,-0.0792078193353598,0.00932219911633903,-0.00872459304238582
6,0.00930550031390709,-0.0096287333848597,0.984819545257145,-0.0861850250287173,0.98481954523898,-0.0861850250390077,0.00930793636621141,-0.00960874542946311
6.5,0.00928082434225319,-0.0105166728878965,0.98391103033251,-0.0931380237487645,0.983911030290967,-0.0931380237630162,0.00928421919629607,-0.0104946820581659
7,0.0092470062458424,-0.0114066061444484,0.982954130142552,-0.100067614125488,0.982954130078642,-0.100067614139674,0.00925149499751066,-0.0113826019214143
7.5,0.00920442347179928,-0.0122986976159876,0.981949611347023,-0.10697466244185,0.981949611264019,-0.1069746624522,0.00921014053578917,-0.0122726749115767
8,0.00915339659949371,-0.013193110155,0.980897970118526,-0.113860001799592,0.980897970021839,-0.113860001803213,0.009160475608056,-0.0131650683210971
8.5,0.0090941957078855,-0.0140900171001048,0.979799481153748,-0.12072437002723,0.979799481050665,-0.120724370022561,0.00910276959912465,-0.0140599591208312
9,0.00902704424526429,-0.0149896066012607,0.978654248655158,-0.127568375567916,0.978654248554514,-0.127568375555073,0.00903724546823215,-0.0149575384552829
9.5,0.00895212217748642,-0.0158920819706854,0.977462253340654,-0.134392482811217,0.977462253252491,-0.134392482792207,0.00896408296379775,-0.0158580121416096
10,0.00886956900741226,-0.0167976602096203,0.976223392879067,-0.141197010349172,0.97622339281428,-0.141197010328014,0.00888342167612527,-0.0167615993206423
10.5,0.00879010391857298,-0.0176961256927912,0.974969380697834,-0.14805232320541,0.974969380643373,-0.148052323182311,0.00880585253961964,-0.0176581001813449
11,0.0087014197599373,-0.0186007669232824,0.97366329866153,-0.154883643694333,0.973663298616881,-0.154883643669488,0.00871919430844574,-0.0185607778217842
11.5,0.00860300508731945,-0.0195114207080889,0.972306060647249,-0.161690848792968,0.972306060611875,-0.161690848766587,0.00862293779694276,-0.0194694732328493
12,0.00849436729732091,-0.020427889509016,0.970898551482307,-0.168473869451345,0.970898551455662,-0.168473869423652,0.00851659232031538,-0.0203839932227243
12.5,0.00837503469139355,-0.0213499441576381,0.969441623200607,-0.17523268355931,0.96944162318214,-0.175232683530536,0.00839968775632284,-0.0213041130910505
13,0.00824455818946863,-0.0222773266340575,0.967936092071167,-0.181967309226682,0.967936092060327,-0.181967309197058,0.00827177626137499,-0.0222295793689122
13.5,0.00810251270623,-0.0232097528683339,0.966382736365183,-0.188677798427361,0.966382736361425,-0.18867779839712,0.00813243365352526,-0.0231601125839767
14,0.00794849820718527,-0.0241469155276812,0.964782294814439,-0.195364231044238,0.964782294817229,-0.195364231013601,0.00798126047893188,-0.0240954100142736
14.5,0.00778214046494422,-0.0250884867570846,0.963135465704107,-0.202026709339687,0.963135465712923,-0.202026709308873,0.00781788278156892,-0.025035148398532
15,0.00760309153843436,-0.0260341208455666,0.961442906536656,-0.208665352866054,0.961442906550992,-0.208665352835266,0.00764195259835615,-0.0259789865754332
15.5,0.00741102999943211,-0.0269834567948912,0.959705234200241,-0.215280293821474,0.959705234219607,-0.215280293790904,0.00745314820348358,-0.0269265680286597
16,0.00720566093163738,-0.0279361207718614,0.957923025574109,-0.22187167284885,0.957923025598036,-0.221871672818675,0.00725117412665915,-0.027877523318891
16.5,0.0069867157278295,-0.0288917284295223,0.956096818504754,-0.228439635269436,0.956096818532792,-0.228439635239817,0.00703576097031311,-0.0288314723879242
17,0.00675395171036464,-0.0298498870863888,0.954227113089312,-0.234984327737292,0.954227113121035,-0.234984327708375,0.00680666505058908,-0.0297880267239794
17.5,0.00650715159960583,-0.0308101977563569,0.952314373206599,-0.241505895296853,0.952314373241598,-0.241505895268768,0.00656366788632728,-0.0307467913806088
18,0.0062461228538061,-0.0317722570250205,0.950359028240888,-0.248004478822618,0.950359028278778,-0.24800447879548,0.00630657555924097,-0.0317073668447474
18.5,0.00597069690267882,-0.0327356587709038,0.948361474948711,-0.254480212817782,0.948361474989131,-0.254480212791688,0.00603521796722417,-0.0326693507521796
19,0.00568072829534216,-0.0336999957324267,0.946322079424365,-0.26093322354707,0.946322079466971,-0.260933223522103,0.00574944799126642,-0.0336323394510067
19.5,0.00537609378168591,-0.0346648609234661,0.944241179125188,-0.267363627478204,0.944241179169661,-0.267363627454433,0.0054491405948438,-0.0345959294156901
20,0.00505669134448966,-0.0356298489019486,0.942119084923014,-0.273771530006139,0.942119084969055,-0.273771529983621,0.00513419187297204,-0.0355597185158973
20.5,0.00472243919785637,-0.0365945568972539,0.939956083153173,-0.280157024434376,0.939956083200502,-0.280157024413152,0.00480451806639648,-0.0365233071456663
21,0.00437327476579519,-0.0375585858032359,0.937752437637133,-0.286520191188256,0.93775243768549,-0.286520191168358,0.00446005455468645,-0.0374862992194638
21.5,0.00400915365308713,-0.0385215410443673,0.935508391659183,-0.292861097235997,0.935508391708328,-0.292861097217444,0.00410075484034811,-0.0384483030424279
22,0.003630048618952,-0.0394830333230631,0.933224169881436,-0.299179795694345,0.933224169931147,-0.299179795677148,0.00372658953445731,-0.0394089320626398
22.5,0.00323594856251597,-0.0404426792565207,0.93089998018492,-0.305476325597013,0.930899980234991,-0.305476325581171,0.00333754535283448,-0.0403678055135877
23,0.0028268575276299,-0.0414001019115444,0.928536015427572,-0.311750711805464,0.928536015477814,-0.311750711790969,0.00293362413034659,-0.0413245489551102
23.5,0.00240279373330526,-0.0423549312458154,0.926132455112617,-0.318002965043086,0.926132455162859,-0.318002965029924,0.00251484185965101,-0.0422787947211372
24,0.00196378863482594,-0.0433068044639031,0.923689466963093,-0.32423308203529,0.923689467013174,-0.324233082023439,0.00208122775949487,-0.0432301822823875
24.5,0.00150988601951496,-0.044255366296116,0.921207208400189,-0.330441045739582,0.921207208449968,-0.330441045729016,0.00163282337662146,-0.0441783585320057
25,0.00104114114019604,-0.0452002692079123,0.918685827924757,-0.336626825651112,0.918685827974102,-0.336626825641799,0.00116968172438797,-0.0451229780017628
25.5,0.000557619888510719,-0.0461411735473036,0.916125466402568,-0.342790378170652,0.916125466451363,-0.342790378162556,0.000691866460337309,-0.0460637030161721
26,5.9398009544076E-005,-0.0470777476372044,0.913526258255078,-0.348931647023293,0.913526258303216,-0.348931647016373,0.000199451104248127,-0.047000203791389
26.5,-0.000453439641447728,-0.0480096678192687,0.910888332558236,-0.355050563717442,0.910888332605622,-0.355050563711656,-0.000307481702467416,-0.047932158485394
27,-0.000980799799962295,-0.0489366184553133,0.908211814052567,-0.361147048034921,0.908211814099117,-0.361147048030221,-0.000828840895697347,-0.0488592532055081
27.5,-0.00152258145103201,-0.0498582918919497,0.90549682406824,-0.367221008544047,0.90549682411388,-0.36722100854039,-0.0013645276460299,-0.0497811819788299
28,-0.00207867644646464,-0.0507743883936067,0.902743481369174,-0.373272343128656,0.902743481413839,-0.373272343125991,-0.00191443597514768,-0.0506976466907307
28.5,-0.00264897008145371,-0.0516846160486688,0.899951902920474,-0.37930093952691,0.899951902964107,-0.379300939525187,-0.00247845333207214,-0.0516083569961519
29,-0.00323334163172856,-0.0525886906530393,0.897122204583597,-0.385306675874642,0.897122204626148,-0.385306675873812,-0.00305646113035762,-0.0525130302079635
29.5,-0.00383166485260539,-0.0534863355750141,0.894254501743726,-0.391289421248726,0.894254501785154,-0.391289421248737,-0.0036483352475461,-0.0534113911662926
30,-0.00444380844146702,-0.0543772816049684,0.891348909873766,-0.397249036206669,0.891348909914036,-0.397249036207469,-0.0042539464883542,-0.054303172092298
30.5,-0.00506963646528746,-0.0552612667929835,0.88840554503934,-0.403185373319233,0.888405545078423,-0.403185373320773,-0.00487316101316443,-0.0551881124295479
31,-0.00570900875491737,-0.0561380362772028,0.885424524349019,-0.409098277693467,0.885424524386894,-0.409098277695696,-0.00550584073348687,-0.0560659586757775
31.5,-0.00636178126786391,-0.0570073421053892,0.882405966353894,-0.414987587483974,0.88240596639054,-0.414987587486842,-0.00615184367609473,-0.0569364642075081
32,-0.00702780642134493,-0.0578689430518513,0.879349991400399,-0.420853134390715,0.879349991435806,-0.420853134394173,-0.00681102431756414,-0.057799389099721
32.5,-0.00770693339736378,-0.0587226044316382,0.87625672194015,-0.42669474414199,0.876256721974309,-0.42669474414599,-0.0074832338909524,-0.0586544999424872
33,-0.00839900842155894,-0.059568097913669,0.873126282800311,-0.432512236961569,0.873126282833217,-0.432512236966065,-0.00816832066631618,-0.0595015696562253
33.5,-0.00910387501752896,-0.0604052013342098,0.86995880141785,-0.438305428019244,0.869958801449504,-0.438305428024189,-0.00886613020676713,-0.0603403773070459
34,-0.00982137423829155,-0.0612336985119346,0.866754408040808,-0.444074127864285,0.866754408071212,-0.444074127869636,-0.00957650560168577,-0.0611707079233881
34.5,-0.0105513448764885,-0.0620533790656022,0.863513235899504,-0.449818142841526,0.863513235928665,-0.44981814284724,-0.0102992876786956,-0.0619923523150492
35,-0.0112936236548719,-0.062864038235235,0.860235421350422,-0.455537275489939,0.86023542137835,-0.455537275495974,-0.0110343151959116,-0.0628051068954543
35.5,-0.0120480453985507,-0.0636654767075087,0.856921103995309,-0.461231324923742,0.856921104022014,-0.461231324930057,-0.0117814250159285,-0.06360877350794
36,-0.012814443190412,-0.0644575004459704,0.853570426777821,-0.466900087196179,0.853570426803318,-0.466900087202737,-0.012540452262947,-0.0644031592566474
36.5,-0.0135926485110393,-0.065239920526544,0.850183536059916,-0.472543355646237,0.850183536084221,-0.472543355653,-0.0133112304643594,-0.0651880763425204
37,-0.0143824913643998,-0.066012552978714,0.846760581679966,-0.478160921228612,0.846760581703097,-0.478160921235545,-0.0140935916780502,-0.0659633419048021
37.5,-0.0151838003904952,-0.0667752186326597,0.843301716994449,-0.483752572827347,0.843301717016424,-0.483752572834416,-0.0148873666065916,-0.0667287778683258
38,-0.0159964029660824,-0.0675277429725553,0.839807098904896,-0.489318097553573,0.839807098925737,-0.489318097560746,-0.0156923846994556,-0.0674842107968157
38.5,-0.0168201252945278,-0.0682699559961646,0.836276887871659,-0.494857281027855,0.836276887891388,-0.4948572810351,-0.0165084742442776,-0.0682294717523515
39,-0.0176547924857731,-0.0690016920808116,0.832711247915889,-0.500369907647652,0.832711247934529,-0.500369907654942,-0.0173354624481603,-0.0689643961610844
39.5,-0.0185002286273236,-0.0697227898557518,0.829110346611038,-0.505855760840447,0.829110346628614,-0.505855760847753,-0.018173175509924,-0.0696888236852341
40,-0.019356256847122,-0.070433092080914,0.825474355065057,-0.511314623303071,0.825474355081595,-0.511314623310368,-0.0190214386841565,-0.0704025981013642
40.5,-0.020222699369099,-0.0711324455319765,0.821803447894352,-0.516746277227802,0.821803447909876,-0.516746277235063,-0.0198800763378583,-0.0711055671848865
41,-0.0210993775621326,-0.0718207008916627,0.818097803190478,-0.522150504515783,0.818097803205015,-0.522150504522987,-0.0207489120004212,-0.0717975826007125
41.5,-0.021986111983106,-0.0724977126471645,0.814357602480461,-0.527527086978322,0.81435760249404,-0.527527086985446,-0.0216277684076078,-0.0724784997999467
42,-0.0228827224146895,-0.0731633389935358,0.810583030681535,-0.532875806526606,0.810583030694181,-0.53287580653363,-0.0225164675401834,-0.0731481779224948
42.5,-0.0237890278984343,-0.0738174417429174,0.806774276051024,-0.53819644535038,0.806774276062765,-0.538196445357285,-0.0234148306577674,-0.0738064797054312
43,-0.0247048467637088,-0.0744598862394091,0.802931530132021,-0.543488786086103,0.802931530142885,-0.543488786092871,-0.0243226783284516,-0.0744532713969724
43.5,-0.0256299966529827,-0.0750905412794241,0.799054987695461,-0.548752611975099,0.799054987705476,-0.548752611981713,-0.0252398304546773,-0.0750884226758782
44,-0.0265642945439008,-0.0757092790373147,0.795144846679108,-0.553987707012176,0.795144846688302,-0.553987707018623,-0.0261661062958234,-0.0757118065760927
44.5,-0.0275075567685732,-0.0763159749960978,0.791201308123943,-0.559193856085219,0.791201308132344,-0.559193856091483,-0.0271013244879352,-0.076323299416439
45,-0.0284595990304646,-0.0769105078830592,0.787224576108377,-0.564370845106182,0.787224576116013,-0.564370845112251,-0.0280453030609637,-0.0769227807351816
45.5,-0.029420236419226,-0.0774927596100522,0.78321485768068,-0.569518461133944,0.783214857687579,-0.569518461139806,-0.0289978594538827,-0.0775101332292401
46,-0.0303892834237989,-0.0780626152182726,0.779172362789966,-0.574636492489431,0.779172362796154,-0.574636492495075,-0.029958810527989,-0.0780852426978752
46.5,-0.031366553944072,-0.0786199628273163,0.775097304216042,-0.579724728863419,0.775097304221548,-0.579724728868836,-0.0309279725786955,-0.0786479979906336
47,-0.0323518613013724,-0.0791646935883146,0.770989897498407,-0.584782961417399,0.770989897503259,-0.584782961422581,-0.031905161346073,-0.0791982909593649
47.5,-0.0333450182480197,-0.0796967016409567,0.766850360864634,-0.589810982877874,0.766850360868856,-0.589810982882812,-0.0328901920243953,-0.0797360164141114
48,-0.0343458369761724,-0.0802158840741802,0.762678915158353,-0.594808587624413,0.762678915161974,-0.594808587629101,-0.0338828792708988,-0.080261072082674
48.5,-0.0353541291261572,-0.0807221408903688,0.758475783767049,-0.599775571771845,0.758475783770095,-0.599775571776278,-0.0348830372139669,-0.0807733585736738
49,-0.036369705794478,-0.0812153749728465,0.754241192549821,-0.604711733246848,0.754241192552316,-0.604711733251019,-0.0358904794609188,-0.0812727793429153
49.5,-0.0373923775416484,-0.0816954920564885,0.749975369765264,-0.609616871859275,0.749975369767235,-0.609616871863181,-0.036905019105567,-0.0817592406628768
50,-0.0384219544000086,-0.0821624007012728,0.745678545999625,-0.614490789368478,0.745678546001096,-0.614490789372116,-0.0379264687356909,-0.0822326515951494
50.5,-0.0394582458816553,-0.0826160122686078,0.741350954095313,-0.619333289544918,0.741350954096308,-0.619333289548285,-0.0389546404405696,-0.0826929239656498
51,-0.0405010609866008,-0.0830562409002411,0.736992829079909,-0.624144178227282,0.736992829080453,-0.624144178230376,-0.0399893458186769,-0.0831399723424476
51.5,-0.0415502082112719,-0.0834830034996145,0.732604408095732,-0.628923263375391,0.732604408095849,-0.628923263378211,-0.0410303959856683,-0.0835737140160381
52,-0.0426054955574368,-0.0838962197154883,0.728185930330059,-0.633670355119085,0.728185930329771,-0.63367035512163,-0.0420776015827382,-0.0839940689819096
52.5,-0.043666730541652,-0.0842958119276875,0.723737636946059,-0.638385265803328,0.723737636945388,-0.6383852658056,-0.0431307727854377,-0.084400959925251
53,-0.0447337202052951,-0.0846817052348272,0.719259771014503,-0.643067810029727,0.719259771013472,-0.643067810031725,-0.0441897193130364,-0.0847943122076564
53.5,-0.0458062711252535,-0.0850538274438647,0.714752577446297,-0.647717804694643,0.714752577444927,-0.647717804696369,-0.0452542504384855,-0.0851740538556851
54,-0.0468841894253225,-0.0854121090613474,0.710216302925879,-0.652335069024104,0.710216302924192,-0.652335069025559,-0.0463241749990394,-0.0855401155511383
54.5,-0.0479672807883659,-0.085756483286225,0.705651195845531,-0.656919424605662,0.705651195843546,-0.656919424606848,-0.0473993014075987,-0.0858924306229276
55,-0.049055350469274,-0.086086886004095,0.701057506240603,-0.661470695417371,0.701057506238341,-0.661470695418292,-0.0484794376648056,-0.0862309350404066
55.5,-0.0501482033087646,-0.0864032557827616,0.696435485725714,-0.665988707854042,0.696435485723194,-0.6659887078547,-0.0495643913719285,-0.086555567408041
56,-0.0512456437480441,-0.0867055338689888,0.69178538743192,-0.670473290750896,0.691785387429161,-0.670473290751296,-0.0506539697445825,-0.0868662689613114
56.5,-0.0523474758443624,-0.0869936641863353,0.687107465944877,-0.674924275404779,0.687107465941897,-0.674924275404924,-0.0517479796272871,-0.0871629835637204
57,-0.0534535032874787,-0.0872675933339647,0.682401977244007,-0.679341495593047,0.682401977240825,-0.679341495592941,-0.0528462275089092,-0.0874456577048175
57.5,-0.0545635294170463,-0.0875272705863229,0.677669178642683,-0.683724787590251,0.677669178639315,-0.683724787589899,-0.0539485195389797,-0.0877142404991212
58,-0.055677357240936,-0.0877726478935839,0.672909328729427,-0.68807399018273,0.67290932872589,-0.688073990182138,-0.0550546615449169,-0.0879686836858466
58.5,-0.0567947894544968,-0.0880036798827732,0.668122687310134,-0.692388944681229,0.668122687306445,-0.692388944680402,-0.0561644590501547,-0.0882089416293468
59,-0.0579156284607593,-0.0882203238594662,0.663309515351324,-0.696669494931631,0.663309515347497,-0.696669494930574,-0.0572777172931797,-0.0884349713201693
59.5,-0.0590396763915803,-0.0884225398099867,0.658470074924407,-0.700915487323907,0.658470074920458,-0.700915487322627,-0.0583942412474821,-0.0886467323766499
60,-0.0601667351297266,-0.0886102904040056,0.653604629150982,-0.705126770799376,0.653604629146926,-0.705126770797878,-0.0595138356424122,-0.0888441870469491
60.5,-0.0612966063318877,-0.088783540997478,0.648713442149143,-0.709303196856356,0.648713442144994,-0.709303196854647,-0.0606363049849442,-0.0890273002114636
61,-0.0624290914526094,-0.088942259635821,0.643796778980806,-0.713444619554285,0.643796778976576,-0.713444619552371,-0.0617614535823334,-0.0891960393855251
61.5,-0.0635639917691406,-0.0890864170572736,0.638854905600028,-0.717550895516397,0.638854905595733,-0.717550895514287,-0.0628890855656631,-0.0893503747223202
62,-0.0647011084071714,-0.0892159866963596,0.633888088802348,-0.721621883931026,0.633888088797999,-0.721621883928724,-0.0640190049142598,-0.0894902790159601
62.5,-0.0658402423674517,-0.0893309446873891,0.628896596175094,-0.725657446551582,0.628896596170703,-0.725657446549097,-0.065151015480973,-0.0896157277046293
