"Freq [GHz]","re(St(P1,P1)) []","im(St(P1,P1)) []","re(St(P1,P2)) []","im(St(P1,P2)) []","re(St(P2,P1)) []","im(St(P2,P1)) []","re(St(P2,P2)) []","im(St(P2,P2)) []"
0,0.0127474695094634,0,0.987215070199454,0,0.98721506963193,0,0.012747465233474,0
0.5,0.0138214040067179,-0.000433767452683753,0.986036057733344,-0.0156008829721275,0.986036057901462,-0.0156008829761927,0.0138212835869229,-0.000432888408449905
1,0.0145686453589651,-0.00206695195847217,0.984798475719264,-0.0299666309518738,0.984798475753687,-0.0299666308664701,0.0145681848827763,-0.0020651955902089
1.5,0.0149808916846359,-0.00388963226333683,0.983554822946911,-0.0441296865654977,0.983554823082864,-0.0441296864777128,0.0149787765423879,-0.00388694831082326
2,0.0151795947634068,-0.00574189391702973,0.982262968092602,-0.0581733700550737,0.982262968281769,-0.0581733700324722,0.0151765523097676,-0.00573775497222861
2.5,0.0152570704177739,-0.00759301148684344,0.980830052235849,-0.0721666775697409,0.980830052425167,-0.0721666776167051,0.0152531797521434,-0.00758768793191678
3,0.0152485342031725,-0.00944128723850834,0.979209695203722,-0.0861114783124304,0.979209695362149,-0.086111478408669,0.0152434742606835,-0.00943494030493763
3.5,0.0151695021284379,-0.0112861351035836,0.977384693685984,-0.0999972932640603,0.977384693801563,-0.0999972933844973,0.0151628814988853,-0.0112787211582823
4,0.0150287382729518,-0.0131262687471745,0.975351629463039,-0.113814265782745,0.975351629536503,-0.113814265905524,0.0150202244509443,-0.0131176230209871
4.5,0.0148322234617239,-0.0149603738439255,0.973113067748032,-0.127555464826959,0.973113067787395,-0.127555464936296,0.014821563320359,-0.0149502878058367
5,0.0145844127993237,-0.0167874539975514,0.970673821259176,-0.141216681909734,0.970673821275643,-0.141216681996394,0.0145714158088894,-0.0167757182318939
5.5,0.0142887147037234,-0.0186068621414357,0.968039163482931,-0.154795732885471,0.968039163487968,-0.154795732946085,0.0142732304594444,-0.0185932837345124
6,0.0139477435972917,-0.0204182158193356,0.965214001770746,-0.168291767919364,0.965214001774127,-0.168291767955178,0.0139296437332594,-0.0204026219730045
6.5,0.0135634947781977,-0.0222212980166363,0.962202542906562,-0.181704708685432,0.962202542915213,-0.181704708700855,0.0135426607637233,-0.0222035335763064
7,0.0131374798164166,-0.0240159774520095,0.959008215457168,-0.195034826992823,0.959008215474645,-0.195034826994003,0.0131137955243662,-0.0239959004088925
7.5,0.0126708335831245,-0.0258021532263331,0.955633722071552,-0.208282448912076,0.955633722097982,-0.208282448905642,0.0126441811485422,-0.0257796300498279
8,0.0121643982561355,-0.0275797194711429,0.952081150711381,-0.221447760672416,0.952081150743718,-0.221447760664433,0.0121346560248102,-0.0275546209846884
8.5,0.0116187885666474,-0.0293485441695673,0.948352104853688,-0.234530692488857,0.948352104886163,-0.234530692484035,0.0115858303027073,-0.0293207421515338
9,0.011034442113469,-0.0311084572811193,0.944447830951483,-0.247530859274489,0.944447830976157,-0.247530859275615,0.0109981369331224,-0.0310778217524388
9.5,0.0104116580516911,-0.0328592446722848,0.940369332374723,-0.26044754096452,0.94036933238207,-0.260447540972096,0.0103718707569479,-0.032825641759322
10,0.00975062687357758,-0.0346006455166656,0.936117465539257,-0.273279689000935,0.936117465518733,-0.273279689012986,0.00970721849325176,-0.0345639357679399
10.5,0.00907037110474795,-0.0363272637919845,0.931666970030441,-0.286036727447653,0.931666970010098,-0.286036727456134,0.0090231685271252,-0.0362874154230404
11,0.00834831678709586,-0.0380475396866422,0.927051525207821,-0.298699782978588,0.927051525188082,-0.298699782983744,0.00829719078702207,-0.0380043828288525
11.5,0.0075839305349677,-0.0397601383684647,0.922273316025327,-0.311268711967461,0.922273316006554,-0.31126871196957,0.00752875741481041,-0.0397134984139198
12,0.00677676223572354,-0.041463668826069,0.917334294436426,-0.32374325318834,0.917334294418916,-0.323743253187704,0.00671742378918883,-0.0414133665503762
12.5,0.00592644799585823,-0.0431566925482303,0.912236222967424,-0.336123016814786,0.912236222951418,-0.336123016811716,0.0058628314827448,-0.0431025442101525
13,0.00503271208737693,-0.0448377320543396,0.906980714133037,-0.348407480046955,0.906980714118722,-0.348407480041768,0.00496471022199602,-0.0447795494759557
13.5,0.00409536797861926,-0.0465052791733114,0.901569265419438,-0.360595987879722,0.901569265406947,-0.360595987872731,0.00402287893385977,-0.0464428698044554
14,0.00311431854008998,-0.0481578029872001,0.896003289815589,-0.372687757726117,0.896003289805014,-0.372687757717624,0.00303724596842403,-0.0480909699579628
14.5,0.00208955551906015,-0.0497937573739069,0.890284142052336,-0.384681886814229,0.890284142043731,-0.384681886804525,0.00200780859113631,-0.0497222995388713
15,0.00102115837699412,-0.0514115881002413,0.884413140825124,-0.396577361469295,0.884413140818505,-0.396577361458654,0.000934651837910638,-0.0513353000779235
15.5,-9.07074180649392E-005,-0.0530097394319271,0.878391587344622,-0.408373067568099,0.878391587339978,-0.408373067556776,-0.000182053175197039,-0.0529284116426569
16,-0.00124579255586899,-0.0545866602408385,0.872220780591957,-0.420067801606508,0.872220780589251,-0.420067801594739,-0.00134205139987276,-0.054500078945996
16.5,-0.00244376642202948,-0.0561408096015377,0.865902029661895,-0.431660281951867,0.86590202966107,-0.431660281939866,-0.00254500637824095,-0.0560487569467547
17,-0.00368421993296875,-0.0576706618792886,0.859436663566408,-0.443149159961012,0.859436663567391,-0.443149159948974,-0.00379050306382589,-0.0575729159438771
17.5,-0.00496666859782052,-0.059174711319997,0.852826038848807,-0.454533030733561,0.852826038851511,-0.45453303072166,-0.00507805087102647,-0.0590710461745172
18,-0.00629055574459936,-0.0606514761591515,0.846071545329871,-0.465810443341303,0.846071545334199,-0.465810443329691,-0.00640708689054442,-0.0605416619327044
18.5,-0.00765525585526439,-0.0620995022720092,0.839174610275495,-0.476979910430504,0.839174610281343,-0.476979910419314,-0.00777697921546699,-0.0619833052305265
19,-0.00906007796151398,-0.0635173663910185,0.832136701242765,-0.488039917137106,0.832136701250023,-0.488039917126453,-0.00918703032986251,-0.0633945490275056
19.5,-0.0105042690600672,-0.064903678919038,0.824959327829652,-0.498988929287501,0.824959327838209,-0.498988929277483,-0.0106364805186348,-0.0647740000564693
20,-0.0119870175127033,-0.0662570863684568,0.817644042523714,-0.509825400881749,0.817644042533458,-0.509825400872445,-0.0121245112638638,-0.066120301275768
20.5,-0.0135074564023966,-0.0675762734569992,0.810192440817772,-0.52054778087352,0.81019244082859,-0.520547780864998,-0.0136502485989041,-0.0674321339784006
21,-0.0150646668223769,-0.068859964890931,0.802606160735968,-0.531154519273177,0.802606160747749,-0.531154519265488,-0.0152127663969827,-0.0687082195885753
21.5,-0.0166576810799217,-0.0701069268657775,0.794886881891698,-0.54164407260837,0.794886881904335,-0.541644072601553,-0.0168110895760124,-0.0699473211756512
22,-0.0182854858010816,-0.071315968313582,0.787036324179795,-0.552014908781423,0.787036324193184,-0.552014908775505,-0.0184441972057061,-0.071148244714346
22.5,-0.0199470249263923,-0.072485941924324,0.77905624618867,-0.562265511365288,0.779056246202713,-0.562265511360286,-0.0201110255069428,-0.0723098401187161
23,-0.0216412025909634,-0.0736157449674772,0.770948443403807,-0.572394383380669,0.770948443418408,-0.572394383376591,-0.0218104707366623,-0.073431002075787
23.5,-0.0233668858851679,-0.07470431993786,0.762714746261732,-0.582400050596458,0.762714746276802,-0.582400050593303,-0.0235413919543994,-0.0745106707029104
24,-0.0251229074945384,-0.0757506550480342,0.754357018103182,-0.592281064394351,0.754357018118639,-0.592281064392112,-0.0253026136689504,-0.0755478320510607
24.5,-0.0269080682194534,-0.0767537845876135,0.745877153065333,-0.602036004236658,0.745877153081098,-0.602036004235322,-0.0270929283656688,-0.0765415184743528
25,-0.0287211393767907,-0.0777127891678507,0.737277073945542,-0.611663479774088,0.737277073961545,-0.611663479773633,-0.0289110989164478,-0.0774908088841545
25.5,-0.030560865087,-0.078626795868078,0.728558730062826,-0.621162132627899,0.728558730079001,-0.621162132628304,-0.0307558608757599,-0.0783948289043199
26,-0.0324259644510191,-0.0794949782987125,0.719724095138058,-0.630530637878337,0.719724095154346,-0.630530637879573,-0.0326259246670903,-0.0792527509422541
26.5,-0.0343151336221926,-0.0803165565938644,0.71077516520955,-0.639767705288771,0.710775165225897,-0.639767705290807,-0.0345199776648438,-0.080063794188844
27,-0.0362270477788704,-0.0810907973449682,0.70171395659705,-0.648872080292589,0.70171395661341,-0.648872080295394,-0.0364366861773207,-0.0808272245586641
27.5,-0.0381603630036717,-0.081817013485369,0.692542503924239,-0.657842544767581,0.692542503940569,-0.657842544771119,-0.0383746973366904,-0.0815423545804097
28,-0.04011371807561,-0.0824945641344252,0.683262858207275,-0.666677917620372,0.683262858223538,-0.666677917624607,-0.0403326409020857,-0.0822085432461138
28.5,-0.0420857361812872,-0.0831228544084283,0.673877085014987,-0.67537705520146,0.673877085031153,-0.675377055206357,-0.0423091309819764,-0.0828251958264781
29,-0.0440750265513385,-0.0837013352045032,0.664387262704586,-0.683938851569521,0.664387262720628,-0.683938851575042,-0.0443027676819472,-0.0833917636584762
29.5,-0.0460801860281512,-0.0842295029626299,0.654795480735429,-0.692362238621906,0.654795480751326,-0.692362238628015,-0.0463121386838577,-0.0839077439104028
30,-0.0480998005706912,-0.0847068994100008,0.645103838062278,-0.700646186106691,0.645103838078011,-0.70064618611335,-0.0483358207621737,-0.0843726793285914
30.5,-0.0501324467020017,-0.0851331112911067,0.635314441608545,-0.708789701530161,0.635314441624103,-0.708789701537337,-0.0503723812429969,-0.0847861579692187
31,-0.0521766929046563,-0.0855077700862441,0.625429404819371,-0.716791829972325,0.625429404834744,-0.716791829979982,-0.0524203794110349,-0.0851478129178943
31.5,-0.0542311009691218,-0.0858305517204616,0.615450846293714,-0.724651653821796,0.615450846308896,-0.724651653829904,-0.05447836786944,-0.0854573219990942
32,-0.0562942272996601,-0.0861011762644554,0.605380888494235,-0.73236829244037,0.605380888509223,-0.732368292448895,-0.0565448938571063,-0.085714407476945
32.5,-0.0583646241820338,-0.0863194076284037,0.595221656533367,-0.739940901766544,0.595221656548162,-0.739940901775458,-0.0586185005276701,-0.0859188357483822
33,-0.0604408410169496,-0.0864850532493507,0.584975277033681,-0.747368673866411,0.584975277048286,-0.747368673875686,-0.0606977281941198,-0.0860704170293086
33.5,-0.0625214255228131,-0.0865979637723756,0.574643877060448,-0.754650836439504,0.574643877074869,-0.754650836449115,-0.0627811155425568,-0.0861690050340046
34,-0.0646049249110293,-0.0866580327255066,0.564229583124126,-0.761786652286434,0.56422958313837,-0.761786652296356,-0.0648672008183294,-0.086214496647776
34.5,-0.0666898870367451,-0.086665196188083,0.553734520250403,-0.768775418744514,0.55373452026448,-0.768775418754729,-0.0669545229874088,-0.0862068315925526
35,-0.0687748615276175,-0.0866194324520692,0.543160811115326,-0.775616467096966,0.543160811129247,-0.775616467107452,-0.0690416228755719,-0.0861459920849714
35.5,-0.0708584008928673,-0.0865207616756705,0.532510575243002,-0.782309161960716,0.53251057525678,-0.782309161971458,-0.0711270442876278,-0.0860320024863049
36,-0.0729390616145854,-0.086369245528466,0.521785928263349,-0.788852900657357,0.521785928276997,-0.788852900668342,-0.0732093351086479,-0.085864928943471
36.5,-0.0750154052229943,-0.0861649868271832,0.51098898122734,-0.795247112571342,0.510988981240872,-0.795247112582556,-0.075287048388873,-0.0856448790202723
37,-0.0770859993570723,-0.085908129161173,0.500121839977214,-0.801491258499098,0.500121839990646,-0.801491258510532,-0.0773587434136966,-0.0853720013179384
37.5,-0.0791494188117261,-0.0855988565065953,0.489186604569158,-0.807584829992381,0.489186604582505,-0.807584830004028,-0.0794229867598918,-0.0850464850840024
38,-0.081204246572449,-0.0852373928283102,0.478185368745968,-0.813527348698836,0.478185368759246,-0.813527348710691,-0.0814783533390082,-0.0846685598085294
38.5,-0.0832490748381891,-0.0848240016684593,0.467120219457272,-0.819318365702425,0.467120219470496,-0.819318365714485,-0.0835234274286455,-0.0842384948066973
39,-0.0852825060329515,-0.0843589857207374,0.455993236424932,-0.824957460866112,0.455993236438118,-0.824957460878376,-0.0855568036921172,-0.0837565987867536
39.5,-0.087303153806468,-0.0838426863893837,0.444806491751304,-0.830444242178936,0.444806491764466,-0.830444242191405,-0.0875770881868306,-0.0832232194023987
40,-0.0893096440240957,-0.0832754833319536,0.433562049568072,-0.83577834510935,0.433562049581227,-0.835778345122027,-0.0895828993615283,-0.0826387427886737
40.5,-0.0913006157459592,-0.0826577939849824,0.422261965723482,-0.84095943196653,0.422261965736642,-0.84095943197942,-0.0915728690423994,-0.0820035930804918
41,-0.0932747221951903,-0.0819900730717167,0.410908287505802,-0.845987191271118,0.410908287518981,-0.845987191284229,-0.0935456434079066,-0.081318231913006
41.5,-0.0952306317150047,-0.0812728120911431,0.399503053400966,-0.850861337136722,0.399503053414177,-0.85086133715006,-0.0954998839520556,-0.0805831579030641
42,-0.0971670287142264,-0.0805065387876179,0.388048292882368,-0.855581608663295,0.388048292895622,-0.855581608676871,-0.0974342684357227,-0.0797989061110831
42.5,-0.099082614600773,-0.0796918166004826,0.376546026230888,-0.860147769343419,0.376546026244195,-0.860147769357244,-0.0993474918255374,-0.0789660474827451
43,-0.100976108702518,-0.0788292440931241,0.364998264383268,-0.864559606482321,0.364998264396637,-0.864559606496408,-0.101238267219738,-0.0780851882699945
43.5,-0.102846249174866,-0.0779194543610202,0.353407008807038,-0.868816930632374,0.353407008820476,-0.868816930646735,-0.10310532676033,-0.0771569694309066
44,-0.104691793894296,-0.076963114418403,0.341774251400261,-0.872919575042686,0.341774251413776,-0.872919575057338,-0.104947422530808,-0.0761820660080772
44.5,-0.106511521337093,-0.0759609245632531,0.330101974414422,-0.876867395124314,0.330101974428018,-0.876867395139271,-0.106763327438646,-0.0751611864852721
45,-0.108304231442393,-0.0749136177204297,0.318392150398865,-0.880660267931495,0.318392150412546,-0.880660267946774,-0.108551836081707,-0.0740950721221637
45.5,-0.110068746458672,-0.0738219587628294,0.306646742165241,-0.884298091659246,0.306646742179008,-0.884298091674864,-0.110311765597674,-0.0729844962670674
46,-0.11180391177274,-0.072686743810555,0.294867702770489,-0.887780785157584,0.294867702784344,-0.887780785173558,-0.112041956495589,-0.0718302636476878
46.5,-0.11350859672029,-0.0715087995081633,0.283056975516955,-0.891108287462535,0.283056975530896,-0.891108287478883,-0.113741273468561,-0.0706332096399588
47,-0.115181695377048,-0.0702889822801513,0.271216493968286,-0.894280557344066,0.27121649398231,-0.894280557360806,-0.115408606186651,-0.0693941995151629
47.5,-0.116822127329519,-0.0690281775649201,0.259348181979819,-0.89729757287098,0.259348181993923,-0.89729757288813,-0.117042870069009,-0.068114127665591
48,-0.118428838424385,-0.067727299027548,0.247453953742245,-0.900159330992791,0.247453953756422,-0.900159331010371,-0.118643007034246,-0.066793916809091
48.5,-0.120000801495546,-0.0663872877517807,0.235535713837361,-0.902865847138521,0.235535713851603,-0.902865847156548,-0.120207986228114,-0.0654345171729377
49,-0.121537017067866,-0.0650091114117289,0.223595357304813,-0.905417154832341,0.223595357319112,-0.905417154850832,-0.121736804727518,-0.06403690565753
49.5,-0.123036514036656,-0.0635937634238416,0.211634769718762,-0.907813305325918,0.211634769733107,-0.907813305344892,-0.123228488219924,-0.062602084980506
50,-0.124498350321988,-0.062142262079797,0.199655827273456,-0.910054367247314,0.199655827287836,-0.910054367266789,-0.124682091657274,-0.0611310828019327
50.5,-0.12592161349693,-0.0606556496610259,0.187660396876778,-0.912140426266236,0.187660396891178,-0.912140426286227,-0.126096699883499,-0.0596249508313023
51,-0.127305421388849,-0.0591349915356478,0.175650336250832,-0.914071584775413,0.175650336265238,-0.914071584795938,-0.1274714282348,-0.0580847639171354
51.5,-0.128648922652946,-0.0575813752386702,0.163627494038731,-0.915847961587871,0.163627494053126,-0.915847961608944,-0.128805423111883,-0.0565116191200484
52,-0.129951297317251,-0.0559959095363554,0.151593709916764,-0.917469691649812,0.151593709931131,-0.917469691671448,-0.130097862523375,-0.0549066347702128
52.5,-0.131211757298334,-0.0543797234757244,0.139550814711174,-0.918936925768831,0.139550814725493,-0.918936925791044,-0.131347956599723,-0.0532709495101793
53,-0.132429546887054,-0.0527339654202132,0.127500630518821,-0.920249830357168,0.127500630533073,-0.92024983037997,-0.132554948076879,-0.0516057213240994
53.5,-0.133603943203699,-0.0510598020725511,0.115444970831051,-0.921408587189669,0.115444970845214,-0.921408587213072,-0.133718112749181,-0.0499121265544218
54,-0.134734256621953,-0.0493584174859736,0.103385640660112,-0.922413393176144,0.103385640674163,-0.922413393200158,-0.134836759890865,-0.0481913589071847
54.5,-0.135819831161168,-0.0476310120649233,0.0913244366675236,-0.923264460147774,0.0913244366814404,-0.923264460172408,-0.135910232645699,-0.0464446284470645
55,-0.136860044846484,-0.0458788015564267,0.0792631472938208,-0.923962014657234,0.0792631473075786,-0.923962014682497,-0.136937908384332,-0.0446731605833754
55.5,-0.137854310036402,-0.0441030160333696,0.0672035528891337,-0.924506297792183,0.0672035529027078,-0.92450629781808,-0.137919199028946,-0.0428781950482462
56,-0.138802073717488,-0.0423048988709172,0.0551474258441046,-0.92489756500176,0.0551474258574684,-0.924897565028297,-0.138853551344944,-0.0410609848682245
56.5,-0.139702817765948,-0.040485705717351,0.043096530720662,-0.925136085935744,0.0430965307337892,-0.925136085962925,-0.139740447199407,-0.0392227953305795
57,-0.140556059175872,-0.0386467034606082,0.0310526243822187,-0.925222144296017,0.0310526243950823,-0.925222144323844,-0.14057940378616,-0.0373649029455924
57.5,-0.141361350254031,-0.0367891691918267,0.0190174561228688,-0.925156037699964,0.0190174561354411,-0.925156037728438,-0.141369973817341,-0.0354885944061338
58,-0.142118278781176,-0.0349143891672051,0.0069927677952039,-0.924938077555477,0.00699276780745668,-0.924938077584596,-0.142111745681438,-0.0335951655458353
58.5,-0.142826468139839,-0.0330236577694907,-0.00501970606361606,-0.924568588947182,-0.00501970605171117,-0.924568588976944,-0.142804343567831,-0.031685920297165
59,-0.143485577408733,-0.0311182764704099,-0.0170182381078744,-0.924047910533565,-0.0170182380963457,-0.924047910563965,-0.143447427557936,-0.029762169650715
59.5,-0.144095301423898,-0.0291995527953501,-0.0290011080617059,-0.923376394454627,-0.0290011080505824,-0.923376394485661,-0.144040693683129,-0.0278252306170027
60,-0.144655370806819,-0.0272687992915899,-0.0409666026001952,-0.922554406249741,-0.0409666025895059,-0.922554406281401,-0.14458387394969,-0.0258764251920767
60.5,-0.145165551959792,-0.0253273325013672,-0.0529130152334371,-0.921582324785363,-0.0529130152232104,-0.921582324817639,-0.145076736331065,-0.0239170793282048
61,-0.145625647028907,-0.0233764719410498,-0.06483864619381,-0.920460542192259,-0.0648386461840744,-0.920460542225143,-0.145519084727823,-0.021948521910901
61.5,-0.146035493835058,-0.0214175390876577,-0.0767418023267029,-0.919189463811945,-0.0767418023174867,-0.919189463845422,-0.145910758895747,-0.0199720837435266
62,-0.146394965773467,-0.0194518563739559,-0.088620796984906,-0.917769508151973,-0.0886207969762371,-0.917769508186029,-0.146251634342543,-0.0179890965406743
62.5,-0.146703971682259,-0.0174807461933114,-0.100473949926876,-0.916201106849792,-0.100473949918782,-0.916201106884412,-0.146541622193743,-0.0160008919315124
