 ****** HSPICE -- C-2009.09 32-BIT (Aug 24 2009) winnt ******                   
  Copyright (C) 2009 Synopsys, Inc. All Rights Reserved.                        
  Unpublished-rights reserved under US copyright laws.
  This program is protected by law and is subject to the 
  terms and conditions of the license agreement from Synopsys.
  Use of this program is your acceptance to be bound by the 
  license agreement. HSPICE is the trademark of Synopsys, Inc.
  Input File: E:\microstrip_modeling\CPW_modeling\Modeling_of_CPW_v11(2-D-SVDfit
  lic:  
  lic: FLEXlm: v8.5b 
  lic: USER:   MY                   HOSTNAME: MY-PC 
  lic: HOSTID: "22104182b4cb b0104182b4cb b083fe554343 b0104182b4cc 005056c00001
  
  lic: Using FLEXlm license file: 
  lic: 27000@localhost 
  lic: Checkout 1 hspice 
  lic: License/Maintenance for hspice will expire on 31-dec-2028/2008.120 
  lic: FLOATING license(s) on SERVER localhost 
  lic:   
 Init: read install configuration file: D:\synopsys\Hspice_C-2009.09\meta.cfg
1****** HSPICE -- C-2009.09 32-BIT (Aug 24 2009) winnt ******                   
 ******  
 .title test_cpw

  ******  circuit name directory
 circuit number to circuit name directory
   number circuitname                     definition         multiplier
        0 main circuit
        1 x1.                             cpw                1.00 



 **** List of Port Elements
Port Number     Mode        Zo       DC bias
     1         single    ( 50.0    ,0.0)    0.00    
     2         single    ( 50.0    ,0.0)    0.00    
 
      
 *****************************************************************
 ******  option summary
 ******
 runlvl  = 6         bypass  = 2         
  Opening plot unit= 79
 file=hspice_project\cpw\test_cpw.pa0                                          




 **** List of Port Elements
Port Number     Mode        Zo       DC bias
     1         single    ( 50.0    ,0.0)    0.00    
     2         single    ( 50.0    ,0.0)    0.00    
1****** HSPICE -- C-2009.09 32-BIT (Aug 24 2009) winnt ******                   
 ******  
 .title test_cpw

  ******  operating point information tnom=  25.000 temp=  27.000 *****
 ***** operating point status is all       simulation time is     0.     
    node    =voltage      node    =voltage      node    =voltage

 +0:a       =   0.      0:b       =   0.      1:np011   =   0.     
 +1:np012   =   0.      1:np013   =   0.      1:np021   =   0.     
 +1:np022   =   0.      1:np023   =   0.      1:np031   =   0.     
 +1:np032   =   0.      1:np033   =   0.      1:np041   =   0.     
 +1:np042   =   0.      1:np043   =   0.      1:np051   =   0.     
 +1:np052   =   0.      1:np053   =   0.      1:np061   =   0.     
 +1:np062   =   0.      1:np063   =   0.      1:np071   =   0.     
 +1:np072   =   0.      1:np073   =   0.      1:np081   =   0.     
 +1:np082   =   0.      1:np083   =   0.      1:np091   =   0.     
 +1:np092   =   0.      1:np093   =   0.      1:np101   =   0.     
 +1:np102   =   0.      1:np103   =   0.      1:np111   =   0.     
 +1:np112   =   0.      1:np113   =   0.      1:ns011   =   0.     
 +1:ns012   =   0.      1:ns013   =   0.      1:ns014   =   0.     
 +1:ns015   =   0.      1:ns021   =   0.      1:ns022   =   0.     
 +1:ns023   =   0.      1:ns024   =   0.      1:ns025   =   0.     
 +1:ns031   =   0.      1:ns032   =   0.      1:ns033   =   0.     
 +1:ns034   =   0.      1:ns035   =   0.      1:ns041   =   0.     
 +1:ns042   =   0.      1:ns043   =   0.      1:ns044   =   0.     
 +1:ns045   =   0.      1:ns051   =   0.      1:ns052   =   0.     
 +1:ns053   =   0.      1:ns054   =   0.      1:ns055   =   0.     
 +1:ns061   =   0.      1:ns062   =   0.      1:ns063   =   0.     
 +1:ns064   =   0.      1:ns065   =   0.      1:ns071   =   0.     
 +1:ns072   =   0.      1:ns073   =   0.      1:ns074   =   0.     
 +1:ns075   =   0.      1:ns081   =   0.      1:ns082   =   0.     
 +1:ns083   =   0.      1:ns084   =   0.      1:ns085   =   0.     
 +1:ns091   =   0.      1:ns092   =   0.      1:ns093   =   0.     
 +1:ns094   =   0.      1:ns095   =   0.      1:ns101   =   0.     
 +1:ns102   =   0.      1:ns103   =   0.      1:ns104   =   0.     


 ****  port elements

 subckt                        
 element  0:p1       0:p2      
  volts      0.         0.     
  current    0.         0.     
  power      0.         0.     


     total port element power dissipation=    0.            watts

 **** resistors

 subckt   x1         x1         x1         x1         x1         x1        
 element  1:rg010    1:rg011    1:rg012    1:rg013    1:r010     1:r011    
  r value    7.9494x   30.8495x  166.7092k  142.7622k   67.2799m    6.7839m
  v drop     0.         0.         0.         0.         0.         0.     
  current    0.         0.         0.         0.         0.         0.     
  power      0.         0.         0.         0.         0.         0.     

 subckt   x1         x1         x1         x1         x1         x1        
 element  1:r012     1:r013     1:rg020    1:rg021    1:rg022    1:rg023   
  r value  170.8562m  232.9322m    3.9747x   15.4247x   83.3546k   71.3811k
  v drop     0.         0.         0.         0.         0.         0.     
  current    0.         0.         0.         0.         0.         0.     
  power      0.         0.         0.         0.         0.         0.     

 subckt   x1         x1         x1         x1         x1         x1        
 element  1:r020     1:r021     1:r022     1:r023     1:rg030    1:rg031   
  r value   67.2799m    6.7839m  170.8562m  232.9322m    3.9747x   15.4247x
  v drop     0.         0.         0.         0.         0.         0.     
  current    0.         0.         0.         0.         0.         0.     
  power      0.         0.         0.         0.         0.         0.     

 subckt   x1         x1         x1         x1         x1         x1        
 element  1:rg032    1:rg033    1:r030     1:r031     1:r032     1:r033    
  r value   83.3546k   71.3811k   67.2799m    6.7839m  170.8562m  232.9322m
  v drop     0.         0.         0.         0.         0.         0.     
  current    0.         0.         0.         0.         0.         0.     
  power      0.         0.         0.         0.         0.         0.     

 subckt   x1         x1         x1         x1         x1         x1        
 element  1:rg040    1:rg041    1:rg042    1:rg043    1:r040     1:r041    
  r value    3.9747x   15.4247x   83.3546k   71.3811k   67.2799m    6.7839m
  v drop     0.         0.         0.         0.         0.         0.     
  current    0.         0.         0.         0.         0.         0.     
  power      0.         0.         0.         0.         0.         0.     

 subckt   x1         x1         x1         x1         x1         x1        
 element  1:r042     1:r043     1:rg050    1:rg051    1:rg052    1:rg053   
  r value  170.8562m  232.9322m    3.9747x   15.4247x   83.3546k   71.3811k
  v drop     0.         0.         0.         0.         0.         0.     
  current    0.         0.         0.         0.         0.         0.     
  power      0.         0.         0.         0.         0.         0.     

 subckt   x1         x1         x1         x1         x1         x1        
 element  1:r050     1:r051     1:r052     1:r053     1:rg060    1:rg061   
  r value   67.2799m    6.7839m  170.8562m  232.9322m    3.9747x   15.4247x
  v drop     0.         0.         0.         0.         0.         0.     
  current    0.         0.         0.         0.         0.         0.     
  power      0.         0.         0.         0.         0.         0.     

 subckt   x1         x1         x1         x1         x1         x1        
 element  1:rg062    1:rg063    1:r060     1:r061     1:r062     1:r063    
  r value   83.3546k   71.3811k   67.2799m    6.7839m  170.8562m  232.9322m
  v drop     0.         0.         0.         0.         0.         0.     
  current    0.         0.         0.         0.         0.         0.     
  power      0.         0.         0.         0.         0.         0.     

 subckt   x1         x1         x1         x1         x1         x1        
 element  1:rg070    1:rg071    1:rg072    1:rg073    1:r070     1:r071    
  r value    3.9747x   15.4247x   83.3546k   71.3811k   67.2799m    6.7839m
  v drop     0.         0.         0.         0.         0.         0.     
  current    0.         0.         0.         0.         0.         0.     
  power      0.         0.         0.         0.         0.         0.     

 subckt   x1         x1         x1         x1         x1         x1        
 element  1:r072     1:r073     1:rg080    1:rg081    1:rg082    1:rg083   
  r value  170.8562m  232.9322m    3.9747x   15.4247x   83.3546k   71.3811k
  v drop     0.         0.         0.         0.         0.         0.     
  current    0.         0.         0.         0.         0.         0.     
  power      0.         0.         0.         0.         0.         0.     

 subckt   x1         x1         x1         x1         x1         x1        
 element  1:r080     1:r081     1:r082     1:r083     1:rg090    1:rg091   
  r value   67.2799m    6.7839m  170.8562m  232.9322m    3.9747x   15.4247x
  v drop     0.         0.         0.         0.         0.         0.     
  current    0.         0.         0.         0.         0.         0.     
  power      0.         0.         0.         0.         0.         0.     

 subckt   x1         x1         x1         x1         x1         x1        
 element  1:rg092    1:rg093    1:r090     1:r091     1:r092     1:r093    
  r value   83.3546k   71.3811k   67.2799m    6.7839m  170.8562m  232.9322m
  v drop     0.         0.         0.         0.         0.         0.     
  current    0.         0.         0.         0.         0.         0.     
  power      0.         0.         0.         0.         0.         0.     

 subckt   x1         x1         x1         x1         x1         x1        
 element  1:rg100    1:rg101    1:rg102    1:rg103    1:r100     1:r101    
  r value    3.9747x   15.4247x   83.3546k   71.3811k   67.2799m    6.7839m
  v drop     0.         0.         0.         0.         0.         0.     
  current    0.         0.         0.         0.         0.         0.     
  power      0.         0.         0.         0.         0.         0.     

 subckt   x1         x1         x1         x1         x1         x1        
 element  1:r102     1:r103     1:rg110    1:rg111    1:rg112    1:rg113   
  r value  170.8562m  232.9322m    7.9494x   30.8495x  166.7092k  142.7622k
  v drop     0.         0.         0.         0.         0.         0.     
  current    0.         0.         0.         0.         0.         0.     
  power      0.         0.         0.         0.         0.         0.     

 ******  
 .title test_cpw

  ******  ac analysis tnom=  25.000 temp=  27.000 *****
x

        freq    s11          s11          s21          s21        
                   real         imag         real         imag    
  500.00000x      6.7460m     -1.0287m    993.0578m     -8.7228m  
    1.00000g      6.9249m     -2.2554m    992.6783m    -17.2308m  
    1.50000g      7.0197m     -3.5720m    992.2614m    -25.6307m  
    2.00000g      7.0466m     -4.9016m    991.7929m    -33.9974m  
    2.50000g      7.0324m     -6.2243m    991.2485m    -42.3463m  
    3.00000g      6.9926m     -7.5376m    990.6165m    -50.6758m  
    3.50000g      6.9351m     -8.8429m    989.8931m    -58.9814m  
    4.00000g      6.8647m    -10.1423m    989.0782m    -67.2585m  
    4.50000g      6.7840m    -11.4378m    988.1737m    -75.5038m  
    5.00000g      6.6945m    -12.7316m    987.1822m    -83.7144m  
    5.50000g      6.5971m    -14.0255m    986.1067m    -91.8886m  
    6.00000g      6.4921m    -15.3213m    984.9504m   -100.0249m  
    6.50000g      6.3792m    -16.6205m    983.7162m   -108.1226m  
    7.00000g      6.2580m    -17.9248m    982.4071m   -116.1813m  
    7.50000g      6.1276m    -19.2352m    981.0257m   -124.2009m  
    8.00000g      5.9870m    -20.5528m    979.5745m   -132.1814m  
    8.50000g      5.8352m    -21.8782m    978.0557m   -140.1231m  
    9.00000g      5.6708m    -23.2122m    976.4715m   -148.0265m  
    9.50000g      5.4925m    -24.5549m    974.8236m   -155.8920m  
   10.00000g      5.2991m    -25.9064m    973.1137m   -163.7202m  
   10.50000g      5.0891m    -27.2668m    971.3433m   -171.5117m  
   11.00000g      4.8614m    -28.6356m    969.5138m   -179.2671m  
   11.50000g      4.6148m    -30.0126m    967.6263m   -186.9869m  
   12.00000g      4.3482m    -31.3971m    965.6819m   -194.6719m  
   12.50000g      4.0605m    -32.7884m    963.6815m   -202.3226m  
   13.00000g      3.7508m    -34.1859m    961.6261m   -209.9396m  
   13.50000g      3.4182m    -35.5888m    959.5162m   -217.5234m  
   14.00000g      3.0621m    -36.9960m    957.3526m   -225.0746m  
   14.50000g      2.6819m    -38.4068m    955.1358m   -232.5936m  
   15.00000g      2.2769m    -39.8202m    952.8662m   -240.0809m  
   15.50000g      1.8468m    -41.2351m    950.5444m   -247.5369m  
   16.00000g      1.3911m    -42.6507m    948.1708m   -254.9620m  
   16.50000g    909.6461u    -44.0659m    945.7455m   -262.3564m  
   17.00000g    402.1729u    -45.4798m    943.2689m   -269.7205m  
   17.50000g   -131.4401u    -46.8915m    940.7412m   -277.0546m  
   18.00000g   -691.2628u    -48.2999m    938.1627m   -284.3588m  
   18.50000g     -1.2773m    -49.7042m    935.5336m   -291.6332m  
   19.00000g     -1.8895m    -51.1034m    932.8539m   -298.8781m  
   19.50000g     -2.5278m    -52.4968m    930.1238m   -306.0934m  
   20.00000g     -3.1921m    -53.8834m    927.3435m   -313.2793m  
   20.50000g     -3.8822m    -55.2625m    924.5130m   -320.4358m  
   21.00000g     -4.5978m    -56.6332m    921.6326m   -327.5628m  
   21.50000g     -5.3388m    -57.9948m    918.7021m   -334.6603m  
   22.00000g     -6.1048m    -59.3467m    915.7219m   -341.7283m  
   22.50000g     -6.8957m    -60.6880m    912.6919m   -348.7666m  
   23.00000g     -7.7110m    -62.0182m    909.6123m   -355.7751m  
   23.50000g     -8.5505m    -63.3365m    906.4832m   -362.7538m  
   24.00000g     -9.4138m    -64.6424m    903.3046m   -369.7023m  
   24.50000g    -10.3006m    -65.9353m    900.0766m   -376.6205m  
   25.00000g    -11.2104m    -67.2146m    896.7995m   -383.5082m  
   25.50000g    -12.1430m    -68.4798m    893.4732m   -390.3653m  
   26.00000g    -13.0978m    -69.7304m    890.0980m   -397.1914m  
   26.50000g    -14.0746m    -70.9658m    886.6739m   -403.9863m  
   27.00000g    -15.0729m    -72.1857m    883.2011m   -410.7497m  
   27.50000g    -16.0924m    -73.3895m    879.6798m   -417.4814m  
   28.00000g    -17.1325m    -74.5768m    876.1100m   -424.1810m  
   28.50000g    -18.1929m    -75.7472m    872.4920m   -430.8484m  
   29.00000g    -19.2732m    -76.9004m    868.8260m   -437.4831m  
   29.50000g    -20.3729m    -78.0359m    865.1121m   -444.0849m  
   30.00000g    -21.4916m    -79.1533m    861.3505m   -450.6535m  
   30.50000g    -22.6290m    -80.2524m    857.5415m   -457.1885m  
   31.00000g    -23.7845m    -81.3329m    853.6851m   -463.6897m  
   31.50000g    -24.9577m    -82.3943m    849.7818m   -470.1566m  
   32.00000g    -26.1483m    -83.4364m    845.8316m   -476.5890m  
   32.50000g    -27.3557m    -84.4588m    841.8349m   -482.9865m  
   33.00000g    -28.5796m    -85.4615m    837.7918m   -489.3489m  
   33.50000g    -29.8196m    -86.4439m    833.7027m   -495.6757m  
   34.00000g    -31.0751m    -87.4060m    829.5677m   -501.9666m  
   34.50000g    -32.3458m    -88.3474m    825.3872m   -508.2214m  
   35.00000g    -33.6313m    -89.2680m    821.1615m   -514.4396m  
   35.50000g    -34.9311m    -90.1675m    816.8908m   -520.6210m  
   36.00000g    -36.2449m    -91.0457m    812.5753m   -526.7652m  
   36.50000g    -37.5721m    -91.9024m    808.2156m   -532.8719m  
   37.00000g    -38.9123m    -92.7374m    803.8117m   -538.9408m  
   37.50000g    -40.2652m    -93.5505m    799.3641m   -544.9715m  
   38.00000g    -41.6303m    -94.3416m    794.8730m   -550.9638m  
   38.50000g    -43.0072m    -95.1105m    790.3388m   -556.9173m  
   39.00000g    -44.3955m    -95.8570m    785.7618m   -562.8316m  
   39.50000g    -45.7948m    -96.5811m    781.1424m   -568.7066m  
   40.00000g    -47.2046m    -97.2825m    776.4808m   -574.5418m  
   40.50000g    -48.6245m    -97.9611m    771.7775m   -580.3370m  
   41.00000g    -50.0542m    -98.6168m    767.0328m   -586.0920m  
   41.50000g    -51.4931m    -99.2495m    762.2469m   -591.8063m  
   42.00000g    -52.9410m    -99.8591m    757.4204m   -597.4797m  
   42.50000g    -54.3973m   -100.4454m    752.5535m   -603.1119m  
   43.00000g    -55.8617m   -101.0085m    747.6467m   -608.7027m  
   43.50000g    -57.3337m   -101.5481m    742.7002m   -614.2518m  
   44.00000g    -58.8130m   -102.0642m    737.7145m   -619.7588m  
   44.50000g    -60.2992m   -102.5568m    732.6900m   -625.2236m  
   45.00000g    -61.7918m   -103.0258m    727.6269m   -630.6458m  
   45.50000g    -63.2905m   -103.4711m    722.5258m   -636.0253m  
   46.00000g    -64.7947m   -103.8926m    717.3869m   -641.3617m  
   46.50000g    -66.3043m   -104.2904m    712.2107m   -646.6549m  
   47.00000g    -67.8186m   -104.6643m    706.9976m   -651.9045m  
   47.50000g    -69.3375m   -105.0144m    701.7479m   -657.1104m  
   48.00000g    -70.8603m   -105.3406m    696.4621m   -662.2722m  
   48.50000g    -72.3868m   -105.6429m    691.1405m   -667.3899m  
   49.00000g    -73.9166m   -105.9212m    685.7836m   -672.4631m  
   49.50000g    -75.4492m   -106.1757m    680.3917m   -677.4917m  
   50.00000g    -76.9844m   -106.4062m    674.9652m   -682.4754m  
   50.50000g    -78.5216m   -106.6127m    669.5046m   -687.4140m  
   51.00000g    -80.0605m   -106.7953m    664.0102m   -692.3073m  
   51.50000g    -81.6007m   -106.9541m    658.4824m   -697.1552m  
   52.00000g    -83.1419m   -107.0889m    652.9217m   -701.9574m  
   52.50000g    -84.6836m   -107.1998m    647.3285m   -706.7138m  
   53.00000g    -86.2255m   -107.2870m    641.7031m   -711.4241m  
   53.50000g    -87.7672m   -107.3503m    636.0460m   -716.0883m  
   54.00000g    -89.3083m   -107.3898m    630.3575m   -720.7060m  
   54.50000g    -90.8484m   -107.4057m    624.6382m   -725.2772m  
   55.00000g    -92.3873m   -107.3979m    618.8883m   -729.8017m  
   55.50000g    -93.9244m   -107.3664m    613.1083m   -734.2793m  
   56.00000g    -95.4595m   -107.3115m    607.2985m   -738.7099m  
   56.50000g    -96.9921m   -107.2331m    601.4595m   -743.0934m  
   57.00000g    -98.5220m   -107.1313m    595.5916m   -747.4295m  
   57.50000g   -100.0487m   -107.0061m    589.6952m   -751.7181m  
   58.00000g   -101.5719m   -106.8578m    583.7708m   -755.9592m  
   58.50000g   -103.0912m   -106.6863m    577.8186m   -760.1526m  
   59.00000g   -104.6063m   -106.4917m    571.8392m   -764.2981m  
   59.50000g   -106.1169m   -106.2742m    565.8329m   -768.3956m  
   60.00000g   -107.6225m   -106.0339m    559.8002m   -772.4450m  
   60.50000g   -109.1229m   -105.7708m    553.7413m   -776.4463m  
   61.00000g   -110.6176m   -105.4851m    547.6568m   -780.3992m  
   61.50000g   -112.1064m   -105.1769m    541.5471m   -784.3037m  
   62.00000g   -113.5889m   -104.8463m    535.4125m   -788.1597m  
   62.50000g   -115.0648m   -104.4935m    529.2534m   -791.9670m  
   63.00000g   -116.5337m   -104.1185m    523.0702m   -795.7257m  
   63.50000g   -117.9954m   -103.7216m    516.8634m   -799.4355m  
   64.00000g   -119.4494m   -103.3028m    510.6333m   -803.0964m  
   64.50000g   -120.8955m   -102.8624m    504.3803m   -806.7084m  
   65.00000g   -122.3334m   -102.4004m    498.1048m   -810.2713m  
   65.50000g   -123.7626m   -101.9170m    491.8072m   -813.7850m  
   66.00000g   -125.1830m   -101.4124m    485.4879m   -817.2496m  
   66.50000g   -126.5942m   -100.8867m    479.1472m   -820.6649m  
