"Freq [GHz]","re(St(P1,P1)) []","im(St(P1,P1)) []","re(St(P1,P2)) []","im(St(P1,P2)) []","re(St(P2,P1)) []","im(St(P2,P1)) []","re(St(P2,P2)) []","im(St(P2,P2)) []"
0,0.00537824880882454,0,0.99463499923877,0,0.994634997230605,0,0.00537825050633955,0
0.5,0.00581606385894773,0.00129004409275169,0.994154349393789,-0.00554238305815247,0.9941543495278,-0.00554238448954081,0.00581597701717484,0.00129084227813436
1,0.00622243307996229,0.00204110031743454,0.993653656475498,-0.0105376119991476,0.993653656486913,-0.0105376119959431,0.00622234848282588,0.0020429468557559
1.5,0.0064680547746292,0.0026526856756206,0.993228717773338,-0.0155806724799916,0.993228717785016,-0.0155806724764957,0.00646833463801499,0.0026559165405402
2,0.00661045636235613,0.00326330094336669,0.99278578378089,-0.0204825720207786,0.992785783791993,-0.0204825720173645,0.0066113776246457,0.00326780977501429
2.5,0.00670995664110396,0.00389347156585096,0.992360404195857,-0.0252888111367504,0.992360404205692,-0.0252888111333771,0.00671172179427781,0.00389919695391683
3,0.00679297550314484,0.00454076388069957,0.99195779295399,-0.0300372296293521,0.991957792962114,-0.0300372296258669,0.00679577301943279,0.0045476674771372
3.5,0.00687132992621953,0.00520071997025973,0.991570286168898,-0.0347518613912108,0.991570286175055,-0.0347518613874822,0.00687534642151366,0.00520877201960168
4,0.00695074386657968,0.00586987271501727,0.991187114063603,-0.039445930758566,0.991187114067653,-0.0394459307545372,0.00695616660328735,0.0058790458279212
4.5,0.00703422404263065,0.0065458120412476,0.990798257035056,-0.0441259480930114,0.990798257036913,-0.0441259480886913,0.00704124145781648,0.00655607846018036
5,0.00712347003820191,0.00722688789121406,0.990395475702888,-0.04879467523706,0.990395475702497,-0.048794675232509,0.00713227186366794,0.0072382181795323
5.5,0.00721950841052155,0.00791195905686592,0.989972291667193,-0.0534529157542893,0.989972291664517,-0.0534529157495953,0.00723028572347872,0.00792432139959764
6,0.00732299871475472,0.00860022254172588,0.989523679274926,-0.0581005146673235,0.989523679269943,-0.0581005146626064,0.0073359439909586,0.00861358232587417
6.5,0.0074343907229949,0.0092911027800584,0.989045739325681,-0.06273689378735,0.989045739318376,-0.0627368937827306,0.00744969790356287,0.00930542230940912
7,0.00755400969761599,0.00998417981662936,0.988535430491912,-0.0673613287898487,0.988535430482278,-0.0673613287854593,0.00757187426767358,0.00999941809304605
7.5,0.00768210486626986,0.0106791421190842,0.987990366361673,-0.0719730861573362,0.98799036634971,-0.0719730861532977,0.00770272394168603,0.0106952546565413
8,0.00781887812697424,0.0113757549953917,0.987408666762059,-0.0765714851621464,0.987408666747776,-0.0765714851585875,0.00784245054599064,0.0113926936488076
8.5,0.00796450166534124,0.0120738390289539,0.986788849470947,-0.0811559203935825,0.986788849454357,-0.0811559203906178,0.0079912280827078,0.0120915518279938
9,0.00811912911402901,0.0127732550568327,0.986129750687306,-0.0857258641259975,0.986129750668429,-0.0857258641237362,0.00814921209592634,0.0127916860387636
9.5,0.00828290282374389,0.013473893500672,0.985430465641314,-0.090280859015647,0.985430465620174,-0.0902808590141886,0.00831654694223016,0.013492982538752
10,0.00845595872259169,0.0141756666461923,0.984690303291095,-0.094820506803921,0.984690303267718,-0.0948205068033605,0.00849337064859967,0.0141953492712306
10.5,0.00864913547987631,0.0148572943121446,0.984001961075984,-0.099416663061489,0.984001961052396,-0.0994166630605422,0.00868946626216671,0.0148780296215429
11,0.00885090847347134,0.0155350977256123,0.983290126958195,-0.103996707140054,0.983290126934426,-0.103996707138704,0.00889432553759179,0.0155568869735916
11.5,0.00906116737581025,0.016208928917973,0.982555652117138,-0.108560769201541,0.982555652093217,-0.108560769199767,0.00910784106559337,0.0162317714971598
12,0.00927979843898485,0.0168786442122588,0.981799338784998,-0.11310902938313,0.981799338760956,-0.113109029380919,0.0093299020135211,0.016902537437022
12.5,0.0095066846959636,0.0175441043193918,0.981021938416902,-0.117641710995987,0.981021938392771,-0.117641710993323,0.00956039431192043,0.0175690432096731
13,0.00974170616434538,0.018205174423696,0.980224150667538,-0.122159073955578,0.98022415064335,-0.122159073952457,0.00979920084380449,0.0182311514903373
13.5,0.00998474005201196,0.0188617242576057,0.979406623088437,-0.126661408520804,0.979406623064225,-0.126661408517217,0.01004620163605,0.0188887292901612
14,0.0102356609640489,0.0195136281656909,0.978569951457347,-0.131149029401222,0.978569951433142,-0.131149029397168,0.0103012740523724,0.0195416480236541
14.5,0.0104943411103322,0.020160765158022,0.977714680651122,-0.135622270275455,0.977714680626957,-0.135622270270935,0.0105642929873299,0.0201897835663813
15,0.0107606505131632,0.0208030189529644,0.976841305975874,-0.14008147874894,0.976841305951777,-0.140081478743954,0.0108351310608087,0.0208330163029755
15.5,0.011034457214385,0.0214402780096274,0.975950274872257,-0.144527011766184,0.975950274848257,-0.144527011760738,0.011113658812469,0.0214712311656067
16,0.0113156274814057,0.0220724355500335,0.97504198891922,-0.148959231481595,0.975041988895345,-0.148959231475698,0.0113997448956398,0.0221043176629743
16.5,0.0116040260115927,0.0226993895713363,0.974116806065948,-0.153378501583497,0.974116806042226,-0.153378501577156,0.0116932562701612,0.022732169900078
17,0.0118995161345066,0.0233210428482402,0.973175043028643,-0.1577851840585,0.973175043005098,-0.157785184051726,0.0119940583937031,0.023354686588859
17.5,0.0122019600114917,0.0239373029259404,0.972216977795978,-0.162179636377433,0.972216977772633,-0.162179636370238,0.0123020154110954,0.0239717710500025
18,0.0125112188321356,0.0245480821038573,0.971242852194248,-0.1665622090796,0.971242852171126,-0.166562209071999,0.0126169903412396,0.0245833312060895
18.5,0.0128271530071764,0.0251532974104949,0.970252874470172,-0.170933243729062,0.970252874447293,-0.170933243721068,0.0129388452611728,0.0251892795663942
19,0.0131496223574149,0.0257528705697578,0.969247221855942,-0.175293071214613,0.969247221833327,-0.175293071206243,0.0132674414869141,0.0257895332035876
19.5,0.0134784862982695,0.0263467279590754,0.968226043087256,-0.179642010364198,0.968226043064919,-0.179642010355469,0.0136026397506974,0.0263840137226348
20,0.013813604019597,0.0269348005597294,0.967189460850679,-0.183980366844208,0.967189460828637,-0.183980366835135,0.0139443003742722,0.0269726472222369
20.5,0.0141548346604643,0.0275170238997506,0.966137574141777,-0.188308432314606,0.966137574120044,-0.188308432305206,0.0142922834379319,0.027555364249114
21,0.0145020374785677,0.0280933379898021,0.96507046051992,-0.192626483811702,0.965070460498509,-0.192626483801996,0.0146464489449941,0.0281320997454784
21.5,0.0148550720140246,0.0286636872524375,0.963988178249592,-0.19693478333173,0.963988178228514,-0.196934783321733,0.0150066569814494,0.0287027929900581
22,0.0152137982473207,0.0292280204451747,0.962890768321435,-0.201233577589902,0.962890768300699,-0.201233577579634,0.0153727678705511,0.0292673875330109
22.5,0.015578076751176,0.0297862905777793,0.961778256349113,-0.205523097931412,0.961778256328729,-0.20552309792089,0.015744642322117,0.029825831125124
23,0.015947768836176,0.0303384548242054,0.960650654340502,-0.209803560372648,0.960650654320475,-0.209803560361891,0.0161221415763582,0.0303780756416312
23.5,0.0163227366899993,0.0308844744295953,0.959507962343677,-0.214075165752779,0.959507962324014,-0.214075165741805,0.016505127542069,0.0309240770010497
24,0.016702843510129,0.0314243146127866,0.958350169969789,-0.218338099977726,0.958350169950495,-0.218338099966551,0.016893462929037,0.0314637950794134
24.5,0.0170879536299489,0.0319579444647082,0.957177257796166,-0.222592534340402,0.957177257777244,-0.222592534329044,0.0172870113745489,0.0319971936202328
25,0.0174779326381579,0.0324853368431381,0.955989198653958,-0.226838625902746,0.955989198635411,-0.226838625891223,0.0176856375639116,0.0325242401406269
25.5,0.017872647491451,0.0330064682641666,0.954785958805367,-0.231076517926864,0.954785958787196,-0.231076517915192,0.0180892073449056,0.0330449058339206
26,0.0182719666204553,0.0335213187908172,0.953567499015993,-0.235306340344015,0.953567498998201,-0.235306340332209,0.0184975878361268,0.0335591654691174
26.5,0.0186757600289235,0.0340298719192054,0.952333775528192,-0.239528210251643,0.952333775510777,-0.239528210239721,0.0189106475291886,0.0340669972876027
27,0.0190838993862009,0.0345321144625874,0.951084740941447,-0.243742232430042,0.951084740924409,-0.243742232418017,0.0193282563847774,0.0345683828973999
27.5,0.019496258113022,0.0350280364337388,0.949820345005909,-0.247948499871259,0.949820344989247,-0.247948499859146,0.0197502859225698,0.0350633071653652
28,0.0199127114606941,0.035517630925936,0.948540535335119,-0.252147094314129,0.94854053531883,-0.252147094301943,0.0201766093050438,0.0355517581076079
28.5,0.0203331365837526,0.0360008939929712,0.947245258043873,-0.256338086780102,0.947245258027955,-0.256338086767856,0.0206071014152309,0.0360337267785098
29,0.0207574126061901,0.0364778245284785,0.945934458316987,-0.260521538105513,0.945934458301438,-0.260521538093221,0.0210416389284703,0.0365092071586171
29.5,0.0211854206813656,0.036948424144909,0.944608080914489,-0.264697499466669,0.944608080899304,-0.264697499454342,0.021480100378241,0.0369781960417239
30,0.0216170440457336,0.0374126970524677,0.943266070618515,-0.268866012894734,0.943266070603691,-0.268866012882386,0.0219223662161717,0.0374406929214477
30.5,0.0220521680665221,0.0378706499382913,0.94190837262692,-0.273027111778102,0.941908372612452,-0.273027111765743,0.0223683188663223,0.0378966998775581
31,0.0224906802835245,0.0383222918461434,0.940534932898295,-0.277180821350331,0.940534932884178,-0.277180821337974,0.02281784277386,0.0383462214623329
31.5,0.0229324704451521,0.038767634056891,0.939145698452824,-0.281327159162242,0.939145698439053,-0.281327159149895,0.0232708244482543,0.0387892645871979
32,0.0233774305389415,0.0392066899700005,0.937740617633078,-0.28546613553711,0.937740617619648,-0.285466135524784,0.0237271525011293,0.039225838409882
32.5,0.0238254548166703,0.039639474986285,0.93631964032859,-0.289597754008234,0.936319640315496,-0.289597753995939,0.0241867176789127,0.03965595422233
33,0.0242764398142881,0.0400660063921112,0.934882718167737,-0.293722011738425,0.934882718154974,-0.29372201172617,0.024649412890443,0.0400796253395563
33.5,0.0247302843668421,0.0404863032452698,0.933429804680204,-0.297838899921182,0.933429804667765,-0.297838899908975,0.0251151332296821,0.0404968669896846
34,0.0251868896185986,0.0409003862626776,0.93196085543303,-0.30194840416354,0.93196085542091,-0.301948404151389,0.025583775993709,0.0409076962053103
34.5,0.0256461590285578,0.0413082777100977,0.930475828143006,-0.306050504850704,0.930475828131198,-0.306050504838617,0.0260552406961549,0.041312131716402
35,0.0261079983715647,0.0417100012940121,0.928974682767923,-0.310145177492733,0.928974682756421,-0.310145177480716,0.0265294290762608,0.0417101938448774
35.5,0.0265723157352169,0.0421055820557918,0.927457381578994,-0.314232393053641,0.927457381567793,-0.314232393041703,0.0270062451037206,0.0421019044010036
36,0.0270390215127772,0.0424950462682874,0.925923889216536,-0.318312118263354,0.925923889205629,-0.318312118251499,0.0274855949795059,0.0424872865817763
36.5,0.0275080283922923,0.0428784213349502,0.924374172730812,-0.322384315913035,0.924374172720192,-0.322384315901271,0.0279673871328324,0.0428663648713628
37,0.0279792513421228,0.0432557356915848,0.922808201609771,-0.326448945134338,0.922808201599433,-0.32644894512267,0.0284515322144644,0.0432391649437724
37.5,0.0284526075930829,0.0436270187108001,0.921225947795237,-0.330505961663193,0.921225947785173,-0.330505961651625,0.0289379430865251,0.043605713567793
38,0.0289280166173929,0.0439923006092637,0.919627385688965,-0.334555318088708,0.91962738567917,-0.334555318077246,0.0294265348090005,0.0439660385143372
38.5,0.0294054001046408,0.0443516123577865,0.918012492149842,-0.338596964087865,0.91801249214031,-0.338596964076514,0.0299172246231114,0.044320168466238
39,0.0298846819349466,0.044704985594306,0.916381246483361,-0.342630846646605,0.916381246474086,-0.342630846635368,0.030409931931731,0.0446681329305749
39.5,0.0303657881495173,0.0450524525398099,0.914733630424417,-0.346656910267958,0.914733630415391,-0.34665691025684,0.0309045782770228,0.04500996215359
40,0.0308486469187822,0.0453940459172089,0.913069628114332,-0.350675097167852,0.91306962810555,-0.350675097156855,0.0314010873154695,0.0453456870382307
40.5,0.0313331885082906,0.0457297988732155,0.911389226072948,-0.354685347459192,0.911389226064405,-0.35468534744832,0.0318993847904675,0.0456753390643703
41,0.0318193452425442,0.0460597449031934,0.909692413166524,-0.358687599324855,0.909692413158212,-0.358687599314113,0.0323993985026417,0.0459989502117202
41.5,0.0323070514669386,0.0463839177790268,0.907979180572075,-0.362681789180151,0.907979180563988,-0.36268178916954,0.0329010582780557,0.0463165528854748
42,0.0327962435079869,0.0467023514799663,0.906249521738775,-0.366667851825339,0.906249521730909,-0.366667851814862,0.0334042959344646,0.0466281798446824
42.5,0.0332868596319737,0.0470150801264706,0.904503432346921,-0.370645720588742,0.90450343233927,-0.3706457205784,0.0339090452457716,0.046933864133361
43,0.0337788400022101,0.0473221379170061,0.902740910264917,-0.374615327460982,0.902740910257474,-0.374615327450779,0.0344152419048345,0.0472336390143597
43.5,0.0342721266350264,0.0476235590677847,0.900961955504704,-0.378576603220863,0.900961955497464,-0.3785766032108,0.0349228234847671,0.047527537905951
44,0.0347666633546539,0.047919377755413,0.899166570175978,-0.382529477553346,0.899166570168936,-0.382529477543424,0.035431729398878,0.04781559432114
44.5,0.0352623957471412,0.0482096280624196,0.897354758439534,-0.386473879160113,0.897354758432684,-0.386473879150334,0.0359419008593799,0.0480978418096936
45,0.0357592711134129,0.0484943439256104,0.89552652645999,-0.390409735863138,0.895526526453328,-0.390409735853503,0.0364532808350006,0.048374313902833
45.5,0.0362572384216319,0.0487735590872223,0.893681882358155,-0.394336974701687,0.893681882351674,-0.394336974692199,0.036965814007624,0.0486450440605919
46,0.0367562482589571,0.0490473070488124,0.891820836163241,-0.398255522023145,0.891820836156936,-0.398255522013803,0.0374794467280762,0.0489100656217903
46.5,0.0372562527828251,0.049315621027846,0.889943399765113,-0.402165303568027,0.889943399758979,-0.402165303558832,0.0379941269711791,0.0491694117565968
47,0.0377572056718619,0.0495785339169181,0.888049586866724,-0.406066244549557,0.888049586860758,-0.40606624454051,0.0385098042901751,0.049423115421635
47.5,0.0382590620765332,0.0498360782455575,0.886139412936892,-0.409958269728113,0.886139412931088,-0.409958269719215,0.0390264297706355,0.0496712093175955
48,0.0387617785696189,0.0500882861445577,0.884212895163513,-0.413841303480882,0.884212895157867,-0.413841303472132,0.0395439559839467,0.0499137258493086
48.5,0.0392653130966198,0.0503351893127609,0.882270052407325,-0.417715269867,0.882270052401832,-0.417715269858399,0.0400623369404768,0.0501506970882257
49,0.0397696249261691,0.0505768189862493,0.880310905156306,-0.421580092688475,0.880310905150961,-0.421580092680023,0.0405815280425038,0.0503821547372588
49.5,0.040274674600546,0.0508132059098707,0.878335475480773,-0.425435695547139,0.878335475475572,-0.425435695538837,0.0411014860370056,0.0506081300979397
50,0.0407804238863476,0.0510443803110285,0.876343786989235,-0.42928200189789,0.876343786984174,-0.429282001889737,0.0416221689683788,0.0508286540398252
50.5,0.0412868357254172,0.0512703718756887,0.874335864785064,-0.433118935098444,0.87433586478014,-0.43311893509044,0.0421435361311727,0.0510437569721094
51,0.0417938741860696,0.0514912097265183,0.872311735423999,-0.436946418455827,0.872311735419206,-0.436946418447971,0.0426655480229095,0.0512534688173828
51.5,0.0423015044146955,0.0517069224030996,0.870271426872526,-0.440764375269801,0.870271426867862,-0.440764375262093,0.0431881662970546,0.0514578189874779
52,0.042809692587794,0.0519175378441518,0.868214968467161,-0.444572728873425,0.868214968462621,-0.444572728865864,0.0437113537162055,0.0516568363613489
52.5,0.0433184058644886,0.0521230833716986,0.86614239087463,-0.44837140267092,0.86614239087021,-0.448371402663507,0.0442350741055621,0.0518505492649259
53,0.0438276123395762,0.0523235856771022,0.864053726052977,-0.452160320173027,0.864053726048675,-0.45216032016576,0.0447592923067228,0.052038985452888
53.5,0.0443372809971552,0.0525190708089104,0.861949007213597,-0.455939405029988,0.861949007209408,-0.455939405022867,0.0452839741318721,0.0522221720922874
54,0.0448473816648779,0.0527095641624579,0.859828268784184,-0.459708581062322,0.859828268780106,-0.459708581055346,0.0458090863184015,0.0524001357479863
54.5,0.0453578849688571,0.0528950904711327,0.857691546372613,-0.463467772289524,0.857691546368643,-0.463467772282691,0.046334596484008,0.0525729023698253
55,0.045868762289272,0.0530756737992718,0.855538876731725,-0.467216902956818,0.855538876727857,-0.467216902950128,0.0468604730823154,0.0527404972814849
55.5,0.046379985716697,0.0532513375366089,0.853370297725021,-0.47095589756009,0.853370297721255,-0.470955897553543,0.0473866853590565,0.0529029451709727
56,0.0468915280091886,0.053422104394214,0.851185848293257,-0.474684680869108,0.851185848289589,-0.474684680862702,0.0479132033088469,0.0530602700826827
56.5,0.0474033625501485,0.0535879964018671,0.848985568421906,-0.478403177949138,0.848985568418333,-0.478403177942873,0.0484399976325894,0.0532124954109697
57,0.0479154633069952,0.05374903490681,0.846769499109497,-0.482111314181063,0.846769499106016,-0.482111314174937,0.0489670396955366,0.0533596438951931
57.5,0.0484278047906542,0.05390524057381,0.844537682336799,-0.485809015280087,0.844537682333407,-0.485809015274099,0.0494943014860355,0.0535017376161552
58,0.048940362015895,0.0540566333864853,0.842290161036831,-0.489496207313115,0.842290161033526,-0.489496207307264,0.0500217555749814,0.053638797993905
58.5,0.0494531104625205,0.0542032326498343,0.840026979065699,-0.493172816714902,0.840026979062479,-0.493172816709187,0.0505493750760042,0.0537708457868372
59,0.0499660260374292,0.0543450569939203,0.837748181174216,-0.496838770303021,0.837748181171077,-0.49683877029744,0.051077133606406,0.0538979010920482
59.5,0.0504790850375595,0.054482124378649,0.835453812980303,-0.500493995291756,0.835453812977244,-0.500493995286309,0.0516050052488637,0.0540199833468826
60,0.0509922641137249,0.0546144520995933,0.833143920942143,-0.504138419304956,0.833143920939162,-0.50413841929964,0.0521329645139213,0.054137111331644
60.5,0.0515055402353437,0.054742056794819,0.830818552332079,-0.507771970387931,0.830818552329172,-0.507771970382746,0.0526609863032743,0.0542493031733948
61,0.0520188906560817,0.0548649544526618,0.828477755211217,-0.511394577018439,0.828477755208384,-0.511394577013384,0.0531890458738702,0.054356576350828
61.5,0.0525322928803956,0.0549831604203956,0.826121578404736,-0.515006168116831,0.826121578401974,-0.515006168111904,0.0537171188028231,0.0544589477001347
62,0.0530457246309946,0.0550966894137727,0.823750071477871,-0.518606673055381,0.823750071475177,-0.51860667305058,0.0542451809531629,0.0545564334218511
62.5,0.0535591638172105,0.0552055555273631,0.821363284712548,-0.522196021666884,0.821363284709922,-0.522196021662209,0.0547732084404167,0.0546490490886162
63,0.0540725885042871,0.0553097722456755,0.818961269084671,-0.52577414425253,0.81896126908211,-0.525774144247978,0.0553011776000349,0.0547368096538241
63.5,0.0545859768835784,0.0554093524549975,0.816544076242014,-0.529340971589123,0.816544076239517,-0.529340971584694,0.055829064955663,0.0548197294611016
64,0.0550993072436616,0.0555043084559316,0.814111758482722,-0.532896434935674,0.814111758480288,-0.532896434931367,0.0563568471882644,0.0548978222545984
