"Freq [GHz]","re(St(P1,P1)) []","im(St(P1,P1)) []","re(St(P1,P2)) []","im(St(P1,P2)) []","re(St(P2,P1)) []","im(St(P2,P1)) []","re(St(P2,P2)) []","im(St(P2,P2)) []"
0,0.00837554094186999,0,0.991646021779161,0,0.991646025911905,0,0.00837554387771888,0
0.5,0.00936037466836126,-0.00303467768411814,0.990546191004007,-0.0109777527079693,0.990546190264027,-0.0109777536614768,0.00936072698202395,-0.00303529075440068
1,0.0100150333046614,-0.00723174200537002,0.989571483896924,-0.0207951840294847,0.989571483593263,-0.0207951839909715,0.0100160372124556,-0.0072333458493965
1.5,0.010317764069141,-0.0115962329540622,0.988749134271595,-0.0304321804134986,0.988749134092247,-0.0304321802688392,0.0103196025251506,-0.0115989488837247
2,0.0103550479052696,-0.0159899211564394,0.987991751918138,-0.0400190373076477,0.987991751837779,-0.0400190371757958,0.010357813149346,-0.0159939239260716
2.5,0.010230755702203,-0.0203638473088361,0.987197198017254,-0.0496050240938946,0.987197197984983,-0.0496050240055936,0.0102345450033878,-0.0203692383210132
3,0.00999172098050671,-0.0247179861532185,0.986318749831101,-0.0591874743230658,0.986318749814004,-0.0591874742753031,0.00999664435455205,-0.0247248479961968
3.5,0.00965784923750235,-0.0290581210806629,0.985337087142733,-0.0687568468266022,0.98533708712439,-0.0687568468073003,0.00966401952081064,-0.0290665322539283
4,0.00923764663253523,-0.0333884370325386,0.984244808384393,-0.0783050328915529,0.984244808359011,-0.0783050328884087,0.00924517437253103,-0.0333984739954438
4.5,0.00873477581116822,-0.037710961278691,0.983039686282037,-0.0878262245864825,0.983039686249864,-0.0878262245899322,0.00874376814109734,-0.0377226979215646
5,0.00815085445402763,-0.0420261170193443,0.981721707772854,-0.097316448559793,0.981721707737052,-0.097316448563654,0.00816141577892759,-0.0420396242541861
5.5,0.00748668472846381,-0.0463332987783334,0.980291731376933,-0.106772990640493,0.980291731341524,-0.106772990641641,0.0074989179380176,-0.0463486447237349
6,0.006742795472368,-0.0506312979689794,0.978750873450215,-0.116193934481589,0.978750873418817,-0.116193934479282,0.00675680307976156,-0.0506485486090957
6.5,0.00591967132146221,-0.0549185871539866,0.977100240311552,-0.125577829672184,0.977100240286669,-0.12557782966727,0.00593555630786491,-0.054937807249881
7,0.0050178375028096,-0.0591934992242553,0.975340829001239,-0.134923465571964,0.975340828983957,-0.134923465566146,0.00503570383465046,-0.0592147532950715
7.5,0.0040378798012467,-0.0634543344136311,0.973473509388164,-0.144229724197141,0.973473509378097,-0.144229724192352,0.00405783266672366,-0.063477687670745
8,0.00298043784751534,-0.0676994199394185,0.971499042934445,-0.153495489761662,0.971499042929852,-0.153495489759563,0.00300258368204598,-0.0677249391126598
8.5,0.00184618979607953,-0.0719271396985377,0.969418115028303,-0.162719597516555,0.969418115026292,-0.162719597518188,0.00187063616357608,-0.0719548937322969
9,0.000635836497492881,-0.0761359457955111,0.967231369271736,-0.171900808957282,0.967231369268509,-0.171900808962812,0.000662691881791022,-0.076166006415523
9.5,-0.000649911650437762,-0.0803243596089551,0.964939438326319,-0.181037804051051,0.964939438317428,-0.18103780405963,-0.000620538103952961,-0.0803568017724707
10,-0.00201034433695746,-0.0844909672876035,0.962542969261687,-0.190129183913299,0.962542969242269,-0.190129183922987,-0.00197834310206574,-0.0845258695342803
10.5,-0.00342466580613487,-0.0886167724331433,0.960020734674162,-0.19917854626736,0.960020734653877,-0.199178546276774,-0.00338991522530013,-0.0886540088993666
11,-0.00491377360947637,-0.0927220075979287,0.957398988395818,-0.208174954249654,0.957398988374697,-0.208174954258738,-0.00487615195534635,-0.0927616797141075
11.5,-0.00647766820201973,-0.0968047512910317,0.954679275069997,-0.217117734043654,0.954679275048072,-0.217117734052356,-0.0064370585415337,-0.096846965719017
12,-0.00811624285520374,-0.100863064352044,0.951863053074543,-0.226006217944316,0.951863053051849,-0.226006217952587,-0.00807253334807578,-0.10090793253184
12.5,-0.00982928511276121,-0.104895000202718,0.948951706750801,-0.234839735277017,0.948951706727377,-0.234839735284814,-0.00978236924247794,-0.104942637884181
13,-0.0116164792394269,-0.108898614307529,0.945946558330186,-0.24361760588456,0.945946558306071,-0.243617605891841,-0.0115662559793309,-0.108949141077857
13.5,-0.0134774094840453,-0.112871972789668,0.942848879255932,-0.252339135818038,0.942848879231165,-0.25233913582477,-0.0134237834025452,-0.112925511606099
14,-0.0154115639891851,-0.116813160178514,0.939659900693331,-0.261003614876045,0.939659900667953,-0.261003614882198,-0.0153544452992232,-0.116869836914182
14.5,-0.0174183391932032,-0.120720286289214,0.936380823100529,-0.269610315658871,0.936380823074582,-0.269610315664416,-0.0173576437518284,-0.120780229298592
15,-0.0194970445864245,-0.124591492254687,0.933012824794883,-0.278158493834693,0.933012824768409,-0.278158493839606,-0.0194326938507299,-0.124654831963625
15.5,-0.0216469076998501,-0.128424955745609,0.929557069498247,-0.286647389349405,0.929557069471285,-0.286647389353669,-0.0215788286456512,-0.128491824269576
16,-0.0238670792216941,-0.132218895425065,0.926014712880423,-0.295076228347536,0.926014712853015,-0.295076228351133,-0.0237952042312419,-0.132289426218024
16.5,-0.0261566381534075,-0.135971574692046,0.922386908145397,-0.303444225606693,0.922386908117583,-0.303444225609608,-0.0260809048781674,-0.136045902227262
17,-0.0285145969323348,-0.139681304772537,0.918674810721717,-0.311750587320719,0.918674810693535,-0.311750587322942,-0.028434948136473,-0.139759564255756
17.5,-0.0309399064623255,-0.14334644721889,0.91487958212849,-0.319994514096448,0.914879582099978,-0.31999451409797,-0.0308562898520475,-0.143428774333501
18,-0.0334314610063647,-0.146965415878241,0.911002393093361,-0.328175204055296,0.911002393064558,-0.328175204056113,-0.0333438290497533,-0.147051946561483
18.5,-0.0359881029065784,-0.150536678389139,0.907044425999876,-0.336291855953707,0.907044425970816,-0.336291855953814,-0.0358964126479931,-0.15062754863787
19,-0.038608627106649,-0.154058757262888,0.903006876739992,-0.344343672255927,0.903006876710712,-0.344343672255321,-0.0385128399792088,-0.154154102967157
19.5,-0.0412917854599739,-0.157530230602651,0.898890956043948,-0.352329862108916,0.89889095601448,-0.352329862107599,-0.0411918670991024,-0.157630187405028
20,-0.0440362908137705,-0.16094973250935,0.89469789035496,-0.360249644182653,0.894697890325338,-0.360249644180626,-0.0439322108742746,-0.161054435687823
20.5,-0.0468408208649973,-0.164315953219166,0.890428922310839,-0.368102249350112,0.890428922281094,-0.368102249347378,-0.0467325528436741,-0.16442553759138
21,-0.049704021788452,-0.167627639013069,0.886085310888932,-0.375886923190006,0.886085310859094,-0.375886923186569,-0.0495915428537934,-0.167742238859625
21.5,-0.0526245116409676,-0.170883591934506,0.8816683312651,-0.383602928302409,0.881668331235198,-0.383602928298277,-0.052507802471153,-0.171003340939149
22,-0.0556008835483101,-0.174082669347274,0.877179274431937,-0.391249546432857,0.877179274401999,-0.391249546428036,-0.0554799281783287,-0.174207700551807
22.5,-0.0586317086833457,-0.177223783361614,0.872619446616203,-0.398826080404689,0.872619446586253,-0.398826080399186,-0.0585064943618152,-0.177354229133556
23,-0.0617155390454003,-0.180305900152995,0.867990168530635,-0.406331855862595,0.8679901685007,-0.40633185585642,-0.0615860561013905,-0.180441892164085
23.5,-0.0648509100516254,-0.183328039194658,0.863292774490858,-0.413766222832631,0.863292774460962,-0.413766222825793,-0.0647171517715847,-0.183469708408465
24,-0.0680363429516083,-0.186289272421983,0.858528611424124,-0.421128557105591,0.858528611394288,-0.421128557098101,-0.0678983054663347,-0.18643674908904
24.5,-0.0712703470766446,-0.189188723344037,0.853699037793027,-0.428418261451754,0.853699037763274,-0.428418261443622,-0.0711280292580788,-0.189342137003049
25,-0.0745514219349586,-0.192025566115224,0.848805422454161,-0.435634766675718,0.848805422424511,-0.435634766666957,-0.0744048253024971,-0.192185045599063
25.5,-0.0778780591638779,-0.194799024577876,0.843849143468884,-0.442777532520385,0.843849143439356,-0.442777532511007,-0.0777271877997919,-0.19496469802321
26,-0.0812487443495271,-0.197508371284701,0.838831586880863,-0.449846048429277,0.838831586851477,-0.449846048419295,-0.0810936048230309,-0.197680366144253
26.5,-0.0846619587240778,-0.200152926508501,0.83375414547297,-0.456839834176347,0.833754145443741,-0.456839834165771,-0.0845025600235357,-0.200331369565031
27,-0.0881161807499999,-0.202732057245073,0.828618217514154,-0.46375844037219,0.828618217485099,-0.463758440361035,-0.0879525342227343,-0.202917074626354
27.5,-0.0916098876001376,-0.205245176214144,0.823425205505355,-0.470601448855356,0.82342520547649,-0.470601448843635,-0.0914420068992878,-0.205436893408236
28,-0.0951415565417667,-0.207691740862108,0.818176514932076,-0.477368472977027,0.818176514903413,-0.477368472964752,-0.0949694575796485,-0.207890282732403
28.5,-0.0987096662321909,-0.210071252369542,0.812873553030013,-0.484059157787013,0.812873553001566,-0.484059157774199,-0.0985333671395934,-0.2102767431691
29,-0.102312697932756,-0.212383254665769,0.807517727569145,-0.49067318012855,0.807517727540929,-0.490673180115212,-0.102132219023649,-0.212595818050563
29.5,-0.1059491366476,-0.214627333452152,0.802110445660715,-0.497210248649008,0.802110445632739,-0.497210248635158,-0.105764500388727,-0.214847092492913
30,-0.109617472192884,-0.216803115235355,0.796653112590795,-0.503670103733177,0.796653112563071,-0.503670103718829,-0.109428703177723,-0.217030192427771
30.5,-0.113316200201651,-0.218910266371389,0.791147130683509,-0.510052517365384,0.791147130656046,-0.510052517350552,-0.113123325128292,-0.219144783644457
31,-0.117043823069063,-0.220948492121012,0.785593898196307,-0.516357292926339,0.785593898169115,-0.516357292911038,-0.116846870721521,-0.221190570843417
31.5,-0.120798850842192,-0.222917535716752,0.779994808249325,-0.522584264930179,0.779994808222413,-0.522584264914421,-0.120597852074743,-0.223167296701159
32,-0.124579802058194,-0.224817177441687,0.774351247790337,-0.528733298706853,0.774351247763711,-0.528733298690653,-0.124374789782337,-0.225074740946899
32.5,-0.128385204534277,-0.226647233719959,0.768664596596523,-0.53480429003467,0.768664596570193,-0.53480429001804,-0.128176213707934,-0.226912719450905
33,-0.132213596112507,-0.22840755621889,0.762936226313942,-0.540797164727458,0.762936226287912,-0.540797164710414,-0.132000663731143,-0.228681083324444
33.5,-0.136063525362219,-0.230098030962524,0.757167499535307,-0.546711878180555,0.757167499509584,-0.546711878163108,-0.135846690451533,-0.230379718031172
34,-0.139933552242469,-0.231718577456339,0.751359768916503,-0.552548414879505,0.751359768891093,-0.55254841486167,-0.139712855852382,-0.232008542509748
34.5,-0.143822248726736,-0.233269147822895,0.745514376332027,-0.558306787875153,0.745514376306934,-0.558306787856941,-0.143597733926407,-0.233567508307421
35,-0.14772819939185,-0.234749725948125,0.73963265206939,-0.563987038228512,0.739632652044618,-0.563987038209937,-0.147499911265467,-0.235056598724352
35.5,-0.151650001972913,-0.236160326638021,0.733715914062402,-0.569589234428616,0.733715914037955,-0.569589234409691,-0.151417987616043,-0.236475827968394
36,-0.155586267885801,-0.237500994785461,0.727765467163082,-0.57511347178632,0.727765467138963,-0.575113471767058,-0.155350576402099,-0.237825240320112
36.5,-0.159535622718699,-0.238771804546947,0.721782602451895,-0.580559871806855,0.721782602428108,-0.580559871787268,-0.159296305216792,-0.239104909307804
37,-0.163496706693949,-0.239972858529045,0.715768596585868,-0.58592858154372,0.715768596562414,-0.585928581523819,-0.163253816284332,-0.24031493689233
37.5,-0.1674681751014,-0.241104286984366,0.709724711184102,-0.591219772936371,0.709724711160983,-0.591219772916169,-0.167221766893199,-0.241455452661577
38,-0.171448698704328,-0.242166247016911,0.703652192250111,-0.596433642133973,0.703652192227329,-0.596433642113482,-0.171198829801808,-0.242526613034399
38.5,-0.175436964118915,-0.24315892179671,0.69755226963036,-0.601570408807371,0.697552269607916,-0.601570408786602,-0.175183693617607,-0.243528600473953
39,-0.179431674168185,-0.244082519783619,0.691426156508335,-0.606630315451254,0.69142615648623,-0.606630315430217,-0.179175063150546,-0.244461622710303
39.5,-0.183431548211243,-0.244937273960256,0.685275048933427,-0.611613626678398,0.68527504891166,-0.611613626657105,-0.183171659741748,-0.245325911972268
40,-0.187435322448587,-0.245723441074043,0.679100125383879,-0.616520628507754,0.679100125362452,-0.616520628486217,-0.187172221568189,-0.24612172422847
40.5,-0.191441750204237,-0.246441300888327,0.672902546363028,-0.621351627647991,0.67290254634194,-0.621351627626219,-0.191175503924125,-0.24684933843758
41,-0.19544960218536,-0.247091155442637,0.66668345402801,-0.626106950778039,0.666683454007261,-0.626106950756042,-0.195180279479963,-0.247509055807783
41.5,-0.199457666720059,-0.247673328322098,0.660443971850134,-0.630786943826084,0.660443971829721,-0.630786943803871,-0.199185338519253,-0.24810119906551
42,-0.203464749973941,-0.248188163936074,0.654185204306052,-0.635391971248315,0.654185204285976,-0.635391971225898,-0.203189489154414,-0.248626111733482
42.5,-0.207469676146071,-0.248636026806123,0.647908236598895,-0.639922415308719,0.647908236579154,-0.639922415286106,-0.207191557521832,-0.249084157418165
43,-0.2114712876449,-0.249017300863353,0.641614134408478,-0.644378675361044,0.641614134389071,-0.644378675338246,-0.211190387956891,-0.249475719106708
43.5,-0.215468445244718,-0.249332388755289,0.635303943669727,-0.648761167134055,0.635303943650651,-0.648761167111078,-0.215184843149531,-0.249801198473482
44,-0.219460028223198,-0.249581711162373,0.62897869037842,-0.653070322021058,0.628978690359675,-0.653070321997913,-0.219173804280878,-0.250061015196324
44.5,-0.223444934480567,-0.249765706124216,0.622639380423386,-0.657306586374666,0.622639380404969,-0.657306586351361,-0.223156171141499,-0.250255606282619
45,-0.227422080640926,-0.249884828375735,0.616286999444244,-0.661470420807646,0.616286999426153,-0.661470420784189,-0.227130862231804,-0.250385425405331
45.5,-0.231390402136255,-0.249939548693307,0.609922512713835,-0.665562299500662,0.609922512696066,-0.665562299477061,-0.231096814845142,-0.250450942249134
46,-0.235348853273619,-0.249930353251084,0.603546865044428,-0.669582709517668,0.603546865026979,-0.66958270949393,-0.235052985134103,-0.250452641866749
46.5,-0.239296407286079,-0.24985774298759,0.597160980716855,-0.673532150129616,0.597160980699723,-0.673532150105749,-0.238998348160533,-0.250391024045654
47,-0.243232056367816,-0.249722232982752,0.590765763431686,-0.677411132147121,0.590765763414868,-0.677411132123132,-0.24293189792979,-0.250266602685259
47.5,-0.247154811693987,-0.249524351845481,0.584362096281578,-0.68122017726265,0.584362096265072,-0.681220177238546,-0.246852647409736,-0.250079905184706
48,-0.251063703425803,-0.249264641111945,0.577950841743959,-0.684959817402759,0.577950841727761,-0.684959817378548,-0.250759628534974,-0.249831471841403
48.5,-0.254957780701316,-0.248943654654638,0.57153284169318,-0.688630594090859,0.571532841677288,-0.688630594066546,-0.254651892196825,-0.249521855260407
49,-0.258836111612433,-0.248561958102377,0.56510891743132,-0.692233057820927,0.56510891741573,-0.692233057796519,-0.258528508219544,-0.249151619774785
49.5,-0.262697783168633,-0.248120128271328,0.558679869736799,-0.69576776744256,0.558679869721508,-0.695767767418064,-0.262388565323272,-0.248721340877037
50,-0.266541901247877,-0.24761875260716,0.552246478930013,-0.699235289557708,0.552246478915016,-0.699235289533128,-0.26623117107421,-0.248231604661693
50.5,-0.270367590535204,-0.24705842863842,0.545809504955162,-0.702636197929385,0.545809504940457,-0.702636197904727,-0.270055451822498,-0.247683007279171
51,-0.274173994449484,-0.246439763441212,0.539369687477524,-0.705971072902633,0.539369687463107,-0.705971072877903,-0.273860552628293,-0.247076154400964
51.5,-0.277960275058815,-0.245763373115251,0.532927745995369,-0.709240500837956,0.532927745981237,-0.709240500813159,-0.277645637176509,-0.246411660696238
52,-0.281725612985035,-0.245029882271357,0.526484379965793,-0.71244507355743,0.526484379951941,-0.71244507353257,-0.281409887680712,-0.245690149319903
52.5,-0.285469207297814,-0.24423992353043,0.5200402689437,-0.715585387803636,0.520040268930126,-0.71558538777872,-0.285152504776626,-0.244912251412182
53,-0.2891902753988,-0.243394137033966,0.513596072733249,-0.71866204471157,0.513596072719949,-0.718662044686601,-0.288872707405717,-0.244078605609753
53.5,-0.292888052896273,-0.242493169966132,0.507152431551026,-0.7216756492936,0.507152431537994,-0.721675649268583,-0.292569732689325,-0.243189857568466
54,-0.296561793470753,-0.241537676087416,0.500709966200274,-0.724626809937582,0.50070996618751,-0.72462680991252,-0.296242835793781,-0.24224665949765
54.5,-0.300210768732032,-0.24052831527987,0.494269278255513,-0.727516137918143,0.494269278243011,-0.727516137893041,-0.299891289786982,-0.241249669706047
55,-0.303834268068044,-0.239465753103948,0.487830950256879,-0.730344246921194,0.487830950244636,-0.730344246896057,-0.303514385486826,-0.240199552159335
55.5,-0.307431598486033,-0.238350660366911,0.48139554591357,-0.733111752581644,0.481395545901581,-0.733111752556474,-0.307111431301996,-0.23909697604924
56,-0.31100208444643,-0.237183712702794,0.474963610315766,-0.735819272034304,0.47496361030403,-0.735819272009105,-0.310681753065467,-0.237942615374221
56.5,-0.314545067689869,-0.235965590163886,0.468535670154441,-0.738467423477948,0.468535670142953,-0.738467423452724,-0.314224693861196,-0.236737148531682
57,-0.318059907057749,-0.234696976823694,0.462112233948468,-0.741056825752453,0.462112233937224,-0.741056825727206,-0.317739613844384,-0.23548125792166
57.5,-0.321545978306754,-0.233378560391337,0.455693792278473,-0.743588097928954,0.45569379226747,-0.743588097903688,-0.321225890055729,-0.234175629561963
58,-0.325002673917725,-0.232011031837294,0.449280818026889,-0.746061858912911,0.449280818016122,-0.746061858887629,-0.324682916230061,-0.232820952714661
58.5,-0.328429402899265,-0.230595085030452,0.44287376662368,-0.748478727059982,0.442873766613148,-0.748478727034686,-0.328110102599743,-0.231417919523877
59,-0.331825590586478,-0.22913141638637,0.436473076297244,-0.750839319804566,0.436473076286942,-0.750839319779258,-0.331506875693229,-0.229967224664797
59.5,-0.33519067843518,-0.227620724526665,0.430079168329982,-0.753144253300894,0.430079168319907,-0.753144253275578,-0.334872678129137,-0.228469565003804
60,-0.338524123811987,-0.226063709949428,0.423692447318094,-0.755394142076503,0.423692447308242,-0.755394142051182,-0.338206968406206,-0.226925639269633
60.5,-0.341825399780589,-0.224461074710571,0.417313301435119,-0.757589598697941,0.417313301425487,-0.757589598672616,-0.341509220689492,-0.225336147735464
61,-0.345093994884588,-0.222813522115984,0.410942102698808,-0.759731233448514,0.410942102689394,-0.759731233423187,-0.344778924593134,-0.223701791911811
61.5,-0.348329412927217,-0.221121756424393,0.404579207240903,-0.761819654017915,0.404579207231702,-0.761819653992589,-0.348015584960042,-0.222023274250115
62,-0.351531172748263,-0.219386482560795,0.398224955579416,-0.763855465203533,0.398224955570426,-0.76385546517821,-0.351218721638809,-0.2203012978569
62.5,-0.35469880799853,-0.21760840584033,0.391879672893039,-0.765839268623236,0.391879672884257,-0.765839268597917,-0.354387869258185,-0.218536566218363
63,-0.357831866912118,-0.215788231702466,0.385543669297306,-0.767771662439436,0.385543669288729,-0.767771662414123,-0.357522576999401,-0.216729782935271
63.5,-0.360929912076842,-0.21392666545535,0.37921724012217,-0.769653241094223,0.379217240113794,-0.769653241068918,-0.360622408366644,-0.21488165146801
