"Freq [GHz]","re(St(P1,P1)) []","im(St(P1,P1)) []","re(St(P1,P2)) []","im(St(P1,P2)) []","re(St(P2,P1)) []","im(St(P2,P1)) []","re(St(P2,P2)) []","im(St(P2,P2)) []"
0,0.00635472260034931,0,0.993657377679483,0,0.993657377985073,0,0.00635472428268713,0
0.5,0.00690474089379123,0.000705465034423369,0.993060151107237,-0.00672965608356257,0.993060150789464,-0.00672965567410344,0.00690489705722541,0.000704780896409574
1,0.00736846668392843,0.000759496528523584,0.992490117498146,-0.0127996053724182,0.992490117304513,-0.0127996051009767,0.00736890292201053,0.000757933202898187
1.5,0.00767591172715676,0.000711179078299651,0.991985930526836,-0.0189040292927096,0.991985930465141,-0.0189040290505194,0.00767679695153412,0.000708983799329488
2,0.0078619326251772,0.000621113567440545,0.991483472436225,-0.0248582533895743,0.991483472443997,-0.0248582532121588,0.00786329568288835,0.000617962703913122
2.5,0.00798252015133283,0.000536911202067003,0.991006954376629,-0.030727887190622,0.991006954409531,-0.0307278870734145,0.00798427725479911,0.000532666371794832
3,0.00807016434640673,0.00046616728843496,0.990548572710183,-0.0365548756867558,0.99054857274569,-0.036554875614236,0.00807225078275309,0.00046078308594133
3.5,0.00814151413400044,0.000407304565017697,0.990093036470301,-0.0423604606322581,0.9900930364994,-0.042360460589963,0.00814389663200776,0.000400770466997713
4,0.00820526676961952,0.000357342265562721,0.989626476144203,-0.0481537082964696,0.989626476164571,-0.0481537082736683,0.00820793607542436,0.000349658957361498
4.5,0.00826619415191088,0.000313595420255552,0.989138286035682,-0.0539374854971868,0.989138286047969,-0.0539374854865731,0.00826915795170935,0.000304765688698083
5,0.0083270548169383,0.000273915486393328,0.98862078287788,-0.0597117231533382,0.988620782883886,-0.0597117231501034,0.00833033319482901,0.000263940603917767
5.5,0.00838952204299948,0.000236613419181353,0.988068461983075,-0.0654750474805015,0.988068461984946,-0.0654750474815584,0.00839314484813425,0.000225491541454126
6,0.00845465419395519,0.00020034123311774,0.987477347222775,-0.0712255657537479,0.987477347222657,-0.071225565757139,0.00845865959896663,0.000188066491443983
6.5,0.00852314405432109,0.000163992120412182,0.986844516180081,-0.0769612365491534,0.986844516180001,-0.0769612365536672,0.0085275778245647,0.000150553894280314
7,0.00859545646687443,0.000126626020366949,0.986167774068574,-0.0826800394018159,0.986167774070401,-0.0826800394067373,0.00860037164746974,0.000112008179956824
7.5,0.00867190684841035,8.74160341854946E-005,0.985445434671563,-0.0883800482769654,0.985445434677016,-0.088380048281909,0.00867736369001726,7.15960605734978E-005
8,0.00875270698471975,4.56100107530943E-005,0.984676173932521,-0.094059459234356,0.984676173943186,-0.0940594592391459,0.00875877299317829,2.85579477941056E-005
8.5,0.00883799191496959,5.0278680507887E-007,0.983858931864893,-0.0997165966277365,0.983858931882241,-0.0997165966323417,0.00884474194436735,-1.78200034630649E-005
9,0.00892783540134612,-4.85841267732212E-005,0.982992846456955,-0.105349909614687,0.982992846482364,-0.105349909619171,0.0089353517271516,-6.82264265110533E-005
9.5,0.00902225818650798,-0.000102317594874002,0.982077208823472,-0.110957964650296,0.982077208858245,-0.110957964654771,0.00903063050200181,-0.000123340029315244
10,0.00912123146102145,-0.00016136409671752,0.981111432549838,-0.116539436658513,0.981111432595205,-0.116539436663131,0.00913055674018104,-0.000183841086524694
10.5,0.00922935419939039,-0.00021580905254126,0.980171181793822,-0.122177338124998,0.980171181839353,-0.122177338130749,0.00923939838297416,-0.000239595213209487
11,0.00934003362454414,-0.000276142937668311,0.979198575133941,-0.127795329784635,0.979198575179533,-0.127795329791543,0.00935082406682131,-0.000301263492574311
11.5,0.00945295896185244,-0.000342459193333866,0.978194579438447,-0.133393723117651,0.978194579483998,-0.133393723125733,0.00946452204345569,-0.000368940145048846
12,0.00956781987357631,-0.000414832769606299,0.977160079606135,-0.138972875789641,0.977160079651546,-0.138972875798896,0.00958018098393845,-0.000442700850533218
12.5,0.00968430766210786,-0.000493320613141002,0.976095879448057,-0.144533181174403,0.976095879493231,-0.144533181184826,0.00969749118495404,-0.000522603235985741
13,0.00980211639798714,-0.000577962234043383,0.975002703634947,-0.15007505875373,0.97500270367979,-0.150075058765305,0.0098161456998422,-0.000608687442283262
13.5,0.00992094396829085,-0.000668780342139463,0.973881200508907,-0.15559894544788,0.97388120055333,-0.155598945460583,0.00993584138997092,-0.000700976760754202
14,0.0100404930422153,-0.00076578154289475,0.972731945571082,-0.161105287897357,0.972731945615,-0.161105287911154,0.0100562798932125,-0.00079947832953664
14.5,0.0101604719517422,-0.000868957083361543,0.971555445473558,-0.166594535689503,0.971555445516893,-0.166594535704358,0.010177168507442,-0.000904183880181542
15,0.0102805954863989,-0.000978283638731536,0.970352142362397,-0.172067135501683,0.970352142405075,-0.17206713551755,0.0102982209880141,-0.00101507052503225
15.5,0.0104005856020556,-0.00109372413041609,0.969122418438194,-0.177523526116423,0.96912241848015,-0.177523526133254,0.01041915825917,-0.00113210157632526
16,0.0105201720446112,-0.00121522856699752,0.967866600620087,-0.182964134252059,0.967866600661257,-0.1829641342698,0.010539709040204,-0.00125522738831174
16.5,0.010639092890208,-0.001342734899906,0.966584965217882,-0.188389371144706,0.966584965258215,-0.188389371163302,0.0106596103880264,-0.00138438621426351
17,0.0107570950043294,-0.00147616988620802,0.965277742534622,-0.193799629812914,0.965277742574067,-0.193799629832307,0.0107786081584518,-0.00151950507070442
17.5,0.0108739344227007,-0.00161544995150154,0.963945121337857,-0.199195282934878,0.963945121376373,-0.199195282955009,0.0108964573891521,-0.00166050060188816
18,0.0109893766574631,-0.00176048204655688,0.962587253152343,-0.204576681268585,0.962587253189893,-0.204576681289391,0.0110129226077069,-0.00180727993810947
18.5,0.0111031969324567,-0.00191116449194473,0.961204256339294,-0.20994415254758,0.961204256375849,-0.209944152569001,0.0111277780686102,-0.00195974154210043
19,0.0112151803517991,-0.00206738780559057,0.959796219938242,-0.215298000788535,0.959796219973775,-0.215298000810509,0.0112408079233995,-0.00211777603840435
19.5,0.0113251220061716,-0.00222903550879128,0.958363207256516,-0.220638505951065,0.958363207291008,-0.22063850597353,0.0113518063283286,-0.00228126702128417
20,0.0114328270213695,-0.00239598490689508,0.956905259198983,-0.225965923895114,0.956905259232418,-0.225965923918012,0.0114605774941393,-0.00245009183732403
20.5,0.0115381105537971,-0.00256810784140304,0.955422397336721,-0.231280486586256,0.955422397369088,-0.231280486609525,0.0115669356826067,-0.00262412233948073
21,0.0116407977375614,-0.00274527141088621,0.953914626718177,-0.236582402504368,0.953914626749469,-0.236582402527952,0.0116707051545336,-0.00280322560995838
21.5,0.0117407235878349,-0.00292733865859329,0.952381938430069,-0.241871857216193,0.952381938460285,-0.241871857240035,0.011771720073845,-0.00298726464977683
22,0.0118377328650337,-0.0031141692251746,0.950824311918101,-0.247149014077058,0.95082431194724,-0.247149014101102,0.0118698243723582,-0.00317609903343885
22.5,0.0119316799042662,-0.0033056199653918,0.949241717079517,-0.252414015031528,0.949241717107584,-0.252414015055724,0.011964871579673,-0.00336958552755839
23,0.0120224284143287,-0.00350154552811466,0.947634116140882,-0.257666981486989,0.947634116167884,-0.257666981511284,0.012056724622469,-0.00356757867274293
23.5,0.0121098512503418,-0.00370179889928668,0.94600146533522,-0.262908015237888,0.946001465361166,-0.262908015262235,0.0121452555973219,-0.00376993132839787
24,0.0121938301639207,-0.0039062319078722,0.944343716392995,-0.268137199421869,0.944343716417897,-0.268137199446223,0.0122303455209264,-0.00397649518046683
24.5,0.0122742555345363,-0.004114695695149,0.942660817861426,-0.273354599492067,0.942660817885298,-0.273354599516382,0.0123118840613971,-0.00418712121244935
25,0.0123510260854915,-0.00432704114788796,0.940952716266337,-0.278560264192554,0.940952716289197,-0.278560264216788,0.0123897692540792,-0.00440166014025101
25.5,0.0124240485876981,-0.00454311929626794,0.939219357130307,-0.283754226526316,0.939219357152171,-0.283754226550432,0.0124639072050678,-0.0046199628116963
26,0.0124932375541789,-0.00476278167752464,0.937460685860232,-0.288936504707226,0.937460685881119,-0.288936504731186,0.0125342117853628,-0.00484188057169344
26.5,0.0125585149279964,-0.00498588066648264,0.935676648516748,-0.29410710308924,0.935676648536679,-0.29410710311301,0.0126006043183677,-0.00506726559422566
27,0.01261980976604,-0.0052122697742758,0.933867192477172,-0.299266013067624,0.933867192496169,-0.299266013091171,0.0126630132631839,-0.00529597118242586
27.5,0.0126770579208922,-0.00544180391662596,0.93203226700281,-0.304413213948277,0.932032267020893,-0.304413213971571,0.0127213738959134,-0.0055278520381592
28,0.0127302017227413,-0.00567433965315445,0.93017182372069,-0.309548673782362,0.930171823737885,-0.309548673805374,0.0127756279909658,-0.00576276450252977
28.5,0.0127791896631179,-0.00590973539923323,0.928285817028982,-0.31467235016436,0.928285817045311,-0.314672350187065,0.0128257235041257,-0.00600056676886918
29,0.0128239760819888,-0.00614785161190712,0.926374204434548,-0.319784190992409,0.926374204450037,-0.319784191014781,0.0128716142589559,-0.00624111906969671
29.5,0.0128645208595873,-0.00638855095145585,0.924436946830387,-0.324884135190457,0.924436946845059,-0.324884135212476,0.012913259637889,-0.00648428383925226
30,0.0129007891141286,-0.00663169842013089,0.922474008719955,-0.329972113392241,0.922474008733834,-0.329972113413885,0.0129506242791885,-0.00672992585311949
30.5,0.0129327509064308,-0.00687716147961259,0.920485358394736,-0.33504804858752,0.920485358407848,-0.33504804860877,0.01298367778079,-0.00697791234649925
31,0.0129603809522698,-0.00712481014869404,0.918470968070776,-0.340111856731312,0.918470968083146,-0.340111856752152,0.0130123944118625,-0.00722811311262461
31.5,0.0129836583431743,-0.00737451708264825,0.916430813989344,-0.345163447317142,0.916430814000996,-0.345163447337557,0.0130367528328015,-0.00748040058279886
32,0.0130025662762145,-0.00762615763571928,0.91436487648632,-0.350202723915489,0.91436487649728,-0.350202723935465,0.013056735824209,-0.00773464988947792
32.5,0.0130170917932346,-0.00787960990809689,0.912273140034458,-0.355229584678746,0.912273140044749,-0.355229584698271,0.013072330025317,-0.00799073891377899
33,0.0130272255298482,-0.00813475477870895,0.910155593262192,-0.360243922814138,0.910155593271839,-0.360243922833201,0.0130835256821784,-0.00824854831873356
33.5,0.0130329614744442,-0.00839147592506473,0.908012228952274,-0.365245627026044,0.908012228961302,-0.365245627044636,0.013090316405877,-0.00850796156954026
34,0.0130342967373373,-0.00864965983137456,0.905843044023141,-0.370234581929267,0.905843044031573,-0.370234581947379,0.0130926989408828,-0.00876886494202411
34.5,0.0130312313301326,-0.00890919578605254,0.903648039495599,-0.375210668434737,0.903648039503458,-0.375210668452363,0.013090672943647,-0.00903114752044121
35,0.0130237679553068,-0.0091699758696937,0.901427220447086,-0.380173764109169,0.901427220454395,-0.380173764126302,0.0130842407714168,-0.00929470118568698
35.5,0.0130119118059347,-0.0094318949345078,0.899180595955533,-0.385123743510149,0.899180595962315,-0.385123743526786,0.0130734072812222,-0.00955942059492831
36,0.0129956703754655,-0.00969485057616692,0.896908179034578,-0.390060478498083,0.896908179040854,-0.390060478514221,0.013058179638922,-0.00982520315359503
36.5,0.012975053277365,-0.00995874309894385,0.894609986561684,-0.394983838526415,0.894609986567476,-0.394983838542049,0.0130385671381471,-0.0100919489806217
37,0.0129500720744589,-0.0102234754749417,0.892286039200518,-0.399893690911431,0.892286039205847,-0.399893690926561,0.0130145810289544,-0.0103595608677454
37.5,0.0129207401177206,-0.0104889532982058,0.889936361318758,-0.404789901082978,0.889936361323645,-0.404789901097602,0.0129862343559574,-0.010627944233641
38,0.0128870723942752,-0.0107550847343794,0.887560980902383,-0.409672332817265,0.887560980906848,-0.409672332831384,0.0129535418056914,-0.0108970070735741
38.5,0.0128490853843273,-0.0110217804665858,0.885159929467312,-0.41454084845297,0.885159929471374,-0.414540848466585,0.012916519562928,-0.0111666599052458
39,0.0128067969267329,-0.0112889536381073,0.882733241969178,-0.41939530909171,0.882733241972856,-0.419395309104822,0.0128751851756613,-0.0114368157114015
39.5,0.0127602260929113,-0.0115565197924203,0.880280956711898,-0.424235574783949,0.88028095671521,-0.42423557479656,0.0128295574284527,-0.011707389879777
40,0.0127093930687842,-0.0118243968110756,0.877803115255617,-0.429061504701307,0.87780311525858,-0.42906150471342,0.0127796562238306,-0.0119783001408611
40.5,0.0126543190444214,-0.0120925048498841,0.875299762324499,-0.433872957296207,0.875299762327131,-0.433872957307826,0.0127255024714255,-0.0122494665039397
41,0.0125950261110784,-0.0123607662738137,0.872770945714796,-0.438669790449725,0.872770945717115,-0.438669790460852,0.0126671179845165,-0.0125208111918396
41.5,0.0125315371653068,-0.0126291055909803,0.870216716203537,-0.443451861608444,0.870216716205559,-0.443451861619086,0.012604525383679,-0.0127922585747347
42,0.0124638758198086,-0.0128974493860566,0.867637127458131,-0.448219027911107,0.867637127459869,-0.448219027921267,0.012537748007197,-0.0130637351033694
42.5,0.0123920663207299,-0.0131657262534116,0.865032235947128,-0.452971146305735,0.865032235948598,-0.452971146315419,0.0124668098279443,-0.0133351692419854
43,0.0123161334710771,-0.013433866730246,0.862402100852353,-0.457708073657916,0.862402100853571,-0.457708073667129,0.0123917353764058,-0.0136064914012397
43.5,0.0122361025599516,-0.0137018032299682,0.859746783982559,-0.462429666850859,0.859746783983538,-0.462429666859609,0.0123125496695448,-0.0138776338713451
44,0.0121519992973032,-0.0139694699760193,0.857066349688739,-0.467135782877808,0.857066349689491,-0.467135782886099,0.012229278145213,-0.0141485307556615
44.5,0.0120638497539199,-0.0142368029363503,0.854360864781203,-0.471826278927331,0.854360864781742,-0.471826278935172,0.0121419466018125,-0.0144191179049127
45,0.0119716803063653,-0.0145037397586947,0.851630398448503,-0.476501012462015,0.851630398448842,-0.476501012469413,0.0120505811429342,-0.0146893328522079
45.5,0.0118755175865902,-0.0147702197068096,0.848875022178242,-0.481159841291009,0.848875022178392,-0.481159841297969,0.0119552081266878,-0.0149591147490176
46,0.0117753884359674,-0.015036183597785,0.846094809679842,-0.485802623636847,0.846094809679815,-0.485802623643379,0.0118558541194759,-0.0152284043022128
46.5,0.0116713198634845,-0.0153015737405494,0.843289836809263,-0.490429218196976,0.843289836809068,-0.490429218203087,0.011752545853948,-0.0154971437122966
47,0.0115633390078578,-0.0155663338756518,0.840460181495697,-0.495039484200335,0.840460181495347,-0.495039484206033,0.0116453101908918,-0.0157652766129104
47.5,0.0114514731033369,-0.0158304091164058,0.837605923670254,-0.499633281459349,0.837605923669757,-0.499633281464642,0.0115341740848349,-0.0160327480116969
48,0.0113357494489704,-0.0160937458914505,0.834727145196589,-0.504210470417642,0.834727145195955,-0.504210470422538,0.011419164553129,-0.016299504232579
48.5,0.0112161953811285,-0.0163562918887925,0.831823929803502,-0.508770912193796,0.83182392980274,-0.508770912198304,0.0113003086483026,-0.0165654928595215
49,0.0110928382490723,-0.0166179960013603,0.828896363019445,-0.513314468621397,0.828896363018564,-0.513314468625525,0.0111776334334834,-0.0168306626817983
49.5,0.0109657053933833,-0.0168788082741099,0.825944532108936,-0.517841002285651,0.825944532107943,-0.517841002289408,0.0110511659606921,-0.0170949636408172
50,0.010834824127066,-0.0171386798526995,0.822968526010829,-0.522350376556797,0.822968526009732,-0.522350376560192,0.0109209332518262,-0.0173583467785098
50.5,0.0107002217191452,-0.0173975629337552,0.819968435278413,-0.526842455620534,0.81996843527722,-0.526842455623575,0.0107869622821594,-0.0176207641873157
51,0.0105619253806044,-0.0176554107167288,0.816944352021295,-0.531317104505678,0.816944352020012,-0.531317104508375,0.0106492799661883,-0.0178821689617602
51.5,0.0104199622524986,-0.0179121773573577,0.813896369849024,-0.535774189109227,0.813896369847658,-0.535774189111588,0.0105079131456706,-0.0181425151516315
52,0.0102743593960928,-0.0181678179227186,0.810824583816421,-0.540213576219012,0.810824583814979,-0.540213576221046,0.0103628885797071,-0.0184017577167624
52.5,0.0101251437848952,-0.01842228834787,0.807729090370562,-0.544635133534104,0.807729090369048,-0.544635133535819,0.0102142329367249,-0.0186598524833953
53,0.00997234229844252,-0.0186755453940711,0.804609987299367,-0.549038729683115,0.804609987297787,-0.549038729684521,0.01006197278823,-0.018916756102129
53.5,0.00981598171771741,-0.0189275466085619,0.801467373681765,-0.553424234240553,0.801467373680124,-0.553424234241658,0.0099061346042042,-0.0191724260074302
54,0.00965608872208495,-0.0191782502858857,0.798301349839375,-0.557791517741331,0.798301349837678,-0.557791517742146,0.0097467447500254,-0.0194268203786917
54.5,0.00949268988762075,-0.0194276154307346,0.795112017289662,-0.562140451693584,0.795112017287914,-0.562140451694116,0.00958382948480457,-0.0196798981028146
55,0.0093258116867464,-0.0196756017222942,0.791899478700526,-0.566470908589877,0.791899478698731,-0.566470908590135,0.00941741496102888,-0.0199316187382922
55.5,0.00915548048906073,-0.019922169480057,0.788663837846283,-0.570782761916929,0.788663837844444,-0.570782761916922,0.00924752722541605,-0.0201819424807733
56,0.00898172256327601,-0.0201672796310906,0.785405199564986,-0.575075886163935,0.785405199563107,-0.575075886163672,0.00907419222088451,-0.0204308301300746
56.5,0.00880456408017499,-0.0204108936787175,0.782123669717056,-0.57935015682958,0.782123669715141,-0.579350156829069,0.00889743578955371,-0.0206782430586169
57,0.008624031116508,-0.0206529736725879,0.778819355145178,-0.583605450427835,0.778819355143229,-0.583605450427085,0.00871728367669267,-0.0209241431812539
57.5,0.00844014965974332,-0.0208934821801147,0.775492363635408,-0.587841644492595,0.775492363633429,-0.587841644491615,0.00853376153553248,-0.0211684929264696
58,0.00825294561361556,-0.0211323822592321,0.772142803879489,-0.592058617581252,0.772142803877482,-0.59205861758005,0.00834689493288593,-0.0214112552089021
58.5,0.00806244480438495,-0.0213696374324645,0.768770785438292,-0.596256249277251,0.768770785436259,-0.596256249275835,0.00815670935548629,-0.0216523934031849
59,0.00786867298776145,-0.021605211662249,0.765376418706385,-0.600434420191702,0.765376418704329,-0.600434420190081,0.00796323021699785,-0.0218918713190451
59.5,0.00767165585641982,-0.0218390693275129,0.76195981487768,-0.604593011964102,0.761959814875601,-0.604593011962283,0.00776648286562898,-0.022129653177659
60,0.00747141904805909,-0.022071175201444,0.758521085912112,-0.60873190726222,0.758521085910014,-0.608731907260212,0.00756649259229447,-0.0223657035892098
60.5,0.0072679881539508,-0.0223014944304462,0.755060344503349,-0.612850989781197,0.755060344501232,-0.612850989779008,0.00736328463927521,-0.0225999875316321
61,0.00706138872792411,-0.0225299925142365,0.751577704047471,-0.616950144241906,0.751577704045337,-0.616950144239543,0.0071568842093222,-0.0228324703305051
61.5,0.00685164629574619,-0.0227566352870601,0.748073278612604,-0.621029256388614,0.748073278610454,-0.621029256386086,0.00694731647516311,-0.0230631176400681
62,0.00663878636484988,-0.0229813888999939,0.744547182909481,-0.625088212985994,0.744547182907316,-0.625088212983308,0.00673460658936426,-0.0232918954253284
62.5,0.00642283443437286,-0.0232042198043039,0.740999532262896,-0.629126901815511,0.740999532260717,-0.629126901812675,0.00651877969450954,-0.0235187699452304
