"Freq [GHz]","re(St(P1,P1)) []","im(St(P1,P1)) []","re(St(P1,P2)) []","im(St(P1,P2)) []","re(St(P2,P1)) []","im(St(P2,P1)) []","re(St(P2,P2)) []","im(St(P2,P2)) []"
0,0.00544782399987298,0,0.994565837929258,0,0.994565838540439,0,0.00544782397321342,0
0.5,0.0058659495303921,0.00176616334347202,0.994097263619704,-0.00571718437172208,0.994097263674938,-0.00571718493725015,0.00586585279227592,0.00176649807304585
1,0.00626008682557,0.00301370305383486,0.993586324360351,-0.0109054234660313,0.993586324429494,-0.0109054234436918,0.00625983193753754,0.0030144960297136
1.5,0.00644885357896108,0.00408667464962065,0.993152084982544,-0.016158483933161,0.993152085058053,-0.0161584839127897,0.00644812444185305,0.00408790299836781
2,0.00655686847657577,0.00520429740972972,0.992672225927937,-0.0212668009394381,0.992672226002814,-0.0212668009258064,0.00655591992618376,0.00520622055137565
2.5,0.00664245724792334,0.00635354748981776,0.992190049635377,-0.0262624410536727,0.992190049703146,-0.0262624410471766,0.006641442941965,0.00635620992565755
3,0.00672480095360095,0.00752307437973343,0.991721186133887,-0.0311799389434579,0.991721186190554,-0.0311799389422625,0.0067238100774567,0.00752648002126044
3.5,0.00681140982031136,0.00870634686364724,0.99126509382649,-0.036045808774551,0.991265093870491,-0.036045808776441,0.0068105011147459,0.00871049445883187
4,0.00690569834998334,0.00989968855066081,0.990814376656139,-0.0408774141034431,0.990814376687606,-0.0408774141066228,0.00690491591697739,0.00990457909399645
4.5,0.00700942707132035,0.0111009922602516,0.990359922225624,-0.0456851135337075,0.990359922245694,-0.045685113536992,0.00700880769315337,0.0111066302868696
5,0.00712361280388341,0.012309036429242,0.989893140586182,-0.0504746811221812,0.989893140596515,-0.0504746811249097,0.00712318956048086,0.0123154299357706
5.5,0.00724891041849829,0.0135231212777542,0.989406705642377,-0.0552491256870562,0.989406705644866,-0.0552491256889223,0.00724871461482079,0.0135302813921809
6,0.00738578885725549,0.0147428679517105,0.988894647662531,-0.0600098717068338,0.988894647659138,-0.0600098717077389,0.00738585113127066,0.0147508086192092
6.5,0.00753461883133,0.0159681028704561,0.988352211040603,-0.0647574720865061,0.988352211033255,-0.064757472086427,0.00753496984157231,0.0159768406062497
7,0.00769571944635228,0.0171987884046008,0.987775654580549,-0.069492019664195,0.987775654571089,-0.0694920196631239,0.00769639033316516,0.0172083421111786
7.5,0.00786938442165674,0.0184349797820227,0.987162060869909,-0.0742133765033834,0.987162060860059,-0.0742133765012802,0.00787040714181142,0.0184453706173775
8,0.00805589759480679,0.0196767974114245,0.986509174461953,-0.0789212968385922,0.986509174453299,-0.0789212968353548,0.0080573051833604,0.0196880486954933
8.5,0.00825554253244165,0.0209244085828875,0.985815270660472,-0.0836154895910539,0.985815270654454,-0.0836154895865135,0.00825736932226373,0.0209365457319937
9,0.00846860877016908,0.0221780150474906,0.985079050913987,-0.0882956474919157,0.9850790509119,-0.088295647485845,0.00847089058708228,0.0221910655292525
9.5,0.0086953960608403,0.0234378443836505,0.984299559737887,-0.0929614584442495,0.984299559740881,-0.0929614584363696,0.00869817040538273,0.0234518376868706
10,0.00893621741502307,0.024704143861046,0.983476118586843,-0.0976126080034327,0.983476118595929,-0.0976126079934123,0.00893952363789449,0.0247191114765433
10.5,0.00921914008499422,0.025910456805005,0.982713241206737,-0.10232006388919,0.982713241217135,-0.102320063880119,0.00922313932955365,0.0259261509651063
11,0.0095152518577737,0.0271126191440287,0.981925452466023,-0.107008618120364,0.981925452477646,-0.107008618112338,0.00951997943091532,0.0271290361722842
11.5,0.00982446829326485,0.0283104513376591,0.981113747380959,-0.111678481626041,0.981113747393713,-0.111678481619151,0.00982995968787821,0.0283275872734472
12,0.0101467016970387,0.0295037762379695,0.980279056660484,-0.116329921377571,0.980279056674275,-0.116329921371892,0.0101529925943998,0.0295216268229859
12.5,0.0104818612053388,0.0306924191691302,0.979422245257042,-0.120963251649529,0.97942224527177,-0.12096325164513,0.0104889874767558,0.0307109798336032
13,0.010829852872439,0.0318762080034602,0.978544111919939,-0.125578825700003,0.978544111935501,-0.125578825696937,0.0108378505801428,0.031895473852166
13.5,0.0111905797601871,0.0330549732338716,0.977645389624199,-0.130177027956728,0.977645389640493,-0.130177027955038,0.0111994851574534,0.033074939031974
14,0.0115639420295782,0.0342285480426838,0.976726746747802,-0.134758266770942,0.976726746764725,-0.134758266770664,0.0115737915600797,0.0342492082014427
14.5,0.0119498370341854,0.0353967683667142,0.975788788873616,-0.139322967778877,0.975788788891065,-0.139322967780034,0.0119606673305642,0.0354181169291117
15,0.0123481594152756,0.0365594729586025,0.974832061098673,-0.143871567891396,0.974832061116549,-0.143871567894004,0.0123600072969429,0.0365815035849173
15.5,0.012758801198457,0.037716503444341,0.97385705074171,-0.148404509915919,0.973857050759917,-0.148404509919984,0.0127717036686091,0.0377392093977216
16,0.0131816518916703,0.0388677043769512,0.972864190349568,-0.152922237801205,0.97286419036801,-0.152922237806728,0.013195646133534,0.0388910785090189
16.5,0.0136165985843658,0.0400129232863136,0.971853860913509,-0.15742519248465,0.971853860932096,-0.157425192491623,0.0136317219566735,0.0400369580228532
17,0.014063526047695,0.0411520107250922,0.970826395217246,-0.161913808313537,0.970826395235892,-0.161913808321946,0.0140798160793951,0.0411766980518475
17.5,0.0145223168355473,0.0422848203107886,0.96978208124915,-0.166388510005413,0.96978208126777,-0.166388510015239,0.0145398112197645,0.042310151759418
18,0.0149928513862637,0.0434112087638932,0.968721165621342,-0.170849710108834,0.968721165639858,-0.170849710120052,0.0150115879735149,0.0434371753981213
18.5,0.0154750081248654,0.0445310359421454,0.96764385694807,-0.175297806923162,0.967643856966409,-0.175297806935743,0.0154950249155497,0.0445576283441405
19,0.01596866356563,0.0456441648709265,0.966550329144638,-0.179733182835104,0.966550329162732,-0.179733182849015,0.0159899987018046,0.0456713731279512
19.5,0.0164736924148592,0.0467504617697987,0.965440724616234,-0.184156203029819,0.965440724634017,-0.184156203045024,0.0164963841713159,0.0467782754611568
20,0.0169899676736709,0.0478497960752242,0.964315157313148,-0.188567214535366,0.96431515733056,-0.188567214551827,0.0170140544483418,0.0478782042595516
20.5,0.0175173607406696,0.0489420404594805,0.963173715635199,-0.192966545561003,0.963173715652185,-0.192966545578678,0.0175428810443733,0.0489710316623972
21,0.0180557415143393,0.0500270708458466,0.962016465173564,-0.197354505091964,0.962016465190072,-0.19735450511081,0.0180827339598894,0.0500566330480154
21.5,0.0186049784950066,0.0511047664200828,0.960843451282833,-0.201731382705872,0.960843451298817,-0.201731382725844,0.0186334817857143,0.0511348870456947
22,0.0191649388862363,0.0521750096382656,0.959654701479978,-0.206097448578657,0.959654701495396,-0.206097448599708,0.0191949918038242,0.0522056755439868
22.5,0.0197354886955145,0.053237686231042,0.958450227670063,-0.210452953650615,0.958450227684876,-0.210452953672699,0.0197671300874687,0.0532688836954407
23,0.0203164928340848,0.0542926852043664,0.957230028201101,-0.214798129926053,0.957230028215275,-0.214798129949122,0.0203497616004773,0.054324399917854
23.5,0.0209078152158036,0.0553398988367897,0.955994089752461,-0.219133190882725,0.955994089765965,-0.219133190906734,0.020942750295608,0.0553721158920903
24,0.021509318854894,0.0563792226733757,0.95474238906279,-0.223458331969876,0.954742389075595,-0.223458331994775,0.0215459592118264,0.0564119265565592
24.5,0.0221208659624715,0.0574105555163458,0.953474894504517,-0.227773731176207,0.953474894516601,-0.227773731201948,0.0221592505703859,0.0574437300984241
25,0.0227423180417262,0.0584337994124973,0.95219156751286,-0.232079549651411,0.952191567524201,-0.232079549677948,0.0227824858695947,0.0584674279416193
25.5,0.0233735359816521,0.0594488596375189,0.950892363877704,-0.236375932367089,0.950892363888284,-0.236375932394375,0.0234155259781619,0.0594829247317759
26,0.024014380149216,0.0604556446772988,0.949577234907048,-0.240663008804763,0.949577234916853,-0.240663008832752,0.0240582312270152,0.0604901283181445
26.5,0.0246647104798678,0.0614540662062815,0.948246128470774,-0.24494089366058,0.94824612847979,-0.244940893689227,0.0247104614994911,0.0614889497325981
27,0.0253243865662965,0.0624440390630268,0.946898989933427,-0.249209687557804,0.946898989941644,-0.249209687587063,0.0253720763198045,0.0624793031658295
27.5,0.0259932677453449,0.0634254812230313,0.945535762984529,-0.253469477759684,0.94553576299194,-0.253469477789512,0.0260429349397073,0.063461105940831
28,0.0266712131829932,0.0643983137689372,0.944156390374635,-0.257720338876548,0.944156390381234,-0.257720338906901,0.0267228964232526,0.0644342784837659
28.5,0.0273580819573475,0.0653624608582342,0.942760814565043,-0.261962333562032,0.942760814570826,-0.26196233359287,0.0274118197295933,0.0653987442923392
29,0.0280537331395466,0.0663178496885546,0.941348978298633,-0.266195513194428,0.941348978303598,-0.266195513225709,0.0281095637937309,0.0663544299017624
29.5,0.028758025872532,0.0672644104606841,0.939920825098934,-0.270419918539864,0.939920825103081,-0.270419918571548,0.0288159876051639,0.0673012648484406
30,0.0294708194476139,0.0682020763393816,0.938476299704038,-0.274635580394883,0.938476299707368,-0.27463558042693,0.0295309502843591,0.0682391816314651
30.5,0.0301919733787854,0.0691307834121502,0.93701534844158,-0.278842520206489,0.937015348444096,-0.278842520238863,0.0302543111570083,0.0691681156720567
31,0.0309213474747296,0.0700504706460301,0.935537919550519,-0.283040750668403,0.935537919552224,-0.283040750701066,0.030985929826002,0.0700880052710327
31.5,0.0316588019084764,0.0709610798425693,0.934043963455061,-0.287230276292581,0.934043963455963,-0.287230276325499,0.0317256662410934,0.0709987915644406
32,0.0324041972846821,0.0718625555910559,0.93253343299563,-0.291411093955561,0.932533432995733,-0.291411093988696,0.0324733807662022,0.0719004184774519
32.5,0.0331573947044788,0.0727548452201423,0.931006283621369,-0.295583193419402,0.931006283620681,-0.295583193452725,0.0332289342443316,0.0727928326766398
33,0.0339182558278859,0.0736378987479573,0.929462473548329,-0.299746557827359,0.92946247354686,-0.299746557860836,0.0339921880600659,0.0736759835207368
33.5,0.0346866429337508,0.0745116688308398,0.927901963887087,-0.303901164174528,0.927901963884845,-0.303901164208127,0.0347630041996286,0.0745498230100028
34,0.035462418977203,0.0753761107107833,0.926324718743217,-0.30804698375397,0.926324718740213,-0.308046983787662,0.0355412453084812,0.0754143057342949
34.5,0.0362454476446109,0.0762311821617161,0.924730705293739,-0.312183982578909,0.924730705289983,-0.312183982612664,0.036326774746451,0.0762693888199586
35,0.0370355934060325,0.0770768434347231,0.923119893842353,-0.316312121781693,0.923119893837856,-0.316312121815481,0.0371194566403754,0.0771150318756493
35.5,0.0378327215651553,0.0779130572023081,0.921492257856002,-0.320431357990321,0.921492257850776,-0.320431358024117,0.0379191559342644,0.0779511969371796
36,0.0386366983067313,0.0787397885018135,0.91984777398507,-0.32454164368338,0.919847773979131,-0.324541643717157,0.0387257384369774,0.0787778484115087
36.5,0.039447390741507,0.0795570046780938,0.918186422069276,-0.328642927524256,0.918186422062634,-0.328642927557988,0.0395390708674151,0.0795949530199698
37,0.0402646669486596,0.0803646753255503,0.91650818513111,-0.332735154675543,0.91650818512378,-0.332735154709206,0.0403590208972466,0.0804024797408396
37.5,0.0410883960157563,0.0811627722296191,0.914813049358496,-0.33681826709454,0.914813049350491,-0.33681826712811,0.0411854571911713,0.0812003997513486
38,0.0419184480762473,0.0819512693078137,0.913101004078154,-0.340892203810781,0.913101004069489,-0.340892203844235,0.0420182494447381,0.0819886863692216
38.5,0.0427546943445201,0.0827301425504252,0.911372041720998,-0.344956901186462,0.911372041711688,-0.344956901219777,0.0428572684197412,0.0827673149938619
39,0.0435970071485352,0.0834993699609545,0.909626157780749,-0.349012293160688,0.909626157770808,-0.349012293193843,0.043702385977214,0.0835362630472456
39.5,0.0444452599600677,0.0842589314963835,0.907863350766826,-0.353058311478387,0.907863350756271,-0.353058311511362,0.0445534751080479,0.0842955099146356
40,0.045299327422592,0.0850088090073656,0.906083622152442,-0.35709488590474,0.906083622141288,-0.357094885937515,0.0454104099612618,0.0850450368851918
40.5,0.0461590853768414,0.0857489861784205,0.904286976318743,-0.36112194442593,0.904286976307005,-0.361121944458487,0.0462730658699661,0.0857848270925716
41,0.0470244108840659,0.0864794484682055,0.902473420495707,-0.365139413437019,0.902473420483401,-0.365139413469338,0.0471413193750332,0.0865148654555815
41.5,0.0478951822470499,0.0872001830499738,0.900642964700476,-0.369147217917655,0.900642964687619,-0.36914721794972,0.048015048246539,0.0872351386189909
42,0.0487712790289064,0.0879111787522487,0.898795621673662,-0.373145281596386,0.89879562166027,-0.373145281628178,0.0488941315029919,0.0879456348945502
42.5,0.0496525820697065,0.0886124259998295,0.896931406814145,-0.377133527104212,0.896931406800233,-0.377133527135716,0.0497784494284044,0.0886463442023075
43,0.0505389735009794,0.0893039167551736,0.895050338112787,-0.38111187611806,0.895050338098374,-0.38111187614926,0.0506678835872456,0.0893372580122915
43.5,0.0514303367581384,0.0899856444602323,0.893152436085461,-0.385080249494777,0.893152436070562,-0.385080249525657,0.051562316837319,0.0900183692866201
44,0.0523265565908691,0.0906576039788041,0.8912377237057,-0.389038567396241,0.891237723690332,-0.389038567426788,0.0524616333406184,0.0906896724221015
44.5,0.0532275190715417,0.0913197915394612,0.88930622633728,-0.392986749406134,0.88930622632146,-0.392986749436333,0.0533657185722016,0.0913511631933984
45,0.0541331116016871,0.0919722046791126,0.88735797166697,-0.396924714638903,0.887357971650715,-0.396924714668741,0.0542744593271394,0.0920028386967962
45.5,0.0550432229165998,0.092614842187262,0.885392989637654,-0.400852381841392,0.885392989620981,-0.400852381870856,0.0551877437255887,0.092644697294654
46,0.0559577430881079,0.093247704051,0.883411312382032,-0.404769669487624,0.883411312364958,-0.404769669516702,0.0561054612160373,0.0932767385605608
46.5,0.0568765635255797,0.0938707914008001,0.881412974157025,-0.408676495867155,0.881412974139567,-0.408676495895834,0.0570275025767831,0.093898963225283
47,0.0577995769752025,0.0944841064571404,0.879398011279027,-0.412572779167415,0.879398011261202,-0.412572779195683,0.0579537599156868,0.0945113731235114
47.5,0.0587266775176108,0.0950876524780243,0.877366462060117,-0.416458437550419,0.877366462041941,-0.416458437578267,0.0588841266682726,0.095113971141491
48,0.0596577605638965,0.0956814337074068,0.875318366745303,-0.420333389224218,0.875318366726795,-0.420333389251634,0.0598184975942083,0.0957067611655361
48.5,0.0605927228500794,0.0962654553246007,0.873253767450889,-0.424197552509405,0.873253767432064,-0.42419755253638,0.0607567687722422,0.096289748031504
49,0.0615314624300747,0.0968397233946666,0.871172708104003,-0.428050845901025,0.871172708084878,-0.428050845927549,0.061698837593636,0.0968629374752389
49.5,0.0624738786672289,0.0974042448198434,0.869075234383344,-0.431893188126156,0.869075234363937,-0.43189318815222,0.0626446027541588,0.0974263360840332
50,0.0634198722244735,0.0979590272920334,0.866961393661179,-0.43572449819746,0.866961393641508,-0.435724498223055,0.0635939642446943,0.0979799512491277
50.5,0.0643693450531522,0.0985040792463794,0.864831234946605,-0.439544695462949,0.864831234926686,-0.439544695488067,0.0645468233405182,0.0985237911192868
51,0.0653222003805823,0.0990394098159547,0.862684808830097,-0.443353699652225,0.862684808809947,-0.443353699676859,0.0655030825892995,0.0990578645554724
51.5,0.0662783426964029,0.0995650287875922,0.860522167429356,-0.447151430919403,0.860522167408992,-0.447151430943544,0.0664626457978861,0.099582181086635
52,0.0672376777377663,0.100080946558869,0.858343364336437,-0.450937809882942,0.858343364315876,-0.450937809906584,0.0674254180179228,0.100096750866649
52.5,0.0682001124734297,0.100587174096269,0.85614845456618,-0.454712757662581,0.856148454545438,-0.454712757685716,0.0683913055303619,0.100601584632414
53,0.0691655550867989,0.101083722894537,0.85393749450591,-0.458476195913558,0.853937494485005,-0.45847619593618,0.0693602158289223,0.101096693663122
53.5,0.0701339149579822,0.101570604937238,0.851710541866414,-0.462228046858297,0.851710541845362,-0.4622280468804,0.0703320576025399,0.101582089740733
54,0.0711051026449041,0.102047832658543,0.849467655634157,-0.465968233315711,0.849467655612974,-0.46596823333729,0.0713067407168804,0.102057785111645
54.5,0.0720790298635353,0.102515418906231,0.84720889602474,-0.469696678728282,0.847208896003445,-0.469696678749331,0.0722841761949488,0.102523792449586
55,0.0730556094672896,0.102973376905937,0.844934324437566,-0.473413307187061,0.844934324416173,-0.473413307207575,0.0732642761968611,0.102980124819723
55.5,0.074034755425638,0.103421720226645,0.842644003411686,-0.477118043454699,0.842644003390214,-0.477118043474675,0.0742469539988237,0.103426795644019
56,0.0750163828019949,0.103860462747418,0.840337996582821,-0.480810812986669,0.840337996561286,-0.480810813006101,0.0752321239713685,0.103863818667808
56.5,0.0760004077309226,0.104289618625396,0.838016368641508,-0.484491541950746,0.838016368619926,-0.484491541969631,0.0762197015569028,0.104291207927626
57,0.0769867473947015,0.104709202265029,0.835679185292367,-0.488160157244902,0.835679185270753,-0.488160157263235,0.0772096032466091,0.104708977720279
57.5,0.0779753199993222,0.105119228288575,0.83332651321444,-0.491816586513671,0.833326513192812,-0.491816586531451,0.0782017465567559,0.105117142573153
58,0.0789660447499373,0.105519711507844,0.830958420022601,-0.495460758163115,0.830958420000975,-0.495460758180337,0.0791960500044588,0.10551571721577
58.5,0.0799588418258226,0.105910666897189,0.828574974229981,-0.499092601374442,0.828574974208373,-0.499092601391105,0.0801924330829389,0.105904716552582
59,0.0809536323548968,0.106292109567743,0.826176245211398,-0.502712046116395,0.826176245189825,-0.502712046132495,0.0811908162363252,0.106284155637
59.5,0.0819503383878377,0.106664054742892,0.823762303167763,-0.50631902315645,0.82376230314624,-0.506319023171986,0.082191120834048,0.10665404964666
60,0.0829488828718413,0.107026517734982,0.821333219091425,-0.509913464070927,0.821333219069969,-0.509913464085897,0.0831932691448553,0.10701441385991
60.5,0.0839491896240657,0.107379513923246,0.818889064732442,-0.513495301254056,0.818889064711067,-0.513495301268459,0.0841971843105112,0.107365263633508
61,0.0849511833048026,0.107723058732944,0.816429912565733,-0.517064467926075,0.816429912544456,-0.51706446793991,0.0852027903192,0.107706614381547
61.5,0.0859547893904104,0.108057167615716,0.813955835759105,-0.520620898140406,0.813955835737942,-0.520620898153671,0.086210011978691,0.108038481555563
62,0.0869599341460552,0.10838185603112,0.811466908142118,-0.524164526789972,0.811466908121084,-0.524164526802668,0.0872187748892899,0.108360880625841
62.5,0.0879665445982964,0.108697139429352,0.808963204175757,-0.527695289612705,0.808963204154867,-0.527695289624831,0.0882290054166288,0.108673827063897
63,0.0889745485075473,0.109003033235143,0.806444798922898,-0.531213123196282,0.806444798902168,-0.531213123207837,0.089240630664317,0.10897733632613
63.5,0.0899838743404527,0.109299552832803,0.803911768019547,-0.534717964982143,0.803911767998993,-0.534717964993129,0.0902535784465012,0.10927142383862
64,0.0909944512422215,0.109586713552411,0.801364187646808,-0.538209753268834,0.801364187626444,-0.53820975327925,0.0912677772603614,0.109556104983071
