"Freq [GHz]","re(St(P1,P1)) []","im(St(P1,P1)) []","re(St(P1,P2)) []","im(St(P1,P2)) []","re(St(P2,P1)) []","im(St(P2,P1)) []","re(St(P2,P2)) []","im(St(P2,P2)) []"
0,0.00543874069074946,0,0.994574907846982,0,0.994574911441305,0,0.00543873526027028,0
0.5,0.00598700880911451,0.000241682659865461,0.993991839656672,-0.00563846209232466,0.993991839737298,-0.00563846156881809,0.00598677916443791,0.000242247099198067
1,0.00648524641095349,-0.00019526224384947,0.993420474285884,-0.0105958287178929,0.993420474345029,-0.0105958287696062,0.00648462964666763,-0.000193905938566274
1.5,0.00679449002390697,-0.000774355640643876,0.992993824489753,-0.0154032378668099,0.992993824476446,-0.0154032379895348,0.00679328633200882,-0.000772124641997607
2,0.00697262340979066,-0.00137928283818312,0.992658503098326,-0.0201722692376656,0.992658503020552,-0.0201722693618578,0.00697084903712408,-0.00137597114198584
2.5,0.00708638059709976,-0.00197347328143316,0.992349814831622,-0.0249409764187529,0.992349814717114,-0.0249409765200319,0.0070840533573886,-0.0019690011131086
3,0.00716796179243406,-0.00255550411972294,0.992036576761504,-0.0297104538593835,0.992036576631732,-0.0297104539329602,0.00716506459126443,-0.00254982688154293
3.5,0.00723197482988258,-0.00312933529702875,0.991705552396914,-0.0344759333782818,0.991705552266189,-0.0344759334262985,0.00722847009516414,-0.00312240928650809
4,0.00728523396842817,-0.00369857078603353,0.99135160635872,-0.0392331486634117,0.991351606236247,-0.0392331486902595,0.00728107770308117,-0.00369034433261817
4.5,0.00733105932266653,-0.00426572521694446,0.990973205608959,-0.0439792541983071,0.990973205500462,-0.0439792542089119,0.00732620976335729,-0.00425613863176899
5,0.00737115726144966,-0.00483241679715896,0.990570379929038,-0.0487126469208601,0.990570379837783,-0.0487126469199453,0.00736557932962123,-0.00482140508661111
5.5,0.00740647219745272,-0.0053996522748232,0.990143765462309,-0.0534326302459629,0.990143765389751,-0.0534326302377792,0.00740013915755844,-0.00538714832865672
6,0.00743758408629391,-0.00596805132568079,0.989694148306723,-0.0581391160430673,0.989694148252945,-0.0581391160312084,0.00743047748255776,-0.00595398867933739
6.5,0.00746489650202053,-0.00653800062914733,0.989222252712413,-0.0628323946996954,0.989222252676432,-0.0628323946870282,0.00745700514041481,-0.00652231549834781
7,0.00748872522437227,-0.00710975377497558,0.988728653945991,-0.0675129674378079,0.988728653926007,-0.0675129674264294,0.00748004372512279,-0.00709238634375531
7.5,0.00750933897444162,-0.00768349372822286,0.9882137553702,-0.0721814287744449,0.988213755363781,-0.0721814287656617,0.00749986623105969,-0.00766438879912101
8,0.00752697729365726,-0.00825937062465076,0.987677797544887,-0.0768383874617902,0.987677797549131,-0.0768383874561192,0.00751671503279816,-0.00823847778206321
8.5,0.00754185782184591,-0.00883752379661384,0.987120881687312,-0.0814844160502126,0.987120881698976,-0.0814844160474086,0.00753080935932204,-0.00881479723159195
9,0.00755417895417831,-0.00941809397384397,0.98654299780404,-0.0861200211428148,0.986542997819644,-0.0861200211418938,0.00754234817871924,-0.00939349209548457
9.5,0.00756412072238155,-0.0100012295249714,0.985944052365897,-0.0907456281569248,0.985944052381821,-0.0907456281562036,0.00755151130153664,-0.00997471445442866
10,0.00757184518372256,-0.0105870891998103,0.985323893043536,-0.0953615759014204,0.98532389305608,-0.0953615758985542,0.00755845996724613,-0.0105586262154036
10.5,0.00757965224283641,-0.0111541278986138,0.984670450282988,-0.100013302954536,0.984670450295938,-0.100013302952051,0.00756522449412556,-0.0111235858258567
11,0.00758528771010664,-0.0117258011417078,0.983992848813985,-0.104651824041292,0.983992848827308,-0.104651824039224,0.00756982153420249,-0.0116931109694844
11.5,0.00758846414629255,-0.012302147153906,0.983291751802291,-0.109277189413248,0.983291751815948,-0.109277189411629,0.00757196853745856,-0.0122672416942695
12,0.00758889550561176,-0.0128831863581054,0.982567786544928,-0.113889488393257,0.982567786558878,-0.113889488392111,0.00757138406512053,-0.0128460006086177
12.5,0.00758629830726199,-0.0134689218951678,0.981821542919949,-0.118488844312226,0.981821542934151,-0.118488844311577,0.00756778893596521,-0.0134293933641567
13,0.00758039272940689,-0.0140593402205207,0.981053572442959,-0.123075409594031,0.981053572457369,-0.123075409593898,0.00756090729978998,-0.0140174092139853
13.5,0.00757090362153137,-0.0146544117675296,0.980264387869868,-0.127649361048268,0.980264387884445,-0.127649361048659,0.00755046763387723,-0.0146100216370639
14,0.0075575614322741,-0.0152540916677291,0.979454463282665,-0.132210895417775,0.979454463297369,-0.132210895418703,0.00753620365943736,-0.0152071890193453
14.5,0.00754010305098507,-0.0158583205181042,0.97862423459432,-0.136760225215855,0.978624234609106,-0.136760225217324,0.00751785517609069,-0.015808855382291
15,0.00751827256232698,-0.0164670251858916,0.977774100410048,-0.141297574877182,0.977774100424877,-0.141297574879192,0.00749516881347082,-0.0164149511497826
15.5,0.00749182191422765,-0.0170801196418209,0.976904423184664,-0.145823177236727,0.976904423199496,-0.145823177239277,0.00746789869997836,-0.0170253939446754
16,0.00746051150036937,-0.0176975058130657,0.976015530619273,-0.15033727034255,0.97601553063407,-0.150337270345636,0.00743580704955732,-0.0176400894066258
16.5,0.00742411065917552,-0.0183190744478345,0.975107717244854,-0.154840094601247,0.975107717259579,-0.154840094604861,0.00739866466813373,-0.0182589320234343
17,0.00738239809196726,-0.0189447059840435,0.974181246145081,-0.159331890248885,0.974181246159699,-0.159331890253018,0.00735625138202869,-0.0188818059685554
17.5,0.00733516220350799,-0.0195742714151801,0.973236350775769,-0.163812895135681,0.973236350790249,-0.16381289514032,0.00730835639122081,-0.0195085859380857
18,0.00728220136866415,-0.0202076331471099,0.972273236843426,-0.168283342808986,0.972273236857737,-0.168283342814115,0.00725477855082621,-0.0201391379811078
18.5,0.00722332412926917,-0.0208446458402922,0.97129208421041,-0.172743460876629,0.971292084224521,-0.172743460882233,0.00719532658453792,-0.0207733203179421
19,0.00715834932559271,-0.0214851572324486,0.970293048799031,-0.177193469630831,0.970293048812917,-0.177193469636889,0.00712981923408952,-0.0214109841413985
19.5,0.00708710616700187,-0.0221290089374966,0.969276264471432,-0.1816335809119,0.969276264485068,-0.181633580918397,0.00705808534900153,-0.0220519743968497
20,0.00700943424653816,-0.0227760372171022,0.968241844866268,-0.186063997190549,0.96824184487963,-0.186063997197464,0.00697996392104622,-0.0226961305374394
20.5,0.00692518350420773,-0.0234260737218874,0.967189885177007,-0.190484910847673,0.967189885190078,-0.190484910854984,0.00689530406792399,-0.0233432872514143
21,0.00683421414373731,-0.0240789461998627,0.966120463860069,-0.194896503630981,0.966120463872827,-0.194896503638668,0.00680396497066721,-0.0239932751590715
21.5,0.00673639650752589,-0.0247344791702311,0.965033644263987,-0.199298946268648,0.965033644276418,-0.199298946276687,0.00670581576925186,-0.0246459214773238
22,0.00663161091439179,-0.0253924945611668,0.963929476173432,-0.203692398221122,0.963929476185522,-0.203692398229491,0.00660073542081871,-0.025301050650433
22.5,0.00651974746457842,-0.0260528123106889,0.962807997264141,-0.208077007553458,0.962807997275876,-0.208077007562136,0.0064886125247707,-0.0259584849458223
23,0.00640070581628194,-0.0267152509301267,0.961669234466688,-0.212452910911779,0.961669234478056,-0.212452910920741,0.00636934511886211,-0.0266180450143709
23.5,0.00627439493778198,-0.0273796280300433,0.960513205238631,-0.216820233588777,0.960513205249625,-0.216820233598003,0.00624284045022544,-0.0272795504148844
24,0.00614073283901131,-0.0280457608088476,0.959339918745869,-0.22117908966453,0.959339918756479,-0.221179089673997,0.00610901472504649,-0.0279428201028282
24.5,0.00599964628616328,-0.0287134665045854,0.958149376955022,-0.2255295822102,0.958149376965244,-0.225529582219886,0.00596779284041493,-0.0286076728836417
25,0.00585107050269773,-0.0293825628106448,0.956941575639579,-0.229871803543453,0.956941575649407,-0.229871803553336,0.00581910810162287,-0.0292739278312419
25.5,0.00569494885982347,-0.0300528682563508,0.955716505303037,-0.234205835525674,0.955716505312468,-0.234205835535735,0.00566290192795166,-0.029941404672515
26,0.00553123255931542,-0.0307242025535723,0.954474152022856,-0.23853174989217,0.954474152031887,-0.238531749902384,0.00549912354976378,-0.0306099241387972
26.5,0.00535988031124512,-0.0313963869106102,0.953214498219253,-0.242849608607633,0.953214498227883,-0.242849608617983,0.00532772969945344,-0.0312793082854594
27,0.00518085800896578,-0.0320692443147528,0.951937523353127,-0.247159464240131,0.951937523361358,-0.247159464250597,0.00514868429860443,-0.031949380780858
27.5,0.00499413840345186,-0.0327425997849873,0.950643204557472,-0.251461360347782,0.950643204565303,-0.251461360358346,0.00496195814344652,-0.0326199671660175
28,0.00479970077887182,-0.033416280596362,0.949331517206659,-0.255755331873083,0.949331517214092,-0.255755331883725,0.00476752859051027,-0.0332908950864175
28.5,0.00459753063103108,-0.0340901164775964,0.948002435427925,-0.260041405540631,0.948002435434963,-0.260041405551334,0.00456537924414102,-0.0339619944973983
29,0.00438761935014448,-0.0347639397834931,0.946655932559318,-0.264319600254599,0.946655932565965,-0.264319600265347,0.00435549964736903,-0.0346330978446088
29.5,0.00416996390918178,-0.0354375856437843,0.945291981558184,-0.268589927492976,0.945291981564444,-0.26858992750375,0.00413788497739204,-0.0353040402210656
30,0.00394456655885134,-0.036110892089926,0.943910555364144,-0.272852391696025,0.943910555370022,-0.272852391706812,0.00391253574681671,-0.0359746595022552
30.5,0.003711434530136,-0.0367837001614346,0.942511627220317,-0.277106990646967,0.942511627225817,-0.277106990657751,0.00367945751157445,-0.0366447964607903
31,0.00347057974511727,-0.0374558539932384,0.941095170956338,-0.281353715843197,0.941095170961467,-0.281353715853964,0.00343866058632997,-0.0373142948620497
31.5,0.00322201853669674,-0.038127200885552,0.939661161236512,-0.285592552856825,0.939661161241277,-0.285592552867562,0.00319015976801978,-0.037983001542234
32,0.00296577137769938,-0.0387975913576379,0.938209573776261,-0.289823481683474,0.938209573780667,-0.289823481694167,0.00293397406806439,-0.0386507664701699
32.5,0.00270186261971189,-0.0394668791868482,0.936740385529765,-0.294046477078685,0.936740385533821,-0.294046477089322,0.00267012645365516,-0.0393174427942138
33,0.00243032024191681,-0.0401349214342395,0.935253574851537,-0.298261508881405,0.935253574855248,-0.298261508891974,0.0023986435984269,-0.0399828868754983
33.5,0.00215117561009331,-0.0408015784579634,0.933749121634445,-0.302468542324246,0.933749121637821,-0.302468542334736,0.00211955564273758,-0.0406469583087241
34,0.00186446324586187,-0.0414667139156366,0.932227007426519,-0.306667538330387,0.932227007429566,-0.306667538340788,0.00183289596367525,-0.0413095199316449
34.5,0.00157022060618089,-0.0421301947567689,0.930687215528656,-0.310858453797108,0.930687215531383,-0.31085845380741,0.00153870095485514,-0.0419704378243375
35,0.00126848787305045,-0.0427918912062941,0.929129731075232,-0.315041241866043,0.929129731077648,-0.315041241876238,0.00123700981599606,-0.0426295812992608
35.5,0.0009593077533121,-0.0434516767401523,0.927554541099394,-0.319215852180348,0.927554541101506,-0.319215852190427,0.000927864352222474,-0.043286822883069
36,0.00064272528838788,-0.0441094280538616,0.925961634584674,-0.323382231129065,0.925961634586491,-0.323382231139019,0.000611308782954789,-0.0439420382910805
36.5,0.000318787673771859,-0.0447650250248763,0.924351002504458,-0.327540322078964,0.92435100250599,-0.327540322088787,0.000287389560263362,-0.0445951063952326
37,-1.24559119609735E-005,-0.0454183506695598,0.922722637850638,-0.331690065594294,0.922722637851892,-0.331690065603976,-4.38448035341432E-005,-0.0452459091863107
37.5,-0.000350954468875564,-0.0460692910954323,0.921076535652709,-0.335831399644764,0.921076535653694,-0.335831399654302,-0.0003823438992277,-0.0458943317311562
38,-0.000696655328405571,-0.0467177354494228,0.919412692988429,-0.339964259802268,0.919412692989153,-0.339964259811653,-0.000728055575284103,-0.0465402621255364
38.5,-0.0010495042973836,-0.0473635758626751,0.917731108987056,-0.344088579426714,0.917731108987529,-0.344088579435943,-0.00108092608388499,-0.0471835914432932
39,-0.00140944579368146,-0.0480067073925126,0.916031784826085,-0.348204289841481,0.916031784826314,-0.348204289850548,-0.00144090021871768,-0.0478242136823137
39.5,-0.00177642297376651,-0.0486470279620228,0.914314723722305,-0.352311320498903,0.914314723722299,-0.352311320507803,-0.00180792144480307,-0.0484620257078607
40,-0.00215037785250743,-0.0492844382977884,0.912579930917927,-0.356409599136281,0.912579930917695,-0.35640959914501,-0.00218193202066808,-0.0490969271937394
40.5,-0.002531251415546,-0.0499188418661138,0.910827413662447,-0.360499051922852,0.910827413661998,-0.360499051931405,-0.00256287311315734,-0.0497288205617026
41,-0.00291898372455662,-0.0505501448081809,0.909057181190852,-0.364579603598155,0.909057181190193,-0.36457960360653,-0.00295068490519457,-0.050357610919517
41.5,-0.00331351401572805,-0.0511782558744556,0.907269244698686,-0.368651177602259,0.907269244697826,-0.368651177610452,-0.0033453066968,-0.0509832059980222
42,-0.00371478079177512,-0.0518030863586494,0.905463617314484,-0.372713696198244,0.905463617313431,-0.372713696206253,-0.00374667699966463,-0.0516055160875133
42.5,-0.00412272190779767,-0.052424550031513,0.903640314069978,-0.376767080587362,0.903640314068742,-0.376767080595185,-0.00415473362558549,-0.0522244539737209
43,-0.00453727465129888,-0.0530425630747122,0.901799351868477,-0.380811251017272,0.901799351867063,-0.380811251024906,-0.0045694137690529,-0.0528399348736577
43.5,-0.00495837581666392,-0.0536570440150017,0.899940749451721,-0.384846126883733,0.899940749450138,-0.384846126891177,-0.00499065408428812,-0.0534518763715526
44,-0.00538596177437917,-0.0542679136588715,0.898064527365568,-0.388871626826112,0.898064527363825,-0.388871626833364,-0.00541839075700262,-0.0540601983550681
44.5,-0.00581996853529065,-0.0548750950278571,0.896170707924728,-0.392887668817062,0.896170707922831,-0.39288766882412,-0.00585255957116348,-0.0546648229519935
45,-0.00626033181017349,-0.055478513294652,0.894259315176793,-0.396894170246713,0.89425931517475,-0.396894170253578,-0.00629309597102784,-0.0552656744675675
45.5,-0.00670698706485562,-0.0560780957201252,0.892330374865788,-0.400891048001675,0.892330374863606,-0.400891048008345,-0.00673993511869875,-0.0558626793225436
46,-0.0071598695711832,-0.0566737715913908,0.890383914395395,-0.404878218539167,0.890383914393081,-0.404878218545641,-0.00719301194746064,-0.0564557659921572
46.5,-0.00761891445404039,-0.0572654721609935,0.88841996279203,-0.408855597956562,0.888419962789591,-0.40885559796284,-0.0076522612111265,-0.0570448649460638
47,-0.00808405673467338,-0.0578531305872925,0.886438550667896,-0.412823102056615,0.886438550665341,-0.412823102062697,-0.00811761752962381,-0.0576299085893437
47.5,-0.00855523137053998,-0.0584366818761173,0.884439710184141,-0.41678064640863,0.884439710181474,-0.416780646414517,-0.00858901543104862,-0.058210831204653
48,-0.00903237329188517,-0.0590160628237293,0.882423475014221,-0.420728146405809,0.882423475011449,-0.4207281464115,-0.00906638939038235,-0.0587875688955708
48.5,-0.00951541743526174,-0.0595912119611477,0.880389880307551,-0.424665517319027,0.880389880304682,-0.424665517324524,-0.00954967386508709,-0.0593600595311958
49,-0.0100042987741708,-0.0601620694998599,0.878338962653537,-0.428592674347227,0.878338962650577,-0.42859267435253,-0.0100388033277583,-0.0599282426920373
49.5,-0.0104989523470208,-0.0607285772789361,0.876270760046028,-0.432509532664657,0.876270760042982,-0.432509532669767,-0.0105337122960218,-0.0604920596172125
50,-0.0109993132825632,-0.0612906787135765,0.874185311848264,-0.436416007465139,0.874185311845138,-0.436416007470057,-0.0110343353598446,-0.0610514531529955
50.5,-0.0115053168229786,-0.0618483187450762,0.87208265875835,-0.440312014003542,0.872082658755152,-0.440312014008269,-0.011540607206427,-0.0616063677027094
51,-0.0120168983447625,-0.0624014437922342,0.869962842775311,-0.444197467634644,0.869962842772045,-0.444197467639182,-0.0120524626428237,-0.0621567491779842
51.5,-0.0125339933775603,-0.0629500017041802,0.867825907165725,-0.448072283849529,0.867825907162397,-0.448072283853879,-0.0125698366164466,-0.0627025449513761
52,-0.0130565376210827,-0.0634939417146292,0.865671896431001,-0.451936378309686,0.865671896427616,-0.45193637831385,-0.0130926642335873,-0.0632437038103466
52.5,-0.0135844669602422,-0.06403321439753,0.863500856275279,-0.455789666878931,0.863500856271842,-0.45578966688291,-0.0136208807760822,-0.0637801759125938
53,-0.0141177174786248,-0.0645677716241151,0.86131283357399,-0.459632065653303,0.861312833570507,-0.4596320656571,-0.0141544217162552,-0.0643119127427227
53.5,-0.0146562254704086,-0.0650975665213176,0.859107876343082,-0.463463490989056,0.859107876339558,-0.463463490992673,-0.014693222730244,-0.0648388670702442
54,-0.0151999274508524,-0.0656225534315291,0.856886033708904,-0.467283859528851,0.856886033705342,-0.467283859532289,-0.0152372197098269,-0.0653609929088825
54.5,-0.0157487601654352,-0.0661426878736904,0.854647355878762,-0.471093088226269,0.854647355875168,-0.471093088229531,-0.0157863487728435,-0.0658782454771649
55,-0.0163026605977651,-0.0666579265056787,0.852391894112142,-0.474891094368756,0.852391894108521,-0.474891094371843,-0.0163405462723201,-0.0663905811602888
55.5,-0.016861565976322,-0.067168227087963,0.850119700692602,-0.478677795599071,0.850119700688958,-0.478677795601987,-0.0168997488043758,-0.0668979574732215
56,-0.0174254137801389,-0.0676735484485035,0.847830828900313,-0.482453109935355,0.847830828896651,-0.482453109938101,-0.0174638932150025,-0.0674003330250191
56.5,-0.0179941417434886,-0.0681738504488633,0.845525332985261,-0.486216955789883,0.845525332981584,-0.486216955792462,-0.0180329166057981,-0.0678976674843418
57,-0.0185676878596516,-0.0686690939515066,0.843203268141082,-0.489969251986601,0.843203268137394,-0.489969251989015,-0.0186067563387294,-0.0683899215461292
57.5,-0.0191459903838351,-0.0691592407882442,0.840864690479541,-0.493709917777497,0.840864690475846,-0.493709917779749,-0.0191853500399849,-0.0688770568994072
58,-0.0197289878353072,-0.0696442537298035,0.838509657005622,-0.497438872857898,0.838509657001924,-0.497438872859991,-0.0197686356029991,-0.0693590361962123
58.5,-0.0203166189988024,-0.070124096456493,0.836138225593237,-0.501156037380747,0.836138225589539,-0.501156037382683,-0.0203565511906963,-0.0698358230215878
59,-0.0209088229252583,-0.070598733529917,0.833750454961526,-0.504861331969915,0.833750454957832,-0.504861331971698,-0.0209490352370155,-0.070307381864629
59.5,-0.0215055389319378,-0.0710681303657332,0.831346404651742,-0.50855467773263,0.831346404648055,-0.508554677734262,-0.0215460264477768,-0.0707736780905599
60,-0.0221067066019736,-0.071532253207398,0.828926135004713,-0.51223599627104,0.828926135001037,-0.512235996272524,-0.0221474638009251,-0.0712346779137885
60.5,-0.0227122657833967,-0.071991069100884,0.82648970713886,-0.515905209692992,0.826489707135196,-0.515905209694331,-0.0227532865462131,-0.071690348371938
61,-0.0233221565876809,-0.0724445458703433,0.824037182928744,-0.519562240622061,0.824037182925097,-0.519562240623257,-0.0233634342043563,-0.0721406573008121
61.5,-0.0239363193878395,-0.0728926520946731,0.821568624984169,-0.523207012206867,0.821568624980541,-0.523207012207923,-0.0239778465657086,-0.0725855733102636
62,-0.0245546948161222,-0.0733353570849682,0.819084096629775,-0.526839448129735,0.819084096626169,-0.526839448130655,-0.0245964636884884,-0.0730250657609535
