"Freq [GHz]","re(St(P1,P1)) []","im(St(P1,P1)) []","re(St(P1,P2)) []","im(St(P1,P2)) []","re(St(P2,P1)) []","im(St(P2,P1)) []","re(St(P2,P2)) []","im(St(P2,P2)) []"
0,0.00440118858847427,0,0.99561565546901,0,0.995615656996961,0,0.00440118532907263,0
0.5,0.00500285807795109,-0.00192525027341972,0.994860975742483,-0.00908601906450457,0.994860975631457,-0.00908601882617432,0.00500260721764079,-0.00192454451829605
1,0.00543746752684271,-0.00463674230051225,0.994004491000517,-0.0173529791693845,0.994004490954193,-0.0173529791438156,0.00543679141688713,-0.00463503460074577
1.5,0.00515790084425127,-0.00750712518016528,0.993206434435223,-0.0257365423647897,0.993206434401612,-0.0257365423352347,0.00515678959751753,-0.00750376637924077
2,0.00491628704399893,-0.0102843543125246,0.992267425856326,-0.0338836324474272,0.992267425834097,-0.0338836324191654,0.00491482084056738,-0.0102796479815233
2.5,0.00465299284842491,-0.013005171160529,0.991264807104748,-0.0418261333307477,0.991264807091039,-0.0418261333067402,0.00465118472529102,-0.0129991918393273
3,0.00435159916488992,-0.0156852972786687,0.990238646431974,-0.0496104484384414,0.990238646423904,-0.0496104484196724,0.0043494269612987,-0.0156780656246021
3.5,0.00400687584526738,-0.0183309084000509,0.989201473553787,-0.0572786448018086,0.989201473549127,-0.0572786447880773,0.00400430280880348,-0.0183224278731338
4,0.00361737591362754,-0.0209439425469231,0.988150355069113,-0.0648619350989659,0.988150355066356,-0.0648619350895476,0.00361435942499444,-0.0209342096285976
4.5,0.00318322865990162,-0.0235243344806619,0.987075586415552,-0.0723808573914457,0.987075586413772,-0.0723808573854559,0.00317972414830514,-0.0235133422404861
5,0.00270534548046841,-0.0260710283679035,0.985965599214827,-0.0798477081378657,0.985965599213502,-0.0798477081344728,0.00270130836157811,-0.0260587679773625
5.5,0.00218508803820461,-0.0285824770345808,0.984809289186732,-0.0872691069359375,0.984809289185591,-0.0872691069343912,0.00218047476867,-0.0285689385434278
6,0.00162411025175757,-0.0310569074032738,0.98359691498847,-0.0946480149332531,0.983596914987396,-0.0946480149329458,0.00161887895140289,-0.0310420802183398
6.5,0.00102427303091623,-0.0334924709975581,0.982320305116003,-0.101985144918444,0.982320305114955,-0.101985144918867,0.00101838387305098,-0.0334763442292312
7,0.000387592182090835,-0.0358873339218633,0.980972771590122,-0.109279887893963,0.980972771589105,-0.109279887894707,0.000381007647511145,-0.0358698966659743
7.5,-0.000283797419878828,-0.0382397329076367,0.979548924366007,-0.116530900132543,0.979548924365043,-0.116530900133282,-0.000291112376630265,-0.0382209744918933
8,-0.000987669122666957,-0.0405480111944581,0.978044472112064,-0.123736465492349,0.978044472111175,-0.123736465492814,-0.000995746968404598,-0.0405279214023091
8.5,-0.00172172697219364,-0.0428106417516405,0.976456042331858,-0.130894713546392,0.976456042331068,-0.130894713546376,-0.00173059753624716,-0.0427892110290529
9,-0.00248362523247525,-0.045026242130116,0.97478102998052,-0.138003746895235,0.974781029979842,-0.138003746894565,-0.00249331568434247,-0.0450034617772239
9.5,-0.00327098589833974,-0.0471935835090767,0.973017473919579,-0.145061712035097,0.97301747391902,-0.145061712033641,-0.00328152075529961,-0.0471694458571292
10,-0.00408141468707071,-0.0493115955409476,0.971163957188798,-0.152066835614392,0.971163957188358,-0.152066835612045,-0.00409281584694624,-0.0492860941141746
10.5,-0.00479528146048305,-0.0515084550964851,0.969448141864108,-0.159052928430249,0.969448141864173,-0.15905292842782,-0.00480820876027613,-0.0514817524402664
11,-0.00553357228616527,-0.053702631080828,0.967699188940766,-0.16600428589793,0.967699188941314,-0.166004285895505,-0.00554803633026474,-0.0536746477135983
11.5,-0.00629718410948094,-0.055893082337187,0.96591670709132,-0.172923401494216,0.965916707092319,-0.172923401491869,-0.00631319890253465,-0.0558637471333929
12,-0.00708682213024867,-0.0580788272872699,0.964100131063119,-0.179812404720168,0.964100131064528,-0.179812404717964,-0.00710440475097471,-0.058048075419467
12.5,-0.00790303760963762,-0.0602589410575098,0.962248780329757,-0.186673090607961,0.962248780331529,-0.186673090605946,-0.00792220784049524,-0.0602267124186109
13,-0.00874625721229892,-0.0624325514376527,0.960361905674004,-0.193506951326854,0.960361905676088,-0.19350695132507,-0.00876703716362842,-0.0623987894249622
13.5,-0.00961680592438105,-0.0645988344042032,0.958438725522839,-0.200315208043846,0.958438725525182,-0.200315208042318,-0.00963921967376047,-0.0645634849774717
14,-0.0105149250688911,-0.0667570096264685,0.956478453747896,-0.207098841795746,0.956478453750447,-0.207098841794493,-0.010538998325923,-0.0667200205747465
14.5,-0.0114407865575222,-0.0689063361828079,0.954480320474371,-0.213858622585783,0.954480320477081,-0.213858622584813,-0.0114665463581369,-0.0688676565513555
15,-0.0123945042358593,-0.0710461086004943,0.952443587245295,-0.22059513625379,0.952443587248115,-0.220595136253105,-0.0124219786667828,-0.071005688241117
15.5,-0.0133761429701962,-0.0731756532650394,0.950367557689274,-0.22730880890915,0.950367557692161,-0.227308808908744,-0.0134053609223301,-0.0731334424822161
16,-0.0143857259690485,-0.0752943252058671,0.948251584652266,-0.233999928881445,0.948251584655181,-0.233999928881307,-0.0144167169176128,-0.0752502744776766
16.5,-0.0154232407166562,-0.0774015052435288,0.946095074584943,-0.240668666253462,0.946095074587852,-0.240668666253576,-0.015456034525539,-0.0773555650013078
17,-0.0164886438088506,-0.0794965974726485,0.943897489829542,-0.24731509010987,0.943897489832414,-0.247315090110216,-0.0165232705565647,-0.0794487179270833
17.5,-0.0175818649160641,-0.0815790270500099,0.941658349324228,-0.253939183673796,0.941658349327038,-0.253939183674353,-0.0176183547408202,-0.081529158054126
18,-0.0187028100485065,-0.0836482382561412,0.939377228137479,-0.260540857521898,0.939377228140205,-0.26054085752264,-0.0187411930100844,-0.0835963291977846
18.5,-0.0198513642605107,-0.0857036927997377,0.937053756157836,-0.267119961072845,0.937053756160463,-0.26711996107375,-0.0198916702168732,-0.0856496925177836
19,-0.0210273939019429,-0.0877448683363591,0.93468761619329,-0.2736762925392,0.934687616195805,-0.273676292540238,-0.0210696523987325,-0.0876887250560832
19.5,-0.0222307485020362,-0.0897712571754306,0.932278541676977,-0.280209607522342,0.932278541679374,-0.280209607523489,-0.0222749886733635,-0.0897129184594867
20,-0.0234612623535855,-0.0917823651522398,0.929826314129869,-0.286719626416318,0.929826314132142,-0.286719626417549,-0.0235075128326838,-0.0917217778643722
20.5,-0.0247187558518063,-0.0937777106443263,0.927330760494392,-0.293206040771534,0.927330760496541,-0.293206040772824,-0.0247670446903414,-0.0937148209235619
21,-0.0260030366314984,-0.0957568237141033,0.924791750424039,-0.299668518753728,0.924791750426067,-0.299668518755054,-0.0260533912264829,-0.0956915769576003
21.5,-0.0273139005377425,-0.0977192453618052,0.922209193591268,-0.306106709818691,0.92220919359318,-0.306106709820031,-0.0273663475651375,-0.0976515862149014
22,-0.0286511324586952,-0.0996645268749163,0.91958303705835,-0.312520248709104,0.919583037060154,-0.312520248710439,-0.028705697812923,-0.0995943992271791
22.5,-0.0300145070437468,-0.101592229261969,0.916913262742138,-0.318908758866726,0.916913262743843,-0.318908758868038,-0.0300712157824406,-0.101519576248299
23,-0.031403789326086,-0.10350192276022,0.914199884993212,-0.325271855341443,0.91419988499483,-0.325271855342716,-0.0314626656194913,-0.103426686766215
23.5,-0.0328187352652923,-0.105393186408049,0.911442948301952,-0.331609147267971,0.911442948303496,-0.33160914726919,-0.0328798023498275,-0.105315309078988
24,-0.0342590922228586,-0.107265607674147,0.908642525138037,-0.33792023997166,0.908642525139521,-0.337920239972814,-0.0343223723584003,-0.107185029927057
24.5,-0.0357245993813117,-0.109118782136545,0.905798713925449,-0.344204736756465,0.905798713926887,-0.344204736757545,-0.0357901138118335,-0.109035444174922
25,-0.0372149881157892,-0.110952313205485,0.902911637151833,-0.350462240420906,0.902911637153241,-0.350462240421903,-0.0372827570330405,-0.110866154536292
25.5,-0.0387299823254843,-0.112765811884873,0.899981439608727,-0.356692354541471,0.899981439610121,-0.356692354542379,-0.0388000248354289,-0.112676771337518
26,-0.040269298731131,-0.114558896567708,0.897008286757609,-0.362894684557356,0.897008286759003,-0.362894684558173,-0.0403416328229068,-0.11446691231475
26.5,-0.0418326471437306,-0.116331192861512,0.893992363215629,-0.369068838685692,0.893992363217041,-0.369068838686415,-0.0419072896609289,-0.116236202440863
27,-0.0434197307088898,-0.118082333440213,0.890933871354324,-0.375214428692205,0.890933871355768,-0.375214428692835,-0.0434966973229721,-0.117984273778669
27.5,-0.0450302461304789,-0.119811957919443,0.887833030004196,-0.381331070538753,0.887833030005687,-0.381331070539289,-0.0451095513161809,-0.119710765357374
28,-0.046663883876723,-0.121519712752495,0.884690073258049,-0.387418384926005,0.8846900732596,-0.387418384926453,-0.0467455408893122,-0.121415323069575
28.5,-0.0483203283714099,-0.123205251144604,0.881505249365966,-0.393475997746976,0.881505249367591,-0.393475997747338,-0.0484043492256742,-0.123097599586445
29,-0.0499992581724715,-0.124868232983417,0.878278819715058,-0.399503540464773,0.878278819716771,-0.399503540465056,-0.050085653623353,-0.124757254289027
29.5,-0.0517003461398786,-0.126508324783815,0.875011057887366,-0.405500650425991,0.875011057889177,-0.405500650426202,-0.0517891256646509,-0.12639395321377
30,-0.0534232595945138,-0.128125199645423,0.871702248789625,-0.411466971119513,0.871702248791545,-0.411466971119659,-0.0535144313764351,-0.128007369010693
30.5,-0.0551676604694484,-0.129718537221356,0.868352687848982,-0.417402152388999,0.868352687851023,-0.417402152389089,-0.0552612313828208,-0.129597180912699
31,-0.0569332054548438,-0.1312880236969,0.864962680269114,-0.423305850606174,0.864962680271283,-0.423305850606218,-0.0570291810514282,-0.131163074714782
31.5,-0.0587195461375499,-0.132833351776966,0.861532540341565,-0.429177728810898,0.861532540343868,-0.429177728810906,-0.0588179306342775,-0.132704742761924
32,-0.0605263291362973,-0.134354220681278,0.858062590807542,-0.435017456823142,0.858062590809988,-0.435017456823125,-0.0606271254042379,-0.134221883944697
32.5,-0.0623531962332869,-0.135850336146364,0.854553162265738,-0.440824711331219,0.85455316226833,-0.440824711331187,-0.0624564057878403,-0.135714203701604
33,-0.0641997845028618,-0.137321410433513,0.85100459262209,-0.446599175959918,0.851004592624833,-0.446599175959883,-0.0643054074951313,-0.137181414027358
33.5,-0.066065726437843,-0.138767162341954,0.847417226577776,-0.452340541321686,0.847417226580673,-0.452340541321659,-0.0661737616471664,-0.138623233486325
34,-0.0679506500740683,-0.140187317226563,0.843791415151996,-0.458048505053456,0.843791415155048,-0.458048505053449,-0.0680610949016793,-0.140039387230466
34.5,-0.069854179113557,-0.141581607019488,0.840127515236437,-0.463722771841355,0.840127515239646,-0.46372277184138,-0.0699670295773539,-0.141429607021157
35,-0.071775933046713,-0.142949770255141,0.836425889178557,-0.469363053435155,0.836425889181922,-0.469363053435222,-0.071891183777114,-0.142793631254342
35.5,-0.07371552727389,-0.144291552098028,0.832686904391104,-0.474969068654025,0.832686904394624,-0.474969068654145,-0.0738331715107552,-0.144131204988485
36,-0.0756725732266157,-0.145606704372965,0.828910932985515,-0.480540543384907,0.828910932989187,-0.480540543385093,-0.0757926028172283,-0.145442079974886
36.5,-0.0776466784887349,-0.14689498559726,0.825098351427048,-0.486077210574615,0.825098351430869,-0.486077210574875,-0.0777690838868086,-0.146726014689914
37,-0.0796374469176899,-0.148156161014452,0.821249540209716,-0.491578810216551,0.821249540213683,-0.491578810216897,-0.0797622171834068,-0.147982774368786
37.5,-0.081644478766116,-0.14939000262926,0.817364883549269,-0.49704508933283,0.817364883553377,-0.497045089333271,-0.081771601567174,-0.149212131040506
38,-0.0836673708039369,-0.150596289243409,0.813444769092632,-0.502475801952406,0.813444769096874,-0.502475801952951,-0.0837968324175929,-0.150413863563662
38.5,-0.0857057164410764,-0.151774806492017,0.809489587642367,-0.507870709085752,0.809489587646739,-0.50787070908641,-0.0858375017571763,-0.151587757662754
39,-0.0877591058509248,-0.152925346880271,0.805499732894873,-0.513229578696492,0.805499732899367,-0.513229578697271,-0.0878931983759103,-0.15273360596478
39.5,-0.0898271260946377,-0.154047709820121,0.801475601191141,-0.518552185670347,0.801475601195749,-0.518552185671255,-0.0899635079565161,-0.153851208035801
40,-0.0919093612463654,-0.155141701666732,0.797417591279034,-0.523838311781676,0.797417591283748,-0.523838311782718,-0.0920480132006336,-0.154940370417257
40.5,-0.0940053925194716,-0.156207135754491,0.793326104086133,-0.529087745657831,0.793326104090945,-0.529087745659014,-0.0941462939559817,-0.156000906661789
41,-0.096114798393793,-0.157243832432328,0.789201542502296,-0.534300282741529,0.789201542507197,-0.534300282742859,-0.0962579273445515,-0.157032637368353
41.5,-0.0982371547439825,-0.158251619098158,0.785044311171177,-0.539475725251363,0.785044311176158,-0.539475725252844,-0.0983824878918684,-0.158035390216436
42,-0.100372034968962,-0.159230330232266,0.780854816290009,-0.544613882140591,0.780854816295061,-0.544613882142228,-0.100519547657354,-0.159008999999165
42.5,-0.102519010122503,-0.160179807429419,0.776633465417039,-0.549714569054277,0.776633465422152,-0.549714569056072,-0.102668676365805,-0.15995330865514
43,-0.10467764904494,-0.161099899429589,0.77238066728606,-0.554777608284866,0.772380667291224,-0.554777608286822,-0.104829441539991,-0.160868165298834
43.5,-0.106847518496026,-0.161990462147079,0.768096831627549,-0.55980282872625,0.768096831632754,-0.559802828728369,-0.10700140863438,-0.161753426249372
44,-0.109028183288906,-0.16285135869793,0.763782368995958,-0.564790065826359,0.763782369001194,-0.564790065828643,-0.109184141169973,-0.162608955057564
44.5,-0.111219206425203,-0.163682459425457,0.759437690602774,-0.569739161538317,0.759437690608031,-0.569739161540764,-0.11137720087023,-0.163434622531043
45,-0.113420149231194,-0.164483641923786,0.755063208154985,-0.574649964270191,0.755063208160253,-0.574649964272802,-0.113580147798081,-0.164230306757368
45.5,-0.115630571495035,-0.165254791059249,0.750659333698629,-0.579522328833354,0.750659333703898,-0.579522328836129,-0.115792540493961,-0.164995893124966
46,-0.117850031605013,-0.165995798989537,0.746226479467157,-0.584356116389471,0.746226479472417,-0.584356116392408,-0.11801393611486,-0.165731274341803
46.5,-0.120078086688777,-0.166706565180477,0.741765057734338,-0.589151194396137,0.741765057739579,-0.589151194399233,-0.120243890574332,-0.166436350451651
47,-0.122314292753495,-0.167386996420342,0.737275480671498,-0.593907436551164,0.737275480676711,-0.593907436554417,-0.122481958683418,-0.167111028847863
47.5,-0.124558204826904,-0.168037006831576,0.732758160208873,-0.59862472273555,0.732758160214049,-0.598624722738956,-0.124727694292435,-0.167755224284532
48,-0.126809377099175,-0.168656517879848,0.728213507900908,-0.603302938955122,0.728213507906037,-0.603302938958677,-0.126980650433567,-0.168368858884969
48.5,-0.129067363065554,-0.169245458380337,0.723641934795332,-0.607941977280885,0.723641934800405,-0.607941977284586,-0.129240379464204,-0.168951862147364
49,-0.131331715669694,-0.169803764501167,0.71904385130587,-0.612541735788087,0.71904385131088,-0.612541735791928,-0.131506433210959,-0.169504170947585
49.5,-0.133601987447636,-0.170331379763898,0.714419667088461,-0.617102118494004,0.714419667093399,-0.617102118497979,-0.133778363114303,-0.170025729539016
50,-0.135877730672337,-0.170828255041015,0.709769790920866,-0.621623035294486,0.709769790925724,-0.621623035298589,-0.136055720373728,-0.170516489549351
50.5,-0.138158497498704,-0.171294348550327,0.705094630585558,-0.626104401899266,0.705094630590329,-0.626104401903491,-0.138338056093386,-0.170976409974286
51,-0.140443840109028,-0.171729625846209,0.700394592755818,-0.630546139766065,0.700394592760494,-0.630546139770406,-0.140624921428112,-0.17140545716803
51.5,-0.142733310858758,-0.172134059807639,0.695670082884926,-0.634948176033509,0.695670082889503,-0.634948176037959,-0.142915867729746,-0.171803604830587
52,-0.145026462422526,-0.172507630622954,0.690921505098402,-0.639310443452894,0.690921505102872,-0.639310443457444,-0.14521044669369,-0.172170833991729
52.5,-0.147322847940332,-0.17285032577127,0.686149262089206,-0.643632880318809,0.686149262093563,-0.643632880323453,-0.147508210505592,-0.172507132991628
53,-0.149622021163824,-0.17316214000054,0.681353755015844,-0.647915430398678,0.681353755020083,-0.647915430403407,-0.149808711988085,-0.172812497458083
53.5,-0.151923536602545,-0.173443075302162,0.676535383403337,-0.652158042861212,0.676535383407454,-0.652158042866018,-0.152111504747484,-0.1730869302803
54,-0.154226949670113,-0.173693140882143,0.671694545046971,-0.656360672203842,0.671694545050962,-0.656360672208717,-0.154416143320356,-0.173330441579191
54.5,-0.156531816830183,-0.173912353128738,0.666831635918821,-0.660523278179145,0.666831635922682,-0.66052327818408,-0.156722183319859,-0.173543048674133
55,-0.158837695742146,-0.174100735576551,0.66194705007697,-0.664645825720303,0.661947050080697,-0.664645825725289,-0.159029181581775,-0.173724776046185
55.5,-0.161144145406441,-0.174258318867072,0.657041179577408,-0.668728284865638,0.657041179580998,-0.668728284870666,-0.16133669631012,-0.173875655297701
56,-0.163450726309405,-0.174385140705607,0.652114414388562,-0.672770630682258,0.652114414392015,-0.67277063068732,-0.16364428722225,-0.173995725108339
56.5,-0.165757000567546,-0.174481245814588,0.647167142308432,-0.676772843188854,0.647167142311743,-0.676772843193941,-0.165951515693369,-0.174085031187426
57,-0.168062532071165,-0.174546685883241,0.642199748884282,-0.680734907277685,0.642199748887451,-0.680734907282788,-0.168257944900319,-0.174143626222665
57.5,-0.170366886627213,-0.174581519513602,0.637212617334881,-0.684656812635802,0.637212617337908,-0.684656812640911,-0.170563139964591,-0.174171569825182
58,-0.172669632101291,-0.174585812162851,0.632206128475243,-0.688538553665539,0.632206128478126,-0.688538553670648,-0.172866668094418,-0.174168928470878
58.5,-0.174970338558709,-0.174559636081982,0.627180660643844,-0.69238012940433,0.627180660646584,-0.692380129409427,-0.175168098725892,-0.174135775438095
59,-0.177268578404486,-0.174503070250775,0.622136589632299,-0.696181543443873,0.622136589634896,-0.69618154344895,-0.177467003662972,-0.174072190741589
59.5,-0.179563926522209,-0.174416200309091,0.617074288617451,-0.69994280384871,0.617074288619907,-0.699942803853759,-0.179762957216316,-0.173978261062805
60,-0.181855960411659,-0.174299118484472,0.611994128095867,-0.703663923074246,0.611994128098182,-0.703663923079257,-0.182055536340817,-0.17385407967645
60.5,-0.184144260325098,-0.174151923516066,0.606896475820698,-0.707344917884257,0.606896475822875,-0.707344917889223,-0.184344320771757,-0.173699746373387
61,-0.186428409402127,-0.173974720574871,0.601781696740897,-0.710985809267937,0.601781696742937,-0.710985809272851,-0.186628893159493,-0.17351536737984
61.5,-0.188707993803029,-0.17376762118031,0.596650152942741,-0.714586622356515,0.596650152944648,-0.714586622361367,-0.188908839202554,-0.173301055272919
62,-0.190982602840496,-0.17353074311316,0.591502203593663,-0.718147386339492,0.591502203595439,-0.718147386344275,-0.191183747779093,-0.173056928892504
62.5,-0.193251829109656,-0.173264210324828,0.586338204888348,-0.721668134380548,0.586338204889996,-0.721668134385255,-0.193453211076562,-0.172783113249466
63,-0.19551526861631,-0.17296815284302,0.581158509997072,-0.725148903533142,0.581158509998597,-0.725148903537765,-0.195716824719553,-0.172479739430276
