"Freq [GHz]","re(St(P1,P1)) []","im(St(P1,P1)) []","re(St(P1,P2)) []","im(St(P1,P2)) []","re(St(P2,P1)) []","im(St(P2,P1)) []","re(St(P2,P2)) []","im(St(P2,P2)) []"
0,0.00191998742133137,0,0.998091480680159,0,0.998091481262236,0,0.00191998905296487,0
0.5,0.00213919150829156,0.000350275572380099,0.997857910172144,-0.00177222655639753,0.997857910040437,-0.00177222659264231,0.0021391683977896,0.000350359028502112
1,0.00242278132851936,0.00042048399468797,0.997565702088991,-0.00326347983412489,0.997565702082355,-0.00326347974677788,0.00242273420013817,0.000420694680734357
1.5,0.00265947767361752,0.000400189026372288,0.997342516097063,-0.00461060202416519,0.997342516082199,-0.00461060202703578,0.00265942819040532,0.000400615953807915
2,0.00283602038904007,0.000308535336650095,0.997184311976916,-0.00593009793754362,0.997184311925764,-0.00593009797555766,0.0028360274455892,0.00030916293813732
2.5,0.00296104309708767,0.000193003790180057,0.99705618113914,-0.00724540447492927,0.997056181057026,-0.00724540451941635,0.0029611329886734,0.000193808932735351
3,0.00305136456159261,7.33978107732014E-005,0.996941451902931,-0.00855859234582823,0.996941451799792,-0.00855859238387779,0.00305154975663768,7.43659300255217E-005
3.5,0.00311987856160201,-4.3613893083716E-005,0.996833291079525,-0.00986840055477956,0.99683329096435,-0.00986840058099858,0.00312016829142436,-4.248948538077E-005
4,0.00317499737645122,-0.000156505584293143,0.996729074839852,-0.0111738847676008,0.996729074720015,-0.0111738847804119,0.00317540150236795,-0.000155226564153566
4.5,0.00322203518475206,-0.000265581797794567,0.996627838301745,-0.0124748273631141,0.996627838183068,-0.0124748273630075,0.00322256535898902,-0.000264146848053315
5,0.00326438101847515,-0.000371717384950898,0.996529193919258,-0.0137715300384187,0.996529193806179,-0.0137715300271068,0.00326505097942942,-0.000370123343106599
5.5,0.00330425265119771,-0.000475901451661542,0.996432895077961,-0.0150645664057585,0.996432894973703,-0.0150645663855542,0.00330507830793714,-0.000474143922016168
6,0.00334315051592959,-0.000579086552935593,0.996338679811375,-0.0163546040727276,0.996338679718127,-0.0163546040461853,0.00334415003216293,-0.000577160225297746
6.5,0.00338212879444022,-0.000682151866691072,0.996246232420466,-0.0176422978867592,0.996246232339614,-0.0176422978564403,0.00338332273355135,-0.00068005067969068
7,0.0034219593721172,-0.000785907366648075,0.996155190277118,-0.0189282350233562,0.996155190209395,-0.0189282349917086,0.00342337091939449,-0.00078362458992487
7.5,0.00346323308291208,-0.000891111297882219,0.996065163858052,-0.0202129130532391,0.996065163803707,-0.0202129130224762,0.00346488835015535,-0.000888639573449979
8,0.00350642374536214,-0.000998490759606341,0.995975756926501,-0.0214967370253483,0.995975756885418,-0.021496736997431,0.00350835216294332,-0.000995822125574364
8.5,0.00355192968235851,-0.00110876201520327,0.995886582391465,-0.0227800263709028,0.99588658236328,-0.0227800263475331,0.00355416448733337,-0.00110588792644251
9,0.00360010130693755,-0.00122264979491504,0.995797273098062,-0.024063026028319,0.995797273082236,-0.0240630260109675,0.00360268014053755,-0.00121956115184574
9.5,0.00365125986829007,-0.0013409058627829,0.995707488222742,-0.0253459186155709,0.995707488218639,-0.0253459186054599,0.00365422550170535,-0.00133759305865411
10,0.00370571042305468,-0.00146432749185621,0.995616916328109,-0.0266288360037876,0.995616916335019,-0.0266288360019367,0.00370911163686571,-0.0014607804906035
10.5,0.00375671764597119,-0.00157643365328042,0.995512920225914,-0.0279188778993706,0.995512920233039,-0.0279188778978288,0.0037608148983086,-0.00156985008926469
11,0.00380667701574922,-0.0016912393757984,0.99540739474208,-0.0292051817030377,0.995407394749383,-0.029205181701812,0.00381182573290051,-0.0016817602419863
11.5,0.00385549800030027,-0.00180853312682672,0.995300543530793,-0.0304879139572272,0.995300543538243,-0.030487913956339,0.00386201589405921,-0.00179633201097573
12,0.0039031146248214,-0.00192811366081891,0.995192545231312,-0.031767247313244,0.995192545238873,-0.0317672473126933,0.00391128065677915,-0.00191338917254491
12.5,0.00394948199530454,-0.00204979145604867,0.995083554685032,-0.0330433576916445,0.995083554692676,-0.0330433576914277,0.00395953648570835,-0.00203276030877397
13,0.00399457306487694,-0.00217338957996738,0.99497370436434,-0.0343164218258778,0.994973704372036,-0.0343164218259897,0.00400671870597291,-0.00215428041260424
13.5,0.00403837568394128,-0.00229874409243713,0.994863105943051,-0.0355866151764879,0.994863105950767,-0.0355866151769337,0.00405277923946734,-0.00227779206585232
14,0.00408088995298428,-0.00242570408540566,0.994751851948218,-0.0368541101954829,0.99475185195593,-0.0368541101962556,0.00409768445201752,-0.00240314625052918
14.5,0.00412212588069139,-0.00255413144454941,0.994640017443089,-0.0381190749140217,0.994640017450771,-0.038119074915107,0.00414141314225436,-0.00253020285148509
15,0.00416210133815786,-0.00268390040578659,0.994527661700441,-0.0393816718236586,0.994527661708069,-0.0393816718250477,0.00418395469094079,-0.00265883090462893
15.5,0.00420084029223,-0.00281489696712889,0.99441482983421,-0.0406420570192765,0.994414829841764,-0.040642057020964,0.00422530737992144,-0.0027889086396673
16,0.00423837129628613,-0.00294701820499021,0.994301554365254,-0.0419003795719242,0.994301554372715,-0.0419003795738941,0.00426547688255452,-0.00292032336079018
16.5,0.00427472621411473,-0.00308017153419549,0.994187856703656,-0.0431567811004214,0.994187856711007,-0.0431567811026543,0.00430447492196073,-0.003052971202953
17,0.00430993915192168,-0.00321427394228735,0.994073748535884,-0.0444113955124408,0.994073748543108,-0.0444113955149223,0.0043423180895541,-0.0031867567958006
17.5,0.00434404557377044,-0.00334925122128915,0.993959233109782,-0.0456643488878132,0.993959233116868,-0.0456643488905382,0.00437902681381885,-0.00332159286197609
18,0.00437708157705963,-0.00348503721433957,0.993844306414292,-0.046915759479278,0.993844306421229,-0.0469157594822285,0.00441462446769214,-0.00345739977196402
18.5,0.00440908330617473,-0.00362157308935274,0.993728958253741,-0.0481657378085742,0.993728958260517,-0.0481657378117255,0.00444913660217372,-0.00359410507331681
19,0.0044400864845715,-0.00375880664842754,0.993613173218961,-0.049414386838361,0.993613173225568,-0.0494143868417058,0.00448259029367293,-0.00373164300855677
19.5,0.00447012604743002,-0.00389669167804385,0.993496931559165,-0.050661802202919,0.993496931565599,-0.0506618022064416,0.00451501359280826,-0.00386995403280643
20,0.00449923585918088,-0.00403518734337815,0.993380209959718,-0.0519080724831085,0.993380209965971,-0.0519080724867944,0.00454643506298225,-0.00400898433967711
20.5,0.00452744850202702,-0.0041742576275805,0.993262982231736,-0.0531532795130509,0.993262982237804,-0.0531532795168896,0.00457688339778017,-0.00414868540168989
21,0.00455479512354406,-0.00431387081615497,0.993145219919945,-0.0543974987082869,0.993145219925824,-0.0543974987122589,0.00460638710712247,-0.00428901352977817
21.5,0.00458130533294332,-0.00445399902515042,0.993026892835355,-0.0556407994066017,0.993026892841043,-0.0556407994106962,0.0046349742629761,-0.00442992945492549
22,0.00460700713721041,-0.004594617771426,0.992907969519379,-0.0568832452146602,0.992907969524874,-0.056883245218863,0.00466267229636896,-0.0045713979338089
22.5,0.00463192690954761,-0.00473570558282077,0.992788417645816,-0.0581248943546075,0.992788417651119,-0.0581248943589028,0.00468950783834221,-0.00471338737955307
23,0.00465608938377038,-0.00487724364563746,0.992668204366869,-0.0593658000061623,0.992668204371981,-0.0593658000105428,0.00471550659827646,-0.0048558695177281
23.5,0.00467951766930685,-0.00501921548694817,0.992547296609071,-0.0606060106408108,0.99254729661399,-0.0606060106452642,0.00474069327387938,-0.00499881906756627
24,0.00470223328231212,-0.00516160668894017,0.992425661324543,-0.0618455703452909,0.992425661329272,-0.0618455703498011,0.0047650914877917,-0.00514221344755228
24.5,0.00472425618915961,-0.00530440463282211,0.992303265702665,-0.0630845191325413,0.992303265707205,-0.0630845191371012,0.00478872374642525,-0.00528603250468684
25,0.00474560485923903,-0.00544759826962782,0.992180077346788,-0.0643228932387032,0.992180077351143,-0.064322893243304,0.00481161141727948,-0.00543025826612187
25.5,0.00476629632450032,-0.00559117791560659,0.992056064420226,-0.0655607254053292,0.9920560644244,-0.0655607254099655,0.00483377472144708,-0.00557487471207629
26,0.00478634624366092,-0.00573513506990686,0.991931195765341,-0.0667980451463182,0.991931195769336,-0.0667980451509749,0.0048552327385234,-0.00571986756867648
26.5,0.00480576896939044,-0.00587946225240188,0.991805440999188,-0.0680348789994154,0.991805441003006,-0.0680348790040846,0.00487600342153471,-0.00586522411943058
27,0.00482457761709343,-0.00602415285971869,0.991678770588804,-0.0692712507623066,0.991678770592451,-0.0692712507669855,0.00489610361983572,-0.00601093303394151
27.5,0.00484278413420292,-0.00616920103770813,0.991551155908899,-0.070507181713678,0.991551155912378,-0.070507181718356,0.00491554910827252,-0.00615698421267208
28,0.00486039936910654,-0.00631460156858399,0.991422569284401,-0.0717426908195167,0.991422569287717,-0.0717426908241867,0.00493435462113789,-0.00630336864640491
28.5,0.00487743313902689,-0.00646034977140886,0.991292984020026,-0.0729777949253769,0.991292984023182,-0.0729777949300319,0.00495253388971328,-0.00645007828935373
29,0.00489389429633613,-0.00660644141433231,0.991162374418787,-0.0742125089349521,0.991162374421789,-0.0742125089395866,0.00497009968237605,-0.00659710594459995
29.5,0.00490979079290232,-0.00675287263750324,0.99103071579113,-0.0754468459758257,0.991030715793981,-0.0754468459804345,0.0049870638464069,-0.00674444516095551
30,0.00492512974216752,-0.00689963988548659,0.99089798445616,-0.0766808175529716,0.990897984458865,-0.076680817557552,0.00500343735081488,-0.0068920901402123
30.5,0.00493991747877653,-0.00704673984814352,0.99076415773626,-0.0779144336907267,0.990764157738825,-0.0779144336952724,0.0050192303295904,-0.00704003565385136
31,0.00495415961559031,-0.00719416940904871,0.990629213946229,-0.0791477030638568,0.990629213948657,-0.0791477030683678,0.00503445212492759,-0.00718827696832047
31.5,0.00496786109802305,-0.00734192560071723,0.990493132377888,-0.0803806331185575,0.990493132380185,-0.0803806331230232,0.0050491113300235,-0.00733680977818452
32,0.00498102625566577,-0.00749000556575297,0.990355893281047,-0.081613230183863,0.990355893283215,-0.0816132301882826,0.00506321583116021,-0.00748563014635284
32.5,0.00499365885118686,-0.00763840652340786,0.990217477841505,-0.0828454995742591,0.990217477843551,-0.082845499578629,0.00507677284882818,-0.00763473445072727
33,0.00500576212655068,-0.00778712574082086,0.99007786815677,-0.0840774456840201,0.990077868158698,-0.0840774456883384,0.00508978897770873,-0.00778411933668188
33.5,0.005017338846597,-0.00793616050853174,0.989937047209988,-0.0853090720739402,0.989937047211803,-0.0853090720782035,0.00510227022536586,-0.00793378167483283
34,0.00502839134005528,-0.00808550811965514,0.989794998842578,-0.08654038155092,0.989794998844283,-0.0865403815551247,0.0051142220495638,-0.00808371852353851
34.5,0.00503892153806146,-0.00823516585242245,0.989651707725937,-0.0877713762410268,0.989651707727538,-0.0877713762451702,0.00512564939412558,-0.00823392709571902
35,0.00504893101028009,-0.00838513095560867,0.989507159332573,-0.0890020576564794,0.989507159334074,-0.0890020576605615,0.00513655672328589,-0.00838440472955071
35.5,0.00505842099871989,-0.00853540063653568,0.989361339906927,-0.0902324267569945,0.989361339908331,-0.0902324267610117,0.00514694805453364,-0.00853514886264239
36,0.00506739244933907,-0.00868597205139388,0.989214236436123,-0.0914624840060192,0.989214236437435,-0.0914624840099734,0.00515682698991959,-0.00868615700939834
36.5,0.00507584604153599,-0.00883684229750958,0.989065836620851,-0.0926922294221511,0.989065836622075,-0.0926922294260359,0.00516619674583885,-0.00883742674117638
37,0.00508378221565364,-0.00898800840737568,0.988916128846536,-0.0939216626261459,0.988916128847675,-0.0939216626299668,0.00517506018132841,-0.00898895566899327
37.5,0.00509120119855122,-0.00913946734428706,0.988765102154923,-0.0951507828839722,0.988765102155983,-0.0951507828877238,0.00518341982487225,-0.00914074142857668
38,0.00509810302739444,-0.00929121599921956,0.988612746216202,-0.0963795891460411,0.988612746217186,-0.0963795891497226,0.00519127789979135,-0.00929278166738268
38.5,0.00510448757171264,-0.0094432511889595,0.98845905130173,-0.0976080800830861,0.988459051302641,-0.0976080800866965,0.0051986363482171,-0.00944507403353434
39,0.0051103545538628,-0.00959556965520658,0.988304008257454,-0.0988362541188677,0.988304008258297,-0.0988362541224079,0.00520549685373292,-0.00959761616635824
39.5,0.00511570356794672,-0.00974816806457302,0.988147608478052,-0.100064109460017,0.988147608478828,-0.100064109463486,0.00521186086269551,-0.00975040568842367
40,0.00512053409730973,-0.0099010430093287,0.987989843881847,-0.101291644123194,0.987989843882562,-0.101291644126592,0.00521772960431438,-0.00990344019887779
40.5,0.0051248455306801,-0.0100541910087895,0.987830706886532,-0.102518855959842,0.987830706887189,-0.10251885596317,0.00522310410952329,-0.0100567172679762
41,0.00512863717703696,-0.0102076085112657,0.98767019038569,-0.103745742678695,0.987670190386291,-0.103745742681951,0.00522798522869455,-0.0102102344326349
41.5,0.00513190827928242,-0.0103612918964675,0.987508287726151,-0.104972301866241,0.9875082877267,-0.104972301869426,0.00523237364826354,-0.0103639891929523
42,0.00513465802680563,-0.010515237478276,0.987344992686172,-0.106198531005299,0.987344992686671,-0.106198531008413,0.00523626990628923,-0.0105179790094949
42.5,0.00513688556698033,-0.0106694415078605,0.987180299454434,-0.107424427491887,0.987180299454886,-0.107424427494929,0.0052396744070255,-0.0106722013013725
43,0.00513859001569453,-0.0108239001770256,0.987014202609861,-0.10864998865048,0.98701420261027,-0.10864998865345,0.00524258743453376,-0.0108266534449202
43.5,0.00513977046695248,-0.0109786096217857,0.986846697102235,-0.109875211747866,0.986846697102603,-0.109875211750766,0.00524500916539059,-0.0109813327729613
44,0.00514042600161718,-0.011133565926067,0.986677778233604,-0.111100094005629,0.986677778233934,-0.111100094008461,0.00524693968054495,-0.0111362365745595
44.5,0.00514055569535579,-0.0112887651255527,0.986507441640452,-0.112324632611447,0.986507441640747,-0.112324632614211,0.00524837897635272,-0.0112913620952071
45,0.00514015862582912,-0.0114442032115658,0.98633568327663,-0.113548824729252,0.986335683276893,-0.113548824731948,0.00524932697484812,-0.0114467065373987
45.5,0.0051392338791842,-0.0115998761350546,0.98616249939701,-0.114772667508403,0.986162499397242,-0.114772667511029,0.00524978353328502,-0.0116022670615274
46,0.00513778055590129,-0.0117557798105237,0.98598788654185,-0.115996158091874,0.985987886542054,-0.115996158094434,0.0052497484529898,-0.011758040787039
46.5,0.00513579777602348,-0.0119119101200331,0.985811841521844,-0.117219293623656,0.985811841522021,-0.117219293626148,0.0052492214875612,-0.0119140247938736
47,0.00513328468383935,-0.0120682629170803,0.985634361403837,-0.118442071255281,0.98563436140399,-0.118442071257708,0.00524820235046676,-0.0120702161240454
47.5,0.00513024045202323,-0.012224834030552,0.98545544349718,-0.119664488151749,0.985455443497312,-0.119664488154114,0.00524669072204791,-0.0122266117834702
48,0.00512666428530648,-0.0123816192684858,0.985275085340702,-0.120886541496688,0.985275085340814,-0.120886541498985,0.00524468625599233,-0.0123832087438442
48.5,0.00512255542368995,-0.0125386144218353,0.985093284690274,-0.122108228496969,0.985093284690368,-0.122108228499204,0.00524218858528892,-0.0125400039447143
49,0.00511791314523559,-0.0126958152681498,0.984910039506944,-0.123329546386795,0.984910039507021,-0.123329546388969,0.00523919732769564,-0.0126969942955837
49.5,0.0051127367684824,-0.0128532175751088,0.984725347945626,-0.12455049243123,0.98472534794569,-0.124550492433341,0.00523571209076504,-0.0128541766781165
50,0.00510702565450006,-0.0130108171039742,0.984539208344312,-0.125771063929302,0.984539208344363,-0.125771063931354,0.00523173247643817,-0.0130115479483672
50.5,0.00510077920860913,-0.0131686096129648,0.984351619213785,-0.126991258216713,0.984351619213826,-0.126991258218705,0.00522725808523505,-0.0131691049390659
51,0.00509399688180721,-0.0133265908604523,0.98416257922783,-0.128211072668121,0.984162579227861,-0.128211072670053,0.00522228852008039,-0.0133268444618997
51.5,0.00508667817190878,-0.0134847566080794,0.983972087213889,-0.12943050469909,0.983972087213912,-0.129430504700967,0.00521682338976993,-0.0134847633098145
52,0.00507882262443084,-0.0136431026237487,0.983780142144181,-0.130649551767751,0.983780142144197,-0.13064955176957,0.00521086231210924,-0.0136428582592929
52.5,0.00507042983324393,-0.0138016246844774,0.983586743127232,-0.131868211376141,0.983586743127243,-0.131868211377904,0.00520440491675105,-0.0138011260726421
53,0.00506149944100716,-0.0139603185791168,0.983391889399822,-0.133086481071284,0.98339188939983,-0.133086481072993,0.00519745084773623,-0.013959563500209
53.5,0.00505203113940406,-0.0141191801109803,0.983195580319311,-0.134304358446058,0.983195580319318,-0.134304358447714,0.00518999976577145,-0.0141181672826134
54,0.00504202466920489,-0.0142782051002981,0.982997815356353,-0.135521841139808,0.982997815356357,-0.135521841141414,0.00518205135025633,-0.0142769341528988
54.5,0.00503147982015757,-0.0144373893865799,0.982798594087943,-0.136738926838795,0.982798594087946,-0.136738926840348,0.00517360530107409,-0.0144358608386614
55,0.00502039643073571,-0.0145967288308411,0.982597916190824,-0.137955613276451,0.982597916190829,-0.137955613277954,0.00516466134016294,-0.0145949440641187
55.5,0.00500877438775371,-0.0147562193176962,0.982395781435214,-0.139171898233471,0.982395781435221,-0.139171898234924,0.00515521921289103,-0.0147541805521163
56,0.00499661362585534,-0.0149158567573511,0.982192189678829,-0.140387779537769,0.982192189678839,-0.140387779539175,0.00514527868923584,-0.0149135670260878
56.5,0.00498391412689586,-0.0150756370874618,0.981987140861223,-0.1416032550643,0.981987140861237,-0.14160325506566,0.00513483956479233,-0.0150731002119495
57,0.004970675919233,-0.0152355562748689,0.981780634998396,-0.142818322734748,0.981780634998415,-0.142818322736063,0.00512390166161805,-0.0152327768399108
57.5,0.0049568990769184,-0.0153956103172477,0.981572672177678,-0.144032980517141,0.981572672177703,-0.14403298051841,0.00511246482892672,-0.0153925936462596
58,0.00494258371882583,-0.0155557952446062,0.981363252552869,-0.14524722642533,0.9813632525529,-0.145247226426556,0.00510052894364299,-0.0155525473750386
58.5,0.00492773000770158,-0.0157161071207157,0.981152376339624,-0.146461058518425,0.981152376339662,-0.146461058519609,0.00508809391082876,-0.0157126347796841
59,0.00491233814916042,-0.0158765420444009,0.980940043811075,-0.147674474900116,0.980940043811121,-0.147674474901259,0.00507515966399194,-0.0158728526245677
59.5,0.00489640839063005,-0.0160370961507574,0.980726255293676,-0.148887473717962,0.980726255293731,-0.148887473719064,0.00506172616528044,-0.0160331976865038
60,0.00487994102024822,-0.0161977656122563,0.98051101116326,-0.1501000531626,0.980511011163324,-0.150100053163662,0.00504779340558331,-0.0161936667561613
60.5,0.00486293636572788,-0.0163585466397453,0.980294311841303,-0.151312211466902,0.980294311841377,-0.151312211467926,0.0050333614045362,-0.0163542566394121
61,0.00484539479318594,-0.0165194354833802,0.980076157791379,-0.152523946905096,0.980076157791463,-0.152523946906083,0.00501843021043813,-0.0165149641586151
61.5,0.00482731670594722,-0.0166804284334519,0.979856549515804,-0.15373525779185,0.979856549515899,-0.1537352577928,0.00500299990009892,-0.0166757861538409
