"Freq [GHz]","re(St(P1,P1)) []","im(St(P1,P1)) []","re(St(P1,P2)) []","im(St(P1,P2)) []","re(St(P2,P1)) []","im(St(P2,P1)) []","re(St(P2,P2)) []","im(St(P2,P2)) []"
0,0.00261396846340745,0,0.997397716535488,0,0.997397718208958,0,0.00261397006607922,0
0.5,0.00291266520915201,0.000357831326581959,0.997082043551032,-0.00248674964933571,0.997082043480702,-0.0024867494033245,0.00291271560358553,0.000357692093430728
1,0.00325902239075049,0.000331853904711465,0.996719014106063,-0.00458835246912059,0.996719014045404,-0.00458835255116696,0.00325916033175133,0.000331519941653369
1.5,0.00352034831311698,0.000200445658229853,0.996602457308434,-0.00661936667108876,0.996602457312072,-0.00661936664786111,0.00352062142021481,0.00020002931273666
2,0.0036967057170294,5.16733571487293E-006,0.996429704416524,-0.00859947454976862,0.996429704457526,-0.00859947449971799,0.00369716912773299,4.56384358926698E-006
2.5,0.003813844444295,-0.000202925151125299,0.996246975227024,-0.010540059612012,0.996246975289964,-0.0105400595657912,0.00381448973380571,-0.000203783455098971
3,0.00389548953178576,-0.000407833920231582,0.996072115328285,-0.0124534519786828,0.996072115400832,-0.0124534519459836,0.00389629897756194,-0.000408980073736132
3.5,0.00395647445675174,-0.00060612029749052,0.995910043002846,-0.0143504601123716,0.995910043076584,-0.0143504600940254,0.00395743614560118,-0.000607569702459898
4,0.00400547850447808,-0.000798174163264775,0.995760131419271,-0.0162388448095783,0.995760131489263,-0.0162388448032331,0.00400658786401387,-0.000799934755658427
4.5,0.00404762485675114,-0.000985344610057837,0.995619786064985,-0.0181235680426042,0.995619786128755,-0.0181235680451408,0.0040488832806389,-0.000987421718068759
5,0.00408603568708799,-0.00116906292505092,0.995486044943194,-0.0200075603912211,0.99548604499978,-0.0200075603997618,0.00408744905110758,-0.00117146147201552
5.5,0.00412269060077186,-0.00135060863870962,0.995356203073835,-0.0218924288115119,0.995356203123157,-0.0218924288237261,0.00412426818086864,-0.00135333413806649
6,0.00415889950017956,-0.00153107650220363,0.995227995233432,-0.0237789674214604,0.995227995275848,-0.0237789674355255,0.00416065327202375,-0.00153413551577586
6.5,0.00419556892571915,-0.0017114006358625,0.995099598366424,-0.0256674904353247,0.995099598402489,-0.0256674904498553,0.00419751314372796,-0.00171480099724164
7,0.00423335668115676,-0.00189238982426687,0.99496957207089,-0.0275580384015406,0.994969572101244,-0.0275580384155383,0.00423550765036218,-0.00189614076369438
7.5,0.00427276457143844,-0.00207476025454056,0.994836786694204,-0.0294505023374576,0.994836786719477,-0.0294505023501834,0.00427514055278611,-0.00207887248780025
8,0.00431419589289472,-0.00225916261231696,0.99470035749133,-0.0313446970074196,0.994700357512118,-0.0313446970183335,0.00431681710415255,-0.00226364842335869
8.5,0.00435799229174494,-0.00244620375044846,0.994559590095408,-0.0332404034219742,0.994559590112251,-0.0332404034307068,0.00436088098085285,-0.00245107708213332
9,0.00440445824254176,-0.00263646398406969,0.994413937384726,-0.0351373929470427,0.994413937398111,-0.0351373929533167,0.00440763882005779,-0.00264174054454891
9.5,0.00445387794342356,-0.00283051111502886,0.994262966116177,-0.037035440520448,0.994262966126533,-0.0370354405240718,0.00445737716709216,-0.00283620850444599
10,0.00450652749956282,-0.00302891212160361,0.994106331375862,-0.0389343314702852,0.994106331383572,-0.038934331471129,0.00451037470860483,-0.00303504998248094
10.5,0.00452671882137068,-0.0032012962436756,0.993943892350373,-0.0408344667184615,0.993943892358209,-0.0408344667196392,0.00452677536772805,-0.00321176711433147
11,0.00454791021971745,-0.00337599882815454,0.993777178045636,-0.0427298080918508,0.993777178053568,-0.0427298080933625,0.00454452368731539,-0.00339075358007612
11.5,0.00457004748619916,-0.00355301528645136,0.993606464065013,-0.0446204661183653,0.993606464073016,-0.0446204661202341,0.00456354588536989,-0.00357196657599523
12,0.00459307047845625,-0.00373233675690798,0.993432004790347,-0.0465065661035133,0.99343200479839,-0.0465065661057338,0.00458376052835252,-0.00375536582902747
12.5,0.00461691391332919,-0.00391395066077749,0.993254033266003,-0.0483882453648654,0.99325403327406,-0.0483882453674482,0.00460508027293982,-0.00394091356339565
13,0.00464150815391262,-0.00409784117116985,0.993072761383964,-0.0502656506469545,0.99307276139201,-0.0502656506499015,0.00462741339119921,-0.00412857432907288
13.5,0.00466677997472464,-0.00428398960533372,0.992888380323455,-0.0521389357381867,0.992888380331461,-0.0521389357414943,0.00465066509036616,-0.00431831474135613
14,0.00469265329298607,-0.00447237475085771,0.992701061199973,-0.0540082593027424,0.992701061207914,-0.0540082593064017,0.00467473864322199,-0.00451010316986
14.5,0.0047190498574734,-0.00466297313644759,0.992510955881334,-0.0558737829335598,0.992510955889186,-0.0558737829375655,0.00469953634769871,-0.00470390940637344
15,0.00474588988925695,-0.00485575925700665,0.992318197931632,-0.0577356694262985,0.992318197939373,-0.057735669430647,0.00472496033495107,-0.0048997043327752
15.5,0.00477309267099102,-0.00505070576190292,0.992122903647907,-0.0595940812692657,0.992122903655515,-0.0595940812739411,0.00475091324469767,-0.00509745960410868
16,0.0048005770833337,-0.00524778361422662,0.99192517315839,-0.0614491793405492,0.991925173165846,-0.0614491793455496,0.00477729878547706,-0.0052971473567851
16.5,0.00482826208851139,-0.00544696222783259,0.991725091555327,-0.063301121800821,0.991725091562611,-0.0633011218061288,0.00480402219576437,-0.00549873994797423
17,0.00485606716216869,-0.00564820958753387,0.991522730039453,-0.0651500631680628,0.991522730046547,-0.0651500631736655,0.00483099062031656,-0.00570220972923607
17.5,0.00488391267544552,-0.00585149235723392,0.99131814705702,-0.0669961535595274,0.99131814706391,-0.066996153565408,0.00485811341417985,-0.00590752885537338
18,0.00491172022976549,-0.00605677597944254,0.991111389413854,-0.0688395380853795,0.991111389420527,-0.0688395380915265,0.0048853023852774,-0.00611466912785819
18.5,0.00493941294720701,-0.00626402476907106,0.990902493354148,-0.0706803563785368,0.990902493360592,-0.0706803563849308,0.00491247198485456,-0.00632360187114589
19,0.00496691571948449,-0.0064732020035585,0.990691485594562,-0.0725187422453644,0.990691485600764,-0.0725187422519893,0.00493953945374492,-0.00653429783955417
19.5,0.00499415541870207,-0.00668427001077099,0.990478384306747,-0.0743548234225013,0.990478384312699,-0.0743548234293439,0.00496642493119503,-0.00674672715183533
20,0.00502106107300704,-0.0068971902557653,0.990263200043567,-0.0761887214260071,0.990263200049262,-0.0761887214330486,0.00499305153195984,-0.0069608592506194
20.5,0.00504756401022233,-0.00711192342692257,0.990045936606122,-0.0780205514797485,0.990045936611551,-0.0780205514869738,0.00501934539649862,-0.00717666288362384
21,0.00507359797239759,-0.00732842952178192,0.98982659185019,-0.0798504225111687,0.98982659185535,-0.0798504225185646,0.00504523571834092,-0.0073941061037095
21.5,0.00509909920411789,-0.00754666793266168,0.989605158431995,-0.0816784372035668,0.989605158436882,-0.0816784372111172,0.00507065475206647,-0.00761315628503745
22,0.00512400651720735,-0.00776659753187747,0.989381624494131,-0.0835046920951052,0.989381624498741,-0.083504692102788,0.00509553780484029,-0.00783378015263558
22.5,0.0051482613343305,-0.00798817675636432,0.989155974293318,-0.0853292777158297,0.989155974297649,-0.0853292777236314,0.00511982321396398,-0.00805594382303365
23,0.00517180771380421,-0.00821136369138387,0.988928188772196,-0.0871522787550099,0.988928188776247,-0.0871522787629173,0.00514345231258384,-0.00827961285370638
23.5,0.00519459235775077,-0.00843611615292872,0.988698246077825,-0.0889737742520413,0.988698246081596,-0.0889737742600403,0.00516636938536608,-0.00850475229942482
24,0.00521656460559494,-0.00866239176846673,0.988466122029821,-0.0907938378050428,0.988466122033313,-0.0907938378131181,0.00518852161570571,-0.00873132677372368
24.5,0.00523767641469458,-0.0088901480556256,0.988231790541254,-0.0926125377921103,0.988231790544467,-0.0926125378002496,0.00520985902583265,-0.00895930051399674
25,0.00525788232979169,-0.00911934249845814,0.987995223995501,-0.0944299376008964,0.98799522399844,-0.0944299376090836,0.00523033441098997,-0.00918863744878262
25.5,0.00527713944279284,-0.00934993262100026,0.987756393582302,-0.0962460958629077,0.987756393584967,-0.0962460958711331,0.00524990326872105,-0.00941930126623181
26,0.00529540734426359,-0.00958187605775418,0.987515269596144,-0.0980610666894401,0.98751526959854,-0.0980610666976895,0.00526852372417863,-0.0096512554826047
26.5,0.00531264806789911,-0.00981513062094397,0.987271821700107,-0.0998748999066583,0.987271821702239,-0.099874899914921,0.00528615645224306,-0.00988446351011696
27,0.00532882602910645,-0.0100496543642024,0.987026019158118,-0.101687641287679,0.987026019159988,-0.101687641295946,0.00530276459717599,-0.010118888723289
27.5,0.00534390795874096,-0.0102854056426835,0.986777831038437,-0.103499332780142,0.986777831040049,-0.1034993327884,0.00531831369042923,-0.0103544945233587
28,0.00535786283290074,-0.0105223431693267,0.986527226391049,-0.105310012727783,0.98652722639241,-0.105310012736022,0.00533277156716627,-0.0105912444001977
28.5,0.00537066179965207,-0.0107604260673231,0.986274174401471,-0.107119716085139,0.986274174402586,-0.107119716093351,0.00534610828200016,-0.0108291019914137
29,0.00538227810339414,-0.0109996139186332,0.986018644523289,-0.108928474624547,0.986018644524163,-0.108928474632722,0.00535829602439192,-0.0110680311383442
29.5,0.00539268700756032,-0.0112398668086424,0.985760606591596,-0.110736317134942,0.985760606592234,-0.11073631714307,0.00536930903408644,-0.0113079959387656
30,0.00540186571624274,-0.0114811453668873,0.985500030919319,-0.11254326961203,0.985500030919729,-0.112543269620107,0.00537912351696543,-0.0115489607960946
30.5,0.00540979329526056,-0.0117234108040094,0.985236888378279,-0.114349355439742,0.985236888378466,-0.11434935544776,0.00538771756158948,-0.0117908904651216
31,0.00541645059314852,-0.0119666249449288,0.98497115046663,-0.116154595562789,0.9849711504666,-0.116154595570738,0.00539507105672976,-0.0120337500941483
31.5,0.00542182016247021,-0.0122107502583626,0.984702789364239,-0.117959008650373,0.984702789363999,-0.117959008658249,0.00540116561011722,-0.012277505263568
32,0.00542588618180884,-0.012455749882835,0.984431777977363,-0.11976261125118,0.98443177797692,-0.119762611258976,0.0054059844686086,-0.0125221220209202
32.5,0.00542863437875041,-0.0127015876492722,0.984158089973902,-0.121565417939827,0.984158089973261,-0.121565417947538,0.00540951243996438,-0.0127675669125082
33,0.00543005195412939,-0.0129482281003463,0.98388169981035,-0.123367441454947,0.983881699809519,-0.123367441462567,0.00541173581638037,-0.0130138070116486
33.5,0.00543012750774597,-0.0131956365067065,0.983602582751471,-0.125168692829227,0.983602582750455,-0.12516869283675,0.00541264229990108,-0.0132608099436693
34,0.00542885096577025,-0.0134437788802835,0.983320714883624,-0.126969181511663,0.983320714882431,-0.126969181519088,0.00541222092983464,-0.013508543907796
34.5,0.00542621350997776,-0.0136926219847862,0.98303607312256,-0.128768915482349,0.983036073121197,-0.128768915489669,0.00541046201224005,-0.0137569776960342
35,0.00542220750894705,-0.0139421333436198,0.982748635216423,-0.130567901360148,0.982748635214895,-0.130567901367359,0.00540735705156925,-0.0140060807092377
35.5,0.00541682645132534,-0.0141922812453057,0.982458379744619,-0.132366144503537,0.982458379742933,-0.132366144510639,0.00540289868451077,-0.0142558229704495
36,0.00541006488124633,-0.014443034746682,0.982165286113144,-0.134163649105025,0.982165286111306,-0.134163649112012,0.00539708061606915,-0.0145061751357565
36.5,0.0054019183359558,-0.0146943636739105,0.981869334546887,-0.135960418279389,0.981869334544905,-0.135960418286258,0.00538989755791427,-0.0147571085026921
37,0.00539238328568454,-0.0149462386215951,0.981570506079374,-0.13775645414617,0.981570506077254,-0.137756454152918,0.00538134516899827,-0.015008595016484
37.5,0.00538145707579414,-0.0151986309500436,0.981268782540361,-0.139551757906647,0.981268782538108,-0.139551757913273,0.00537141999844893,-0.0152606072741817
38,0.00536913787120742,-0.0154515127809214,0.980964146541637,-0.141346329915685,0.980964146539257,-0.14134632992219,0.00536011943073167,-0.0155131185268824
38.5,0.00535542460311872,-0.015704856991364,0.980656581461364,-0.143140169748697,0.980656581458865,-0.143140169755074,0.00534744163305464,-0.0157661026801645
39,0.0053403169179653,-0.0159586372067499,0.980346071427227,-0.144933276264058,0.980346071424613,-0.144933276270309,0.00533338550499017,-0.0160195342929104
39.5,0.0053238151286446,-0.0162128277922307,0.980032601298637,-0.146725647661228,0.980032601295914,-0.14672564766735,0.00531795063029492,-0.0162733885746045
40,0.00530592016793707,-0.0164674038431674,0.979716156648216,-0.148517281534855,0.979716156645391,-0.148517281540846,0.00530113723086512,-0.0165276413812969
40.5,0.00528663354409847,-0.0167223411745687,0.979396723742737,-0.150308174925107,0.979396723739815,-0.150308174930968,0.00528294612280794,-0.0167822692102955
41,0.00526595729857381,-0.0169776163096795,0.979074289523688,-0.152098324364503,0.979074289520675,-0.152098324370233,0.00526337867456228,-0.0170372491937743
41.5,0.00524389396578454,-0.0172332064677971,0.978748841587607,-0.153887725921417,0.978748841584508,-0.153887725927016,0.00524243676702585,-0.0172925590913495
42,0.00522044653493628,-0.0174890895514226,0.978420368166302,-0.15567637524052,0.978420368163123,-0.155676375245986,0.00522012275563727,-0.0175481772817681
42.5,0.00519561841377705,-0.017745244132862,0.978088858107056,-0.157464267580353,0.978088858103801,-0.15746426758569,0.00519643943434528,-0.0178040827538108
43,0.00516941339426075,-0.0180016494403388,0.97775430085293,-0.159251397848205,0.977754300849605,-0.159251397853408,0.00517139000141559,-0.0180602550964779
43.5,0.00514183562005149,-0.0182582853436961,0.97741668642321,-0.161037760632473,0.977416686419819,-0.161037760637543,0.00514497802701458,-0.0183166744885721
44,0.00511288955578473,-0.0185151323398145,0.977076005394081,-0.162823350232722,0.977076005390628,-0.162823350237661,0.00511720742250094,-0.0185733216877595
44.5,0.00508257995805098,-0.0187721715377318,0.976732248879586,-0.164608160687534,0.976732248876078,-0.164608160692343,0.00508808241137679,-0.0188301780191651
45,0.00505091184801337,-0.0190293846436069,0.97638540851289,-0.166392185800348,0.976385408509332,-0.166392185805027,0.00505760750182224,-0.0190872253635961
45.5,0.0050178904856033,-0.0192867539455466,0.976035476427923,-0.168175419163404,0.976035476424317,-0.168175419167954,0.00502578746076529,-0.0193444461454657
46,0.00498352134522839,-0.0195442622983455,0.975682445241384,-0.169957854179928,0.975682445237736,-0.169957854184347,0.0049926272894156,-0.0196018233204391
46.5,0.00494781009293269,-0.0198018931082165,0.975326308035187,-0.171739484084681,0.975326308031501,-0.171739484088972,0.0049581322002071,-0.0198593403629186
47,0.00491076256493286,-0.0200596303175256,0.97496705833931,-0.173520301962984,0.974967058335591,-0.173520301967147,0.00492230759508894,-0.0201169812533548
47.5,0.00487238474748436,-0.0203174583895871,0.974604690115103,-0.175300300768318,0.974604690111353,-0.175300300772355,0.00488515904510511,-0.0203747304654778
48,0.00483268275800566,-0.0205753622935614,0.97423919773904,-0.177079473338617,0.974239197735264,-0.177079473342529,0.00484669227120771,-0.0206325729534811
48.5,0.00479166282740581,-0.0208333274894597,0.973870575986935,-0.178857812411315,0.973870575983137,-0.178857812415103,0.00480691312624551,-0.0208904941391821
49,0.00474933128355609,-0.0210913399133226,0.973498820018613,-0.180635310637267,0.973498820014797,-0.180635310640931,0.00476582757807142,-0.021148479899205
49.5,0.00470569453584851,-0.0213493859625742,0.973123925363048,-0.182411960593603,0.973123925359216,-0.182411960597146,0.0047234416937223,-0.0214065165522417
50,0.00466075906079011,-0.0216074524815655,0.972745887903955,-0.184187754795587,0.972745887900112,-0.184187754799011,0.00467976162461234,-0.0216645908463549
50.5,0.00461453138857465,-0.0218655267473618,0.972364703865844,-0.185962685707572,0.972364703861994,-0.185962685710878,0.00463479359269464,-0.0219226899464307
51,0.00456701809058979,-0.0221235964557507,0.971980369800522,-0.187736745753079,0.971980369796667,-0.187736745756267,0.00458854387753979,-0.0221808014217402
51.5,0.00451822576779934,-0.0223816497075133,0.971592882574034,-0.189509927324101,0.971592882570178,-0.189509927327174,0.00454101880428764,-0.0224389132336622
52,0.00446816103995878,-0.0226396749949656,0.971202239354048,-0.191282222789671,0.971202239350194,-0.19128222279263,0.00449222473242206,-0.0226970137235791
52.5,0.00441683053562875,-0.022897661188765,0.970808437597668,-0.193053624503718,0.970808437593817,-0.193053624506564,0.00444216804533676,-0.0229550916009535
53,0.00436424088291898,-0.0231555975250091,0.970411475039656,-0.194824124812312,0.970411475035813,-0.194824124815048,0.00439085514063098,-0.0232131359315977
53.5,0.0043103987009499,-0.023413473592631,0.970011349681075,-0.196593716060303,0.970011349677242,-0.19659371606293,0.00433829242111899,-0.0234711361261777
54,0.00425531059196499,-0.0236712793210869,0.969608059778322,-0.19836239059741,0.969608059774501,-0.19836239059993,0.0042844862864938,-0.0237290819289169
54.5,0.00419898313407763,-0.0239290049683381,0.969201603832552,-0.200130140783798,0.969201603828748,-0.200130140786213,0.00422944312562423,-0.0239869634065335
55,0.00414142287460328,-0.0241866411091509,0.968791980579486,-0.201896958995175,0.968791980575699,-0.201896958997488,0.00417316930943745,-0.0242447709374232
55.5,0.00408263632394418,-0.0244441786236944,0.968379188979569,-0.203662837627455,0.968379188975802,-0.203662837629665,0.00411567118436657,-0.0245024952010708
56,0.00402262994999913,-0.024701608686442,0.967963228208503,-0.205427769101002,0.967963228204759,-0.205427769103113,0.00405695506631704,-0.0247601271677231
56.5,0.00396141017306273,-0.0249589227553799,0.967544097648112,-0.207191745864487,0.967544097644393,-0.2071917458665,0.00399702723513612,-0.0250176580882857
57,0.00389898336117961,-0.0252161125615187,0.967121796877545,-0.2089547603984,0.967121796873852,-0.208954760400317,0.00393589392954147,-0.0252750794845023
57.5,0.00383535582593764,-0.0254731700987083,0.966696325664804,-0.210716805218225,0.96669632566114,-0.210716805220049,0.00387356134249506,-0.0255323831393555
58,0.00377053381866038,-0.0257300876137565,0.966267683958577,-0.212477872877316,0.966267683954945,-0.212477872879048,0.00381003561698329,-0.025789561087747
58.5,0.00370452352698364,-0.0259868575968194,0.96583587188039,-0.214237955969464,0.96583587187679,-0.214237955971105,0.00374532284219342,-0.0260466056073971
59,0.00363733107177999,-0.0262434727721139,0.965400889717027,-0.215997047131231,0.965400889713461,-0.215997047132785,0.00367942905004293,-0.0263035092100306
59.5,0.0035689625044229,-0.0264999260888978,0.964962737913251,-0.217755139044017,0.964962737909722,-0.217755139045484,0.00361236021205846,-0.0265602646327774
60,0.00349942380435581,-0.0267562107127399,0.964521417064791,-0.219512224435899,0.964521417061301,-0.219512224437282,0.00354412223657058,-0.0268168648298479
60.5,0.00342872087695589,-0.0270123200170573,0.964076927911591,-0.221268296083269,0.964076927908141,-0.22126829608457,0.00347472096620921,-0.0270733029644306
61,0.00335685955166526,-0.027268247574932,0.963629271331312,-0.223023346812256,0.963629271327902,-0.223023346813477,0.00340416217567924,-0.0273295724008356
61.5,0.0032838455803707,-0.0275239871512043,0.963178448333075,-0.224777369499987,0.963178448329708,-0.224777369501131,0.00333245156979756,-0.0275856666968903
62,0.00320968463602905,-0.0277795326947987,0.962724460051451,-0.22653035707566,0.962724460048128,-0.226530357076727,0.00325959478177562,-0.0278415795965374
