"Freq [GHz]","re(St(P1,P1)) []","im(St(P1,P1)) []","re(St(P1,P2)) []","im(St(P1,P2)) []","re(St(P2,P1)) []","im(St(P2,P1)) []","re(St(P2,P2)) []","im(St(P2,P2)) []"
0,0.00387816101306271,0,0.996135137684178,0,0.996135134875658,0,0.00387815493911603,0
0.5,0.00433902627778338,0.000158170702444949,0.99564440560389,-0.00441348706782918,0.995644405688637,-0.00441348695082411,0.00433886770116487,0.000158644600780633
1,0.00477715702617942,-0.000262899940494776,0.995148584880145,-0.00824608023663842,0.995148584845513,-0.00824608008934291,0.00477673846540583,-0.000261739417908302
1.5,0.00506338656770566,-0.000803384955744946,0.994763063531224,-0.0120932039760469,0.994763063571199,-0.012093203864719,0.00506263711889687,-0.000801554248489822
2,0.00522896047557886,-0.00138600942792877,0.994412297681025,-0.015810192594401,0.99441229775065,-0.015810192533749,0.00522791312141813,-0.00138333301315541
2.5,0.00532672321703487,-0.00196390845760774,0.994111445304714,-0.01945879556013,0.99411144537655,-0.0194587955403129,0.00532544717746219,-0.00196031849650069
3,0.00538789247290694,-0.00252915449031832,0.993848920252805,-0.0230757273078588,0.993848920315211,-0.0230757273151099,0.00538643682134143,-0.00252463193765351
3.5,0.00542859234583304,-0.00308298956687381,0.993608709315462,-0.0266786933884617,0.993608709365162,-0.0266786934117711,0.00542698557598253,-0.00307753227157193
4,0.00545727568930143,-0.0036281506293605,0.993377303370735,-0.0302751650669428,0.993377303408011,-0.0302751650987414,0.00545553242366736,-0.00362176115953616
4.5,0.00547858325938932,-0.00416714140641794,0.99314463647693,-0.033867802829354,0.993144636503288,-0.0338678028647372,0.0054767094012238,-0.00415982276415683
5,0.00549519307416801,-0.00470196265060885,0.992903467281757,-0.0374571898236464,0.992903467298925,-0.0374571898594755,0.00549318902514795,-0.0046937168613379
5.5,0.00550872346388687,-0.0052341700255365,0.992648606383487,-0.0410431019831936,0.992648606393062,-0.0410431020174933,0.0055065860574941,-0.00522499775584073
6,0.00552019308070539,-0.00576498060433295,0.992376309344746,-0.0446250685213929,0.99237630934808,-0.0446250685529197,0.00551791674876423,-0.0057548811369319
6.5,0.00553026626856701,-0.00629536497996952,0.99208385121483,-0.0482026030026343,0.99208385121303,-0.0482026030306262,0.00552784375698234,-0.00628433630012815
7,0.00553938981336488,-0.00682611631225072,0.991769237062218,-0.0517752854358235,0.99176923705617,-0.0517752854598292,0.00553681262954475,-0.00681415521612827
7.5,0.00554787226672859,-0.00735789992588209,0.991431004447696,-0.0553427794469243,0.991431004438113,-0.055342779466681,0.00554513096373421,-0.00734500212004008
8,0.00555593163936763,-0.00789128859448063,0.991068086237771,-0.0589048233788425,0.991068086225223,-0.0589048233942435,0.00555301599815627,-0.00787744877786345
8.5,0.00556372500887981,-0.00842678774069761,0.99067971307949,-0.0624612130097937,0.990679713064437,-0.0624612130208035,0.00556062415527547,-0.0084119996682972
9,0.00557136743156117,-0.00896485361956856,0.990265342404374,-0.0660117836292411,0.990265342387193,-0.0660117836358847,0.00556806991026559,-0.00894911014980515
9.5,0.00557894433298767,-0.00950590661630368,0.989824605639512,-0.0695563945274538,0.989824605620514,-0.0695563945298066,0.00557543815261585,-0.00948919974459805
10,0.00558651981196401,-0.0100503411202553,0.989357268278067,-0.073094916782904,0.989357268257514,-0.0730949167810548,0.00558279246994808,-0.0100326620011639
10.5,0.0055933926070828,-0.0105834620351901,0.988919916644283,-0.0766385883916563,0.988919916623645,-0.0766385883891259,0.00558953791627181,-0.0105648989131391
11,0.00559840286931057,-0.0111201712201652,0.988470137643359,-0.0801716853604333,0.988470137622704,-0.0801716853572128,0.00559441466854393,-0.0111007250640665
11.5,0.00560132554453163,-0.0116604649908876,0.988008469253563,-0.0836945631099475,0.988008469232957,-0.0836945631060404,0.00559719754189525,-0.0116401369595502
12,0.00560194076764409,-0.0122043252880113,0.987535388184245,-0.0872075955166567,0.987535388163751,-0.0872075955120719,0.00559766651664184,-0.0121831167293474
12.5,0.00560003477158921,-0.0127517205599288,0.987051312425871,-0.0907111677636756,0.987051312405548,-0.0907111677584265,0.00559560764794143,-0.012729633007841
13,0.00559540067853737,-0.0133026066892841,0.98655660437977,-0.0942056700795222,0.986556604359674,-0.0942056700736282,0.00559081385786553,-0.0132796418583672
13.5,0.00558783917470346,-0.013856927948912,0.986051574397975,-0.097691492349643,0.986051574378157,-0.0976914923431282,0.00558308561135568,-0.0138330877271589
14,0.00557715907190071,-0.0144146179737854,0.985536484585143,-0.101169019563321,0.985536484565653,-0.101169019556217,0.00557223147911184,-0.0143899044134823
14.5,0.00556317776020937,-0.0149756007368742,0.985011552736622,-0.104638628043063,0.985011552717501,-0.104638628035396,0.005558068591758,-0.0149500160438976
15,0.00554572155728228,-0.0155397915179112,0.984476956308348,-0.108100682392775,0.984476956289634,-0.108100682384584,0.00554042299078711,-0.0155133380396775
15.5,0.00552462596066045,-0.016107097855512,0.983932836334572,-0.111555533095263,0.9839328363163,-0.111555533086583,0.00551912988259839,-0.0160797780677582
16,0.00549973581010743,-0.0166774204742648,0.983379301227842,-0.115003514687053,0.98337930121004,-0.115003514677921,0.00549403380260816,-0.0166492369669404
16.5,0.00547090536742303,-0.0172506541798025,0.982816430412086,-0.118444944439104,0.982816430394779,-0.118444944429561,0.00546498869687587,-0.0172216096422471
17,0.00543799832142217,-0.0178266887160552,0.982244277753738,-0.12188012147447,0.982244277736947,-0.121880121464555,0.00543185792889267,-0.0177967859216883
17.5,0.00540088772590738,-0.0184054095801161,0.981662874767883,-0.125309326258113,0.981662874751624,-0.125309326247863,0.00539451421932452,-0.0183746513708378
18,0.00535945587832609,-0.0189866987911618,0.98107223358622,-0.12873282039892,0.981072233570506,-0.128732820388377,0.00535283952641274,-0.0189550880616443
18.5,0.00531359414672282,-0.0195704356110529,0.980472349681677,-0.132150846709724,0.980472349666518,-0.132150846698922,0.00530672487458521,-0.0195379752930593
19,0.00526320275223628,-0.0201564972149511,0.97986320435076,-0.13556362947675,0.979863204336163,-0.135563629465734,0.00525607013853577,-0.0201231902618915
19.5,0.00520819051409695,-0.0207447593112793,0.979244766959576,-0.138971374895712,0.979244766945543,-0.138971374884514,0.00520078378971553,-0.0207106086830624
20,0.00514847456364194,-0.0213350967109549,0.978616996962931,-0.142374271637261,0.978616996949465,-0.142374271625915,0.00514078261173086,-0.0213001053592881
20.5,0.00508398003341233,-0.0219273838464846,0.977979845708525,-0.145772491509732,0.977979845695621,-0.145772491498276,0.00507599139072328,-0.0218915547007112
21,0.00501463972691187,-0.0225214952420361,0.977333258039725,-0.149166190191931,0.977333258027381,-0.149166190180393,0.00500634258629601,-0.0224848311955599
21.5,0.00494039377413211,-0.0231173059359775,0.976677173711504,-0.152555508012918,0.976677173699713,-0.152555508001331,0.00493177598808724,-0.0230798098333769
22,0.00486118927740595,-0.0237146918577684,0.976011528634345,-0.155940570759778,0.9760115286231,-0.155940570748173,0.00485223836257404,-0.0236763664826021
22.5,0.00477697995171353,-0.0243135301613591,0.97533625596102,-0.159321490497736,0.97533625595031,-0.159321490486138,0.00476768309419985,-0.0242743782247161
23,0.00468772576302394,-0.024913699517394,0.97465128703066,-0.162698366389896,0.974651287020476,-0.162698366378332,0.00467806982445002,-0.0248737236472123
23.5,0.00459339256787457,-0.0255150803666742,0.973956552184074,-0.166071285506542,0.973956552174403,-0.166071285495038,0.00458336409204646,-0.0254742830978119
24,0.00449395175687291,-0.0261175551374917,0.97325198146342,-0.169440323616154,0.97325198145425,-0.169440323604732,0.00448353697697729,-0.0260759389025682
24.5,0.00438937990446868,-0.0267210084293423,0.972537505208584,-0.172805545952091,0.972537505199901,-0.172805545940771,0.00437856475070215,-0.0266785755503283
25,0.00427965842693073,-0.0273253271656526,0.971813054561665,-0.176167007950535,0.971813054553456,-0.176167007939338,0.0042684285344782,-0.0272820798461959
25.5,0.0041647732501362,-0.0279304007180285,0.971078561890092,-0.179524755956566,0.97107856188234,-0.179524755945509,0.00415311396742202,-0.0278863410364765
26,0.00404471448845406,-0.0285361210045409,0.970333961137957,-0.182878827896334,0.970333961130647,-0.182878827885434,0.00403261088559173,-0.0284912509076585
26.5,0.00391947613573998,-0.0291423825644013,0.969579188114307,-0.186229253914121,0.969579188107423,-0.186229253903391,0.00390691301312043,-0.0290967038617138
27,0.00378905576919081,-0.0297490826113682,0.968814180726255,-0.189576056973892,0.968814180719781,-0.189576056963348,0.00377601766614694,-0.0297025969701248
27.5,0.00365345426659872,-0.0303561210680341,0.96803887916399,-0.192919253425392,0.968038879157911,-0.192919253415046,0.00363992547009678,-0.0303088300087335
28,0.00351267553733836,-0.0309634005830866,0.967253226044042,-0.196258853535348,0.967253226038342,-0.196258853525212,0.00349864009065048,-0.0309153054755265
28.5,0.00336672626726481,-0.031570826533422,0.966457166516441,-0.199594861984642,0.966457166511102,-0.199594861974724,0.00335216797858412,-0.0315219285932447
29,0.0032156156775377,-0.0321783070129862,0.965650648340781,-0.202927278332602,0.965650648335789,-0.202927278322911,0.00320051812850009,-0.032128607298664
29.5,0.00305935529727946,-0.0327857528099571,0.964833621935666,-0.206256097449699,0.964833621931003,-0.206256097440244,0.00304370185136338,-0.0327352522201845
30,0.00289795874985621,-0.0333930773738627,0.96400604040542,-0.209581309920118,0.964006040401072,-0.209581309910903,0.00288173256063912,-0.0333417766453077
30.5,0.00273144155250454,-0.034000196774004,0.963167859547552,-0.21290290241566,0.963167859543502,-0.212902902406692,0.00271462557175062,-0.0339480964794001
31,0.00255982092892604,-0.0346070296505401,0.962319037843972,-0.216220858042574,0.962319037840205,-0.216220858033857,0.00254239791449462,-0.0345541301970425
31.5,0.00238311563446059,-0.0352134971593454,0.961459536438632,-0.219535156662837,0.961459536435133,-0.219535156654377,0.00236506815801535,-0.0351597987871632
32,0.00220134579334863,-0.0358195229117952,0.960589319103881,-0.222845775191475,0.960589319100636,-0.222845775183273,0.00218265624786812,-0.0357650256930211
32.5,0.00201453274762392,-0.0364250329103539,0.959708352197571,-0.226152687871371,0.959708352194565,-0.226152687863429,0.00199518335469728,-0.0363697367479938
33,0.00182269891710135,-0.0370299554809197,0.958816604612625,-0.229455866527089,0.958816604609844,-0.229455866519408,0.00180267173401105,-0.0369738601080654
33.5,0.00162586766994643,-0.0376342212026204,0.957914047720601,-0.232755280799086,0.957914047718031,-0.232755280791668,0.00160514459653388,-0.037577326181756
34,0.00142406320329325,-0.0382377628358186,0.957000655310543,-0.236050898359696,0.957000655308172,-0.236050898352541,0.00140262598860563,-0.0381800675582187
34.5,0.00121731043336448,-0.0388405152488858,0.956076403524234,-0.239342685112132,0.956076403522048,-0.239342685105237,0.00119514068209031,-0.0387820189340928
35,0.00100563489458183,-0.0394424153443187,0.955141270788796,-0.242630605373763,0.955141270786784,-0.242630605367129,0.000982714073270219,-0.0393831170396681
35.5,0.000789062647131744,-0.0400434019846276,0.954195237747488,-0.245914622044782,0.954195237745637,-0.245914622038407,0.000765372090206551,-0.0399833005648067
36,0.000567620192480189,-0.0406434159184634,0.953238287189342,-0.249194696763377,0.95323828718764,-0.249194696757259,0.000543141108048095,-0.0405825100850805
36.5,0.000341334396340431,-0.0412423997072722,0.952270403978271,-0.252470790048377,0.952270403976707,-0.252470790042512,0.000316047871808611,-0.0411806879884176
37,0.000110232418620348,-0.0418402976528345,0.951291574982107,-0.255742861430349,0.951291574980671,-0.255742861424734,8.41194261156919E-005,-0.0417777784026248
37.5,-0.000125658350124735,-0.0424370557259031,0.950301789001993,-0.259010869572008,0.950301789000675,-0.259010869566642,-0.000152616948511652,-0.0423737271239912
38,-0.000366310346164578,-0.0430326214962071,0.949301036702468,-0.262274772378793,0.949301036701258,-0.262274772373671,-0.000394133793314655,-0.0429684815472364
38.5,-0.00061169588442278,-0.043626944063945,0.948289310542516,-0.265534527100315,0.948289310541404,-0.265534527095433,-0.000640403523288424,-0.043561990596956
39,-0.000861787205052589,-0.0442199739929579,0.94726660470782,-0.268790090423438,0.947266604706798,-0.268790090418792,-0.000891398473919225,-0.0441542046607255
39.5,-0.00111655651515635,-0.0448116632456821,0.94623291504438,-0.272041418557625,0.946232915043439,-0.272041418553212,-0.00114709094305399,-0.0447450755239718
40,-0.00137597602599959,-0.0454019651199782,0.945188238993663,-0.275288467313154,0.945188238992795,-0.275288467308967,-0.00140745322825298,-0.0453345563067282
40.5,-0.00164001798606211,-0.0459908341879101,0.944132575529369,-0.278531192172768,0.944132575528565,-0.278531192168802,-0.00167245765998203,-0.045922601402318
41,-0.0019086547102492,-0.0465782262365064,0.943065925095913,-0.281769548357277,0.943065925095168,-0.281769548353529,-0.00194207663094342,-0.0465091664180288
41.5,-0.00218185860556441,-0.0471640982105683,0.941988289548674,-0.285003490885605,0.941988289547979,-0.285003490882067,-0.00221628262187129,-0.0470942081178189
42,-0.00245960219352565,-0.0477484081575037,0.940899672096033,-0.288232974629684,0.940899672095383,-0.288232974626352,-0.00249504822405366,-0.0476776843670581
42.5,-0.00274185812959049,-0.0483311151742232,0.939800077243248,-0.291457954364642,0.939800077242636,-0.291457954361511,-0.00277834615886435,-0.0482595540793183
43,-0.00302859921984083,-0.0489121793560736,0.938689510738141,-0.29467838481465,0.938689510737562,-0.294678384811714,-0.00306614929453797,-0.0488397771652007
43.5,-0.00331979843514829,-0.0494915617477878,0.937567979518612,-0.297894220694745,0.937567979518061,-0.297894220691997,-0.0033584306604264,-0.0494183144831892
44,-0.0036154289230495,-0.0500692242964431,0.936435491661954,-0.301105416748985,0.936435491661424,-0.30110541674642,-0.00365516345895256,-0.0499951277925013
44.5,-0.00391546401752219,-0.0506451298063741,0.935292056335933,-0.304311927785205,0.935292056335421,-0.304311927782817,-0.00395632107545923,-0.0505701797078979
45,-0.00421987724684902,-0.0512192418960267,0.934137683751632,-0.307513708706653,0.934137683751133,-0.307513708704436,-0.00426187708614101,-0.0511434336564356
45.5,-0.00452864233974082,-0.0517915249566785,0.932972385117992,-0.310710714540738,0.932972385117502,-0.310710714538687,-0.00457180526422774,-0.0517148538360872
46,-0.00484173322988712,-0.0523619441130154,0.931796172598015,-0.313902900465143,0.931796172597532,-0.31390290046325,-0.00488607958458936,-0.0522844051762144
46.5,-0.00515912405907004,-0.0529304651854767,0.930609059266609,-0.317090221831482,0.930609059266127,-0.317090221829743,-0.00520467422689658,-0.0528520532998247
47,-0.00548078917898687,-0.0534970546543538,0.929411059069992,-0.320272634186728,0.929411059069509,-0.320272634185136,-0.00552756357748752,-0.0534177644875695
47.5,-0.00580670315190163,-0.05406167962556,0.928202186786637,-0.323450093292546,0.928202186786151,-0.323450093291097,-0.00585472223005723,-0.0539815056434236
48,-0.0061368407502479,-0.0546243077980271,0.926982457989698,-0.326622555142737,0.926982457989206,-0.326622555141422,-0.00618612498529103,-0.0545432442619944
48.5,-0.00647117695528526,-0.0551849074326822,0.925751889010864,-0.329789975978908,0.925751889010364,-0.329789975977723,-0.00652174684954887,-0.0551029483974133
49,-0.0068096869549088,-0.055743447322931,0.924510496905599,-0.33295231230453,0.924510496905088,-0.332952312303469,-0.00686156303269708,-0.055660586633737
49.5,-0.00715234614070631,-0.0562998967666097,0.923258299419714,-0.336109520897494,0.923258299419192,-0.336109520896552,-0.00720554894518377,-0.0562161280568223
50,-0.00749913010434045,-0.0568542255393387,0.921995314957233,-0.339261558821291,0.921995314956698,-0.339261558820462,-0.00755368019443331,-0.0567695422276022
50.5,-0.00785001463333451,-0.057406403869223,0.920721562549482,-0.342408383434911,0.920721562548933,-0.342408383434188,-0.00790593258064398,-0.0573207991567224
51,-0.00820497570633627,-0.0579564024128629,0.919437061825386,-0.345549952401579,0.919437061824821,-0.345549952400958,-0.00826228209205487,-0.0578698692804773
51.5,-0.00856398948791498,-0.058504192232594,0.918141832982901,-0.348686223696397,0.918141832982321,-0.348686223695872,-0.00862270489974615,-0.0584167234379922
52,-0.00892703232295983,-0.0590497447749312,0.916835896761555,-0.351817155612988,0.916835896760957,-0.351817155612554,-0.00898717735203414,-0.058961332849611
52.5,-0.00929408073072463,-0.059593031850151,0.915519274416035,-0.35494270676922,0.915519274415421,-0.354942706768872,-0.00935567596851256,-0.0595036690964175
53,-0.00966511139857651,-0.0601340256129781,0.91419198769081,-0.358062836112072,0.914191987690178,-0.358062836111804,-0.0097281774337914,-0.0600437041008768
53.5,-0.0100401011754803,-0.0606726985442978,0.912854058795715,-0.361177502921703,0.912854058795066,-0.361177502921511,-0.0101046585909714,-0.0605814101085036
54,-0.0104190270652742,-0.0612090234338958,0.911505510382481,-0.364286666814809,0.911505510381815,-0.364286666814688,-0.0104850964349034,-0.0611167596705517
54.5,-0.0108018662197648,-0.0617429733641346,0.910146365522157,-0.367390287747289,0.910146365521474,-0.367390287747235,-0.0108694681052658,-0.0616497256276618
55,-0.0111885959316739,-0.0622745216945579,0.908776647683408,-0.370488326016304,0.908776647682709,-0.37048832601631,-0.0112577508794934,-0.0621802810944274
55.5,-0.0115791936274702,-0.0628036420473601,0.907396380711635,-0.373580742261738,0.90739638071092,-0.3735807422618,-0.0116499221655845,-0.062708399444837
56,-0.0119736368601148,-0.0633303082936905,0.906005588808888,-0.376667497467147,0.906005588808159,-0.376667497467262,-0.0120459594948221,-0.0632340542985521
56.5,-0.0123719033017413,-0.0638544945407611,0.904604296514558,-0.379748552960205,0.904604296513815,-0.379748552960368,-0.0124458405144299,-0.0637572195079925
57,-0.0127739707362982,-0.0643761751196956,0.903192528686789,-0.382823870412684,0.903192528686033,-0.382823870412891,-0.0128495429801764,-0.0642778691461732
57.5,-0.0131798170521666,-0.0648953245741257,0.901770310484598,-0.385893411840032,0.90177031048383,-0.38589341184028,-0.0132570447489718,-0.0647959774952804
58,-0.0135894202347784,-0.0654119176494556,0.900337667350682,-0.388957139600543,0.900337667349904,-0.388957139600826,-0.0136683237714435,-0.0653115190359319
58.5,-0.0140027583592458,-0.0659259292828001,0.898894624994863,-0.392015016394167,0.898894624994076,-0.392015016394483,-0.0140833580845366,-0.0658244684371108
59,-0.0144198095830194,-0.0664373345935383,0.897441209378171,-0.395067005260987,0.897441209377376,-0.395067005261332,-0.0145021258041306,-0.0663348005467128
59.5,-0.0148405521385894,-0.0669461088744765,0.895977446697515,-0.39811306957939,0.895977446696714,-0.398113069579761,-0.0149246051177041,-0.0668424903827147
60,-0.0152649643262397,-0.0674522275835676,0.894503363370946,-0.401153173063937,0.89450336337014,-0.401153173064329,-0.0153507742770451,-0.0673475131249013
60.5,-0.01569302450686,-0.0679556663361882,0.893018986023462,-0.404187279762977,0.893018986022653,-0.404187279763389,-0.0157806115910256,-0.0678498441071484
61,-0.0161247110948373,-0.068456400897918,0.891524341473362,-0.40721535405601,0.891524341472551,-0.407215354056438,-0.0162140954184445,-0.0683494588102214
61.5,-0.0165600025510244,-0.0689544071778245,0.890019456719104,-0.410237360650824,0.890019456718293,-0.410237360651265,-0.0166512041609536,-0.068846332855069
62,-0.0169988773757933,-0.0694496612222077,0.888504358926664,-0.413253264580415,0.888504358925856,-0.413253264580866,-0.0170919162560645,-0.0693404419965964
