"Freq [GHz]","re(St(P1,P1)) []","im(St(P1,P1)) []","re(St(P1,P2)) []","im(St(P1,P2)) []","re(St(P2,P1)) []","im(St(P2,P1)) []","re(St(P2,P2)) []","im(St(P2,P2)) []"
0,0.00734173772150371,0,0.992676734938868,0,0.992676735768327,0,0.00734174236890794,0
0.5,0.0080849970877388,-0.000293201142127941,0.99184970560097,-0.00943619190141831,0.991849705484235,-0.00943619191065181,0.00808526774000384,-0.000293932473875103
1,0.00865000713909758,-0.00145639906648398,0.991060790861781,-0.0179946400171929,0.991060790834734,-0.017994639979344,0.00865070947653201,-0.00145817009096838
1.5,0.00899508022264683,-0.00274753782739268,0.990367587739854,-0.0263870861494766,0.990367587728803,-0.0263870861230799,0.00899654858756449,-0.00274981312741929
2,0.00916088430274975,-0.00408689963516373,0.989724755591918,-0.0347111751198366,0.989724755586728,-0.0347111751048388,0.0091631854859795,-0.0040903293938559
2.5,0.00922280622544847,-0.00541522689159457,0.989058338267512,-0.0430159233686673,0.989058338263241,-0.0430159233620753,0.0092257897027519,-0.00542011030196576
3,0.00922314086976117,-0.0067239435861115,0.988332266526567,-0.0513026056560015,0.988332266521218,-0.0513026056546799,0.00922669334931703,-0.00673040719055429
3.5,0.00918324742184096,-0.00801542330980176,0.987532446378841,-0.0595643439686366,0.98753244637204,-0.0595643439699742,0.00918731488310698,-0.00802352822454466
4,0.00911421823414305,-0.00929343219430923,0.986654976404809,-0.0677948906902968,0.986654976397076,-0.067794890692352,0.00911879005666583,-0.00930321550856839
4.5,0.00902213841708921,-0.0105611602060263,0.985700457311898,-0.0759900791264858,0.985700457304185,-0.0759900791280081,0.00902723162739405,-0.0105726494444873
5,0.00891054150869852,-0.0118210023188015,0.984671315727408,-0.0841476550902396,0.984671315720779,-0.0841476550905877,0.00891618933825411,-0.0118342202114814
5.5,0.00878158952567554,-0.01307469521364,0.983570515170222,-0.0922668140410652,0.983570515165625,-0.0922668140401033,0.00878783333136335,-0.0130896612546065
6,0.00863666744405378,-0.0143234859112251,0.982400933781985,-0.100347752264184,0.982400933780094,-0.100347752262149,0.00864355088073787,-0.0143402170688312
6.5,0.00847669777794824,-0.0155682675691553,0.981165082102238,-0.108391298003752,0.981165082103368,-0.108391298001105,0.00848426251435241,-0.0155867789651278
7,0.00830231499856793,-0.0168096785656759,0.979865001440413,-0.116398628127458,0.979865001444475,-0.116398628124745,0.00831059756196384,-0.0168299843486901
7.5,0.00811396653167806,-0.0180481728440141,0.978502258614514,-0.12437106056234,0.978502258621017,-0.124371060560064,0.00812299602762301,-0.0180702872579808
8,0.00791197365600083,-0.0192840696988288,0.97707798975374,-0.132309909279078,0.977077989761817,-0.132309909277605,0.00792177018855356,-0.0193080082691237
8.5,0.00769656964775589,-0.0205175892311686,0.975592965764472,-0.140216388681197,0.975592965772925,-0.140216388680659,0.00770714330376399,-0.0205433699774242
9,0.00746792454799788,-0.0217488778358215,0.974047663635108,-0.148091555586015,0.974047663642469,-0.148091555586258,0.00747927482939692,-0.0217765224314337
9.5,0.0072261617981243,-0.0229780267056152,0.972442334805428,-0.155936278780767,0.972442334810018,-0.155936278781308,0.00723827740016761,-0.0230075615245102
10,0.00697136977073647,-0.0242050853892999,0.970777066182363,-0.163751228030259,0.970777066182354,-0.163751228030259,0.00698422861664917,-0.0242365424021744
10.5,0.00671247108168403,-0.0254372809024925,0.969061199681062,-0.171527495425083,0.969061199685858,-0.171527495424699,0.00672621098891256,-0.0254705704083147
11,0.00643741146842072,-0.0266711586939068,0.967288636637389,-0.179276441033379,0.967288636646302,-0.179276441033428,0.0064520631157595,-0.0267063134539951
11.5,0.00614583388004401,-0.0279064921163195,0.965459330162919,-0.186998328803809,0.965459330175244,-0.186998328804887,0.00616142679664432,-0.0279435455216053
12,0.00583739173032352,-0.0291430274348707,0.963573280984447,-0.194693312744995,0.963573280999493,-0.194693312747516,0.0058539543356895,-0.0291820134551504
12.5,0.00551175075229188,-0.0303804851711251,0.961630535908715,-0.202361463564622,0.961630535925827,-0.202361463568842,0.00552931039811017,-0.0304214383123442
13,0.00516859067476616,-0.0316185615590738,0.95963118380981,-0.210002789571759,0.959631183828387,-0.210002789577812,0.00518717368749455,-0.0316615168284704
13.5,0.00480760671767522,-0.0328569300908574,0.957575350338746,-0.217617252809556,0.957575350358248,-0.217617252817468,0.00482723844089089,-0.0329019229696321
14,0.00442851090562341,-0.0340952431308148,0.955463192158315,-0.225204781300703,0.955463192178267,-0.225204781310426,0.00444921574123808,-0.0341423095539333
14.5,0.00403103320151899,-0.0353331335774931,0.953294891221378,-0.232765278176891,0.953294891241373,-0.232765278188318,0.00405283464905321,-0.0353823099200885
15,0.00361492246415601,-0.0365702165545856,0.951070649409602,-0.240298628347055,0.951070649429296,-0.240298628360033,0.00363784315737115,-0.0366215396243752
15.5,0.0031799472354227,-0.0378060911131515,0.948790683710347,-0.247804703248695,0.948790683729457,-0.247804703263045,0.00320400897573486,-0.037859598148247
16,0.00272589636435622,-0.0390403419291592,0.946455222014899,-0.255283364127577,0.946455222033199,-0.255283364143102,0.00275112015054496,-0.0390960706005634
16.5,0.00225257947646607,-0.0402725409819023,0.944064499558823,-0.262734464205178,0.944064499576138,-0.262734464221671,0.00227898553031342,-0.04033052940003
17,0.00175982729774138,-0.0415022492006423,0.941618755985491,-0.270157850020695,0.941618756001693,-0.270157850037947,0.00178743508533524,-0.0415625359251321
17.5,0.00124749184345346,-0.0427290180684416,0.939118232989896,-0.277553362174038,0.939118233004898,-0.277553362191846,0.00127632009198725,-0.0427916421205869
18,0.000715446482369042,-0.0439523911738211,0.93656317248685,-0.284920835646658,0.936563172500599,-0.284920835664825,0.000745513192352387,-0.0440173920509352
18.5,0.000163585887227646,-0.0451719057024649,0.933953815241929,-0.292260099836793,0.933953815254404,-0.292260099855136,0.000194908340124811,-0.0452393233935318
19,-0.000408174117555726,-0.0463870938627049,0.931290399902701,-0.299570978413316,0.931290399913906,-0.299570978431663,-0.000375579356193312,-0.0464569688647112
19.5,-0.000999896800095101,-0.0475974842399034,0.928573162369967,-0.306853289066421,0.928573162379927,-0.306853289084619,-0.000966013881851691,-0.0476698575742871
20,-0.00161162484650368,-0.0488026030762181,0.925802335452809,-0.31410684321293,0.925802335461568,-0.314106843230836,-0.0015764386454914,-0.0488775163049036
20.5,-0.00224338075733688,-0.0500019754733343,0.922978148756325,-0.321331445697751,0.922978148763939,-0.321331445715244,-0.00220687687950222,-0.0500794707139067
21,-0.00289516730514605,-0.0511951265169261,0.92010082875639,-0.32852689452056,0.920100828762928,-0.328526894537532,-0.00285733210122247,-0.0512752464565076
21.5,-0.0035669680437958,-0.0523815823224603,0.917170599021404,-0.33569298060691,0.91717059902694,-0.335692980623268,-0.00352778862558478,-0.0524643702299417
22,-0.00425874786076796,-0.053560871002837,0.914187680546265,-0.342829487635644,0.91418768055088,-0.342829487651313,-0.00421821212042678,-0.0536463707391537
22.5,-0.0049704535642946,-0.0547325235591076,0.911152292168904,-0.349936191928883,0.911152292172682,-0.3499361919438,-0.00492855019628202,-0.0548207795852957
23,-0.00570201449776842,-0.0558960746960289,0.908064651044278,-0.357012862406641,0.908064651047306,-0.357012862420757,-0.00565873302310388,-0.0559871320788621
23.5,-0.00645334317454849,-0.0570510635648045,0.90492497315488,-0.364059260605223,0.904924973157244,-0.364059260618502,-0.00640867396702693,-0.0571449679798459
24,-0.00722433592690208,-0.0581970344357226,0.901733473840501,-0.371075140756379,0.901733473842285,-0.371075140768792,-0.00717827024091783,-0.0582938321676769
24.5,-0.00801487356346026,-0.0593335373037316,0.898490368333204,-0.378060249922817,0.898490368334491,-0.378060249934353,-0.00796740356309944,-0.0594332752440292
25,-0.00882482203016383,-0.0604601284302422,0.895195872286311,-0.385014328184788,0.89519587228718,-0.38501432819544,-0.00877594081923583,-0.0605628540717951
25.5,-0.0096540330702935,-0.0615763708245936,0.891850202288545,-0.391937108871978,0.891850202289072,-0.391937108881748,-0.00960373472298048,-0.0616821322537442
26,-0.0105023448796843,-0.0626818346687463,0.888453576356618,-0.398828318834762,0.888453576356875,-0.39882831884366,-0.0104506244715173,-0.0627906805544207
26.5,-0.0113695827538087,-0.0637760976888211,0.885006214401206,-0.405687678748961,0.885006214401259,-0.405687678757002,-0.0113164363926767,-0.063888077268937
27,-0.0122555597238449,-0.064858745477069,0.881508338662762,-0.412514903448391,0.881508338662674,-0.412514903455598,-0.0122009845807878,-0.0649739085422818
27.5,-0.0131600771793444,-0.0659293717678762,0.877960174114798,-0.419309702279849,0.877960174114625,-0.419309702286247,-0.0131040715188765,-0.066047768642747
28,-0.0140829254754918,-0.066987578671281,0.874361948833264,-0.426071779475534,0.874361948833059,-0.426071779481154,-0.0140254886852418,-0.0671092601929906
28.5,-0.0150238845233634,-0.0680329768674355,0.870713894331449,-0.432800834538347,0.870713894331257,-0.43280083454322,-0.0149650171428246,-0.0681579943621566
29,-0.015982724361899,-0.0690651857652784,0.867016245860456,-0.439496562635919,0.86701624586032,-0.439496562640082,-0.0159224281101147,-0.0691935910223522
29.5,-0.0169592057106337,-0.0700838336285918,0.863269242675851,-0.446158654999694,0.863269242675808,-0.446158655003184,-0.0168974835126549,-0.0702156788726425
30,-0.0179530805025052,-0.0710885576724236,0.859473128271411,-0.452786799325785,0.859473128271492,-0.452786799328641,-0.0178899365144806,-0.0712238955335744
30.5,-0.0189640923962738,-0.0720790041327326,0.855628150581252,-0.459380680174757,0.855628150581485,-0.45938068017702,-0.0188995320290517,-0.0722178876150674
31,-0.0199919772683457,-0.0730548283119405,0.851734562151783,-0.465939979367869,0.85173456215219,-0.465939979369577,-0.0199260072094849,-0.0731973107603727
31.5,-0.021036463683929,-0.0740156946028918,0.8477926202851,-0.472464376377659,0.8477926202857,-0.472464376378853,-0.0209690919180315,-0.0741618296685949
32,-0.0220972733476427,-0.0749612764935752,0.843802587155534,-0.478953548711095,0.84380258715634,-0.478953548711815,-0.0220285091749389,-0.0751111180981433
32.5,-0.023174121533827,-0.0758912565548,0.839764729901073,-0.48540717228381,0.839764729902097,-0.485407172284095,-0.0231039755869576,-0.0760448588532753
33,-0.0242667174969006,-0.0768053264128262,0.835679320691456,-0.491824921784209,0.835679320692704,-0.491824921784099,-0.0241952017558595,-0.0769627437557642
33.5,-0.0253747648622425,-0.0777031867088276,0.83154663677465,-0.498206471026465,0.831546636776127,-0.498206471025997,-0.0253018926674394,-0.0778644736035395
34,-0.0264979619980985,-0.0785845470468928,0.827366960503444,-0.504551493291668,0.827366960505152,-0.504551493290879,-0.0264237480615434,-0.0787497581180091
34.5,-0.0276360023691388,-0.0794491259321328,0.823140579343798,-0.510859661656533,0.823140579345733,-0.510859661655457,-0.0275604627837269,-0.0796183158816323
35,-0.0287885748722798,-0.0802966507003112,0.818867785866542,-0.517130649309286,0.818867785868701,-0.517130649307955,-0.0287117271191927,-0.0804698742671487
35.5,-0.0299553641554641,-0.0811268574403108,0.814548877723949,-0.523364129852439,0.814548877726323,-0.523364129850887,-0.0298772271096934,-0.0813041693597686
36,-0.0311360509200921,-0.0819394909105916,0.810184157612598,-0.529559777592351,0.81018415761518,-0.529559777590608,-0.0310566448541098,-0.0821209458734794
36.5,-0.0323303122078238,-0.0827343044507098,0.805773933223907,-0.535717267815508,0.805773933226686,-0.535717267813601,-0.0322496587934294,-0.0829199570625301
37,-0.0335378216724714,-0.0835110598888347,0.801318517183575,-0.541836277051597,0.801318517186539,-0.541836277049552,-0.0334559439808493,-0.083700964629018
37.5,-0.034758249837716,-0.0842695274461158,0.796818226981155,-0.547916483323504,0.796818226984289,-0.547916483321346,-0.0346751723377423,-0.0844637386274391
38,-0.0359912643413585,-0.0850094856386617,0.792273384890815,-0.553957566384429,0.792273384894104,-0.553957566382182,-0.0359070128962056,-0.0852080573669359
38.5,-0.0372365301668163,-0.0857307211777797,0.787684317884363,-0.559959207942362,0.787684317887792,-0.559959207940045,-0.037151132028902,-0.0859337073119013
39,-0.038493709862564,-0.0864330288690873,0.783051357537438,-0.5659210918722,0.78305135754099,-0.565921091869832,-0.038407193666901,-0.0866404829815425
39.5,-0.03976246375019,-0.0871162115109935,0.778374839929759,-0.571842904415843,0.778374839933416,-0.571842904413442,-0.0396748595061915,-0.0873281868488837
40,-0.0410424501217313,-0.0877800797930094,0.773655105540235,-0.577724334370594,0.773655105543978,-0.577724334368173,-0.0409537892035284,-0.0879966292396778
40.5,-0.0423333254269136,-0.0884244521942726,0.768892499137657,-0.583565073266228,0.768892499141466,-0.583565073263802,-0.0422436405622526,-0.0886456282315987
41,-0.0436347444509153,-0.089049154882625,0.764087369667659,-0.589364815531128,0.764087369671518,-0.589364815528708,-0.0435440697086876,-0.0892750095540367
41.5,-0.0449463604832333,-0.0896540216145177,0.75924007013656,-0.595123258647832,0.759240070140447,-0.595123258645428,-0.0448547312597117,-0.0898846064887922
42,-0.0462678254782145,-0.090238893635997,0.754350957492624,-0.600840103298425,0.754350957496522,-0.600840103296047,-0.0461752784820552,-0.0904742597718857
42.5,-0.0475987902077862,-0.0908036195849564,0.749420392505288,-0.606515053500128,0.749420392509176,-0.60651505349778,-0.0475053634438625,-0.0910438174966872
43,-0.0489389044068898,-0.0913480553948256,0.74444873964277,-0.612147816731492,0.744448739646629,-0.612147816729179,-0.0488446371590254,-0.0915931350185225
43.5,-0.0502878169120985,-0.0918720641998261,0.739436366948518,-0.617738104049576,0.739436366952329,-0.617738104047303,-0.0501927497247632,-0.0921220748608742
44,-0.0516451757938773,-0.0923755162418928,0.734383645916843,-0.623285630198485,0.734383645920589,-0.623285630196252,-0.0515493504529145,-0.0926305066232865
44.5,-0.0530106284829104,-0.0928582887793382,0.729290951368107,-0.628790113709635,0.729290951371768,-0.628790113707446,-0.0529140879953601,-0.0931183068910381
45,-0.0543838218908996,-0.0933202659973147,0.724158661323739,-0.634251276994111,0.724158661327298,-0.634251276991963,-0.0542866104639799,-0.0935853591466296
45.5,-0.0557644025262193,-0.0937613389201055,0.718987156881383,-0.639668846427461,0.718987156884822,-0.639668846425353,-0.0556665655455353,-0.0940315536831295
46,-0.0571520166047764,-0.0941814053252632,0.713776822090409,-0.645042552427273,0.713776822093712,-0.645042552425203,-0.0570536006118141,-0.0944567875193699
46.5,-0.0585463101564173,-0.0945803696596005,0.708528043828011,-0.650372129523866,0.708528043831163,-0.650372129521829,-0.058447362825391,-0.0948609643170139
47,-0.0599469291271853,-0.0949581429570106,0.703241211676094,-0.65565731642439,0.703241211679078,-0.655657316422383,-0.059847499241294,-0.095243994299459
47.5,-0.0613535194777292,-0.0953146427581065,0.697916717799108,-0.660897856070683,0.69791671780191,-0.660897856068698,-0.0612536569048877,-0.0956057941725637
48,-0.0627657272781257,-0.0956497930316426,0.692554956823017,-0.66609349569113,0.692554956825623,-0.666093495689161,-0.0626654829462238,-0.0959462870471567
48.5,-0.0641831987993747,-0.0959635240976747,0.6871563257155,-0.671243986846843,0.687156325717898,-0.671243986844883,-0.064082624671128,-0.0962654023632886
49,-0.0656055806017989,-0.0962557725524186,0.681721223667546,-0.676349085472421,0.681721223669723,-0.676349085470463,-0.0655047296492406,-0.0965630758161699
49.5,-0.0670325196205662,-0.0965264811947472,0.676250051976515,-0.681408551911542,0.67625005197846,-0.681408551909576,-0.0669314457992413,-0.0968392492837512
50,-0.0684636632485347,-0.0967755989542778,0.670743213930786,-0.686422150947643,0.670743213932488,-0.68642215094566,-0.0683624214714458,-0.0970938707558775
50.5,-0.0698986594166121,-0.0970030808209814,0.665201114696055,-0.69138965182993,0.665201114697504,-0.691389651827919,-0.069797305527969,-0.0973268942649588
51,-0.0713371566717946,-0.0972088877762602,0.659624161203369,-0.696310828294932,0.659624161204558,-0.696310828292884,-0.0712357474206151,-0.0975382798180892
51.5,-0.0727788042530458,-0.0973929867254181,0.654012762038947,-0.701185458583831,0.654012762039866,-0.701185458581736,-0.072677397266665,-0.0977279933305524
52,-0.0742232521651681,-0.0975553504314703,0.648367327335838,-0.706013325455763,0.648367327336481,-0.706013325453609,-0.0741219059226917,-0.0978960065606418
52.5,-0.0756701512507893,-0.0976959574502175,0.642688268667478,-0.710794216197293,0.642688268667839,-0.710794216195068,-0.0755689250565408,-0.0980422970457315
53,-0.0771191532605969,-0.0978147920665201,0.636975998943164,-0.715527922628252,0.636975998943238,-0.715527922625946,-0.0770181072176065,-0.0981668480395241
53.5,-0.0785699109219301,-0.0979118442317122,0.631230932305488,-0.720214241104121,0.631230932305271,-0.720214241101721,-0.0784691059054944,-0.0982696484504167
54,-0.0800220780058288,-0.0979871095020824,0.625453484029751,-0.724852972515121,0.625453484029239,-0.724852972512617,-0.0799215756371973,-0.0983506927809095
54.5,-0.0814753093926403,-0.0980405889783604,0.619644070425385,-0.729443922282192,0.619644070424575,-0.72944392227957,-0.0813751720128496,-0.0984099810679997
55,-0.0829292611362613,-0.0980722892461511,0.613803108739386,-0.733986900349994,0.613803108738277,-0.733986900347244,-0.0828295517801677,-0.0984475188244877
55.5,-0.0843835905271043,-0.0980822223172481,0.607931017061785,-0.738481721177105,0.607931017060376,-0.738481721174215,-0.0842843728976408,-0.0984633169811455
56,-0.0858379561538442,-0.098070405571771,0.602028214233153,-0.742928203723535,0.602028214231444,-0.742928203720493,-0.0857392945965344,-0.0984573918296724
56.5,-0.0872920179640247,-0.0980368617010698,0.596095119754157,-0.747326171435708,0.596095119752148,-0.747326171432501,-0.0871939774417891,-0.0984297649663931
57,-0.0887454373235728,-0.097981618651339,0.59013215369715,-0.751675452229035,0.590132153694844,-0.751675452225653,-0.0886480833918498,-0.0983804632366311
57.5,-0.0901978770752688,-0.097904709567888,0.584139736619821,-0.755975878468203,0.584139736617219,-0.755975878464635,-0.0901012758574861,-0.0983095186797113
58,-0.0916490015962385,-0.0978061727400197,0.578118289480876,-0.7602272869453,0.578118289477983,-0.760227286941534,-0.0915532197596496,-0.0982169684745343
58.5,-0.0930984768544856,-0.0976860515464643,0.572068233557769,-0.764429518855886,0.572068233554587,-0.764429518851913,-0.0930035815864035,-0.0981028548856758
59,-0.0945459704645184,-0.0975443944013258,0.565989990366449,-0.768582419773123,0.565989990362983,-0.768582419768932,-0.094452029448963,-0.0979672252099659
59.5,-0.0959911517420968,-0.097381254700495,0.559883981583146,-0.772685839620064,0.559883981579402,-0.772685839615644,-0.0958982331368785,-0.0978101317234966
60,-0.0974336917581335,-0.0971966907684861,0.553750628968162,-0.776739632640198,0.553750628964146,-0.77673963263554,-0.0973418641723868,-0.0976316316290227
60.5,-0.0988732633917714,-0.0969907658056614,0.547590354291668,-0.780743657366356,0.547590354287386,-0.780743657361451,-0.0987825958639593,-0.0974317870037133
61,-0.100309541382663,-0.0967635478358012,0.541403579261491,-0.784697776588055,0.541403579256951,-0.784697776582896,-0.100220103359065,-0.0972106647472162
61.5,-0.101742202382474,-0.0965151096539896,0.535190725452878,-0.788601857317381,0.535190725448087,-0.788601857311957,-0.101654063696167,-0.0969683365299969
62,-0.103170925005625,-0.0962455287747793,0.528952214240228,-0.792455770753479,0.528952214235195,-0.792455770747784,-0.103084155855973,-0.0967048787419278
62.5,-0.10459538987929,-0.0959548873806083,0.522688466730769,-0.796259392245749,0.522688466725502,-0.796259392239776,-0.104510060811944,-0.0964203724410887
