"Freq [GHz]","re(St(P1,P1)) []","im(St(P1,P1)) []","re(St(P1,P2)) []","im(St(P1,P2)) []","re(St(P2,P1)) []","im(St(P2,P1)) []","re(St(P2,P2)) []","im(St(P2,P2)) []"
0,0.00381664548137906,0,0.996198506632936,0,0.996198511173134,0,0.0038166477603454,0
0.5,0.0043233362829227,-0.00159942774373079,0.995572293506847,-0.00763247185399862,0.995572293154424,-0.00763247165243897,0.00432349106043972,-0.0015999179508519
1,0.00472368482186525,-0.00387139407476056,0.994851700393763,-0.0145661689656436,0.994851700534142,-0.014566169136863,0.00472413068521504,-0.00387254569237427
1.5,0.00453230377162761,-0.00632161219761329,0.994213288706145,-0.0216027413641591,0.994213288750652,-0.0216027415495539,0.00453309516442069,-0.00632374777653411
2,0.00436515777565383,-0.00867424762170188,0.99346895117792,-0.0284405310216833,0.993468951141665,-0.0284405311809337,0.00436626034709775,-0.00867723648399732
2.5,0.00418036863272508,-0.0109761518859486,0.992683129007573,-0.0351066517774363,0.992683128917029,-0.0351066518907359,0.00418180989223949,-0.0109799697756507
3,0.00396721602374939,-0.0132442577225653,0.991888776629515,-0.0416405095892234,0.991888776509612,-0.0416405096533055,0.00396904316066227,-0.0132489063597667
3.5,0.00372240467500173,-0.0154850892598066,0.991095632948612,-0.0480779582026578,0.991095632817712,-0.0480779582234767,0.00372467113479846,-0.0154905804202023
4,0.00344506072973649,-0.0177009606261276,0.990300434803849,-0.0544458391594347,0.990300434673616,-0.054445839146462,0.00344782131774579,-0.017707311536558
4.5,0.00313530292966213,-0.0198922709710576,0.989494263082136,-0.0607621408110059,0.989494262959178,-0.0607621407740346,0.00313861167690055,-0.0198995025292987
5,0.00279374078322281,-0.0220584793041567,0.98866669370854,-0.0670380354276787,0.98866669359617,-0.0670380353753934,0.00279764985250575,-0.0220666151863078
5.5,0.00242126825995514,-0.0241985665411804,0.987807772019055,-0.0732800150011936,0.987807771918641,-0.0732800149407584,0.00242582730326468,-0.0242076326352745
6,0.00201896678779878,-0.0263112746775729,0.986908779275073,-0.0794915611808875,0.986908779186942,-0.0794915611179707,0.00202422252791656,-0.0263212986509274
6.5,0.00158805346535407,-0.0283952398492104,0.985962411378966,-0.0856743016156063,0.985962411302946,-0.08567430155456,0.00159404940522401,-0.0284062507755074
7,0.00112984969218077,-0.030449070884651,0.984962705353819,-0.0918287606630308,0.984962705289543,-0.091828760607136,0.00113662590738484,-0.0304610989002656
7.5,0.000645759708369775,-0.0324713979631701,0.983904877371848,-0.0979548274867668,0.983904877318917,-0.097954827438417,0.00065335270042477,-0.0324844739400376
8,0.000137254262083775,-0.0344609038911115,0.982785145402554,-0.104052039171056,0.982785145360614,-0.104052039131972,0.000145696860482603,-0.0344750591213643
8.5,-0.00039414289135109,-0.0364163447129204,0.981600565421985,-0.110119747097164,0.981600565390749,-0.110119747068502,-0.00038482158561759,-0.0364316106040148
9,-0.000946866804794777,-0.0383365634388921,0.980348890080674,-0.116157211507915,0.980348890059924,-0.116157211490423,-0.000936641439061581,-0.0383529712199424
9.5,-0.00151932205343452,-0.0402204991136355,0.979028450347953,-0.122163652887466,0.979028450337532,-0.12216365288154,-0.00150817101027639,-0.0402380795542339
10,-0.00210989264627082,-0.0420671925884308,0.97763805762007,-0.128138278027708,0.977638057619864,-0.1281382780335,-0.00209779800064624,-0.042085975731708
10.5,-0.00259979298098945,-0.0441135203866692,0.976349980128242,-0.134111539760648,0.976349980127866,-0.13411153976481,-0.00258933039120035,-0.0441332141317385
11,-0.00311290792236496,-0.0461518240069605,0.975035757266276,-0.140054705160479,0.975035757265914,-0.140054705163078,-0.00310405365176059,-0.0461724263252341
11.5,-0.00364913913415521,-0.0481817909796991,0.973695976293403,-0.145969776876049,0.97369597629322,-0.145969776877172,-0.00364185886655927,-0.0482033004482068
12,-0.00420838379226296,-0.0502031165145587,0.972330990697345,-0.151858599473365,0.972330990697482,-0.151858599473107,-0.00420263292145256,-0.0502255324510958
12.5,-0.00479053465943582,-0.0522155034755629,0.970940961201444,-0.157722852523166,0.970940961202024,-0.157722852521633,-0.00478625863512899,-0.0522388260806368
13,-0.0053954801704845,-0.0542186623287115,0.969525892407234,-0.163564049283675,0.969525892408358,-0.163564049280972,-0.00539261489583137,-0.0542428928329013
13.5,-0.00602310452755259,-0.0562123110641197,0.968085664991085,-0.169383539599139,0.968085664992837,-0.169383539595375,-0.00602157680289497,-0.0562374518792899
14,-0.0066732878048523,-0.0581961750948059,0.966620063581419,-0.175182515852774,0.966620063583867,-0.175182515848062,-0.00667301581240781,-0.0582222299675532
14.5,-0.00734590606213964,-0.0601699871342123,0.965128800579208,-0.18096202102155,0.965128800582404,-0.180962021015998,-0.00734679988620759,-0.0601969612998285
15,-0.0080408314661122,-0.0621334870545898,0.963611536264902,-0.186722958070625,0.963611536268886,-0.186722958064337,-0.0080427936434046,-0.062161387389815
15.5,-0.00875793241883191,-0.0640864217283545,0.962067895574146,-0.192466100091893,0.962067895578943,-0.192466100084971,-0.00876085851359937,-0.0641152569011716
16,-0.00949707369221242,-0.0660285448545013,0.960497481934135,-0.198192100732984,0.960497481939763,-0.198192100725525,-0.00950085289094454,-0.0660583254692613
16.5,-0.0102581165675413,-0.067959616772105,0.958899888542065,-0.203901504580467,0.958899888548534,-0.203901504572561,-0.0102626322882013,-0.0679903555083383
17,-0.0110409189790145,-0.0698794042628479,0.957274707443893,-0.209594757256351,0.957274707451201,-0.209594757248085,-0.0110460494899524,-0.069911116006169
17.5,-0.0118453356602217,-0.0717876803444759,0.955621536741108,-0.21527221506274,0.95562153674925,-0.215272215054196,-0.0118509547041394,-0.0718203823081351
18,-0.012671218292525,-0.0736842240569664,0.953939986219378,-0.220934154068523,0.953939986228341,-0.220934154059776,-0.0126771957111597,-0.0737179358927005
18.5,-0.0135184156543119,-0.0755688202430873,0.952229681658289,-0.226580778577082,0.952229681668057,-0.2265807785682,-0.0135246180097464,-0.0756035641400636
19,-0.0143867737701073,-0.0774412593249445,0.950490268047978,-0.232212228947799,0.950490268058528,-0.232212228938851,-0.0143930649589405,-0.077477060095783
19.5,-0.0152761360585885,-0.0793013370780065,0.948721411907087,-0.237828588768764,0.948721411918397,-0.237828588759805,-0.0152823779155025,-0.0793382222309602
20,-0.016186343478603,-0.0811488544039616,0.946922802867997,-0.243429891395508,0.946922802880039,-0.243429891386593,-0.016192396366167,-0.0811868542005993
20.5,-0.017117234672322,-0.0829836171036873,0.945094154669731,-0.249016125882495,0.945094154682478,-0.249016125873675,-0.0171229580542109,-0.0830227646015027
21,-0.0180686461047612,-0.0848054356514636,0.943235205676551,-0.254587242341668,0.943235205689972,-0.254587242332985,-0.0180738990998601,-0.0848457667310769
21.5,-0.0190404121989575,-0.0866141249715007,0.941345719020657,-0.260143156766753,0.94134571903472,-0.260143156758248,-0.0190450541141487,-0.0866556783482659
22,-0.0200323654661537,-0.0884095042177213,0.939425482450683,-0.265683755364039,0.939425482465356,-0.26568375535575,-0.0200362563058783,-0.088452321437706
22.5,-0.0210443366304329,-0.0901913965576209,0.937474307953292,-0.271208898430675,0.937474307968542,-0.271208898422633,-0.021047337581419,-0.0902355219780917
23,-0.0220761547473318,-0.0919596289609812,0.935492031203029,-0.276718423820681,0.935492031218823,-0.276718423812917,-0.0220781286371524,-0.0920051097157017
23.5,-0.0231276473160075,-0.093714031994093,0.933478510885377,-0.282212150037156,0.933478510901682,-0.282212150029693,-0.0231284590444095,-0.0937609179438215
24,-0.0241986403846358,-0.0954544396200321,0.93143362792939,-0.28768987898699,0.931433627946173,-0.287689878979852,-0.0241981573268292,-0.0955027832887922
24.5,-0.0252889586487866,-0.0971806890055205,0.929357284679135,-0.293151398431966,0.929357284696363,-0.293151398425173,-0.025287051030116,-0.0972305455032916
25,-0.026398425542576,-0.098892620334766,0.927249404027281,-0.298596484167439,0.927249404044922,-0.298596484161007,-0.0263949667842305,-0.0989440472673464
25.5,-0.0275268633224817,-0.100590076630617,0.925109928529283,-0.304024901957208,0.925109928547306,-0.304024901951153,-0.0275217303581002,-0.10064313399752
26,-0.028674093143771,-0.102272903583363,0.922938819512597,-0.309436409250648,0.92293881953097,-0.30943640924498,-0.0286671667069742,-0.102327653664623
26.5,-0.0298399351295198,-0.103940949387331,0.920736056192111,-0.314830756705604,0.920736056210805,-0.314830756700336,-0.0298311000125956,-0.103997456620242
27,-0.0310242084322946,-0.105594064585508,0.918501634800277,-0.320207689538369,0.918501634819261,-0.320207689533507,-0.0310133537164037,-0.105652395432258
27.5,-0.0322267312885952,-0.107232101922277,0.916235567738265,-0.325566948719781,0.91623556775751,-0.325566948715334,-0.0322137505460119,-0.107292324729565
28,-0.0334473210661999,-0.108854916204342,0.913937882752768,-0.330908272034587,0.913937882772248,-0.330908272030558,-0.0334321125352144,-0.108917101056013
28.5,-0.0346857943045997,-0.110462364169874,0.911608622141625,-0.336231395019319,0.911608622161311,-0.336231395015712,-0.0346682610378424,-0.110526582733671
29,-0.0359419667487532,-0.112054304365884,0.909247841990347,-0.341536051792358,0.909247842010213,-0.341536051789174,-0.0359220167357677,-0.112120629735373
29.5,-0.0372156533763882,-0.113630597033751,0.906855611440765,-0.346821975788282,0.906855611460786,-0.346821975785522,-0.0371931996413838,-0.113699103566486
30,-0.0385066684191597,-0.115191104002879,0.904432011992295,-0.35208890040732,0.904432012012446,-0.352088900404985,-0.0384816290949337,-0.115261867155841
30.5,-0.0398148253779226,-0.116735688592347,0.901977136835824,-0.357336559589491,0.901977136856082,-0.357336559587577,-0.0397871237569976,-0.116808784755679
31,-0.0411399370324691,-0.118264215520465,0.899491090219774,-0.362564688321916,0.899491090240115,-0.362564688320423,-0.041109501596543,-0.11833972185047
31.5,-0.0424818154460295,-0.119776550822071,0.896973986847622,-0.367773023086873,0.896973986868025,-0.367773023085795,-0.0424485798748654,-0.119854545074411
32,-0.0438402719648934,-0.121272561773429,0.894425951305928,-0.372961302257247,0.894425951326373,-0.372961302256581,-0.0438041751258054,-0.121353122137417
32.5,-0.0452151172134832,-0.122752116824556,0.891847117521746,-0.37812926644532,0.891847117542211,-0.378129266445061,-0.0451761031325905,-0.122835321759376
33,-0.0466061610852382,-0.12421508553877,0.889237628248213,-0.383276658810124,0.889237628268679,-0.383276658810267,-0.0465641789016601,-0.124301013612425
33.5,-0.0480132127296442,-0.125661338539296,0.886597634577036,-0.388403225327996,0.886597634597485,-0.388403225328534,-0.0479682166338281,-0.125750068271002
34,-0.0494360805357713,-0.127090747462697,0.883927295476557,-0.39350871503045,0.88392729549697,-0.393508715031376,-0.0493880296931208,-0.127182357169405
34.5,-0.0508745721126538,-0.128503184918932,0.881226777354075,-0.398592880212993,0.881226777374436,-0.3985928802143,-0.0508234305736193,-0.128597752566602
35,-0.0523284942668545,-0.129898524457813,0.878496253641134,-0.403655476618092,0.878496253661427,-0.403655476619772,-0.0522742308646417,-0.129996127517984
35.5,-0.0537976529775465,-0.13127664054165,0.875735904400479,-0.408696263595159,0.875735904420688,-0.408696263597204,-0.0537402412145569,-0.131377355853823
36,-0.0552818533694378,-0.132637408523845,0.872945915953438,-0.413715004240047,0.872945915973549,-0.413715004242447,-0.0552212712935467,-0.13274131216411
36.5,-0.0567808996838404,-0.133980704633207,0.870126480526556,-0.418711465516301,0.870126480546553,-0.418711465519049,-0.0567171297555837,-0.134087871789509
37,-0.058294595248214,-0.135306405963774,0.867277795916293,-0.423685418360138,0.867277795936164,-0.423685418363224,-0.0582276241999126,-0.135416910818143
37.5,-0.0598227424444431,-0.136614390469891,0.864400065170741,-0.428636637770894,0.864400065190474,-0.428636637774309,-0.0597525611322799,-0.136728306087918
38,-0.0613651426761598,-0.137904536966331,0.861493496287277,-0.433564902888498,0.86149349630686,-0.433564902892231,-0.0612917459261614,-0.138021935194113
38.5,-0.0629215963353588,-0.139176725133223,0.858558301925203,-0.438469997059336,0.858558301944624,-0.438469997063379,-0.0628449827842226,-0.139297676501969
39,-0.0644919027685708,-0.140430835525568,0.855594699132425,-0.443351707891728,0.855594699151673,-0.44335170789607,-0.0644120747002139,-0.140555409163959
39.5,-0.0660758602428388,-0.141666749587116,0.852602909085316,-0.448209827302095,0.852602909104382,-0.448209827306725,-0.0659928234215182,-0.141795013141555
40,-0.0676732659117129,-0.142884349668383,0.849583156840933,-0.453044151552759,0.849583156859806,-0.453044151557669,-0.0675870294125281,-0.143016369231134
40.5,-0.0692839157815033,-0.144083519048594,0.846535671100828,-0.457854481282256,0.846535671119501,-0.457854481287434,-0.0691944918190297,-0.144219359093841
41,-0.0709076046779731,-0.145264141961345,0.843460683985734,-0.462640621528881,0.843460684004197,-0.462640621534316,-0.0708150084337666,-0.145403865289133
41.5,-0.0725441262136812,-0.146426103623766,0.840358430820449,-0.467402381748157,0.840358430838694,-0.467402381753839,-0.0724483756633139,-0.146569771311749
42,-0.0741932727561374,-0.147569290268988,0.837229149928309,-0.472139575824819,0.837229149946329,-0.472139575830737,-0.0740943884964181,-0.147716961631902
42.5,-0.0758548353969483,-0.148693589181711,0.834073082434645,-0.476852022079832,0.834073082452434,-0.476852022085976,-0.0757528404739141,-0.148845321738432
43,-0.0775286039221061,-0.149798888736685,0.830890472078704,-0.481539543272937,0.830890472096253,-0.481539543279296,-0.077423523660349,-0.149954738184732
43.5,-0.0792143667835598,-0.150885078439905,0.827681565033498,-0.48620196660111,0.827681565050804,-0.486201966607674,-0.0791062286174001,-0.151045098637206
44,-0.0809119110722016,-0.151952048972344,0.824446609733148,-0.490839123693348,0.824446609750205,-0.490839123700106,-0.0808007443791949,-0.15211629192607
44.5,-0.0826210224923969,-0.152999692236042,0.821185856707251,-0.495450850602081,0.821185856724053,-0.495450850609023,-0.0825068584296078,-0.153168208098297
45,-0.084341485338157,-0.154027901402367,0.817899558421882,-0.500036987791532,0.817899558438424,-0.500036987798646,-0.0842243566816118,-0.154200738472505
45.5,-0.0860730824710659,-0.155036570962302,0.814587969126845,-0.504597380123273,0.814587969143125,-0.50459738013055,-0.0859530234587508,-0.155213775695612
46,-0.0878155953000471,-0.156025596778564,0.811251344708832,-0.509131876839232,0.811251344724845,-0.509131876846661,-0.0876926414787937,-0.15620721380109
46.5,-0.0895688037630503,-0.156994876139415,0.807889942550147,-0.513640331542348,0.80788994256589,-0.513640331549919,-0.0894429918396087,-0.157180948268616
47,-0.0913324863107448,-0.157944307814011,0.804504021392705,-0.518122602175078,0.804504021408175,-0.518122602182781,-0.0912038540073156,-0.158134876085006
47.5,-0.0931064198922633,-0.158873792109119,0.801093841207024,-0.522578550995923,0.801093841222218,-0.522578551003747,-0.0929750058067417,-0.15906889580622
48,-0.0948903799430816,-0.159783230927087,0.797659663065938,-0.527008044554119,0.797659663080855,-0.527008044562055,-0.0947562234142125,-0.159982907620339
48.5,-0.0966841403750526,-0.160672527824898,0.794201749022803,-0.531410953662652,0.79420174903744,-0.531410953670689,-0.0965472813527035,-0.160876813411331
49,-0.0984874735686696,-0.161541588074192,0.790720361993957,-0.535787153369697,0.790720362008312,-0.535787153377826,-0.0983479524893666,-0.161750516823487
49.5,-0.100300150367576,-0.162390318722106,0.78721576564523,-0.54013652292862,0.787215765659302,-0.54013652293683,-0.100158008035447,-0.162603923326391
50,-0.102121940075352,-0.163218628652833,0.783688224282318,-0.544458945766624,0.783688224296107,-0.544458945774907,-0.101977217548594,-0.163436940280294
50.5,-0.103952610454619,-0.164026428649741,0.780138002744821,-0.548754309452145,0.780138002758325,-0.548754309460491,-0.103805348937577,-0.164249477001768
51,-0.105791927728461,-0.16481363145796,0.776565366303794,-0.553022505661075,0.776565366317014,-0.553022505669476,-0.105642168469385,-0.165041444829528
51.5,-0.107639656584193,-0.165580151847311,0.772970580562645,-0.557263430141905,0.77297058057558,-0.557263430150351,-0.107487440778739,-0.165812757190312
52,-0.109495560179475,-0.166325906675469,0.769353911361243,-0.561476982679831,0.769353911373893,-0.561476982688313,-0.109340928879969,-0.166563329664699
52.5,-0.111359400150784,-0.167050814951248,0.765715624683083,-0.565663067059913,0.765715624695449,-0.565663067068422,-0.111202394181274,-0.167293080052773
53,-0.113230936624241,-0.167754797897911,0.762055986565411,-0.569821591029337,0.762055986577494,-0.569821591037864,-0.113071596501325,-0.168001928439531
53.5,-0.115109928228781,-0.168437779016386,0.758375263012161,-0.573952466258829,0.758375263023961,-0.573952466267366,-0.114948294088215,-0.168689797259936
54,-0.116996132111684,-0.169099684148332,0.754673719909611,-0.57805560830329,0.754673719921129,-0.578055608311829,-0.116832243640717,-0.169356611363528
54.5,-0.118889303956415,-0.169740441538899,0.750951622944658,-0.58213093656167,0.750951622955896,-0.582130936570202,-0.118723200331831,-0.170002298078506
55,-0.120789198002807,-0.170359981899157,0.747209237525605,-0.586178374236155,0.747209237536565,-0.586178374244673,-0.1206209178346,-0.170626787275191
55.5,-0.122695567069523,-0.170958238468051,0.743446828705382,-0.590197848290692,0.743446828716065,-0.590197848299188,-0.122525148350152,-0.171230011428795
56,-0.124608162578814,-0.171535147073833,0.739664661107109,-0.594189289408888,0.739664661117518,-0.594189289417354,-0.124435642637952,-0.171811905681415
56.5,-0.126526734583519,-0.172090646194871,0.735862998851932,-0.598152631951329,0.735862998862068,-0.598152631959758,-0.126352150048223,-0.172372407903176
57,-0.128451031796313,-0.172624677019764,0.732042105489048,-0.602087813912348,0.732042105498913,-0.602087813920733,-0.128274418556495,-0.17291145875246
57.5,-0.130380801621135,-0.173137183506672,0.728202243927863,-0.605994776876271,0.72820224393746,-0.605994776884604,-0.130202194800267,-0.173429001735137
58,-0.132315790186807,-0.173628112441811,0.72434367637221,-0.609873465973178,0.724343676381541,-0.609873465981453,-0.132135224117709,-0.173924983262747
58.5,-0.134255742382777,-0.174097413497018,0.720466664256564,-0.613723829834206,0.720466664265633,-0.613723829842416,-0.134073250588407,-0.174399352709553
59,-0.136200401896973,-0.174545039286321,0.716571468184217,-0.617545820546415,0.716571468193025,-0.617545820554554,-0.136016017076066,-0.174852062468424
59.5,-0.138149511255716,-0.174970945421464,0.712658347867325,-0.621339393607258,0.712658347875877,-0.62133939361532,-0.137963265273163,-0.175283068005468
60,-0.14010281186566,-0.175375090566291,0.708727562068817,-0.625104507878666,0.708727562077115,-0.625104507886643,-0.139914735747487,-0.175692327913371
60.5,-0.142060044057724,-0.175757436489958,0.704779368546084,-0.628841125540776,0.704779368554132,-0.628841125548664,-0.141870167990521,-0.176079803963383
61,-0.144020947132957,-0.176117948118895,0.700814023996425,-0.632549212045341,0.700814024004226,-0.632549212053133,-0.143829300467634,-0.176445461155902
61.5,-0.145985259410307,-0.176456593587451,0.696831784004194,-0.636228736068815,0.696831784011751,-0.636228736076506,-0.145791870670017,-0.176789267769597
62,-0.147952718276242,-0.176773344287193,0.692832902989622,-0.639879669465167,0.692832902996938,-0.639879669472752,-0.147757615168327,-0.177111195409033
62.5,-0.149923060236173,-0.177068174914777,0.688817634159258,-0.643501987218424,0.688817634166338,-0.643501987225898,-0.149726269667981,-0.177411219050743
63,-0.151896020967641,-0.177341063518353,0.684786229458009,-0.647095667394973,0.684786229464855,-0.64709566740233,-0.151697569066057,-0.177689317087703
