"Freq [GHz]","re(St(P1,P1)) []","im(St(P1,P1)) []","re(St(P1,P2)) []","im(St(P1,P2)) []","re(St(P2,P1)) []","im(St(P2,P1)) []","re(St(P2,P2)) []","im(St(P2,P2)) []"
0,0.00548184982295652,0,0.994531840726268,0,0.994531841861317,0,0.00548184583510647,0
0.5,0.0060599077765815,0.000283822034624848,0.993918305714956,-0.00566629917807759,0.993918305677354,-0.00566629915271477,0.00605979377615995,0.00028403784037323
1,0.00656303401595792,-0.000139408053257739,0.993339772867539,-0.0106226719780764,0.993339772859024,-0.0106226719818139,0.00656273089402148,-0.000138858702197098
1.5,0.00686515223992146,-0.000698413776405005,0.992913606527518,-0.0154365902816664,0.992913606521411,-0.0154365902835814,0.00686456905480526,-0.000697505818862965
2,0.00703608861911498,-0.00127619470988805,0.992578662688794,-0.0202160361522985,0.992578662684378,-0.0202160361554,0.0070352228017061,-0.00127484515062548
2.5,0.00714446257220303,-0.00184092449195639,0.992268555760948,-0.0249964265953189,0.992268555756816,-0.0249964265999463,0.00714330845112698,-0.00183910440680535
3,0.00722169986781207,-0.00239294793116329,0.991952293707262,-0.0297775856225613,0.991952293702695,-0.0297775856280378,0.00722023638643332,-0.00239064271829648
3.5,0.00728167804686475,-0.00293662944176099,0.9916170212169,-0.0345542279155939,0.991617021211843,-0.0345542279210491,0.00727987570261135,-0.00293382527312147
4,0.007330807230713,-0.00347551906670951,0.99125791943156,-0.0393218719448356,0.991257919426364,-0.0393218719495483,0.00732863381097371,-0.00347219984729819
4.5,0.00737224988929208,-0.00401196213843669,0.990873701248114,-0.0440775830230908,0.990873701243344,-0.0440775830265956,0.00736967361465135,-0.00400810977308197
5,0.00740770387247869,-0.00454741598064956,0.990464591618021,-0.0488197292119743,0.990464591614277,-0.0488197292140828,0.00740469474505634,-0.0045430114713767
5.5,0.00743818273988595,-0.00508277369494259,0.990031385379986,-0.0535476187426145,0.990031385377791,-0.0535476187433819,0.00743471283359121,-0.00507779821619359
6,0.00746436684022989,-0.00561859307678603,0.989574999041553,-0.0582611893868101,0.989574999041253,-0.0582611893864726,0.00746041003630271,-0.0056130287638414
6.5,0.00748676380873259,-0.00615524211105623,0.989096263692798,-0.0629607711721638,0.989096263694522,-0.0629607711710483,0.00748229529365063,-0.00614907252818142
7,0.00750578258184853,-0.00669298674021945,0.98859584097785,-0.0676469135869855,0.988595840981486,-0.0676469135854614,0.00750077829184947,-0.00668619708200868
7.5,0.00752176791899806,-0.00723204185464343,0.988074202648532,-0.0723202641409522,0.988074202653731,-0.0723202641393605,0.00751620402656683,-0.00722461895614224
8,0.00753501702281811,-0.0077725998511049,0.987531641926098,-0.0769814862700891,0.987531641932281,-0.0769814862686857,0.00752886950502374,-0.00776453207669103
8.5,0.00754578819639973,-0.00831484593521736,0.986968299138672,-0.0816312065900302,0.986968299145063,-0.0816312065889511,0.00753903249346755,-0.00830612300079725
9,0.00755430604928231,-0.00885896581919088,0.986384191946419,-0.0862699834736782,0.986384191952066,-0.0862699834728966,0.00754691680588881,-0.00884957858595747
9.5,0.00756076523749305,-0.00940514920227908,0.985779244982661,-0.0908982906767521,0.985779244986472,-0.0908982906760727,0.00755271611286146,-0.0093950894666408
10,0.00756533356432332,-0.00995359101646365,0.985153316383287,-0.0955165112238419,0.985153316384057,-0.0955165112228809,0.0075565970959538,-0.00994285131047512
10.5,0.00757344077318034,-0.0104881787616211,0.98449395897669,-0.100169887736207,0.98449395897768,-0.100169887735546,0.00756408959977894,-0.0104769183440494
11,0.00757938652847429,-0.0110272451050841,0.983810770867197,-0.10480959541058,0.983810770868379,-0.104809595410238,0.00756938233558851,-0.0110154607052229
11.5,0.00758288965472365,-0.0115708147770954,0.983104446141233,-0.109435727255977,0.983104446142578,-0.109435727255971,0.00757219363819123,-0.0115585019742568
12,0.00758367164499529,-0.0121188948641242,0.98237563752737,-0.114048416343922,0.982375637528846,-0.114048416344263,0.0075722445995034,-0.012106048039068
12.5,0.00758145782235814,-0.0126714754650674,0.981624955068801,-0.118647830090207,0.981624955070381,-0.118647830090913,0.00756926023305543,-0.0126580877617553
13,0.00757597840771274,-0.01322853042047,0.980852965466529,-0.123234164759396,0.980852965468179,-0.123234164760467,0.0075629705435889,-0.0132145937180832
13.5,0.00756696949088495,-0.0137900181028821,0.980060192017202,-0.127807640254205,0.980060192018894,-0.127807640255647,0.00755311149872132,-0.0137755229979923
14,0.00755417390338489,-0.0143558822567602,0.97924711506806,-0.132368495236501,0.979247115069763,-0.132368495238316,0.00753942590112749,-0.0143408180552678
14.5,0.00753734199243764,-0.0149260528766613,0.978414172912141,-0.136916982612648,0.978414172913826,-0.136916982614832,0.00752166416096853,-0.0149104075951065
15,0.00751623229720103,-0.0155004471129705,0.977561763049651,-0.141453365403299,0.97756176305129,-0.14145336540585,0.00749958496954999,-0.0154842074886608
15.5,0.00749061212901884,-0.0160789701952102,0.976690243745503,-0.145977913007024,0.976690243747071,-0.145977913009937,0.0074729558761963,-0.0160621217045636
16,0.00746025805859134,-0.0166615163634978,0.975799935818274,-0.150490897857666,0.975799935819744,-0.150490897860931,0.00744155377130742,-0.0166440432478865
16.5,0.00742495631366116,-0.017247969799608,0.97489112460169,-0.154992592467936,0.974891124603039,-0.154992592471542,0.00740516527933732,-0.0172298550980123
17,0.00738450309149574,-0.017838205549944,0.973964062026034,-0.159483266845574,0.973964062027239,-0.159483266849509,0.0073635870660587,-0.0178194311376276
17.5,0.00733870479096353,-0.0184320904334747,0.973018968773237,-0.16396318626379,0.973018968774277,-0.163963186268042,0.007316626065044,-0.0184126370659081
18,0.00728737816938341,-0.019029483928632,0.972056036465695,-0.16843260936436,0.97205603646655,-0.168432609368912,0.00726409962863009,-0.0190093312898991
18.5,0.00723035042964115,-0.0196302390339036,0.971075429854926,-0.172891786569398,0.971075429855581,-0.172891786574239,0.00720583560896804,-0.0196093657888139
19,0.00716745924319087,-0.0202342030977865,0.97007728898179,-0.177340958776661,0.970077288982227,-0.177340958781772,0.00714167237486511,-0.0202125869469572
19.5,0.0070985527147025,-0.02084121861443,0.969061731285265,-0.181780356312546,0.969061731285471,-0.181780356317913,0.00707145877025173,-0.0208188363516113
20,0.00702348929404245,-0.0214511239820894,0.968028853641487,-0.1862101981172,0.968028853641448,-0.186210198122801,0.00699505402005177,-0.0214279515530573
20.5,0.0069421376412489,-0.022063754222196,0.966978734318958,-0.1906306911367,0.966978734318665,-0.19063069114252,0.0069123275891719,-0.0220397667846051
21,0.00685437645000198,-0.022678941657448,0.965911434839578,-0.19504202989831,0.965911434839021,-0.195042029904332,0.00682315900016239,-0.0226541136410132
21.5,0.006760094234878,-0.0232965165479477,0.964827001738301,-0.19944439624609,0.964827001737472,-0.199444396252296,0.00672743761489936,-0.0232708217144491
22,0.00665918908748006,-0.0239163076848503,0.963725468217023,-0.203837959215624,0.963725468215914,-0.203837959221995,0.00662506238540586,-0.0238897191874727
22.5,0.00655156840622292,-0.0245381429415601,0.962606855690537,-0.208222875028251,0.962606855689143,-0.208222875034769,0.00651594157863117,-0.0245106333831253
23,0.00643714860429562,-0.0251618497827915,0.961471175224359,-0.212599287186796,0.961471175222678,-0.212599287193443,0.00639999247972839,-0.0251333912725173
23.5,0.00631585479999547,-0.0257872557322294,0.960318428865727,-0.216967326656492,0.960318428863754,-0.216967326663252,0.00627714107804295,-0.0257578199406825
24,0.0061876204933094,-0.0264141887998153,0.959148610870313,-0.221327112116401,0.959148610868048,-0.221327112123257,0.00614732173970167,-0.0263837470117658
24.5,0.00605238723230128,-0.0270424778699057,0.957961708828154,-0.22567875026825,0.957961708825594,-0.225678750275185,0.00601047687035822,-0.0270110010348792
25,0.0059101042725348,-0.02767195305174,0.956757704692998,-0.230022336190993,0.956757704690145,-0.230022336197992,0.00586655657133656,-0.0276394118320531
25.5,0.00576072823245743,-0.0283024459938623,0.955536575719794,-0.234357953730951,0.955536575716649,-0.234357953737998,0.00571551829208089,-0.0282688108100255
26,0.00560422274735511,-0.0289337901642033,0.954298295315358,-0.238685675918551,0.954298295311924,-0.23868567592563,0.00555732648151996,-0.0288990312375472
26.5,0.00544055812418265,-0.0295658210976457,0.953042833807478,-0.243005565403938,0.953042833803756,-0.243005565411035,0.00539195224064465,-0.0295299084901357
27,0.00526971099932189,-0.0301983766129506,0.951770159137765,-0.247317674904845,0.951770159133757,-0.247317674911945,0.00521937297832853,-0.0301612802641258
27.5,0.00509166400102473,-0.0308312970009217,0.950480237483573,-0.251622047660985,0.950480237479286,-0.251622047668074,0.00503957207214373,-0.030792986761953
28,0.00490640541807619,-0.0314644251857259,0.949173033814207,-0.255918717890231,0.949173033809644,-0.2559187178973,0.00485253853567447,-0.0314248708506168
28.5,0.00471392887595512,-0.0320976068612553,0.94784851238646,-0.260207711242547,0.947848512381627,-0.260207711249581,0.00465826669361136,-0.0320567781951997
29,0.00451423302158299,-0.0327306906043741,0.9465066371844,-0.264489045248352,0.946506637179303,-0.264489045255339,0.0044567558656764,-0.0326885573693465
29.5,0.00430732121754235,-0.0333635279668643,0.945147372308037,-0.268762729758618,0.94514737230268,-0.268762729765548,0.00424801006025677,-0.0333200599444987
30,0.00409320124646895,-0.033995973547815,0.943770682315286,-0.273028767374516,0.943770682309677,-0.273028767381378,0.00403203767842503,-0.0339511405596631
30.5,0.0038718850261702,-0.0346278850481567,0.942376532521406,-0.277287153864928,0.942376532515551,-0.277287153871711,0.0038088512288828,-0.0345816569734192
31,0.00364338833586625,-0.0352591233089177,0.940964889259787,-0.28153787857046,0.940964889253694,-0.281537878577156,0.00357846705420434,-0.0352114700997537
31.5,0.00340773055383525,-0.0358895523347786,0.93953572010774,-0.285780924793063,0.939535720101415,-0.285780924799662,0.00334090506864737,-0.0358404440293043
32,0.00316493440662485,-0.0365190393043253,0.938088994080655,-0.290016270170503,0.938088994074105,-0.290016270176998,0.00309618850767002,-0.0364684460374132
32.5,0.00291502572988062,-0.0371474545684263,0.936624681797652,-0.294243887035344,0.936624681790886,-0.294243887041726,0.00284434368919723,-0.03709534658043
33,0.00265803324078256,-0.0377746716379619,0.935142755621614,-0.298463742758151,0.935142755614639,-0.298463742764414,0.00258539978660455,-0.0377210192814885
33.5,0.00239398832198334,-0.038400567162147,0.933643189776237,-0.30267580007492,0.933643189769061,-0.302675800081056,0.00231938861329706,-0.0383453409069929
34,0.00212292481687809,-0.0390250208985383,0.932125960442523,-0.30688001739881,0.932125960435153,-0.306880017404814,0.00204634441871587,-0.0389681913349151
34.5,0.00184487883600248,-0.0396479156757765,0.930591045836936,-0.311076349116413,0.930591045829381,-0.311076349122278,0.00176630369553221,-0.0395894535159476
35,0.00155988857428696,-0.0402691373500155,0.92903842627325,-0.315264745868856,0.929038426265517,-0.315264745874577,0.0014793049977615,-0.0402090134284609
35.5,0.00126799413886908,-0.0408885747559238,0.927468084209901,-0.319445154818139,0.927468084202,-0.319445154823712,0.00118538876949154,-0.0408267600281442
36,0.000969237387141497,-0.0415061196530617,0.925880004284541,-0.323617519899142,0.925880004276478,-0.323617519904562,0.00088459718387407,-0.0414425851931395
36.5,0.000663661774682689,-0.0421216666683766,0.924274173337277,-0.327781782057793,0.924274173329061,-0.327781782063056,0.000576973992035268,-0.0420563836654035
37,0.000351312212692689,-0.0427351132354963,0.922650580423981,-0.331937879475915,0.92265058041562,-0.331937879481017,0.000262564381515951,-0.0426680529889665
37.5,3.22349345706074E-005,-0.0433463595314265,0.921009216820887,-0.336085747783289,0.921009216812388,-0.336085747788227,-5.85851561364925E-005,-0.0432774934456948
38,-0.000293522628766751,-0.0439553084112059,0.919350076021588,-0.340225320257481,0.91935007601296,-0.340225320262253,-0.000386426949025021,-0.043884607989114
38.5,-0.00062591196521361,-0.0445618653410309,0.917673153727432,-0.344356528012009,0.917673153718683,-0.344356528016611,-0.000720912260203932,-0.0444893021767829
39,-0.000964883589835819,-0.0451659383302712,0.915978447832207,-0.348479300173363,0.915978447823343,-0.348479300177794,-0.00106199139501889,-0.0450914841016534
39.5,-0.00131038714566856,-0.0457674378628166,0.914265958401909,-0.35259356404748,0.914265958392938,-0.352593564051736,-0.00140961380088234,-0.0456910643228321
40,-0.0016623714973179,-0.0463662768280788,0.91253568765032,-0.356699245276158,0.912535687641251,-0.35669924528024,-0.00176372815987458,-0.0462879557960851
40.5,-0.00202078481775392,-0.0469623704519826,0.910787639911023,-0.360796267983995,0.910787639901862,-0.360796267987899,-0.0021242824745456,-0.0468820738043931
41,-0.00238557466866141,-0.0475556362282179,0.909021821606427,-0.364884554916298,0.909021821597182,-0.364884554920025,-0.00249122414729352,-0.0474733358888448
41.5,-0.00275668807471269,-0.0481459938500115,0.9072382412143,-0.368964027568522,0.907238241204977,-0.36896402757207,-0.00286450005368516,-0.0480616617801037
42,-0.00313407159210005,-0.0487333651426081,0.905436909232266,-0.373034606307664,0.905436909222873,-0.373034606311033,-0.00324405661005933,-0.0486469733306492
42.5,-0.00351767137167169,-0.0493176739966714,0.903617838140656,-0.377096210486097,0.903617838131201,-0.377096210489287,-0.00362983983575776,-0.0492291944479886
43,-0.00390743321699633,-0.0498988463027525,0.901781042364064,-0.38114875854828,0.901781042354553,-0.381148758551291,-0.00402179541031145,-0.0498082510289903
43.5,-0.0043033026376621,-0.0504768098869532,0.899926538231905,-0.385192168130744,0.899926538222345,-0.385192168133576,-0.00441986872588429,-0.0503840708954539
44,-0.00470522489811176,-0.0510514944479183,0.898054343938272,-0.389226356155782,0.898054343928669,-0.389226356158436,-0.00482400493528534,-0.0509565837310586
44.5,-0.00511314506229482,-0.0516228314952287,0.896164479501294,-0.393251238919183,0.896164479491654,-0.393251238921658,-0.00523414899582597,-0.0515257210197428
45,-0.00552700803441591,-0.0521907542892872,0.894256966722227,-0.397266732172409,0.894256966712556,-0.397266732174707,-0.00565024570929623,-0.0520914159856269
45.5,-0.00594675859602772,-0.0527551977827561,0.892331829144444,-0.401272751199526,0.89233182913475,-0.401272751201648,-0.00607223975832055,-0.0526536035345051
46,-0.00637234143972043,-0.0533160985635857,0.89038909201249,-0.405269210889223,0.890389092002778,-0.405269210891168,-0.00650007573933747,-0.0532122201969716
46.5,-0.00680370119963736,-0.0538733947996759,0.888428782231323,-0.409256025802216,0.888428782221598,-0.409256025803987,-0.006933698192436,-0.0537672040731993
47,-0.00724078247904292,-0.0544270261851951,0.886450928325858,-0.413233110234336,0.886450928316127,-0.413233110235935,-0.00737305162826452,-0.0543184947794082
47.5,-0.00768352987513865,-0.0549769338885642,0.884455560400931,-0.417200378275558,0.884455560391198,-0.417200378276986,-0.00781808055222899,-0.0548660333960131
48,-0.00813188800133385,-0.0555230605021093,0.882442710101734,-0.421157743865226,0.882442710092006,-0.421157743866485,-0.00826872948616475,-0.0554097624174685
48.5,-0.0085858015071566,-0.0560653499933952,0.880412410574819,-0.425105120843723,0.880412410565099,-0.425105120844815,-0.0087249429876759,-0.0559496257038079
49,-0.00904521509597012,-0.0566037476582111,0.878364696429703,-0.429042423000803,0.878364696419998,-0.429042423001728,-0.0091866656673138,-0.0564855684338537
49.5,-0.00951007354066391,-0.0571382000752005,0.876299603701153,-0.432969564120793,0.876299603691469,-0.432969564121556,-0.00965384220375037,-0.0570175370600909
50,-0.00998032169747715,-0.0576686550621266,0.874217169812152,-0.436886458024876,0.874217169802491,-0.436886458025477,-0.0101264173571106,-0.0575454792651759
50.5,-0.0104559045180889,-0.0581950616337283,0.8721174335376,-0.440793018610624,0.872117433527969,-0.440793018611066,-0.0106043359805974,-0.0580693439200626
51,-0.0109367670601183,-0.0587173699611581,0.870000434968771,-0.444689159888972,0.870000434959173,-0.444689159889257,-0.0110875430305539,-0.0585890810437133
51.5,-0.0114228544961558,-0.0592355313329536,0.867866215478532,-0.448574796018776,0.867866215468973,-0.448574796018907,-0.0115759835750722,-0.059104641764351
52,-0.0119141121214461,-0.0597494981175295,0.865714817687345,-0.452449841339136,0.865714817677828,-0.452449841339114,-0.0120696028012876,-0.0596159782822434
52.5,-0.0124104853603344,-0.0602592237271309,0.863546285430045,-0.456314210399594,0.863546285420574,-0.456314210399424,-0.0125683460214469,-0.0601230438339533
53,-0.0129119197715728,-0.060764662583233,0.861360663723422,-0.460167817988375,0.861360663714001,-0.460167817988059,-0.0130721586778674,-0.0606257926580407
53.5,-0.0134183610525891,-0.0612657700833317,0.859157998734567,-0.464010579158761,0.8591579987252,-0.464010579158301,-0.0135809863468758,-0.0611241799621596
54,-0.0139297550428065,-0.0617625025691015,0.85693833775002,-0.467842409253752,0.856938337740711,-0.467842409253151,-0.0140947747418153,-0.061618161891531
54.5,-0.0144460477260921,-0.0622548172958637,0.854701729145681,-0.471663223929092,0.854701729136434,-0.471663223928353,-0.0146134697152052,-0.0621076954987188
55,-0.0149671852324185,-0.0627426724033447,0.852448222357485,-0.475472939174786,0.852448222348303,-0.475472939173911,-0.0151370172601288,-0.0625927387147082
55.5,-0.0154931138388034,-0.0632260268876575,0.850177867852843,-0.479271471335182,0.850177867843728,-0.479271471334175,-0.0156653635109205,-0.063073250321207
56,-0.0160237799696022,-0.0637048405745009,0.847890717102806,-0.483058737127737,0.847890717093763,-0.483058737126601,-0.0161984547432202,-0.0635491899241595
56.5,-0.0165591301962074,-0.064179074093504,0.84558682255498,-0.486834653660518,0.845586822546011,-0.486834653659256,-0.0167362373734508,-0.0640205179284138
57,-0.0170991112362108,-0.0646486888536927,0.843266237607136,-0.490599138448541,0.843266237598244,-0.490599138447155,-0.0172786579577804,-0.0644871955135036
57.5,-0.0176436699521001,-0.0651136470200414,0.840929016581524,-0.494352109429007,0.840929016572713,-0.494352109427501,-0.0178256631906253,-0.0649491846105265
58,-0.0181927533495082,-0.0655739114910605,0.838575214699873,-0.498093484975514,0.838575214691144,-0.498093484973891,-0.0183771999027273,-0.0654064478800411
58.5,-0.0187463085750876,-0.0660294458773892,0.836204888059045,-0.5018231839113,0.836204888050403,-0.501823183909565,-0.0189332150588687,-0.0658589486909833
59,-0.0193042829140379,-0.0664802144813624,0.833818093607354,-0.505541125521586,0.833818093598798,-0.505541125519739,-0.0194936557552542,-0.0663066511005423
59.5,-0.0198666237873326,-0.0669261822774904,0.831414889121489,-0.509247229565055,0.831414889113025,-0.5092472295631,-0.0200584692166008,-0.0667495198349639
60,-0.0204332787486682,-0.0673673148938588,0.828995333184084,-0.512941416284552,0.828995333175712,-0.512941416282493,-0.0206276027929733,-0.0671875202712505
60.5,-0.0210041954811867,-0.0678035785943665,0.826559485161853,-0.516623606417023,0.826559485153575,-0.516623606414863,-0.0212010039563931,-0.0676206184197172
61,-0.0215793217939881,-0.0682349402618078,0.82410740518432,-0.520293721202757,0.82410740517614,-0.520293721200499,-0.0217786202972567,-0.0680487809073755
61.5,-0.0221586056184621,-0.0686613673817424,0.821639154123112,-0.523951682393962,0.821639154115029,-0.52395168239161,-0.0223603995205847,-0.0684719749621105
62,-0.0227419950044725,-0.0690828280271297,0.819154793571783,-0.527597412262722,0.8191547935638,-0.527597412260278,-0.0229462894421287,-0.0688901683976135
