"Freq [GHz]","re(St(P1,P1)) []","im(St(P1,P1)) []","re(St(P1,P2)) []","im(St(P1,P2)) []","re(St(P2,P1)) []","im(St(P2,P1)) []","re(St(P2,P2)) []","im(St(P2,P2)) []"
0,0.0119452308052814,0,0.988049838895677,0,0.988049840350868,0,0.0119452360459036,0
0.5,0.0129622877718596,-0.000282002933101211,0.986917383962865,-0.0143212446951733,0.98691738396551,-0.0143212446037602,0.0129623643342569,-0.000282642538698141
1,0.0136785623721458,-0.00170284279311161,0.985781874423134,-0.0274763965827685,0.985781874404074,-0.0274763965755298,0.0136787523405086,-0.00170427188687583
1.5,0.0140729562798994,-0.00330210069349235,0.984671132319103,-0.0404392958865678,0.9846711322882,-0.0404392958863422,0.0140727151979334,-0.00330438279559608
2,0.014273617024342,-0.00492463539718369,0.983539342746072,-0.0532962195304583,0.98353934270712,-0.0532962195228581,0.014273275376246,-0.00492761595253999
2.5,0.0143665180218004,-0.00654547650611015,0.982296804082295,-0.0661116027581494,0.982296804043338,-0.0661116027403095,0.0143661094974341,-0.00654929984499208
3,0.0143839638513508,-0.0081633973602715,0.980899073632796,-0.0788870965522603,0.980899073599144,-0.0788870965264561,0.0143833669155036,-0.00816813790555582
3.5,0.0143406011471086,-0.0097777661810774,0.979329448178766,-0.0916130583134258,0.979329448152782,-0.0916130582833441,0.0143396799804607,-0.00978340773912123
4,0.0142449961595599,-0.0113875072129694,0.977584247828777,-0.104280516664415,0.977584247810716,-0.104280516633597,0.0142436483143475,-0.0113939860558414
4.5,0.0141030565848945,-0.0129917031990532,0.975665462054461,-0.116883248044865,0.975665462043275,-0.116883248016094,0.0141012162748568,-0.0129989415967815
5,0.01391913896679,-0.0145898058683005,0.973577248035127,-0.129417570030949,0.973577248029089,-0.129417570006074,0.0139167674611372,-0.0145977289663684
5.5,0.0136965145385471,-0.0161815927408693,0.971324255006346,-0.141881694449196,0.971324255003515,-0.141881694429164,0.013693589953536,-0.0161901346564131
6,0.0134376411300242,-0.0177670573832027,0.968910841906921,-0.154275093122201,0.968910841905459,-0.154275093107201,0.0134341508735032,-0.017776161982078
6.5,0.0131443567079186,-0.0193463101656106,0.966340752393272,-0.166597980630089,0.966340752391654,-0.16659798061974,0.0131402926485395,-0.0193559297179453
7,0.0128180261746205,-0.0209195077044035,0.963617029133858,-0.178850925421049,0.963617029130974,-0.178850925414584,0.012813381826682,-0.0209296009713902
7.5,0.0124596534893962,-0.0224868083355791,0.960742050539578,-0.191034574548915,0.960742050534781,-0.191034574545367,0.0124544225118069,-0.0224973387375491
8,0.0120699667211298,-0.0240483463430579,0.957717624488452,-0.203149470769384,0.957717624481544,-0.20314947076773,0.012064142216205,-0.0240592804259934
8.5,0.0116494821406481,-0.0256042183535614,0.954545102012005,-0.215195940730456,0.954545102003197,-0.215195940729743,0.0116430564165986,-0.0256155245851124
9,0.0111985523638325,-0.0271544771251584,0.951225490565294,-0.227174035449587,0.951225490555145,-0.227174035449022,0.0111915169538695,-0.0271661249821982
9.5,0.0107174025276188,-0.0286991295883143,0.947759556517328,-0.239083507560615,0.947759556506679,-0.239083507559627,0.0107097483427849,-0.0287110888803213
10,0.0102061575647658,-0.0302381371809726,0.944147912485555,-0.250923813163249,0.944147912475455,-0.250923813161533,0.0101978751097233,-0.0302503775559533
10.5,0.00968218929635706,-0.0317661907334015,0.940370380057334,-0.262700247484152,0.940370380047353,-0.262700247482163,0.0096732720444235,-0.0317787127871352
11,0.00912494239275488,-0.0332919471263307,0.936454778943163,-0.274400553452455,0.936454778933319,-0.27440055345022,0.00911538774859855,-0.0333047200756751
11.5,0.00853384890070102,-0.0348144505131456,0.932402722045533,-0.286024980090983,0.932402722035837,-0.286024980088531,0.00852365608968764,-0.0348274449721824
12,0.00790839999555465,-0.0363326927439245,0.928215613929514,-0.297573640330276,0.928215613919973,-0.297573640327634,0.00789756984301931,-0.0363458808203052
12.5,0.00724814896253489,-0.0378456197799584,0.923894692591713,-0.309046505482135,0.92389469258233,-0.309046505479328,0.00723668367443675,-0.0378589751432921
13,0.00655271341460106,-0.0393521380784845,0.919441066430175,-0.320443405400233,0.91944106642095,-0.320443405397285,0.00654061636268555,-0.0393656360026584
13.5,0.00582177679941187,-0.0408511208648665,0.914855746385436,-0.331764032861777,0.914855746376363,-0.331764032858709,0.00580905231354883,-0.0408647382464633
14,0.00505508925425302,-0.0423414142223699,0.910139673435173,-0.343007950945408,0.910139673426246,-0.343007950942237,0.00504174242413913,-0.042355129577514
14.5,0.00425246787191685,-0.0438218429422026,0.905293741760885,-0.354174602408778,0.905293741752095,-0.354174602405519,0.00423850435987289,-0.0438356363842591
15,0.0034137964425166,-0.0452912160886991,0.900318817982349,-0.365263320275159,0.900318817973687,-0.365263320271826,0.0033992223086815,-0.0453050692892734
15.5,0.00253902473644813,-0.046748332245709,0.895215756890009,-0.376273339017139,0.895215756881464,-0.37627333901374,0.00252384627728919,-0.046762228381344
16,0.00162816739243016,-0.0481919844206007,0.889985414109404,-0.387203805876352,0.889985414100964,-0.387203805872894,0.00161239099312582,-0.0482059081075137
16.5,0.000681302472061607,-0.0496209645914911,0.884628656115594,-0.398053791982295,0.88462865610725,-0.398053791978785,0.000664934473009915,-0.0496349018105258
17,-0.000301430261083702,-0.0510340678913646,0.879146367986805,-0.40882230303326,0.879146367978545,-0.408822303029699,-0.000318383683650059,-0.0510480059052203
17.5,-0.00131983128391805,-0.0524300964295992,0.873539459250918,-0.419508289381268,0.873539459242733,-0.419508289377658,-0.00133736422343528,-0.0524440236942156
18,-0.00237364342848756,-0.0538078627572203,0.867808868140017,-0.430110655423959,0.867808868131897,-0.430110655420299,-0.00239175034010908,-0.0538217688290077
18.5,-0.00346255412425955,-0.0551661929868228,0.861955564529633,-0.44062826825258,0.861955564521571,-0.440628268248867,-0.00348122990400235,-0.0551800684272596
19,-0.00458619772840629,-0.0565039295817937,0.855980551802452,-0.451059965539528,0.85598055179444,-0.45105996553576,-0.00460543778006545,-0.056517765860717
19.5,-0.00574415790929489,-0.0578199338322443,0.849884867841986,-0.461404562673599,0.849884867834018,-0.46140456266977,-0.00576395819986447,-0.0578337232309865
20,-0.00693597005309399,-0.059113088036992,0.843669585330807,-0.471660859168305,0.843669585322878,-0.47166085916441,-0.00695632715749123,-0.0591268235523416
20.5,-0.00816112366789445,-0.0603822974122238,0.837335811500352,-0.481827644380112,0.837335811492458,-0.481827644376147,-0.0081820348038032,-0.0603959726620393
21,-0.00941906476390275,-0.0616264917481074,0.830884687455193,-0.491903702580484,0.830884687447332,-0.491903702576442,-0.00944052781756016,-0.0616401008792513
21.5,-0.0107091981921295,-0.0628446268347764,0.824317387173762,-0.501887817429404,0.824317387165932,-0.501887817425279,-0.0107312117358729,-0.0628581644339229
22,-0.0120308899274834,-0.0640356856788844,0.817635116269552,-0.511778775899503,0.817635116261752,-0.511778775895289,-0.0120534532298521,-0.0640491466866148
22.5,-0.0133834692853199,-0.0651986795312962,0.810839110581558,-0.521575371699549,0.810839110573788,-0.521575371695238,-0.0134065823144695,-0.0652120591598082
23,-0.0147662310632712,-0.0663326487456929,0.803930634649783,-0.531276408244623,0.803930634642046,-0.531276408240211,-0.0147898944844272,-0.0663459424003463
23.5,-0.0161784376026127,-0.0674366634868085,0.796910980120802,-0.540880701218024,0.796910980113099,-0.540880701213504,-0.0162026527702407,-0.0674498666916563
24,-0.0176193207655168,-0.0685098243058654,0.789781464119282,-0.550387080767183,0.789781464111616,-0.550387080762551,-0.017644089710838,-0.0685229326332519
24.5,-0.0190880838263456,-0.0695512625995421,0.782543427613826,-0.559794393372908,0.782543427606201,-0.559794393368158,-0.0191134092407844,-0.0695642716037872
25,-0.0205839032766274,-0.0705601409675035,0.775198233799266,-0.569101503428131,0.775198233791686,-0.569101503423258,-0.0206097884917223,-0.0705730461226551
25.5,-0.0221059305446131,-0.0715356534822197,0.767747266512386,-0.578307294559258,0.767747266504856,-0.578307294554258,-0.0221323795088729,-0.0715484501238129
26,-0.0236532936313271,-0.0724770258835321,0.760191928693832,-0.587410670720224,0.760191928686356,-0.587410670715094,-0.0236803108844761,-0.0724897091542652
26.5,-0.0252250986658227,-0.0733835157091484,0.752533640905543,-0.596410557086468,0.752533640898126,-0.596410557081206,-0.0252526893108199,-0.0733960805083599
27,-0.0268204313829879,-0.07425441237106,0.744773839910224,-0.60530590077339,0.744773839902873,-0.605305900767992,-0.0268486010561784,-0.0742668533078819
27.5,-0.0284383585276913,-0.0750890371867124,0.736913977317166,-0.614095671401285,0.736913977309886,-0.614095671395751,-0.0284671133673975,-0.075101348536759
28,-0.0300779291894236,-0.0758867433727233,0.728955518296853,-0.622778861526521,0.72895551828965,-0.622778861520849,-0.0301072758032447,-0.0758989190381609
28.5,-0.0317381760717457,-0.0766469160078889,0.720899940365436,-0.631354486956522,0.720899940358316,-0.631354486950712,-0.0317681215028141,-0.076658949480744
29,-0.0334181167010151,-0.0773689719713389,0.712748732238962,-0.639821586964255,0.712748732231932,-0.639821586958307,-0.0334486683934158,-0.0773808562998854
29.5,-0.0351167545788669,-0.0780523598608356,0.704503392756403,-0.648179224416132,0.704503392749467,-0.648179224410046,-0.0351479203424004,-0.0780640876189128
30,-0.0368330802828839,-0.0786965598954268,0.696165429869837,-0.656426485825664,0.696165429863001,-0.656426485819442,-0.0368648682573318,-0.0787081231545421
30.5,-0.0385660725198093,-0.0793010838059788,0.687736359699652,-0.664562481343777,0.687736359692921,-0.664562481337419,-0.0385984911388347,-0.0793124741100545
31,-0.0403146991355035,-0.0798654747164873,0.679217705652239,-0.672586344695418,0.679217705645619,-0.672586344688928,-0.0403477570903074,-0.0798766830591106
31.5,-0.042077918085685,-0.0803893070184732,0.670610997597434,-0.680497233070921,0.67061099759093,-0.6804972330643,-0.0421116242885121,-0.080400323822533
32,-0.0438546783712855,-0.0808721862403128,0.661917771102737,-0.688294326979579,0.661917771096353,-0.68829432697283,-0.0438890419188608,-0.0808830013398866
32.5,-0.0456439209420395,-0.0813137489128558,0.653139566721315,-0.695976830071943,0.653139566715056,-0.695976830065069,-0.0456789510790168,-0.0813243515372477
33,-0.047444579571697,-0.0817136624323445,0.644277929330686,-0.703543968936551,0.644277929324555,-0.703543968929555,-0.0474802856541676,-0.0817240411921669
33.5,-0.0492555817080053,-0.0820716249212785,0.635334407519046,-0.710994992876044,0.635334407513047,-0.71099499286893,-0.0492919731671221,-0.0820817677964757
34,-0.0510758493003666,-0.0823873650875837,0.626310553016214,-0.718329173667005,0.62631055301035,-0.718329173659776,-0.0511129356061297,-0.0823972594173134
34.5,-0.0529042996078351,-0.0826606420821882,0.617207920166244,-0.725545805307224,0.617207920160518,-0.725545805299883,-0.0529420902330682,-0.0826702745564809
35,-0.054739845989882,-0.0828912453549083,0.608028065438855,-0.732644203753646,0.608028065433269,-0.732644203746199,-0.0547783503744363,-0.0829006020080256
35.5,-0.0565813986821082,-0.0830789945083414,0.59877254697693,-0.739623706653743,0.598772546971487,-0.739623706646192,-0.0566206261973174,-0.0830880607137722
36,-0.0584278655588728,-0.0832237391493387,0.58944292417746,-0.746483673072673,0.58944292417216,-0.746483673065023,-0.0584678254722857,-0.0832324996163703
36.5,-0.0602781528845743,-0.0833253587374945,0.580040757303418,-0.753223483218253,0.580040757298264,-0.753223483210508,-0.0603188543249839,-0.0833337975092996
37,-0.0621311660551072,-0.083383762429988,0.570567607124206,-0.759842538165411,0.570567607119198,-0.759842538157574,-0.0621726179778951,-0.0833918628831882
37.5,-0.0639858103308234,-0.083398888922057,0.561025034582426,-0.766340259581546,0.561025034577564,-0.766340259573621,-0.064028021483643,-0.0834066337677091
38,-0.0658409915621271,-0.0833707062823045,0.551414600484871,-0.772716089453974,0.551414600480156,-0.772716089445966,-0.0658839704509376,-0.0833780775682748
38.5,-0.0676956169086527,-0.0832992117820175,0.541737865215763,-0.778969489820404,0.541737865211194,-0.778969489812316,-0.0677393717641231,-0.0833061908967082
39,-0.0695485955528051,-0.0831844317176483,0.531996388470389,-0.785099942503229,0.531996388465967,-0.785099942495064,-0.0695931342971087,-0.0831909993950407
39.5,-0.0713988394082752,-0.0830264212255984,0.522191729007423,-0.791106948848238,0.522191729003146,-0.79110694884,-0.0714441696222921,-0.0830325575515884
40,-0.0732452638239979,-0.0828252640884513,0.512325444418326,-0.796990029468229,0.512325444414192,-0.79699002945992,-0.0732913927149403,-0.0828309485084465
40.5,-0.0750867882838825,-0.0825810725318145,0.502399090912353,-0.802748723991858,0.502399090908363,-0.802748723983482,-0.0751337226533673,-0.0825862838595715
41,-0.0769223371024984,-0.0822939870109492,0.492414223115803,-0.80838259081799,0.492414223111955,-0.808382590809549,-0.076970083315087,-0.0822987034386242
41.5,-0.0787508401168001,-0.0819641759863965,0.48237239388424,-0.813891206875677,0.482372393880531,-0.813891206867173,-0.0787994040690274,-0.081968375095796
42,-0.0805712333738597,-0.0815918356878598,0.472275154126535,-0.819274167389882,0.472275154122965,-0.819274167381318,-0.080620620463771,-0.0815954944628623
42.5,-0.0823824598144483,-0.0811771898656213,0.462124052639676,-0.824531085652933,0.462124052636242,-0.82453108564431,-0.0824326749116763,-0.0811802847057572
43,-0.0841834699522578,-0.0807204895288448,0.451920635953359,-0.829661592801682,0.451920635950059,-0.829661592793003,-0.0842345173686586,-0.0807229962640127
43.5,-0.0859732225484393,-0.0802220126701533,0.441666448183494,-0.834665337600289,0.441666448180326,-0.834665337591553,-0.0860251060093147,-0.080223906576455
44,-0.0877506852810656,-0.079682063975931,0.431363030893812,-0.839541986228505,0.431363030890774,-0.839541986219715,-0.0878034078970013,-0.0796833197926056
44.5,-0.0895148354090649,-0.0791009745218587,0.421011922964848,-0.844291222075318,0.421011922961937,-0.844291222066474,-0.0895683996484112,-0.0791015664692989
45,-0.0912646604301093,-0.0784791014532523,0.410614660469643,-0.848912745537783,0.410614660466857,-0.848912745528886,-0.0913190680921325,-0.0784790032520804
45.5,-0.0929991587318856,-0.0778168276498378,0.400172776555579,-0.853406273824852,0.400172776552916,-0.853406273815902,-0.0930544109206243,-0.0778160125410235
46,-0.0947173402361365,-0.0771145613746588,0.389687801331804,-0.857771540766009,0.389687801329261,-0.857771540757006,-0.0947734373349853,-0.0771130021406554
46.5,-0.0964182270348214,-0.0763727359068785,0.379161261761781,-0.862008296624502,0.379161261759356,-0.862008296615445,-0.0964751686818809,-0.0763704048937585
47,-0.0981008540177059,-0.075591809158306,0.36859468156054,-0.866116307914958,0.368594681558231,-0.866116307905847,-0.0981586390819267,-0.0755886782988693
47.5,-0.099764269490684,-0.0747722632735403,0.357989581096246,-0.870095357225177,0.357989581094051,-0.870095357216011,-0.0998228960488355,-0.0747683041113718
48,-0.101407535784088,-0.0739146042136856,0.347347477295765,-0.873945243041884,0.347347477293681,-0.873945243032662,-0.101467001098584,-0.0739097879281379
48.5,-0.103029729850255,-0.0730193613236722,0.336669883553929,-0.877665779580244,0.336669883551955,-0.877665779570965,-0.103090030347867,-0.073013658755743
49,-0.104629943849599,-0.0720870868832593,0.325958309646249,-0.88125679661693,0.325958309644382,-0.881256796607592,-0.10469107510109,-0.0720804685623367
49.5,-0.106207285724419,-0.0711183556418792,0.31521426164485,-0.884718139326556,0.315214261643089,-0.884718139317158,-0.106269242425132,-0.0711107918133239
50,-0.107760879759723,-0.0701137643375286,0.304439241837443,-0.888049668121288,0.304439241835787,-0.888049668111828,-0.10782365571114,-0.0701052249910619
50.5,-0.109289867130284,-0.0690739311999832,0.293634748649168,-0.891251258493453,0.293634748647615,-0.891251258483928,-0.109353455222604,-0.0690643860988457
51,-0.110793406433224,-0.0679994954386626,0.282802276567162,-0.894322800860992,0.282802276565711,-0.894322800851401,-0.110857798628974,-0.0679889141495103
51.5,-0.112270674205392,-0.0668911167155321,0.271943316067749,-0.89726420041559,0.271943316066399,-0.897264200405931,-0.112335861524108,-0.0668794686390344
52,-0.113720865424833,-0.0657494746034812,0.261059353546139,-0.90007537697335,0.26105935354489,-0.900075376963619,-0.113786837928835,-0.065736729005579
52.5,-0.115143193995687,-0.0645752680306687,0.250151871248562,-0.902756264827868,0.250151871247412,-0.902756264818063,-0.115209940776963,-0.0645613940744578
53,-0.116536893215844,-0.0633692147113747,0.239222347206775,-0.905306812605604,0.239222347205724,-0.905306812595724,-0.116604402384088,-0.0633541814895714
53.5,-0.117901216226749,-0.0621320505639452,0.228272255174883,-0.907726983123432,0.228272255173931,-0.907726983113472,-0.117969474898558,-0.0621158271318929
54,-0.119235436444765,-0.0608645291164588,0.217303064568437,-0.910016753248268,0.217303064567585,-0.910016753238227,-0.119304430734021,-0.0608470845256324
54.5,-0.120538847973527,-0.0595674209007839,0.206316240405781,-0.912176113758706,0.206316240405027,-0.91217611374858,-0.120608562982989,-0.0595487242327476
55,-0.121810765996792,-0.0582415128357366,0.195313243251611,-0.914205069208577,0.195313243250957,-0.914205069198365,-0.121881185810901,-0.0582215332365099
55.5,-0.123050527151278,-0.0568876076000768,0.18429552916276,-0.916103637792372,0.184295529162206,-0.91610363778207,-0.123121634830213,-0.0568663143148634
56,-0.124257489879085,-0.0555065229961209,0.17326454963616,-0.917871851212476,0.173264549635708,-0.917871851202082,-0.124329267454061,-0.0554838854043513
56.5,-0.125431034759286,-0.0540990913047669,0.162221751559013,-0.919509754548181,0.162221751558662,-0.919509754537692,-0.125503463229121,-0.0540750789554095
57,-0.126570564818344,-0.0526661586327624,0.151168577161139,-0.921017406126426,0.151168577160891,-0.921017406115839,-0.126643624147296,-0.0526407412798529
57.5,-0.127675505819064,-0.0512085842530601,0.140106463969523,-0.92239487739427,0.14010646396938,-0.922394877383582,-0.127749174935953,-0.051181731891401
58,-0.128745306527805,-0.0497272399391284,0.129036844765052,-0.923642252793057,0.129036844765016,-0.923642252782266,-0.128819563326418,-0.0496989228401097
58.5,-0.129779438959769,-0.0482230092940977,0.117961147541444,-0.924759629634293,0.117961147541516,-0.924759629623397,-0.129854260300559,-0.0481931980415894
59,-0.130777398602194,-0.0466967870756352,0.106880795466378,-0.925747117977218,0.10688079546656,-0.925747117966213,-0.130852760315265,-0.0466654526019008
59.5,-0.131738704615345,-0.0451494785174486,0.0957972068448226,-0.926604840508096,0.0957972068451172,-0.926604840496982,-0.131814581504732,-0.0451165921390314
60,-0.132662900011254,-0.0435819986483248,0.0847117950845642,-0.927332932421244,0.0847117950849734,-0.927332932410017,-0.132739265860486,-0.0435475321018583
60.5,-0.133549551810177,-0.0419952716096138,0.0736259686639379,-0.927931541301803,0.073625968664464,-0.927931541290463,-0.133626379389126,-0.0419591970875043
61,-0.13439825117484,-0.0403902299720618,0.0625411311017523,-0.928400827010318,0.062541131102398,-0.928400826998863,-0.13447551224784,-0.0403525201579977
61.5,-0.135208613522524,-0.0387678140528978,0.0514586809294083,-0.928740961569122,0.0514586809301762,-0.928740961557548,-0.135286278857758,-0.038728442157135
62,-0.135980278615159,-0.037128971234069,0.0403800116652003,-0.92895212905059,0.0403800116660936,-0.928952129038897,-0.136058317995294,-0.0370879110284462
62.5,-0.136712910627585,-0.0354746552825094,0.0293065117907882,-0.929034525467311,0.0293065117918097,-0.929034525455499,-0.136791292861651,-0.0354318811351456
