"Freq [GHz]","re(St(P1,P1)) []","im(St(P1,P1)) []","re(St(P1,P2)) []","im(St(P1,P2)) []","re(St(P2,P1)) []","im(St(P2,P1)) []","re(St(P2,P2)) []","im(St(P2,P2)) []"
0,0.00419284248806662,0,0.995819879201008,0,0.995819880859926,0,0.00419284498622119,0
0.5,0.0045169995209946,0.00119717008698927,0.995459848900538,-0.00431615367504534,0.995459848342271,-0.0043161547171664,0.00451695043631872,0.00119724906166141
1,0.00483954054760716,0.00198959721556591,0.99506447405653,-0.00822083538899676,0.995064474009947,-0.00822083516654004,0.00483936479005465,0.00198979489281825
1.5,0.0050398078585161,0.00265508350631904,0.99475576662133,-0.012178253171335,0.994755766653737,-0.0121782529275691,0.00503942669975466,0.00265541558858473
2,0.00515612405841459,0.00331817532507372,0.994418155623963,-0.0160223258888692,0.99441815570623,-0.0160223256686507,0.00515552209484405,0.0033186934605105
2.5,0.00523696238056548,0.00399672699468923,0.994084332437926,-0.0197763155562143,0.994084332536563,-0.019776315379076,0.00523612269847984,0.00399744548251491
3,0.00530388269733706,0.00468924698407669,0.993766223675197,-0.0234666926026552,0.993766223765621,-0.0234666924713594,0.00530277820671454,0.00469016876228245
3.5,0.00536660145841772,0.0053923134149958,0.993463310649667,-0.0271147535543452,0.993463310718412,-0.027114753464021,0.00536519829079651,0.00539343882097043
4,0.00542984567649452,0.00610321191419949,0.993169716878421,-0.0307352537907928,0.993169716920632,-0.030735253734365,0.00542810597081678,0.00610454123185633
4.5,0.0054961054666447,0.00682005341855429,0.992878261607833,-0.0343377012332606,0.992878261624058,-0.034337701203734,0.00549398894063335,0.00682158757136442
5,0.00556679143131822,0.00754155473966023,0.992582278284796,-0.0379280175226722,0.992582278278466,-0.0379280175138934,0.00556425622403767,0.00754329543870291
5.5,0.00564275723485985,0.00826684236994168,0.992276224530149,-0.0415098377349317,0.992276224505911,-0.0415098377416072,0.00563976036001224,0.00826879210828935
6,0.00572455248503445,0.00899531681109522,0.991955745099256,-0.0450853767325938,0.991955745062005,-0.0450853767501886,0.00572105007658563,0.00899747882352386
6.5,0.0058125529038302,0.00972656372639058,0.991617528146833,-0.0486559685284984,0.991617528101171,-0.0486559685530779,0.00580850034770175,0.00972894195009388
7,0.00590703103833246,0.0104602960527815,0.99125910885222,-0.0522223932652253,0.991259108802216,-0.0522223932933628,0.00590238303938917,0.0104628950982644
7.5,0.00600819651133933,0.0111963158540531,0.990878682308861,-0.0557850749174387,0.990878682257972,-0.0557850749461402,0.00600290712226847,0.0111991409873404
8,0.00611621988847133,0.0119344887471184,0.990474945929469,-0.0593442024003297,0.990474945880548,-0.0593442024269697,0.00611024251543979,0.0119375458819961
8.5,0.00623124734926139,0.0126747264294647,0.990046974237959,-0.0628998055309395,0.990046974193303,-0.0628998055532355,0.00622453474294082,0.0126780221281324
9,0.0063534099996253,0.0134169745122552,0.989594122499298,-0.0664518041163147,0.98959412246073,-0.0664518041322824,0.00634591423671915,0.013420515992979
9.5,0.00648282995709659,0.014161203890402,0.98911595391248,-0.070000040707705,0.989115953881419,-0.0700000407156347,0.00647450241550351,0.0141649990410002
10,0.0066196244348814,0.0149074045127451,0.988612185229204,-0.0735443031352379,0.988612185206735,-0.0735443031336693,0.00661041576446542,0.0149114619090929
10.5,0.00677816095754474,0.0156330282247685,0.988145869981716,-0.0771101986381728,0.988145869959104,-0.0771101986362117,0.00676817119418721,0.0156373160300971
11,0.00694380810170159,0.0163558864788111,0.987664951841038,-0.0806640533778431,0.987664951818312,-0.0806640533754717,0.00693299660674312,0.016360409915162
11.5,0.00711648405088527,0.0170758756210523,0.987170093376676,-0.0842060308507397,0.987170093353866,-0.0842060308479429,0.00710480992863133,0.0170806404112014
12,0.00729610472739972,0.0177928954308495,0.986661914712359,-0.0877363325960552,0.986661914689495,-0.0877363325928231,0.00728352683453257,0.0177979078240336
12.5,0.007482583966825,0.0185068491786993,0.986140992433313,-0.0912551924367229,0.986140992410426,-0.0912551924330538,0.00746906092383423,0.018512115975672
13,0.0076758336932731,0.0192176436740752,0.985607859159424,-0.0947628709774548,0.985607859136546,-0.0947628709733381,0.00766132389783586,0.0192231722513752
13.5,0.00787576409477463,0.019925189303339,0.985063003703279,-0.0982596504188047,0.985063003680439,-0.0982596504142439,0.00786022573699713,0.0199309876365881
14,0.00808228379817191,0.0206294000578269,0.984506871731406,-0.101745829730455,0.984506871708633,-0.101745829725447,0.00806567487760088,0.0206354767439656
14.5,0.00829530004291867,0.0213301935523598,0.983939866848773,-0.105221720212444,0.983939866826096,-0.105221720206996,0.00827757838721643,0.021336557830645
15,0.00851471885322821,0.0220274910343381,0.98336235203022,-0.108687641460423,0.983362352007667,-0.108687641454541,0.00849584213840145,0.0220341528060439
15.5,0.00874044520802595,0.0227212173837574,0.982774651327445,-0.112143917740112,0.982774651305041,-0.112143917733803,0.00872037098008209,0.0227281872304292
16,0.00897238320818106,0.0234113011044079,0.982177051786161,-0.115590874767025,0.982177051763933,-0.1155908747603,0.00895106890609791,0.0234185903046003
16.5,0.00921043624056264,0.0240976743065797,0.981569805514547,-0.119028836880277,0.981569805492517,-0.119028836873146,0.00918783922042336,0.0241052948509966
17,0.00945450713845043,0.0247802726816668,0.980953131850918,-0.122458124593387,0.980953131829107,-0.122458124585865,0.00943058469862543,0.0247882372866308
17.5,0.00970449833789822,0.0254590354689892,0.980327219585345,-0.125879052500973,0.980327219563775,-0.125879052493074,0.009679207745124,0.0254673575881941
18,0.00996031202966949,0.026133905415282,0.979692229196568,-0.129291927517007,0.979692229175257,-0.129291927508747,0.00993361054588802,0.0261425992497668
18.5,0.0102218503064028,0.0268048287272258,0.979048295071788,-0.132697047418651,0.979048295050754,-0.132697047410047,0.0101936952162263,0.0268139092335669
19,0.0104890153047001,0.0274717550174652,0.978395527682757,-0.13609469966866,0.978395527662014,-0.136094699659727,0.0104593639433527,0.0274812379141358
19.5,0.0107617093418653,0.0281346372445457,0.977734015696855,-0.139485160489234,0.977734015676417,-0.139485160479991,0.0107305191234682,0.0281445390164503
20,0.0110398350470601,0.0287934316471832,0.977063828006609,-0.142868694160648,0.977063827986488,-0.142868694151111,0.0110070634931229,0.0288037695483783
20.5,0.0113232954866719,0.0294480976733733,0.976385015665274,-0.14624555251891,0.976385015645481,-0.146245552509099,0.011288900254659,0.0294588897279637
21,0.0116119942837339,0.0300985979047144,0.975697613719723,-0.149615974628022,0.975697613700268,-0.149615974617955,0.011575933195568,0.030109862905968
21.5,0.0119058357312559,0.0307448979764575,0.975001642935033,-0.152980186603854,0.975001642915923,-0.152980186593546,0.0118680668016473,0.0307566554841601
22,0.0122047248993712,0.0313869664936766,0.974297111407733,-0.156338401568423,0.974297111388975,-0.156338401557896,0.0121652063638426,0.0313992368297695
22.5,0.0125085677362307,0.0320247749440226,0.973584016066887,-0.159690819715048,0.973584016048486,-0.159690819704317,0.0124672580787245,0.0320375791865786
23,0.0128172711625929,0.0326582976074925,0.972862344063936,-0.163037628466648,0.972862344045896,-0.163037628455733,0.0127741291425638,0.0326716575830708
23.5,0.0131307431601158,0.0332875114636182,0.972132074053625,-0.166379002711258,0.97213207403595,-0.166379002700176,0.0130857278389928,0.0333014497380817
24,0.0134488928533505,0.033912396096504,0.971393177369472,-0.169715105100456,0.971393177352163,-0.169715105089223,0.0134019636202843,0.0339269359643479
24.5,0.0137716305854808,0.0345329335980904,0.970645619098014,-0.173046086398115,0.970645619081073,-0.173046086386748,0.0137227471822911,0.0345480990703653
25,0.0140988679878776,0.0351491084700442,0.969889359056702,-0.176372085868318,0.969889359040129,-0.176372085856833,0.014047990533112,0.0351649242609584
25.5,0.0144305180435446,0.0357609075246321,0.969124352680698,-0.179693231692781,0.969124352664493,-0.179693231681193,0.0143776070555861,0.0357773990369026
26,0.0147664951445647,0.0363683197849372,0.968350551824056,-0.183009641409343,0.968350551808217,-0.183009641397667,0.0147115115637206,0.0363855130939745
26.5,0.0151067151436685,0.0369713363847404,0.967567905480902,-0.186321422364345,0.967567905465426,-0.186321422352597,0.0150496203531838,0.0369892582217752
27,0.0154510954000636,0.0375699504684022,0.966776360432206,-0.18962867217273,0.966776360417092,-0.189628672160923,0.0153918512460115,0.0375886282026126
27.5,0.0157995548196828,0.0381641570910327,0.965975861823658,-0.192931479180676,0.965975861808902,-0.192931479168823,0.0157381236296873,0.0381836187107898
28,0.016152013890007,0.0387539531192247,0.965166353680023,-0.196229922926439,0.965166353665621,-0.196229922914555,0.0160883584907704,0.0387742272125249
28.5,0.0165083947096534,0.0393393371326374,0.96434777936113,-0.199524074595817,0.964347779347078,-0.199524074583912,0.0164424784432544,0.0393604528668305
29,0.0168686210129076,0.0399203093266391,0.963520081964437,-0.202813997469314,0.96352008195073,-0.2028139974574,0.0168004077518533,0.0399422964275311
29.5,0.0172326181893989,0.0404968714162635,0.962683204678844,-0.206099747358683,0.962683204665478,-0.206099747346772,0.0171620723504164,0.0405197601466891
30,0.0176003132991164,0.0410690265416762,0.961837091094156,-0.209381373030977,0.961837091081126,-0.209381373019081,0.0175273998556792,0.0410928476796255
30.5,0.0179716350829802,0.0416367791753285,0.960981685470319,-0.212658916618754,0.960981685457619,-0.21265891660688,0.0178963195765638,0.0416615639917191
31,0.018346513969174,0.0422001350310002,0.960116932970263,-0.21593241401534,0.960116932957887,-0.2159324140035,0.0182687625192457,0.0422259152671653
31.5,0.0187248820754481,0.0427591009748416,0.959242779859939,-0.2192018952545,0.95924277984788,-0.219201895242701,0.0186446613882071,0.0427859088198344
32,0.0191066732076196,0.0433136849385938,0.958359173678803,-0.222467384874011,0.958359173667056,-0.222467384862265,0.0190239505834934,0.0433415530063683
32.5,0.0194918228544725,0.043863895835077,0.957466063383819,-0.225728902262951,0.957466063372377,-0.225728902251263,0.0194065661943936,0.043892857141639
33,0.0198802681792804,0.0444097434760615,0.956563399469741,-0.228986461992631,0.956563399458598,-0.22898646198101,0.0197924459897656,0.0444398314166394
33.5,0.0202719480081602,0.0449512384926267,0.955651134068221,-0.232240074131305,0.955651134057371,-0.232240074119758,0.0201815294052216,0.0449824868189506
34,0.0206668028154687,0.0454883922580513,0.95472922102807,-0.235489744542884,0.954729221017505,-0.235489744531417,0.0205737575273845,0.0455208350557936
34.5,0.0210647747064494,0.0460212168133169,0.953797615978782,-0.238735475169995,0.953797615968497,-0.238735475158615,0.0209690730754297,0.0460548884797605
35,0.0214658073973318,0.046549724795274,0.952856276379253,-0.241977264301791,0.95285627636924,-0.241977264290502,0.0213674203801151,0.0465846600172655
35.5,0.0218698461930796,0.0470739293675038,0.951905161553405,-0.245215106826984,0.951905161543657,-0.245215106815794,0.0217687453605039,0.0471101630997377
36,0.0222768379629867,0.0475938441538859,0.950944232714317,-0.248448994472641,0.950944232704829,-0.248448994461554,0.022172995498569,0.0476314115975829
36.5,0.0226867311143036,0.0481094831749094,0.949973452978263,-0.251678916029261,0.949973452969027,-0.251678916018282,0.0225801198118765,0.0481484197569215
37,0.023099475564079,0.0486208607867169,0.948992787369932,-0.254904857562726,0.948992787360942,-0.254904857551859,0.0229900688245251,0.0486612021391089
37.5,0.0235150227093901,0.0491279916228766,0.948002202819987,-0.258126802613701,0.948002202811235,-0.25812680260295,0.0234027945365241,0.0491697735630199
38,0.0239333253961312,0.0496308905388714,0.947001668155974,-0.261344732385067,0.947001668147455,-0.261344732374435,0.0238182503917735,0.0496741490500827
38.5,0.0243543378865312,0.0501295725592883,0.945991154087524,-0.264558625917968,0.945991154079231,-0.264558625907461,0.0242363912448172,0.0501743437720468
39,0.0247780158255342,0.0506240528276605,0.944970633186642,-0.267768460257073,0.944970633178569,-0.267768460246691,0.0246571733265142,0.0506703730014306
39.5,0.0252043162062229,0.0511143465589592,0.943940079863841,-0.270974210605559,0.94394007985598,-0.270974210595306,0.0250805542087922,0.0511622520646382
40,0.0256331973343913,0.0516004689946505,0.942899470340751,-0.274175850470451,0.942899470333097,-0.274175850460329,0.0255064927686071,0.0516499962976689
40.5,0.026064618792434,0.0520824353603169,0.941848782619803,-0.277373351798774,0.941848782612351,-0.277373351788787,0.025934949151255,0.0521336210043979
41,0.0264985414026567,0.0525602608257545,0.940787996451485,-0.280566685105081,0.940787996444227,-0.280566685095228,0.0263658847331621,0.0526131414173614
41.5,0.0269349271901343,0.0530339604675159,0.939717093299625,-0.283755819590833,0.939717093292555,-0.283755819581118,0.0267992620842641,0.0530885726609811
42,0.0273737393452365,0.0535035492338245,0.938636056305113,-0.286940723256116,0.938636056298227,-0.28694072324654,0.0272350449301007,0.0535599297171854
42.5,0.0278149421859196,0.0539690419118044,0.937544870248405,-0.290121363004145,0.937544870241695,-0.290121362994709,0.0276731981137139,0.0540272273933375
43,0.0282585011198843,0.0544304530969706,0.936443521511114,-0.293297704738976,0.936443521504576,-0.293297704729683,0.0281136875574707,0.0544904802924373
43.5,0.0287043826067025,0.0548877971648869,0.935331998036971,-0.296469713456875,0.935331998030599,-0.296469713447724,0.0285564802248772,0.0549497027854873
44,0.0291525541199838,0.0553410882449608,0.934210289292382,-0.299637353331679,0.93421028928617,-0.299637353322671,0.0290015440824923,0.0554049089859905
44.5,0.0296029841096772,0.0557903401962681,0.93307838622679,-0.302800587794576,0.933078386220734,-0.302800587785711,0.0294488480620052,0.0558561127264832
45,0.0300556419645771,0.0562355665853655,0.931936281233021,-0.30595937960861,0.931936281227113,-0.30595937959989,0.029898362022558,0.0563033275370437
45.5,0.0305104979750939,0.0566767806660036,0.930783968107756,-0.309113690938275,0.930783968101994,-0.309113690929699,0.0303500567133747,0.056746566625695
46,0.0309675232963734,0.0571139953606778,0.92962144201229,-0.312263483414477,0.929621442006668,-0.312263483406044,0.0308039037367657,0.0571858428606398
46.5,0.031426689911797,0.0575472232439407,0.928448699433644,-0.315408718195189,0.928448699428158,-0.315408718186902,0.0312598755115579,0.0576211687542416
47,0.0318879705969358,0.0579764765274078,0.927265738146168,-0.318549356022056,0.927265738140812,-0.318549356013912,0.0317179452370021,0.0580525564486942
47.5,0.0323513388839955,0.0584017670463839,0.926072557173689,-0.321685357273215,0.926072557168459,-0.321685357265216,0.0321780868572096,0.0584800177032909
48,0.0328167690267992,0.0588231062480413,0.92486915675228,-0.324816682012577,0.924869156747171,-0.324816682004721,0.0326402750261511,0.0589035638832398
48.5,0.0332842359663479,0.0592405051810863,0.923655538293699,-0.327943290035788,0.923655538288708,-0.327943290028076,0.0331044850732632,0.0593232059499451
49,0.0337537152969856,0.0596539744868274,0.922431704349549,-0.331065140913112,0.92243170434467,-0.331065140905541,0.0335706929696878,0.0597389544526796
49.5,0.0342251832332102,0.0600635243916108,0.921197658576183,-0.334182194029392,0.921197658571412,-0.334182194021963,0.03403887529518,0.060150819521601
50,0.0346986165771493,0.0604691647005156,0.919953405700389,-0.337294408621334,0.919953405695723,-0.337294408614045,0.0345090092057043,0.0605588108620243
50.5,0.0351739926867249,0.0608709047922893,0.918698951485874,-0.340401743812229,0.91869895148131,-0.34040174380508,0.0349810724017446,0.0609629377498986
51,0.0356512894445287,0.0612687536154217,0.917434302700556,-0.343504158644339,0.917434302696088,-0.343504158637329,0.0354550430973423,0.0613632090284177
51.5,0.0361304852274233,0.0616627196853254,0.916159467084668,-0.346601612109054,0.916159467080294,-0.346601612102182,0.0359308999898822,0.0617596331057106
52,0.0366115588768864,0.0620528110825431,0.914874453319698,-0.349694063174984,0.914874453315414,-0.349694063168249,0.0364086222306346,0.0621522179535488
52.5,0.0370944896700977,0.0624390354519391,0.913579270998131,-0.352781470814132,0.913579270993933,-0.352781470807533,0.0368881893960636,0.0625409711070057
53,0.0375792572917928,0.0628214000028084,0.912273930594025,-0.355863794026251,0.91227393058991,-0.355863794019787,0.0373695814599124,0.0629258996650244
53.5,0.0380658418068788,0.0631999115098572,0.910958443434384,-0.358940991861513,0.91095844343035,-0.358940991855182,0.0378527787660648,0.0633070102918363
54,0.0385542236338176,0.0635745763149957,0.909632821671343,-0.362013023441616,0.909632821667384,-0.362013023435416,0.0383377620021883,0.0636843092191659
54.5,0.0390443835187792,0.0639454003298949,0.908297078255124,-0.365079847979401,0.908297078251239,-0.365079847973332,0.0388245121741583,0.0640578022491873
55,0.0395363025105697,0.0643123890392674,0.90695122690779,-0.368141424797102,0.906951226903977,-0.368141424791162,0.0393130105812687,0.0644274947581818
55.5,0.0400299619363211,0.0646755475048095,0.905595282097749,-0.371197713343304,0.905595282094003,-0.371197713337491,0.0398032387922085,0.0647933917008383
56,0.0405253433779487,0.0650348803697711,0.904229259014993,-0.374248673208696,0.904229259011313,-0.374248673203008,0.040295178621824,0.0651554976151629
56.5,0.0410224286493733,0.065390391864111,0.902853173547088,-0.377294264140705,0.90285317354347,-0.377294264135142,0.0407888121086386,0.0655138166279517
57,0.0415211997744862,0.0657420858101851,0.90146704225586,-0.380334446057071,0.901467042252302,-0.380334446051631,0.0412841214931388,0.0658683524607834
57.5,0.0420216389658726,0.0660899656289431,0.900070882354775,-0.383369179058438,0.900070882351275,-0.383369179053119,0.0417810891968097,0.0662191084364977
58,0.0425237286042652,0.0664340343465826,0.898664711687005,-0.386398423440026,0.89866471168356,-0.386398423434826,0.0422796978019102,0.0665660874861119
58.5,0.0430274512187296,0.0667742946016305,0.897248548704135,-0.38942213970244,0.897248548700744,-0.389422139697359,0.0427799300319883,0.0669092921561557
59,0.0435327894675674,0.0671107486524212,0.895822412445524,-0.392440288561676,0.895822412442183,-0.39244028855671,0.0432817687331089,0.0672487246163711
59.5,0.0440397261199294,0.0674433983849286,0.894386322518273,-0.395452830958365,0.894386322514982,-0.395452830953513,0.0437851968557983,0.0675843866677629
60,0.0445482440381192,0.0677722453209264,0.892940299077802,-0.398459728066317,0.892940299074558,-0.398459728061578,0.044290197437683,0.0679162797509497
60.5,0.0450583261605897,0.0680972906264529,0.891484362809005,-0.401460941300401,0.891484362805806,-0.401460941295773,0.0447967535868139,0.0682444049548138
61,0.0455699554856019,0.0684185351205358,0.89001853490797,-0.404456432323805,0.890018534904814,-0.404456432319286,0.0453048484656634,0.0685687630253858
61.5,0.046083115055547,0.0687359792841697,0.888542837064249,-0.407446163054718,0.888542837061135,-0.407446163050306,0.045814465275776,0.0688893543749691
62,0.0465977879419152,0.0690496232695033,0.887057291443651,-0.410430095672461,0.887057291440577,-0.410430095668155,0.0463255872430715,0.0692061790914641
62.5,0.0471139572308911,0.069359466909225,0.885561920671551,-0.413408192623119,0.885561920668515,-0.413408192618917,0.0468381976037678,0.0695192369478692
63,0.0476316060095678,0.0696655097261176,0.88405674781669,-0.416380416624687,0.884056747813691,-0.416380416620586,0.0473522795909273,0.069828527411941
63.5,0.0481507173527707,0.0699677509427618,0.882541796375458,-0.419346730671767,0.882541796372494,-0.419346730667767,0.0478678164216015,0.0701340496559868
64,0.0486712743104596,0.0702661894913678,0.881017090256632,-0.422307098039852,0.881017090253702,-0.42230709803595,0.048384791284561,0.0704358025667755
