"Freq [GHz]","re(St(P1,P1)) []","im(St(P1,P1)) []","re(St(P1,P2)) []","im(St(P1,P2)) []","re(St(P2,P1)) []","im(St(P2,P1)) []","re(St(P2,P2)) []","im(St(P2,P2)) []"
0,0.00427574462179336,0,0.995737167308107,0,0.99573716193845,0,0.00427573909541934,0
0.5,0.00461134699024512,0.0014200208879025,0.995362235316676,-0.00440619677991094,0.995362235631475,-0.00440619401455677,0.00461135392433931,0.00141985283389801
1,0.00494353303661654,0.00241568411080806,0.99494707645075,-0.00838027834661759,0.994947076727215,-0.00838027888260839,0.00494355713551542,0.00241533161393193
1.5,0.00511508687089801,0.00326204993525181,0.994636547686625,-0.0124204896811086,0.994636547804637,-0.0124204902965452,0.00511506404108886,0.00326147855284376
2,0.00520877967972133,0.00413489532041922,0.994289746902885,-0.0163441414740397,0.994289746912409,-0.0163441420608343,0.00520874431089347,0.00413415974699305
2.5,0.00527625471542326,0.00503213558841509,0.993940174698166,-0.0201707807966187,0.993940174661723,-0.020170781295537,0.00527623688686418,0.00503125014044059
3,0.00533592169935648,0.00594617890116922,0.993601961603829,-0.0239257889024724,0.993601961569309,-0.0239257892927629,0.00533594298757745,0.00594514803896651
3.5,0.00539524768781696,0.00687191512004581,0.993276540782832,-0.0276313325207589,0.993276540776842,-0.0276313328037929,0.00539532498567574,0.00687074122584619
4,0.00545767298762545,0.00780626597460277,0.992959265215271,-0.0313038598275064,0.992959265247013,-0.0313038600149032,0.00545782082829227,0.00780495138146975
4.5,0.00552496540309644,0.00874738981477741,0.992643591043799,-0.0349546336478905,0.992643591111405,-0.0349546337550048,0.00552519715380972,0.00874593735303897
5,0.00559812475223342,0.00969417898287617,0.992323139313467,-0.0385910529427456,0.992323139409362,-0.0385910529855167,0.00559845324226327,0.00969259211492179
5.5,0.0056777692907195,0.0106459714341138,0.991992485293104,-0.0422178654737806,0.991992485407591,-0.0422178654673662,0.00567820716332101,0.0106442542712468
6,0.00576431602302185,0.0116023847304145,0.991647319845394,-0.0458380613233533,0.991647319968738,-0.0458380612815503,0.00576487594840014,0.0116005420184599
6.5,0.00585807123215765,0.0125632179076929,0.991284350004916,-0.0494534774304913,0.991284350128392,-0.0494534773655575,0.0058587660475018,0.0125612550075003
7,0.00595927882097913,0.0135283916074735,0.990901118857773,-0.053065193190772,0.99090111897407,-0.0530651931134081,0.00596012163073001,0.0135263144779705
7.5,0.00606814752595874,0.0144979104030849,0.990495822743608,-0.0566737872232528,0.990495822846871,-0.0566737871426675,0.00606915177977552,0.0144957255885076
8,0.00618486696516951,0.015471838401889,0.990067154079582,-0.0602795047978573,0.990067154165296,-0.0602795047218976,0.0061860465231941,0.0154695530229612
8.5,0.0063096175082118,0.0164502830294913,0.98961417600524,-0.0638823681662881,0.989614176070033,-0.0638823681015719,0.00631098669913854,0.0164479047779444
9,0.00644257659107594,0.0174333839981999,0.989136226325514,-0.0674822501779273,0.989136226366944,-0.0674822501299808,0.00644415026631517,0.0174309211339461
9.5,0.00658392291561377,0.0184213056450071,0.988632845559278,-0.0710789239889946,0.988632845575643,-0.0710789239623999,0.00658571650163331,0.018418766995369
10,0.0067338393541011,0.0194142315103862,0.988103723747344,-0.0746720969719927,0.988103723737511,-0.0746720969705175,0.00673586890427269,0.0194116264709194
10.5,0.00691814298372201,0.0203667704378478,0.987605709128389,-0.0782569267420694,0.987605709118343,-0.0782569267394599,0.00692042170210538,0.0203640726129848
11,0.00711100120984393,0.0213167110994172,0.987095717242446,-0.0818283345785789,0.987095717232301,-0.0818283345748272,0.00711354475982606,0.0213139248975027
11.5,0.00731235409286396,0.0222639440546004,0.986574404224021,-0.0853868803683815,0.98657440421389,-0.0853868803634965,0.00731517856205849,0.0222610738564439
12,0.00752213943593188,0.0232083617680923,0.986042337948771,-0.0889331372582491,0.98604233793876,-0.0889331372522486,0.00752526133941694,0.0232054118995384
12.5,0.00774029285435962,0.0241498586764397,0.985500003481029,-0.0924676820634085,0.985500003471236,-0.0924676820563253,0.00774372913609442,0.0241468333808852
13,0.00796674784744396,0.025088331252122,0.984947809107066,-0.0959910871675649,0.984947809097582,-0.0959910871594407,0.0079705158798738,0.025085234663115
13.5,0.00820143587260165,0.0260236780649206,0.984386092700774,-0.0995039138293987,0.984386092691683,-0.0995039138202807,0.00820555345447188,0.0260205141789309
14,0.00844428642174073,0.0269557998404975,0.983815128211779,-0.103006706784936,0.983815128203154,-0.103006706774876,0.00844877177413109,0.0269525724900213
14.5,0.00869522709974289,0.0278845995160686,0.983235132107074,-0.106499990020302,0.983235132098981,-0.106499990009357,0.00870009886036945,0.0278813123431592
15,0.00895418370496882,0.0288099822930912,0.982646269634988,-0.109984263582267,0.982646269627485,-0.1099842635705,0.00895946092078692,0.02880663872345
15.5,0.00922108031166657,0.0297318556868951,0.982048660813665,-0.113460001293679,0.982048660806801,-0.113460001281155,0.00922678242982834,0.0297284589046303
16,0.00949583935417386,0.0306501295731403,0.981442386075025,-0.116927649245162,0.981442386068842,-0.116927649231946,0.00950198621139786,0.0306466824963101
16.5,0.00977838171278698,0.0315647162310375,0.980827491519354,-0.120387624942063,0.980827491513886,-0.120387624928224,0.00978499352320712,0.0315612214880749
17,0.0100686268011872,0.0324755303832704,0.980203993755451,-0.123840316995398,0.980203993750725,-0.123840316980998,0.0100757241427494,0.0324719902903987
17.5,0.0103664926552744,0.0333824892325199,0.979571884317034,-0.127286085256515,0.979571884313071,-0.127286085241622,0.0103740964547703,0.0333789057722385
18,0.0106718960233026,0.0342855124945252,0.97893113365834,-0.13072526130653,0.978931133655154,-0.130725261291209,0.0106800275401162,0.034281887295275
18.5,0.0109847524571533,0.0351845224276626,0.978281694740997,-0.134158149222833,0.978281694738596,-0.134158149207147,0.0109934332658245,0.0351808567447325
19,0.0113049764046306,0.036079443858914,0.977623506230845,-0.137585026555837,0.977623506229234,-0.137585026539846,0.0113142283763256,0.036075738556681
19.5,0.0116324813026189,0.0369702042062321,0.976956495327832,-0.141006145459095,0.97695649532701,-0.141006145442858,0.0116423265856111,0.0369664597417785
20,0.0119671796709593,0.0378567334972337,0.976280580254839,-0.144421733925106,0.976280580254801,-0.144421733908681,0.0119776406702344,0.0378529499054165
20.5,0.0123089832068981,0.0387389643841782,0.975595672432706,-0.14783199708736,0.975595672433443,-0.1478319970708,0.0123200825629861,0.0387351412642043
21,0.0126578028799454,0.0396168321551982,0.974901678369061,-0.151237118556407,0.974901678370562,-0.151237118539764,0.0126695634471026,0.0396129686587248
21.5,0.0130135490269984,0.0404902747417695,0.97419850128816,-0.154637261764007,0.974198501290408,-0.15463726174733,0.0130259938508451,0.0404863695625903
22,0.0133761314475546,0.0413592327223777,0.973486042527934,-0.158032571294909,0.973486042530912,-0.158032571278241,0.0133892837422976,0.0413552840876954
22.5,0.0137454594988696,0.0422236493223958,0.972764202729122,-0.161423174190356,0.972764202732811,-0.161423174173742,0.0137593426242211,0.0422196549857041
23,0.0141214421908847,0.0430834704101364,0.972032882839719,-0.164809181211353,0.972032882844096,-0.164809181194832,0.0141360796288,0.0430794276457234
23.5,0.014503988280763,0.0439386444890997,0.971291984956247,-0.168190688052925,0.97129198496129,-0.168190688036532,0.0145194036121156,0.0439345500881676
24,0.014893006366869,0.0447891226864323,0.970541413021561,-0.171567776503272,0.970541413027244,-0.171567776487045,0.0149092232481812,0.0447849729548042
24.5,0.0152884049820196,0.045634858737587,0.969781073397088,-0.174940515543932,0.969781073403387,-0.174940515527901,0.0153054471223658,0.0456306494950045
25,0.0156900926858511,0.0464758089672466,0.969010875325698,-0.178308962388713,0.969010875332585,-0.178308962372907,0.0157079838240431,0.0464715355482128
25.5,0.0160979781561156,0.0473119322665068,0.968230731299678,-0.181673163460685,0.968230731307126,-0.181673163445131,0.016116742038289,0.0473075895226436
26,0.0165119702787585,0.0481431900663898,0.967440557346801,-0.185033155307468,0.967440557354784,-0.18503315529219,0.0165316306364588,0.048138772370256
26.5,0.016931978236604,0.0489695463077273,0.96664027324597,-0.188388965455984,0.966640273254458,-0.188388965441005,0.0169525587654769,0.0489650475580501
27,0.0173579115964755,0.0497909674074641,0.965829802682605,-0.19174061320842,0.96582980269157,-0.191740613193759,0.0173794359356648,0.0497863810357231
27.5,0.0177896803946084,0.0506074222214636,0.96500907335275,-0.195088110381617,0.965009073362164,-0.195088110367291,0.0178121721069435,0.0506027411997485
28,0.018227195220172,0.0514188820038868,0.964178017023742,-0.198431461992395,0.964178017033576,-0.198431461978421,0.018250677773243,0.0514140988539671
28.5,0.0186703672967648,0.0522253203632166,0.963336569558328,-0.201770666891569,0.963336569568555,-0.20177066687796,0.0186948640449496,0.0522204271667359
29,0.0191191085617102,0.0530267132150379,0.962484670908211,-0.205105718349483,0.962484670918803,-0.205105718336252,0.0191446427292407,0.0530217016247423
29.5,0.0195733317430181,0.0538230387316629,0.961622265082223,-0.208436604595942,0.961622265093151,-0.208436604583098,0.0195999264081424,0.053817899983581
30,0.0200329504338557,0.0546142772887102,0.960749300093638,-0.211763309317432,0.960749300104876,-0.211763309304986,0.0200606285141567,0.0546090022151795
30.5,0.0204978791643973,0.0554004114087567,0.959865727890506,-0.215085812114453,0.959865727902026,-0.21508581210241,0.0205266634033126,0.0553949904522091
31,0.0209680334709054,0.05618142570219,0.958971504272344,-0.218404088921683,0.958971504284122,-0.21840408891005,0.0209979464254975,0.0561758489295803
31.5,0.0214433299619285,0.056957306805379,0.958066588796067,-0.221718112393646,0.958066588808075,-0.221718112382427,0.021474393991928,0.0569515639231637
32,0.0219236863814762,0.0577280433163208,0.957150944673581,-0.225027852258369,0.957150944685795,-0.225027852247567,0.0219559236396339,0.0577221236858727
32.5,0.0224090216690708,0.0584936257278903,0.95622453866315,-0.228333275641442,0.956224538675545,-0.228333275631059,0.0224424540928243,0.058487518381251
33,0.02289925601656,0.0592540463588553,0.955287340956284,-0.231634347362709,0.955287340968835,-0.231634347352747,0.0229339053210245,0.0592477400147102
33.5,0.0233943109215823,0.0600092992828125,0.95433932506164,-0.234931030207738,0.954339325074326,-0.234931030198196,0.0234301985938697,0.060002782362587
34,0.0238941092376088,0.0607593802552078,0.953380467687204,-0.23822328517602,0.9533804677,-0.238223285166898,0.0239312565324558,0.0607526408991743
34.5,0.0243985752204607,0.0615042866385991,0.952410748621769,-0.241511071707773,0.952410748634654,-0.241511071699067,0.0244370031571557,0.0614973127219021
35,0.0249076345712355,0.0622440173263612,0.95143015061661,-0.244794347891045,0.951430150629562,-0.244794347882754,0.0249473639318128,0.0622367964748449
35.5,0.0254212144755721,0.0629785726649728,0.950438659268043,-0.248073070650738,0.950438659281042,-0.24807307064286,0.0254622658042424,0.0629710922707269
36,0.0259392436391999,0.0637079543750994,0.949436262901465,-0.251347195921007,0.949436262914491,-0.251347195913534,0.0259816372429747,0.0637002016116273
36.5,0.0264616523197223,0.0644321654716409,0.948422952457338,-0.254616678802406,0.948422952470372,-0.254616678795336,0.0265054082701813,0.0644241273085469
37,0.0269883723545952,0.0651512101829264,0.947398721379493,-0.257881473705053,0.947398721392516,-0.257881473698379,0.0270335104907458,0.065142873400059
37.5,0.0275193371852767,0.0658650938692589,0.946363565506046,-0.261141534478955,0.946363565519041,-0.261141534472672,0.0275658771174437,0.0658564450702173
38,0.0280544818775303,0.0665738229409845,0.945317482963146,-0.26439681453258,0.945317482976094,-0.264396814526681,0.0281024429922016,0.0665648485659176
38.5,0.0285937431378688,0.0672774047762867,0.944260474061724,-0.267647266940645,0.944260474074609,-0.267647266935122,0.0286431446034359,0.0672680911139216
39,0.0291370593261476,0.0679758476388967,0.943192541197347,-0.27089284454202,0.943192541210154,-0.270892844536867,0.0291879200994585,0.0679661808377316
39.5,0.0296843704643203,0.0686691605958916,0.942113688753266,-0.274133500028607,0.942113688765979,-0.274133500023815,0.0297367092979607,0.0686591266745029
40,0.0302356182413775,0.0693573534358105,0.941023923006683,-0.277369186025892,0.941023923019289,-0.277369186021453,0.0302894536916055,0.0693469382922294
40.5,0.0307907460145032,0.0700404365872203,0.939923252038251,-0.280599855165945,0.939923252050735,-0.28059985516185,0.0308460964497413,0.0700296260073341
41,0.031349698806496,0.0707184210379623,0.938811685644794,-0.283825460153432,0.938811685657142,-0.283825460149673,0.0314065824163003,0.0707072007029215
41.5,0.0319124232995059,0.0713913182552439,0.937689235255221,-0.287045953825277,0.937689235267421,-0.287045953821844,0.0319708581039146,0.0713796737478334
42,0.0324788678251521,0.0720591401067419,0.936555913849572,-0.290261289204479,0.936555913861613,-0.290261289201363,0.0325388716843256,0.0720470569167218
42.5,0.0330489823510904,0.0727218987829181,0.935411735881148,-0.293471419548588,0.935411735893019,-0.293471419545779,0.0331105729751592,0.0727093623113051
43,0.0336227184641246,0.0733796067206838,0.934256717201651,-0.29667629839328,0.93425671721334,-0.296676298390768,0.0336859134231381,0.0733666022829926
43.5,0.034200029349938,0.0740322765286141,0.93309087498925,-0.299875879591447,0.933090875000748,-0.299875879589222,0.0342648460838411,0.0740187893570496
44,0.034780869769556,0.0746799209138342,0.931914227679509,-0.303070117348177,0.931914227690806,-0.30307011734623,0.0348473255980961,0.0746659361584543
44.5,0.0353651960326429,0.0753225526107504,0.93072679489906,-0.306258966251963,0.930726794910146,-0.306258966250284,0.0354333081651267,0.0753080553396264
45,0.0359529659677474,0.075960184311771,0.929528597401965,-0.309442381302459,0.929528597412833,-0.309442381301037,0.0360227515125663,0.075945159510163
45.5,0.0365441388896335,0.0765928286001385,0.928319657008655,-0.312620317935069,0.928319657019297,-0.312620317933893,0.0366156148634677,0.0765772611687292
46,0.0371386755637985,0.0772204978850239,0.927099996547359,-0.315792732042634,0.927099996557767,-0.315792732041694,0.0372118589004419,0.077204372637242
46.5,0.0377365381683467,0.0778432043389894,0.925869639797933,-0.318959579994455,0.925869639808102,-0.31895957999374,0.0378114457270669,0.0778265059974788
47,0.038337690253337,0.0784609598379333,0.924628611438011,-0.322120818652877,0.924628611447934,-0.322120818652378,0.0384143388267126,0.0784436730302103
47.5,0.038942096697764,0.07907377590364,0.92337693699136,-0.325276405387626,0.923376937001031,-0.325276405387332,0.0390205030189344,0.0790558851569996
48,0.0395497236643169,0.0796816636490043,0.922114642778388,-0.328426298088098,0.922114642787801,-0.328426298087998,0.0396299044135944,0.079663153384733
48.5,0.0401605385520813,0.0802846337260346,0.920841755868691,-0.331570455173757,0.920841755877843,-0.331570455173841,0.0402425103628631,0.0802654882529932
49,0.0407745099473295,0.0808826962767086,0.919558304035579,-0.334708835602805,0.919558304044465,-0.334708835603062,0.0408582894112846,0.0808628997843555
49.5,0.0413916075725778,0.0814758608867487,0.918264315712483,-0.337841398879255,0.9182643157211,-0.337841398879676,0.0414772112440534,0.0814553974376675
50,0.0420118022340599,0.0820641365423687,0.916959819951179,-0.34096810505856,0.916959819959523,-0.340968105059133,0.0420992466336849,0.08204299006438
50.5,0.0426350657677931,0.0826475315900561,0.915644846381745,-0.344088914751884,0.915644846389813,-0.3440889147526,0.0427243673852526,0.0826256858679766
51,0.0432613709843994,0.0832260536994116,0.914319425174191,-0.347203789129159,0.91431942518198,-0.347203789130009,0.0433525462803592,0.0832034923665423
51.5,0.0438906916128505,0.083799709829085,0.912983587001677,-0.350312689921006,0.912983587009187,-0.350312689921978,0.0439837570200197,0.0837764163585035
52,0.0445230022433013,0.0843685061958293,0.911637363005272,-0.353415579419615,0.9116373630125,-0.353415579420699,0.0446179741666283,0.0843444638915543
52.5,0.0451582782691882,0.0849324482466752,0.910280784760174,-0.356512420478678,0.910280784767119,-0.356512420479867,0.0452551730851864,0.0849076402347845
53,0.0457964958287393,0.0854915406342331,0.908913884243338,-0.359603176512453,0.908913884249999,-0.359603176513735,0.0458953298839543,0.0854659498540064
53.5,0.0464376317460831,0.0860457871951145,0.907536693802455,-0.36268781149401,0.907536693808832,-0.362687811495377,0.0465384213547044,0.0860193963902697
54,0.0470816634720962,0.0865951909314542,0.906149246126225,-0.365766289952761,0.906149246132318,-0.365766289954202,0.0471844249127403,0.0865679826415489
54.5,0.0477285690251601,0.0871397539955097,0.904751574215868,-0.368838576971288,0.904751574221677,-0.368838576972797,0.0478333185368433,0.0871117105475749
55,0.0483783269319816,0.0876794776773,0.903343711357826,-0.371904638181583,0.903343711363353,-0.371904638183148,0.0484850807093083,0.0876505811777754
55.5,0.0490309161686238,0.0882143623952506,0.901925691097612,-0.374964439760688,0.901925691102858,-0.374964439762301,0.0491396903562247,0.0881845947222716
56,0.0496863161018927,0.0887444076897858,0.900497547214746,-0.378017948425837,0.900497547219711,-0.37801794842749,0.0497971267881555,0.0887137504858886
56.5,0.0503445064312338,0.0892696122198199,0.899059313698752,-0.381065131429108,0.899059313703438,-0.381065131430792,0.0504573696413571,0.0892380468851182
57,0.0510054671312598,0.0897899737620728,0.897611024726157,-0.384105956551646,0.897611024730566,-0.384105956553354,0.0511203988196837,0.0897574814479529
57.5,0.051669178395055,0.0903054892131571,0.896152714638469,-0.38714039209748,0.896152714642604,-0.387140392099203,0.0517861944373134,0.0902720508165374
58,0.0523356205783744,0.0908161545943429,0.894684417921085,-0.390168406886979,0.894684417924949,-0.390168406888709,0.0524547367624186,0.0907817507525401
58.5,0.0530047741448615,0.0913219650589253,0.893206169183092,-0.393189970249974,0.893206169186687,-0.393189970251705,0.0531260061619124,0.091286576145163
59,0.0536766196123963,0.0918229149021105,0.891718003137933,-0.396205052018581,0.891718003141262,-0.396205052020305,0.0537999830473784,0.0917865210217019
59.5,0.0543511375006882,0.0923189975733271,0.890219954584905,-0.399213622519738,0.890219954587972,-0.399213622521446,0.054476647822304,0.092281578560561
60,0.0550283082802036,0.092810205690858,0.888712058391451,-0.402215652567502,0.888712058394259,-0.402215652569189,0.0551559808307041,0.0927717411066025
60.5,0.0557081123225337,0.0932965310587078,0.887194349476223,-0.405211113455114,0.887194349478777,-0.405211113456774,0.0558379623072495,0.0932570001887564
61,0.0563905298522845,0.0937779646855829,0.885666862792886,-0.408199976946863,0.885666862795188,-0.408199976948489,0.0565225723289728,0.0937373465397561
61.5,0.0570755409005682,0.0942544968059017,0.884129633314631,-0.411182215269757,0.884129633316689,-0.411182215271342,0.0572097907686405,0.0942127701178995
62,0.0577631252601795,0.0947261169026979,0.882582696019384,-0.414157801105036,0.882582696021201,-0.414157801106575,0.0578995972498617,0.0946832601307213
62.5,0.0584532624425074,0.0951928137323274,0.881026085875668,-0.417126707579539,0.881026085877248,-0.417126707581027,0.0585919711039999,0.0951488050604551
63,0.0591459316362577,0.0956545753508592,0.879459837829109,-0.420088908256933,0.879459837830458,-0.420088908258364,0.0592868913289499,0.095609392691178
63.5,0.0598411116680311,0.0961113891420293,0.877883986789562,-0.423044377128826,0.877883986790685,-0.423044377130195,0.0599843365498245,0.0960650101375063
64,0.0605387809648064,0.096563241846653,0.876298567618828,-0.425993088605784,0.87629856761973,-0.425993088607086,0.0606842849816036,0.0965156438747357
