"Freq [GHz]","re(St(P1,P1)) []","im(St(P1,P1)) []","re(St(P1,P2)) []","im(St(P1,P2)) []","re(St(P2,P1)) []","im(St(P2,P1)) []","re(St(P2,P2)) []","im(St(P2,P2)) []"
0,0.0062105160937449,0,0.993803424542421,0,0.993803424848011,0,0.00621051566497499,0
0.5,0.00661120860619135,0.00196188199374703,0.993339354970118,-0.00690332029530083,0.993339354921389,-0.00690332229985202,0.00661123142423037,0.00196195089441886
1,0.00696611207613529,0.00345112812835069,0.992829662605459,-0.0133195901141079,0.992829662418037,-0.0133195902667786,0.00696618943660354,0.00345123998378227
1.5,0.00713475335192015,0.00477983465758847,0.992341870811424,-0.0197950121532742,0.992341870558912,-0.0197950123076129,0.00713534958627093,0.00478008034251864
2,0.00724577500570245,0.00615928051074555,0.991773821256158,-0.0261263318178457,0.99177382096886,-0.026126331938686,0.00724657102625503,0.00615936823368024
2.5,0.00734803674641382,0.0075691616791751,0.991172105217029,-0.0323370024117189,0.991172104930862,-0.0323370024882763,0.00734885799589557,0.00756904514710754
3,0.00745656732694666,0.00899755689270521,0.990558904016333,-0.0384575750334388,0.99055890375912,-0.0384575750711651,0.00745731267260963,0.00899723315835033
3.5,0.00757710535851897,0.0104382696882368,0.989939566374441,-0.0445142357431489,0.989939566162646,-0.0445142357539634,0.00757770598404783,0.0104377419388229
4,0.00771225718510804,0.0118879809243646,0.989310676272922,-0.050525583039744,0.989310676113583,-0.0505255830358253,0.00771265922933528,0.0118872509778774
4.5,0.0078633967654933,0.0133448500539579,0.988665391791495,-0.0565033733346336,0.988665391685308,-0.0565033733257359,0.00786355361452529,0.0133439170438363
5,0.00803135700453383,0.0148078406960588,0.987996237634765,-0.0624543451807407,0.987996237578626,-0.0624543451735491,0.0080312255639805,0.0148067011235771
5.5,0.00821671545343361,0.016276378917941,0.987296312954848,-0.0683819108809196,0.987296312943573,-0.0683819108793644,0.00821625418257821,0.016275026961698
6,0.0084199248155632,0.0177501699601077,0.986559684721379,-0.0742874072051807,0.986559684748737,-0.0742874072110222,0.00841909259963036,0.0177485977809395
6.5,0.00864137760366701,0.0192290946052474,0.985781417555958,-0.080170933765749,0.985781417615244,-0.0801709337791854,0.00864013305058248,0.0192272925956667
7,0.00888144043265288,0.0207131477641394,0.98495746706733,-0.0860318871565209,0.98495746715169,-0.0860318871766994,0.00887974139631226,0.0207111047435022
7.5,0.00914047332418205,0.0222024005374442,0.984084539386787,-0.0918692911186314,0.984084539489372,-0.0918692911440475,0.00913827655363036,0.0222001039047441
8,0.00941884118416919,0.02369697589373,0.983159958131209,-0.0976819960670268,0.983159958245262,-0.0976819960958273,0.00941610204485993,0.0236944117496645
8.5,0.00971692099679849,0.0251970325401367,0.982181552012379,-0.103468796859697,0.982181552131282,-0.103468796889898,0.00971359323372761,0.02519418578781
9,0.0100351065815999,0.0267027538815232,0.98114756460285,-0.109228500030431,0.981147564720146,-0.109228500060074,0.0100311421066332,0.0266996083128204
9.5,0.0103738119197472,0.0282143402273478,0.980056583521917,-0.114959960038534,0.980056583631333,-0.114959960065798,0.0103691606123818,0.0282108786001811
10,0.0107334736196235,0.0297320031194226,0.978907485264841,-0.120662096687784,0.978907485360304,-0.120662096711044,0.0107280831343535,0.0297282072297884
10.5,0.0111523825900152,0.0311684311218863,0.977807377351638,-0.12642386515006,0.977807377447204,-0.126423865177725,0.011146213977976,0.0311645354855488
11,0.0115905252969651,0.0325976844857485,0.976674110737375,-0.132158717594312,0.976674110832641,-0.132158717626389,0.011583542655454,0.0325937018811477
11.5,0.0120477372017694,0.0340194603972432,0.975508969260003,-0.137867323379605,0.97550896935458,-0.137867323416053,0.0120399048972001,0.0340154041214151
12,0.0125238476827208,0.0354334611208009,0.974313100633751,-0.143550397466326,0.974313100727267,-0.143550397507062,0.0125151303578302,0.0354293449784389
12.5,0.0130186802306202,0.0368393941562162,0.973087521746457,-0.149208684201605,0.973087521838561,-0.14920868424651,0.013009042811061,0.0368352324485772
13,0.0135320526491033,0.0382369723871041,0.971833125314946,-0.15484294304997,0.971833125405313,-0.15484294309889,0.0135214603494248,0.0382327799007989
13.5,0.0140637772593692,0.0396259142205007,0.97055068752025,-0.160453936248943,0.97055068760858,-0.160453936301699,0.0140521955883702,0.0396217062161908
14,0.0146136611088556,0.0410059437174897,0.969240876290047,-0.166042418318731,0.96924087637607,-0.166042418375122,0.0146010558743238,0.0410017359185431
14.5,0.0151815061834396,0.042376790714723,0.96790425994331,-0.171609127318085,0.967904260026783,-0.171609127377886,0.0151678434962698,0.0423725992958541
15,0.0157671096227192,0.0437381909367733,0.966541315958982,-0.177154777713072,0.966541316039694,-0.177154777776045,0.0157523559004184,0.0437340325127176
15.5,0.0163702639379383,0.0450898860992472,0.965152439675057,-0.182680054710376,0.965152439752824,-0.182680054776275,0.0163543859075231,0.045085777713481
16,0.016990757232116,0.0464316240026084,0.963737952765229,-0.188185609899648,0.963737952839897,-0.188185609968217,0.0169737219324138,0.0464275831161771
16.5,0.0176283734219556,0.0477631586167278,0.962298111376808,-0.19367205804891,0.96229811144825,-0.193672058119889,0.0176101482053152,0.047759203097206
17,0.018282892461086,0.0490842501561242,0.96083311384538,-0.199139974901448,0.960833113913495,-0.199139974974575,0.0182634449945171,0.0490803982667321
17.5,0.0189540905642302,0.0503946651459595,0.959343107928808,-0.204589895830393,0.959343107993522,-0.204589895905409,0.0189333888299763,0.0503909355348775
18,0.0196417404318592,0.0516941764788075,0.957828197525764,-0.210022315217557,0.957828197587024,-0.210022315294204,0.019619752727433,0.0516905881687209
18.5,0.0203456114749387,0.0529825634622798,0.956288448862401,-0.215437686434663,0.956288448920176,-0.215437686512687,0.0203223064126279,0.0529791358401799
19,0.0210654700393517,0.0542596118576026,0.954723896145427,-0.220836422317442,0.954723896199709,-0.2208364223966,0.0210408165452204,0.0542563646648724
19.5,0.0218010796296063,0.055525113909221,0.953134546691206,-0.226218896035529,0.953134546742002,-0.226218896115582,0.0217750469420119,0.0555220672320333
20,0.0225522011314414,0.0567788683655952,0.951520385548987,-0.231585442273051,0.951520385596323,-0.231585442353771,0.0225247587990886,0.0567760426256536
20.5,0.0233185930329592,0.0580206804912968,0.949881379642527,-0.236936358646359,0.949881379686445,-0.236936358727528,0.0232897109125179,0.0580180964369326
21,0.0241000116439188,0.059250362070582,0.948217481458448,-0.242271907295881,0.948217481499002,-0.242271907377288,0.0240696598972264,0.0592480407682456
21.5,0.0248962113128374,0.0604677314026096,0.946528632312218,-0.247592316598829,0.946528632349474,-0.247592316680277,0.0248643604037201,0.0604656942287574
22,0.0257069446415685,0.061672613288495,0.944814765223863,-0.25289778295818,0.944814765257899,-0.252897783039482,0.0256735653323015,0.0616708819219076
22.5,0.0265319626970325,0.0628648390103936,0.943075807435779,-0.258188472631094,0.943075807466682,-0.258188472712075,0.0264970260444656,0.0628634354249369
23,0.0273710152197764,0.0640442463028388,0.941311682604466,-0.263464523566737,0.941311682632331,-0.263464523647234,0.0273344925711667,0.0640431927606779
23.5,0.0282238508290875,0.0652106793165597,0.939522312696947,-0.268726047229367,0.939522312721877,-0.268726047309227,0.0281857138176531,0.0652099983618477
24,0.0290902172243664,0.0663639885750096,0.937707619621171,-0.273973130387623,0.937707619643272,-0.273973130466703,0.0290504377646013,0.0663637030280582
24.5,0.0299698613824955,0.0675040309238575,0.935867526617954,-0.279205836855294,0.935867526637341,-0.279205836933465,0.0299284116652738,0.0675041638757978
25,0.0308625297509597,0.068630669473698,0.934001959440164,-0.284424209172495,0.934001959456952,-0.284424209249638,0.030819382238458,0.0686312442816472
25.5,0.0317679684364789,0.0697437735362465,0.932110847342856,-0.289628270219216,0.932110847357166,-0.289628270295221,0.0317230958569472,0.0697448138189773
26,0.0326859233889319,0.0708432185542862,0.930194123906159,-0.294818024755798,0.930194123918113,-0.294818024830566,0.0326392987313511,0.070844748188408
26.5,0.0336161405803811,0.0719288860256444,0.928251727710727,-0.29999346088691,0.928251727720449,-0.299993460960353,0.0335677370890271,0.0719309291422994
27,0.0345583661789948,0.0730006634214879,0.926283602883776,-0.305154551447342,0.926283602891388,-0.30515455151938,0.0345081573479467,0.0730032444035611
27.5,0.0355123467177064,0.0740584440992129,0.924289699531905,-0.310301255309255,0.924289699537535,-0.310301255379817,0.0354603062853333,0.074061587579058
28,0.0364778292574585,0.0751021272102304,0.922269974075302,-0.315433518611605,0.922269974079074,-0.315433518680628,0.0364239312009016,0.0751058580679032
28.5,0.0374545615448809,0.0761316176029319,0.920224389496342,-0.320551275913303,0.92022438949838,-0.320551275980737,0.0373987800745737,0.0761359609649304
29,0.0384422921642862,0.0771468257211285,0.918152915514211,-0.325654451272292,0.918152915514637,-0.32565445133809,0.0383846017185362,0.0771518069596411
29.5,0.0394407706838756,0.0781476674982713,0.916055528695865,-0.330742959253178,0.916055528694801,-0.330742959317301,0.0393811459235362,0.0781533122309064
30,0.0404497477960561,0.0791340642477225,0.913932212512455,-0.335816705866408,0.913932212510023,-0.335816705928826,0.040388163599315,0.0791403983377346
30.5,0.0414689754517914,0.0801059425494091,0.911782957349282,-0.340875589442179,0.911782957345598,-0.340875589502867,0.0414054069091094,0.0801129921063897
31,0.042498206988925,0.0810632341331028,0.909607760476365,-0.34591950144241,0.909607760471545,-0.345919501501351,0.0424326293981393,0.08107102551414
31.5,0.043537197254417,0.0820058757586681,0.907406625985855,-0.350948327214138,0.907406625980013,-0.35094832727132,0.0434695861160479,0.0820144355699515
32,0.0445857027204667,0.082933809093528,0.905179564701746,-0.355961946687725,0.905179564694992,-0.355961946743142,0.0445160337332421,0.0829431641923915
32.5,0.0456434815944912,0.0838469805876522,0.902926594066622,-0.360960235023198,0.902926594059064,-0.360960235076849,0.0455717306511141,0.083857158085034
33,0.0467102939229445,0.0847453413463365,0.900647738009594,-0.36594306320797,0.900647738001335,-0.365943063259859,0.0466364371061314,0.0847563686096448
33.5,0.0477859016889884,0.0856288470010642,0.898343026799005,-0.370910298609083,0.89834302679015,-0.370910298659218,0.0477099152677912,0.0856407516574264
34,0.0488700689040186,0.0864974575787019,0.896012496883036,-0.375861805482991,0.896012496873681,-0.375861805531387,0.0487919293304551,0.0865102675185813
34.5,0.049962561693072,0.0873511373693149,0.89365619072085,-0.380797445445772,0.893656190711091,-0.380797445492444,0.0498822455990843,0.0873648807504784
35,0.0510631483741502,0.0881898547928504,0.891274156606635,-0.385717077906488,0.891274156596564,-0.385717077951458,0.0509806325689059,0.0882045600446576
35.5,0.0521715995315058,0.0890135822649419,0.888866448488481,-0.390620560466316,0.888866448478186,-0.390620560509608,0.0520868609990583,0.0890292780929487
36,0.0532876880829387,0.0898222960620954,0.886433125783795,-0.395507749285864,0.886433125773363,-0.395507749327505,0.053200703980266,0.0898390114529356
36.5,0.0544111893411778,0.0906159761864792,0.883974253192698,-0.400378499422975,0.883974253182208,-0.400378499462996,0.0543219369966048,0.0906337404130175
37,0.0555418810694024,0.0913946062305727,0.881489900510587,-0.405232665143188,0.881489900500119,-0.405232665181622,0.0554503379814336,0.0914134488572907
37.5,0.0566795435310065,0.0921581732418806,0.878980142440926,-0.410070100204835,0.878980142430554,-0.410070100241717,0.0565856873675617,0.0921781241304873
38,0.0578239595336707,0.0929066675879486,0.876445058409082,-0.414890658120681,0.876445058398879,-0.41489065815605,0.0577277681317517,0.0929277569031819
38.5,0.0589749144678534,0.0936400828218783,0.87388473237794,-0.419694192397836,0.873884732367972,-0.41969419243173,0.0588763658336373,0.0936623410374792
39,0.0601321963397928,0.0943584155485609,0.871299252665865,-0.424480556757558,0.871299252656198,-0.424480556790021,0.0600312686491688,0.0943818734533957
39.5,0.0612955957991365,0.0950616652918107,0.8686887117675,-0.429249605336489,0.868688711758195,-0.429249605367563,0.0611922673986832,0.0950863539961151
40,0.0624649061612976,0.0957498343625963,0.866053206177769,-0.434001192870669,0.866053206168884,-0.4340011929004,0.0623591555697171,0.0957757853043216
40.5,0.0636399234246747,0.096422927728549,0.863392836219393,-0.438735174863675,0.863392836210984,-0.438735174892109,0.0635317293346736,0.0964501726797811
41,0.0648204462828421,0.097080952884919,0.860707705874156,-0.443451407740049,0.860707705866272,-0.443451407767233,0.0647097875634731,0.0971095239583523
41.5,0.0660062761318408,0.0977239197271412,0.857997922618076,-0.448149748985143,0.857997922610767,-0.448149749011126,0.065893131831305,0.0977538493825783
42,0.0671972170727158,0.0983518404251804,0.855263597260636,-0.452830057272394,0.855263597253947,-0.452830057297225,0.0670815664216151,0.0983831614760364
42.5,0.0683930759094079,0.0989647292997873,0.852504843788125,-0.45749219257898,0.852504843782098,-0.457492192602711,0.0682748983244625,0.0989974749195757
43,0.0695936621421602,0.0995626027008178,0.849721779211156,-0.462136016290738,0.849721779205829,-0.462136016313418,0.0694729372303775,0.0995968064295935
43.5,0.070798787956569,0.100145478887753,0.846914523416369,-0.466761391297128,0.846914523411778,-0.466761391318807,0.0706754955198639,0.100181174638489
44,0.0720082682084199,0.10071337791253,0.844083199022309,-0.471368182077011,0.844083199018487,-0.471368182097742,0.0718823882486839,0.100750599977407
44.5,0.0732219204044557,0.101266321504821,0.841227931239454,-0.475956254775915,0.841227931236431,-0.475956254795749,0.0730934331290674,0.10130510456141
45,0.0744395646792207,0.101804332959861,0.838348847734344,-0.480525477275419,0.838348847732148,-0.480525477294408,0.0743084505069923,0.101844712077167
45.5,0.0756610237681264,0.102327437028927,0.835446078497752,-0.485075719255239,0.835446078496407,-0.485075719273434,0.0755272633356798,0.102369447673289
46,0.0768861229768883,0.102835659812578,0.83251975571682,-0.489606852248561,0.832519755716347,-0.489606852266015,0.0767496971454489,0.102879337853388
46.5,0.0781146901474768,0.103329028656735,0.829570013651091,-0.494118749691106,0.829570013651509,-0.494118749707869,0.0779755800100833,0.103374410371963
47,0.0793465556207347,0.103807572051682,0.826596988512341,-0.498611286964385,0.826596988513667,-0.498611286980509,0.0792047425098455,0.103854694133196
47.5,0.0805815521958076,0.104271319534086,0.823600818348123,-0.503084341433572,0.823600818350371,-0.503084341449108,0.0804370176913007,0.104320219092732
48,0.081819515086533,0.104720301592082,0.820581642928934,-0.507537792480372,0.820581642932115,-0.50753779249537,0.0816722410240847,0.104771016162513
48.5,0.0830602818749398,0.105154549573502,0.817539603638892,-0.511971521531254,0.817539603643016,-0.511971521545763,0.0829102503547682,0.105207117118745
49,0.0843036924619995,0.105574095597309,0.814474843369845,-0.516385412081363,0.814474843374917,-0.516385412095433,0.084150885857964,0.105628554513039
49.5,0.0855495890157804,0.10597897246828,0.811387506418798,-0.520779349714436,0.811387506424824,-0.520779349728115,0.0853939899848195,0.106035361586801
50,0.0867978159171441,0.106369213594997,0.808277738388567,-0.525153222118975,0.808277738395548,-0.525153222132311,0.0866394074090416,0.106427572188896
50.5,0.0880482197031361,0.106744852911175,0.80514568609156,-0.529506919100974,0.805145686099498,-0.529506919114014,0.0878869849705942,0.106805220696654
51,0.0893006490082034,0.107105924800384,0.801991497456594,-0.533840332593394,0.801991497465484,-0.533840332606183,0.0891365716172134,0.107168341940238
51.5,0.0905549545033897,0.107452464024178,0.798815321438641,-0.538153356662647,0.798815321448481,-0.538153356675232,0.0903880183438825,0.107516971130419
52,0.0918109888336413,0.107784505653671,0.795617307931432,-0.542445887512272,0.795617307942215,-0.542445887524696,0.0916411781303986,0.10785114378978
52.5,0.0930686065533661,0.108102085004582,0.792397607682809,-0.546717823483995,0.792397607694526,-0.546717823496301,0.0928959058771792,0.108170895687377
53,0.0943276640603829,0.108405237575769,0.789156372212753,-0.550969065056348,0.789156372225396,-0.550969065068578,0.0941520583394383,0.108476262776876
53.5,0.0955880195283897,0.108693998991257,0.785893753733991,-0.555199514841019,0.785893753747547,-0.555199514853213,0.095409494059867,0.108767281138181
54,0.096849532838094,0.108968404945789,0.782609905075112,-0.559409077577058,0.782609905089569,-0.559409077589257,0.0966680732999554,0.109043986922574
54.5,0.0981120655071315,0.109228491153891,0.779304979606112,-0.563597660123116,0.779304979621454,-0.563597660135357,0.0979276579700843,0.109306416301353
55,0.0993754806189001,0.109474293302469,0.775979131166279,-0.567765171447797,0.775979131182489,-0.567765171460118,0.0991881115585172,0.109554605418001
55.5,0.100639642750443,0.109705847006918,0.772632513994362,-0.571911522618292,0.772632514011422,-0.571911522630729,0.100449299059418,0.109788590343865
56,0.101904417899506,0.109923187770769,0.769265282660945,-0.57603662678737,0.769265282678835,-0.576036626799956,0.101711086900027,0.110008407037357
56.5,0.103169673410891,0.110126350948839,0.765877592002963,-0.580140399178842,0.765877592021663,-0.58014039919161,0.102973342867112,0.110214091306659
57,0.104435277902228,0.110315371713894,0.762469597060289,-0.5842227570716,0.762469597079777,-0.584222757084583,0.104235936032818,0.110405678775935
57.5,0.105701101189291,0.110490285026802,0.759041453014339,-0.588283619782308,0.75904145303459,-0.588283619795535,0.105498736680044,0.110583204855036
58,0.106967014210969,0.110651125610171,0.755593315128622,-0.592322908646837,0.755593315149612,-0.592322908660337,0.106761616227454,0.110746704712675
58.5,0.108232888954022,0.110797927925441,0.752125338691203,-0.596340547000515,0.752125338712904,-0.596340547014316,0.108024447154251,0.110896213253066
59,0.109498598377718,0.110930726153421,0.748637678958991,-0.600336460157273,0.748637678981377,-0.6003364601714,0.109287102924818,0.111031765096005
59.5,0.110764016338485,0.111049554178246,0.745130491103834,-0.604310575387745,0.745130491126878,-0.604310575402222,0.110549457913345,0.111153394560369
60,0.112029017514675,0.111154445574722,0.74160393016035,-0.608262821896389,0.74160393018402,-0.608262821911238,0.111811387328565,0.111261135651005
60.5,0.113293477331563,0.111245433599046,0.738058150975445,-0.612193130797693,0.738058150999713,-0.612193130812934,0.113072767138684,0.11135502204899
61,0.114557271886675,0.111322551182847,0.734493308159495,-0.616101435091514,0.73449330818433,-0.616101435107168,0.114333473996638,0.111435087105233
61.5,0.115820277875565,0.111385830930545,0.730909556039124,-0.619987669637607,0.730909556064491,-0.61998766965369,0.115593385165772,0.111501363837377
62,0.117082372518135,0.111435305119973,0.727307048611546,-0.623851771129388,0.727307048637415,-0.623851771145916,0.11685237844605,0.11155388492998
62.5,0.118343433485623,0.111471005706232,0.723685939500442,-0.627693678066983,0.723685939526779,-0.627693678083971,0.1181103321009,0.111592682737937
63,0.119603338828327,0.111492964328741,0.720046381913318,-0.631513330729603,0.720046381940089,-0.631513330747064,0.119367124784797,0.111617789293092
63.5,0.1208619669042,0.111501212321447,0.716388528600312,-0.635310671147289,0.716388528627482,-0.635310671165232,0.120622635471681,0.111629236314027
64,0.1221191963084,0.111495780726138,0.712712531814425,-0.63908564307205,0.712712531841959,-0.639085643090485,0.121876743384321,0.111627055218963
64.5,0.123374905803889,0.111476700308836,0.709018543273138,-0.642838191948463,0.709018543301001,-0.642838191967398,0.123129327924711,0.11161127714173
