"Freq [GHz]","re(St(P1,P1)) []","im(St(P1,P1)) []","re(St(P1,P2)) []","im(St(P1,P2)) []","re(St(P2,P1)) []","im(St(P2,P1)) []","re(St(P2,P2)) []","im(St(P2,P2)) []"
0,3.01663787484821E-005,0,0.99996903733404,0,0.999969037310279,0,3.01663255768136E-005,0
0.5,0.00382210091331625,0.0187886368971157,0.981559469840378,-0.185618391356969,0.981559469840359,-0.18561839135695,0.00382956146997021,0.0187871251818907
1,0.0139480568210213,0.0350266387265643,0.929212677488758,-0.363745935737318,0.929212677488737,-0.363745935737309,0.013975853830837,0.035015372327325
1.5,0.029405014170349,0.046680296377966,0.844971967417158,-0.52839137572337,0.844971967407862,-0.528391375722842,0.0294612975646509,0.0466443104422569
2,0.0482390125751597,0.0521764086010155,0.73184709972015,-0.674180960978165,0.731847099711237,-0.674180960974527,0.0483245940311101,0.0520960902030714
2.5,0.0681347230757047,0.0507303170668768,0.59403950760331,-0.796079191016413,0.594039507598107,-0.796079191012316,0.0682415694399095,0.0505844736029364
3,0.0866569836599387,0.0423622487562358,0.436610432674609,-0.890075161016336,0.436610432673219,-0.890075161014515,0.0867678186055076,0.0421314655434884
3.5,0.101487980716488,0.027888428096024,0.265188583457264,-0.953270315390581,0.265188583458193,-0.953270315392712,0.101577025171444,0.0275584040471488
4,0.11065731951939,0.0088751332845006,0.0857142657780245,-0.983904275750122,0.0857142657792292,-0.983904275756538,0.110692102300677,0.00843964948217135
4.5,0.112788286764711,-0.012459802027247,-0.0957864159697748,-0.981327870051749,-0.0957864159701078,-0.981327870061535,0.112732360298726,-0.0129965968336323
5,0.107350725490588,-0.0334459493102312,-0.27338979065238,-0.94593747281027,-0.273389790655274,-0.945937472821653,0.107167021725308,-0.0340681800723303
5.5,0.0948530092532464,-0.0512982926190629,-0.441421524958552,-0.879088260133089,-0.44142152496395,-0.879088260143973,0.0945075221290503,-0.0519780473907656
6,0.0768677005968904,-0.0635670217601851,-0.594565074607937,-0.783003910104557,-0.59456507461472,-0.783003910113133,0.0763332178544364,-0.0642651096118552
6.5,0.0558179979429148,-0.0685821660578488,-0.72794103247124,-0.6606973844815,-0.727941032477537,-0.660697384486756,0.0550776479947406,-0.0692499567956142
7,0.0345584526331263,-0.0657370112235648,-0.837172040250236,-0.515912277466633,-0.837172040253977,-0.515912277468656,0.0336087692741467,-0.0663193820395964
7.5,0.0158925018709403,-0.0555174365669586,-0.918451527860058,-0.353087131898352,-0.918451527859645,-0.353087131898313,0.0147456010830293,-0.0559567241200729
8,0.00219066014767316,-0.0393136591112966,-0.968635777138088,-0.177336267823913,-0.968635777133031,-0.177336267823667,0.000875174313056226,-0.0395542783725147
8.5,-0.00481137054229919,-0.019147842925932,-0.985376629807433,0.00556967421404408,-0.985376629798758,0.00556967421271182,-0.00625071447992909,-0.0191411300829145
9,-0.0040774658460313,0.00255065665093568,-0.967305042401424,0.18925118452605,-0.967305042391616,0.189251184522425,-0.00558156480400512,0.00284167662647139
9.5,0.00468157678470194,0.0230788287779766,-0.914261965554099,0.366832262182227,-0.914261965546525,0.366832262177672,0.00318313173383983,0.0236748978664318
10,0.0208687421863312,0.0395794384709002,-0.827551956356455,0.531158005136015,-0.827551956354102,0.531158005134672,0.0194529575395515,0.040481078168267
10.5,0.0402860333642333,0.0509714720033286,-0.710893701386875,0.677839047446165,-0.710893701393524,0.677839047450893,0.0390329961662929,0.0521678796883744
11,0.0652750047639322,0.0544680652896173,-0.568859215190061,0.797662532205596,-0.568859215198587,0.797662532214897,0.0642537594098982,0.0559053625927767
11.5,0.0917286593650845,0.0474293012658778,-0.407911420027342,0.887013874708845,-0.40791142003367,0.887013874719343,0.0909831633626923,0.0490440921307987
12,0.114474714881253,0.0299298344657107,-0.234585870927794,0.943816996135516,-0.234585870930738,0.943816996143628,0.114033021221241,0.0316592810770654
12.5,0.129292142808616,0.00477152096056942,-0.0551886451539534,0.967261798954219,-0.0551886451544646,0.967261798957305,0.129172901352962,0.00655009772761899
13,0.134152436763423,-0.0238894124283113,0.124340995007842,0.957525641750229,0.124340995007665,0.957525641747176,0.134360711119597,-0.0221333064541581
13.5,0.129104726280091,-0.0520453274016091,0.298444863107946,0.915551914949365,0.298444863105815,0.915551914940638,0.129626058187616,-0.050384138270575
14,0.115459438775965,-0.0765680489179603,0.461891388774582,0.842918731002846,0.461891388768767,0.842918730990166,0.116260480850104,-0.0750660266552754
14.5,0.095077648325275,-0.0952171110694748,0.609707084287153,0.74180487749903,0.609707084276938,0.741804877484832,0.0961122839546904,-0.0939244497085338
15,0.0700679895489089,-0.106380894051153,0.737142253146338,0.615039822840816,0.737142253132175,0.615039822827641,0.0712842409870049,-0.10533276575428
15.5,0.0428054306176907,-0.108903758871809,0.839709200852652,0.466208253568883,0.83970920083603,0.466208253558806,0.0441502928890413,-0.108122366218274
16,0.0160616756447787,-0.102150499333808,0.91331737862249,0.299766029618092,0.913317378605596,0.299766029612298,0.0174834487218756,-0.101647866224513
16.5,-0.0069727587768858,-0.0863085239693926,0.954510705593922,0.121114352548814,0.95451070557915,0.12111435254738,-0.0055238228425982,-0.0860886272896164
17,-0.0229624820939165,-0.0627929413651618,0.960786972616976,-0.0634240550756529,0.960786972606421,-0.0634240550737339,-0.0215340705279203,-0.062852763920819
17.5,-0.0290666289359705,-0.0344850411334963,0.930950252497106,-0.246773507633343,0.930950252492096,-0.246773507629914,-0.0277038599416825,-0.0348149640883877
18,-0.0237714001232323,-0.00550146553560404,0.865422026560988,-0.421439429418124,0.865422026561825,-0.421439429415441,-0.0225156910402363,-0.00608595316494043
18.5,-0.00750151938832105,0.0196022993645446,0.766426411466817,-0.579987720887113,0.766426411472708,-0.579987720887345,-0.00638959925479671,0.0187829827237987
19,0.0173839777411184,0.0369046696498559,0.637979432239446,-0.715603190260767,0.637979432248669,-0.715603190265532,0.0183196923730945,0.0358720496249644
19.5,0.0472407540219394,0.0439465996415765,0.485653628050693,-0.82262674510283,0.485653628060952,-0.822626745112869,0.0479699443188502,0.0427223022224543
20,0.0780563775587472,0.0399722010094344,0.316146662912306,-0.896965296972387,0.316146662921163,-0.896965296987431,0.0785476588491986,0.03857836887459
20.5,0.106180635439196,0.0256434506578538,0.13673537298748,-0.936297042252465,0.136735372992791,-0.936297042271287,0.106399088777887,0.0241055868108557
21,0.128656287764405,0.00254952171844789,-0.0452758067124939,-0.940048623560252,-0.0452758067122321,-0.940048623580894,0.128563076029569,0.000900997001782127
21.5,0.143217510826705,-0.0271907903753311,-0.223010308504881,-0.909179063187539,-0.223010308510303,-0.909179063207622,0.14277230007439,-0.0289038314048205
22,0.148153518227128,-0.0610977856039055,-0.390313016850273,-0.84584751281477,-0.390313016861052,-0.845847512831861,0.147319879256873,-0.0628125419924082
22.5,0.142233221179926,-0.096282967428325,-0.541864532183803,-0.753056921908633,-0.541864532198679,-0.753056921920607,0.140986649423436,-0.0979187632745685
23,0.124837877484623,-0.129293638023537,-0.673142575951978,-0.634355489258065,-0.673142575968913,-0.634355489263464,0.123175037097351,-0.130755181650413
23.5,0.0963815811076814,-0.15604217236655,-0.780286793090955,-0.493651945255775,-0.780286793107405,-0.493651945254097,0.09432767632878,-0.157228343330297
24,0.0589659078484903,-0.172096255645054,-0.859937814606176,-0.335169531127786,-0.859937814619512,-0.335169531119705,0.0565759100868647,-0.172912590048304
24.5,0.0169530272981579,-0.173598313208318,-0.909124706300258,-0.163532523144485,-0.909124706308287,-0.163532523131899,0.0143048704058635,-0.173967029275419
25,-0.023157127361577,-0.158777813807101,-0.925270143366327,0.0160517298757168,-0.925270143367904,0.0160517298898939,-0.0259717548181124,-0.158638761480383
25.5,-0.0540924407814192,-0.129366963155023,-0.906368193692551,0.197585484726716,-0.906368193688116,0.197585484739093,-0.0569685961695363,-0.12867237599577
26,-0.070143117544455,-0.0907788247257175,-0.851357740838647,0.374152659439122,-0.851357740830489,0.37415265944672,-0.0729525765921775,-0.0894966522053069
26.5,-0.0691393794327327,-0.0505175333536095,-0.7606557092499,0.537999052617685,-0.760655709241887,0.537999052619028,-0.0717266020163596,-0.0486519358235412
27,-0.0527843976099747,-0.0157079955552352,-0.636728408777541,0.680938177844067,-0.636728408774152,0.680938177840097,-0.0549849241342418,-0.0133228663654069
27.5,-0.025378430695728,0.00872270507215489,-0.484492126061023,0.795123936849674,-0.484492126065782,0.795123936844017,-0.0270534395716305,0.0114991639189859
28,0.00793453308973868,0.0204839860511981,-0.311302473491555,0.874084309411826,-0.311302473505395,0.874084309409983,0.00686852031675406,0.0234783425843848
28.5,0.0424009363435005,0.019362797175871,-0.12637744837675,0.913742774819817,-0.126377448397066,0.913742774827342,0.0419601772738212,0.0223863951329232
29,0.0741257330282528,0.00640464693931515,0.060292521159594,0.913070521216102,0.0602925211385793,0.913070521236371,0.0742635631513796,0.0092807662337033
29.5,0.100022505360346,-0.0166942564474536,0.239256015769377,0.874101989411909,0.23925601575485,0.874101989444464,0.100641920895729,-0.0141116771749023
30,0.117574455112409,-0.0478558980919341,0.40272187713686,0.801290982692214,0.402721877134944,0.80129098273248,0.118542883797187,-0.0456710141303504
30.5,0.124636790923275,-0.0846032110191847,0.545160263914957,0.700447052101284,0.54516026392851,0.700447052141804,0.125800941208642,-0.0828717126427443
31,0.119416687920961,-0.123864779390928,0.663279524927539,0.577621145476482,0.663279524955061,0.57762114550916,0.120618009547479,-0.12259053414331
31.5,0.100717530267062,-0.161735239450494,0.755500986992808,0.438261459252128,0.755500987028741,0.438261459270663,0.101809158894218,-0.160870950875333
32,0.0684895785399001,-0.193377450910669,0.821172069475571,0.286810118963222,0.821172069511817,0.28681011896499,0.0693537503034387,-0.192831718367447
32.5,0.0246194276323371,-0.213323965769723,0.859762014293664,0.12676593765646,0.859762014321838,0.126765937643364,0.0251812262895143,-0.212976189002154
33,-0.0263347257074209,-0.216433521395603,0.870237059146842,-0.0388463590771346,0.870237059160712,-0.0388463590990604,-0.0261028918592697,-0.21615363432139
33.5,-0.0770247534323936,-0.199521089647454,0.850777913008514,-0.206699941393263,0.850777913006006,-0.206699941415518,-0.0771093540337633,-0.199185858064649
34,-0.118400009314982,-0.163143623275351,0.798999974309123,-0.372235500012437,0.798999974293236,-0.372235500026747,-0.118755515041628,-0.16264271556107
34.5,-0.142040772257912,-0.112514256867284,0.71281556550388,-0.528850893199045,0.712815565481823,-0.528850893200401,-0.142590488796469,-0.111751105786623
35,-0.142831373227191,-0.0566876517896837,0.59192508639132,-0.667659552939746,0.591925086371708,-0.667659552928503,-0.143460984231756,-0.0555898834144705
35.5,-0.120599577158524,-0.00618385772828828,0.439546541072601,-0.778331294226516,0.439546541061612,-0.778331294208146,-0.121160782840646,-0.00472852227470688
36,-0.0799818663767253,0.0297729194354305,0.263513177785518,-0.851200464742637,0.263513177784136,-0.851200464724695,-0.0803204219546688,0.0315355995992139
36.5,-0.0289064585033354,0.0452051926620744,0.075764505625319,-0.880015155279319,0.0757645056296421,-0.88001515526728,-0.0289066067028413,0.0471524520479223
37,0.0233664116918212,0.0381222916840904,-0.110004276022836,-0.86394008635852,-0.110004276018361,-0.863940086353351,0.0237454934951313,0.0400903190996817
37.5,0.0679692962643835,0.0103388780773775,-0.281520229740701,-0.807604041456349,-0.281520229739659,-0.80760404145536,0.0686848862443522,0.0121704472219921
38,0.0977261334496961,-0.0332118532644164,-0.430313749630115,-0.719205053022198,-0.430313749632667,-0.719205053021984,0.0986734059220538,-0.0316268658181237
38.5,0.108057867259346,-0.0854515357944093,-0.552332622412796,-0.607859445914948,-0.552332622416754,-0.607859445914053,0.109107326114069,-0.0841592785839794
39,0.0974821048272716,-0.138338975635063,-0.647008370683916,-0.481511216050758,-0.647008370686943,-0.481511216050932,0.0985130369683215,-0.137329902476745
39.5,0.0676158683479146,-0.184135267987952,-0.715623493405527,-0.346096777853948,-0.715623493406599,-0.34609677786335,0.0685321912775837,-0.183365341700022
40,0.0226582581834343,-0.216505731613049,-0.757002035776191,-0.203998783525026,-0.757002035711458,-0.203998783471743,0.0233866862529226,-0.215914066721958
40.5,-0.0314802239393044,-0.231206852071103,-0.780083960704224,-0.0581264791412944,-0.780083960701554,-0.0581264791342104,-0.0309986239456372,-0.230720199429044
41,-0.0880881789163737,-0.226277058496793,-0.777390963737336,0.0889565981311513,-0.777390963737875,0.0889565981305624,-0.087900164257662,-0.22580315512555
41.5,-0.140320810630143,-0.201892983983729,-0.749307036775092,0.236263774372265,-0.749307036779916,0.236263774369037,-0.140450453567089,-0.201312769309408
42,-0.18154684473767,-0.160211991270657,-0.693528803435064,0.380238433576692,-0.693528803443442,0.380238433574269,-0.181974673510095,-0.159381858306755
42.5,-0.205586388517841,-0.105503196256255,-0.607822692774259,0.51514054738733,-0.607822692783573,0.515140547387704,-0.206227524221499,-0.104274760381345
43,-0.207323041214354,-0.0446190002654562,-0.491661553698038,0.632814680464002,-0.491661553704905,0.63281468046669,-0.208018514867879,-0.0428768050966662
43.5,-0.184236692792664,0.0126922973830635,-0.34799174218163,0.723555274473123,-0.34799174218387,0.723555274475069,-0.184772608905012,0.0149865933784678
44,-0.138806719068041,0.054837090700003,-0.184368911460771,0.778230419876454,-0.184368911459162,0.778230419873553,-0.138963880589416,0.0576189136962075
44.5,-0.0801802947693158,0.0718858670493417,-0.0124969674354989,0.791083790779836,-0.0124969674338503,0.791083790769521,-0.0797910350536823,0.0750019600984061
45,-0.0224071787819533,0.0603895552368992,0.154128427912731,0.761842562745779,0.154128427909575,0.761842562728896,-0.0213850560910321,0.0636420560220992
45.5,0.0211514606833019,0.0255305369156746,0.303507454509304,0.695847320406593,0.303507454498209,0.695847320387152,0.0228141279919077,0.028717402180539
46,0.043177977505349,-0.0218984919371855,0.427675357937561,0.602124593466727,0.427675357918695,0.60212459344979,0.0454226419629712,-0.018958619053874
46.5,0.0433836046721728,-0.070958948761143,0.523411759775127,0.490592596950323,0.523411759751587,0.490592596939653,0.0461001599117309,-0.0684072285935465
47,0.0257344872134163,-0.114068025077147,0.591296388968445,0.369797150567139,0.59129638894462,0.369797150563928,0.0287837253359212,-0.111991479332993
47.5,-0.00481422424006565,-0.147335782832228,0.634036026669817,0.245833230818308,0.63403602664965,0.245833230821251,-0.0015742946035905,-0.145766675487367
48,-0.044165296689026,-0.169197740313772,0.654896070297302,0.122313918766732,0.654896070283178,0.122313918772938,-0.0408591277360805,-0.168125475637869
48.5,-0.089477913689024,-0.178819532713583,0.656605405409026,0.000931709886629162,0.656605405401403,0.000931709892758037,-0.0862024224209662,-0.17820800738293
49,-0.138630830204595,-0.174850950274622,0.640737866832185,-0.117763049719216,0.640737866829804,-0.117763049715957,-0.135454661081722,-0.174656104599248
49.5,-0.188946881206653,-0.154671181348829,0.607443897931015,-0.233536774499368,0.60744389793147,-0.233536774500498,-0.185918242075305,-0.154856897145916
50,-0.235012738860183,-0.114623833503296,0.555449509176455,-0.345609834939486,0.555449509177012,-0.34560983494485,-0.232179414196748,-0.11517222595714
50.5,-0.266025792172579,-0.0528723428544062,0.482374195736815,-0.451709955196934,0.482374195735397,-0.451709955204724,-0.263468489346344,-0.0537705445355082
51,-0.266468250848705,0.0233817345306008,0.385585442884324,-0.547085545643567,0.385585442880501,-0.547085545650928,-0.264310445530465,0.0222055794472721
51.5,-0.227337651438905,0.0920033550860915,0.263893936702595,-0.623824701402002,0.263893936698117,-0.623824701406373,-0.225648129288981,0.090738812083739
52,-0.161415590270213,0.12759470517828,0.120124548198651,-0.671320386359668,0.120124548196831,-0.671320386360507,-0.160082117869469,0.126433918155356
52.5,-0.0958642393142516,0.124138824452164,-0.0363748372217649,-0.678963841273482,-0.0363748372182184,-0.67896384127317,-0.0946909945527921,0.123098028140532
53,-0.0486424034265735,0.0946966225055049,-0.1895601150026,-0.641096063786814,-0.189560114994089,-0.641096063789229,-0.0475324901181639,0.0936633619114627
53.5,-0.0222684647088521,0.0536110760323976,-0.320879237326558,-0.561589099754963,-0.320879237316895,-0.561589099762105,-0.0212354840384666,0.0524903855213691
54,-0.0121044889012399,0.00711463577071575,-0.416363195383921,-0.453935109067991,-0.416363195377423,-0.453935109077727,-0.0111919721815632,0.00590888041597776
54.5,-0.0123783305491287,-0.0479200672031955,-0.471585095470385,-0.335896291184616,-0.471585095468398,-0.335896291191877,-0.0115928548673748,-0.0489879270297342
55,-0.0132566995441534,-0.129302604141785,-0.491120113980933,-0.222792057947855,-0.491120113980931,-0.222792057947852,-0.0126874269923078,-0.129059204316226
55.5,-0.0429219740396406,-0.152764284794483,-0.49787322132131,-0.128093795525396,-0.497873221321308,-0.128093795525393,-0.0422240238465908,-0.152361470937896
56,-0.0873696315488258,-0.17302279101925,-0.491105504980802,-0.0389669233109256,-0.491105504980801,-0.0389669233109233,-0.0864590247870906,-0.17251052834713
56.5,-0.149676302978879,-0.180639032704721,-0.473039406717955,0.0440302525955128,-0.473039406717956,0.044030252595515,-0.148504127049677,-0.18014214878297
57,-0.225544971107614,-0.16067019279681,-0.445280997973509,0.120877957286373,-0.445280997973511,0.120877957286375,-0.224186885916431,-0.160342975261311
57.5,-0.29599995207075,-0.100889476057246,-0.408750944562555,0.191820920338135,-0.408750944562557,0.191820920338138,-0.294649899962912,-0.100748898955195
58,-0.333257744838679,-0.00832988798533718,-0.363619258386711,0.257105503738268,-0.363619258386714,0.257105503738272,-0.331991382600281,-0.00820302792956173
58.5,-0.324003492743732,0.0897814009634019,-0.309209874925242,0.316640196500994,-0.309209874925243,0.316640196500998,-0.322675374783214,0.0899805096459201
59,-0.278032474021097,0.169285663377031,-0.243910431822178,0.369404787222581,-0.243910431822178,0.369404787222586,-0.276545423253742,0.169422323974034
59.5,-0.211584357505626,0.22220473518895,-0.165364285891607,0.412306427427791,-0.165364285891604,0.412306427427795,-0.210049833537916,0.222135365451635
60,-0.134262865874282,0.248741683407419,-0.0719681567111364,0.438274818597542,-0.0719681567111324,0.438274818597542,-0.132889146666371,0.248508690884411
60.5,-0.0504595829385148,0.246301802587168,0.031997470945994,0.43516080237277,0.0319974709459955,0.435160802372765,-0.0493261619015023,0.246169971770445
61,0.0302995946294547,0.205896106868389,0.127858869780181,0.392901217251256,0.127858869780175,0.392901217251249,0.0315035848521009,0.206128121897918
61.5,0.0817956807240814,0.124292425295021,0.188070001152695,0.323963147452208,0.188070001152683,0.323963147452209,0.0835926031838466,0.124544279039124
62,0.0754655110148815,0.0296307045534662,0.209272942993105,0.263007191079783,0.209272942993097,0.263007191079791,0.0775319501948936,0.0291032408629721
62.5,0.0222473361564889,-0.0334831366851173,0.217864477289387,0.227516567358655,0.217864477289386,0.227516567358662,0.0236547297114597,-0.0346171740014385
63,-0.0399384341702912,-0.0539130847134102,0.235511672300441,0.207752650816997,0.235511672300443,0.207752650817001,-0.039297454599358,-0.0548578654338275
63.5,-0.0900099636015407,-0.0480141079427112,0.267037469009468,0.188135159733149,0.267037469009469,0.18813515973315,-0.0896857197733882,-0.0484240013020765
