"Freq [GHz]","re(St(P1,P1)) []","im(St(P1,P1)) []","re(St(P1,P2)) []","im(St(P1,P2)) []","re(St(P2,P1)) []","im(St(P2,P1)) []","re(St(P2,P2)) []","im(St(P2,P2)) []"
0,0.00402680920143439,0,0.995988723880146,0,0.995988731971011,0,0.00402681390028192,0
0.5,0.00454346397025773,-0.00123543815226768,0.995374849569622,-0.00739699109437808,0.995374849474032,-0.007396986978911,0.00454364914789096,-0.00123618699636197
1,0.00496939490623305,-0.00313890263153382,0.994692921483278,-0.0141091087918674,0.994692921696981,-0.0141091084685954,0.00496988559931211,-0.003140677491416
1.5,0.004978764030799,-0.00527390463760113,0.994089241004158,-0.0209050780741435,0.994089241359895,-0.0209050777511699,0.00497958811088139,-0.00527690523444235
2,0.00491148143442466,-0.00729892819538236,0.993409626971623,-0.027511146973854,0.993409627405477,-0.0275111467204496,0.00491246076879825,-0.00730315387018265
2.5,0.00480248213301149,-0.00927305527572031,0.992711971019109,-0.0339673629572168,0.992711971461582,-0.0339673627912873,0.00480356670035764,-0.00927849171560169
3,0.00466099719167268,-0.0112167949940432,0.99201853582281,-0.0403179066660062,0.992018536224269,-0.0403179065755186,0.00466217191382157,-0.0112234368900541
3.5,0.00449049983137773,-0.0131384873868541,0.991330204676288,-0.0465970560805591,0.991330205009914,-0.0465970560437263,0.00449176158000952,-0.0131463368440432
4,0.00429272001657521,-0.0150417217898156,0.990638457815292,-0.052827264058509,0.990638458071377,-0.0528272640546437,0.0042940701452161,-0.0150507861874072
4.5,0.00406876253794275,-0.0169279437969561,0.989932151878482,-0.0590217170074965,0.989932152057993,-0.0590217170208724,0.00407020392493296,-0.0169382343987561
5,0.00381949007521865,-0.0187975302527477,0.98920055488736,-0.0651874275787225,0.989200554997246,-0.0651874275988735,0.00382102575885268,-0.0188090613311065
5.5,0.00354567437330289,-0.0206502883110318,0.988434397763758,-0.0713276305624504,0.988434397814033,-0.0713276305832178,0.0035473068375389,-0.0206630765631015
6,0.00324806195177207,-0.0224857093832895,0.987626046902847,-0.0774433754848669,0.987626046904923,-0.0774433755031936,0.00324979271141523,-0.0224997735111838
6.5,0.00292740436974115,-0.0243031082390273,0.986769350476348,-0.0835345109024352,0.986769350442111,-0.0835345109172891,0.00292923370884379,-0.0243184686236892
7,0.00258447235087589,-0.0261017039755647,0.985859400140957,-0.0896002678653414,0.98585940008227,-0.0896002678768921,0.00258639914788605,-0.0261183824057589
7.5,0.00222006197546976,-0.0278806696234604,0.984892300832784,-0.095639595160276,0.984892300761215,-0.0956395951692937,0.00222208358261378,-0.0278986890582829
8,0.00183499671755005,-0.0296391638812281,0.983864976833848,-0.101651345584003,0.983864976760515,-0.101651345591445,0.00183710887758837,-0.029658548233896
8.5,0.00143012718839841,-0.0313763521680146,0.982775017037736,-0.107634374469433,0.982775016973217,-0.107634374476186,0.00143232397944382,-0.0313971261040065
9,0.00100632956046132,-0.0330914210088329,0.981620553963682,-0.113587587338997,0.981620553917965,-0.1135875873457,0.00100860336340841,-0.0331136097544382
9.5,0.000564503210350953,-0.0347835880874188,0.980400169414399,-0.119509958663515,0.980400169396843,-0.119509958670498,0.000566844695503554,-0.0348072172466942
10,0.000105567895202441,-0.0364521093751051,0.979112820384201,-0.125400534758191,0.979112820403521,-0.125400534765421,0.000107966025786332,-0.0364772047541866
10.5,-0.000299904754948677,-0.0382407101286484,0.977910321637309,-0.1313038828012,0.977910321656289,-0.131303882808655,-0.000297799903680313,-0.0382671285034712
11,-0.000724857957704744,-0.0400243690627455,0.976679679234951,-0.13717931051424,0.976679679253583,-0.137179310521899,-0.000723060141682802,-0.0400521193715901
11.5,-0.00116924813375641,-0.0418028588061157,0.975421680876608,-0.143028408066778,0.97542168089489,-0.143028408074622,-0.00116777107059685,-0.0418319501812006
12,-0.00163302948368965,-0.0435759530191628,0.974136903645633,-0.148852675302823,0.974136903663563,-0.148852675310833,-0.00163188685888258,-0.0436063947595366
12.5,-0.00211615396784656,-0.0453434264251449,0.972825744099813,-0.154653509318463,0.972825744117389,-0.154653509326617,-0.00211535944163199,-0.0453752279693918
13,-0.00261857128647397,-0.0471050548398022,0.971488446270906,-0.160432196976585,0.971488446288129,-0.160432196984866,-0.00261813850136719,-0.0471382257386104
13.5,-0.00314022886023607,-0.0488606151994828,0.970125127219419,-0.166189911413915,0.970125127236292,-0.166189911422308,-0.00314017144915771,-0.0488951650882141
14,-0.0036810718112131,-0.0506098855878281,0.968735799980317,-0.171927711692303,0.968735799996842,-0.171927711700787,-0.00368140340617609,-0.0506458241591203
14.5,-0.00424104294445364,-0.0523526452610246,0.967320393876962,-0.177646544855137,0.967320393893143,-0.177646544863695,-0.0042417771857505,-0.0523899822375671
15,-0.00482008273016753,-0.0540886746716827,0.965878772281405,-0.183347249760887,0.965878772297246,-0.183347249769509,-0.00482123327600652,-0.054127419779197
15.5,-0.00541812928665031,-0.055817755491443,0.964410747966662,-0.189030562172095,0.964410747982169,-0.189030562180764,-0.00541970982317963,-0.0558579184319541
16,-0.00603511836399567,-0.0575396706323006,0.962916096238122,-0.194697120675282,0.962916096253301,-0.194697120683985,-0.00603714261565685,-0.0575812610577784
16.5,-0.00667098332866789,-0.0592542042667774,0.961394566052652,-0.200347473093649,0.961394566067508,-0.200347473102376,-0.00667346506881644,-0.0592972317531961
17,-0.00732565514899788,-0.0609611418469669,0.959845889340928,-0.205982083128649,0.959845889355468,-0.205982083137386,-0.00732860821072631,-0.0610056158688446
17.5,-0.00799906238164788,-0.062660270122548,0.958269788745138,-0.211601337029383,0.95826978875937,-0.211601337038124,-0.008002500668748,-0.0627062000280234
18,-0.00869113115909645,-0.0643513771578283,0.956665983974003,-0.217205550140677,0.956665983987931,-0.217205550149409,-0.00869506865710087,-0.0643987721443136
18.5,-0.0094017851781828,-0.066034252347893,0.955034196962594,-0.2227949732229,0.955034196976227,-0.222794973231617,-0.00940623596541618,-0.0660831214383584
19,-0.0101309456897448,-0.067708686433952,0.953374156007737,-0.228369798470433,0.953374156021083,-0.228369798479126,-0.0101359239483292,-0.0677590384538531
19.5,-0.0108785314893786,-0.0693744715179285,0.951685599032165,-0.23393016518215,0.951685599045229,-0.233930165190813,-0.0108840515161241,-0.0694263150728478
20,-0.0116444589093382,-0.0710314010763957,0.949968276113074,-0.239476165057876,0.949968276125863,-0.239476165066499,-0.01165053512647,-0.071084744530387
20.5,-0.0124286418116009,-0.0726792699739254,0.94822195139401,-0.24500784711026,0.948221951406532,-0.245007847118841,-0.012435288777253,-0.0727341214286139
21,-0.013230991582092,-0.0743178744759114,0.946446404483352,-0.250525222193095,0.946446404495612,-0.250525222201626,-0.0132382240005261,-0.0743742417503457
21.5,-0.0140514171261016,-0.075947012260972,0.944641431428404,-0.256028267155368,0.94464143144041,-0.256028267163845,-0.0140592498575842,-0.0760049028722634
22,-0.0148898248648628,-0.0775664824329598,0.942806845341304,-0.261516928636094,0.942806845353061,-0.261516928644514,-0.0148982729351636,-0.0776259035777023
22.5,-0.0157461187333104,-0.0791760855326813,0.940942476741532,-0.266991126518828,0.940942476753046,-0.266991126527186,-0.0157551973427686,-0.0792370440691732
23,-0.0166202001790046,-0.0807756235493851,0.939048173669841,-0.272450757066973,0.939048173681119,-0.272450757075264,-0.0166299247111185,-0.0808381259806441
23.5,-0.0175119681622063,-0.0823648999320721,0.937123801619708,-0.277895695762181,0.937123801630755,-0.277895695770404,-0.0175223541917167,-0.0824289523896624
24,-0.0184213191570904,-0.0839437196006951,0.935169243324893,-0.283325799868411,0.935169243335716,-0.283325799876561,-0.0184323824575048,-0.0840093278293397
24.5,-0.0193481471540803,-0.0855118889573152,0.93318439843522,-0.288740910743917,0.933184398445823,-0.288740910751992,-0.0193599037046228,-0.085579058300314
25,-0.0202923436632804,-0.0870692158972495,0.931169183107192,-0.294140855922696,0.931169183117582,-0.294140855930695,-0.0203048096552237,-0.0871379512826853
25.5,-0.0212537977189812,-0.088615509820277,0.929123529531372,-0.299525450985879,0.929123529541553,-0.2995254509938,-0.0212669895613431,-0.0886858157479939
26,-0.0222323958852189,-0.0901505816419563,0.927047385414469,-0.304894501242369,0.927047385424445,-0.304894501250209,-0.0222463302098006,-0.090222462171317
26.5,-0.0232280222623502,-0.0916742438050697,0.924940713430779,-0.310247803236716,0.924940713440556,-0.310247803244474,-0.0232427159280936,-0.0917477025434641
27,-0.0242405584946237,-0.0931863102912733,0.922803490654794,-0.315585146100877,0.922803490664376,-0.315585146108551,-0.0242560285912801,-0.0932613503833788
27.5,-0.025269883778712,-0.0946865966329666,0.92063570798447,-0.320906312765181,0.920635707993862,-0.32090631277277,-0.0252861476298041,-0.0947632207507321
28,-0.0263158748731778,-0.0961749199254192,0.918437369562696,-0.326211081042524,0.918437369571901,-0.326211081050027,-0.0263329500382525,-0.0962531302587706
28.5,-0.0273784061088376,-0.0976510988391954,0.916208492202905,-0.331499224598548,0.916208492211927,-0.331499224605963,-0.0273963103849987,-0.0977308970874362
29,-0.0284573493999941,-0.0991149536328919,0.913949104823403,-0.33677051381943,0.913949104832246,-0.336770513826759,-0.0284761008227216,-0.0991963409967911
29.5,-0.0295525742565053,-0.100566306166227,0.911659247893942,-0.342024716587777,0.911659247902611,-0.342024716595018,-0.029572191099755,-0.100649283340772
30,-0.0306639477966595,-0.102004979913486,0.909338972897118,-0.34726159897609,0.909338972905616,-0.34726159898324,-0.0306844485722526,-0.102089547081287
30.5,-0.0317913347608189,-0.103430799977361,0.906988341806484,-0.352480925866383,0.906988341814814,-0.352480925873444,-0.0318127382171263,-0.103516956802686
31,-0.032934597525807,-0.104843593103181,0.904607426582644,-0.357682461503619,0.904607426590809,-0.357682461510591,-0.0329569226457392,-0.104931338726608
31.5,-0.0340935961200142,-0.106243187693566,0.902196308688127,-0.362865969989895,0.902196308696131,-0.362865969996776,-0.0341168621183294,-0.106332520727233
32,-0.0352681882391716,-0.107629413823491,0.899755078621498,-0.368031215725536,0.899755078629342,-0.368031215732326,-0.0352924145591123,-0.107720332346929
32.5,-0.0364582292627943,-0.1090021032558,0.897283835470751,-0.373177963802705,0.89728383547844,-0.373177963809404,-0.0364834355720762,-0.109094604812331
33,-0.0376635722712367,-0.110361089457134,0.894782686485957,-0.378305980356453,0.894782686493492,-0.37830598036306,-0.0376897784574013,-0.110455171050816
33.5,-0.0388840680633594,-0.111706207614319,0.892251746670778,-0.383415032877692,0.892251746678163,-0.383415032884208,-0.0389112942285144,-0.111801865707429
34,-0.0401195651747647,-0.11303729465119,0.889691138392474,-0.388504890492058,0.889691138399712,-0.388504890498482,-0.0401478316297336,-0.113134525162218
34.5,-0.0413699098965797,-0.114354189245844,0.887100991009821,-0.393575324208213,0.887100991016913,-0.393575324214546,-0.0413992371544846,-0.114452987547996
35,-0.0426349462947833,-0.115656731848358,0.884481440518325,-0.398626107138791,0.884481440525274,-0.398626107145031,-0.04266535506408,-0.115757092768539
35.5,-0.0439145162300225,-0.116944764698907,0.88183262921209,-0.403657014696788,0.881832629218898,-0.403657014702936,-0.0439460274070212,-0.117046682517185
36,-0.0452084593779264,-0.118218131846342,0.879154705361609,-0.408667824769973,0.879154705368279,-0.40866782477603,-0.045241094038823,-0.118321600295873
36.5,-0.0465166132499025,-0.119476679167176,0.876447822906781,-0.413658317875556,0.876447822913315,-0.413658317881522,-0.0465503926423347,-0.119581691434553
37,-0.0478388132143568,-0.120720254384974,0.873712141164427,-0.418628277297143,0.873712141170827,-0.418628277303017,-0.0478737587485407,-0.120826803111041
37.5,-0.0491748925183824,-0.121948707090164,0.870947824549599,-0.423577489205788,0.870947824555867,-0.42357748921157,-0.049211025757832,-0.122056784371233
38,-0.0505246823098583,-0.123161888760229,0.868155042309966,-0.428505742766746,0.868155042316104,-0.428505742772437,-0.0505620249617262,-0.123271486149701
38.5,-0.0518880116599637,-0.124359652780284,0.865333968272605,-0.433412830233382,0.865333968278614,-0.433412830238981,-0.0519265855650397,-0.124470761290676
39,-0.053264707586096,-0.12554185446402,0.862484780602526,-0.438298547029502,0.862484780608409,-0.438298547035009,-0.0533045347084792,-0.125654464569371
39.5,-0.0546545950751783,-0.126708351075003,0.859607661572294,-0.443162691821272,0.859607661578051,-0.443162691826689,-0.0546956974916661,-0.126822452713653
40,-0.0560574971073522,-0.12785900184831,0.856702797342142,-0.448005066579747,0.856702797347776,-0.448005066585071,-0.0560998969965657,-0.127974584426043
40.5,-0.0574732346800489,-0.128993668012493,0.853770377749981,-0.452825476634914,0.853770377755494,-0.452825476640149,-0.0575169543113314,-0.129110720406031
41,-0.0589016268324306,-0.130112212811852,0.850810596110758,-0.457623730722109,0.850810596116152,-0.457623730727252,-0.0589466885545424,-0.130230723372687
41.5,-0.0603424906701978,-0.131214501529002,0.847823649024633,-0.462399641021484,0.847823649029907,-0.462399641026537,-0.0603889168998419,-0.131334458087561
42,-0.0617956413907628,-0.132300401507715,0.84480973619347,-0.467153023191239,0.844809736198628,-0.467153023196202,-0.0618434546009664,-0.132421791377839
42.5,-0.0632608923087823,-0.13336978217602,0.841769060245187,-0.471883696395166,0.84176906025023,-0.471883696400039,-0.0633101150171652,-0.133492592159762
43,-0.0647380548820479,-0.13442251506955,0.838701826565498,-0.476591483325049,0.838701826570427,-0.476591483329831,-0.0647887096390021,-0.134546731462261
43.5,-0.0662269387377399,-0.135458473855108,0.835608243136646,-0.481276210218391,0.835608243141463,-0.481276210223083,-0.0662790481145518,-0.135584082450821
44,-0.067727351699038,-0.136477534354441,0.832488520382723,-0.485937706871887,0.83248852038743,-0.48593770687649,-0.0677809382759781,-0.136604520451527
44.5,-0.0692390998120954,-0.137479574568201,0.829342871021219,-0.490575806651026,0.829342871025816,-0.490575806655538,-0.069294186166498,-0.137607922975302
45,-0.0707619873733703,-0.138464474700081,0.826171509920439,-0.495190346496153,0.826171509924928,-0.495190346500576,-0.0708185960677357,-0.138594169742288
45.5,-0.0722958169573313,-0.139432117181088,0.822974653962474,-0.499781166925315,0.822974653966856,-0.499781166929649,-0.0723539705274675,-0.13956314270638
46,-0.0738403894445273,-0.140382386693959,0.819752521911422,-0.504348112034139,0.819752521915698,-0.504348112038385,-0.0739001103877606,-0.140514726079877
46.5,-0.0753955040500269,-0.141315170197686,0.81650533428657,-0.508891029493022,0.816505334290744,-0.508891029497178,-0.0754568148135004,-0.141448806358226
47,-0.0769609583522461,-0.142230356952127,0.813233313240276,-0.513409770541816,0.813233313244345,-0.513409770545883,-0.0770238813213315,-0.142365272344859
47.5,-0.078536548322145,-0.143127838542694,0.809936682440287,-0.517904189982247,0.809936682444256,-0.517904189986226,-0.0786011058089833,-0.143264015176087
48,-0.0801220683528242,-0.144007508905103,0.806615666956297,-0.522374146168222,0.806615666960166,-0.522374146172113,-0.0801882825850234,-0.144144928346036
48.5,-0.0817173112895097,-0.144869264350138,0.803270493150479,-0.526819500994196,0.803270493154248,-0.526819500997999,-0.0817852043990095,-0.145007907731608
49,-0.0833220684599322,-0.145713003588446,0.799901388571829,-0.531240119881744,0.799901388575501,-0.53124011988546,-0.0833916624720648,-0.145852851617437
49.5,-0.0849361297051242,-0.146538627755315,0.796508581854119,-0.535635871764477,0.796508581857694,-0.535635871768106,-0.0850074465278754,-0.146679660720837
50,-0.0865592834106159,-0.147346040435428,0.793092302617268,-0.540006629071411,0.793092302620747,-0.540006629074952,-0.0866323448241179,-0.147488238216704
50.5,-0.0881913165380601,-0.148135147687572,0.789652781371994,-0.544352267708909,0.78965278137538,-0.544352267712363,-0.0882661441843148,-0.148278489762364
51,-0.0898320146572752,-0.148905858069274,0.786190249427569,-0.548672667041294,0.786190249430863,-0.548672667044662,-0.0899086300301387,-0.149050323522336
51.5,-0.0914811619787218,-0.149658082661357,0.782704938802552,-0.55296770987021,0.782704938805754,-0.552967709873492,-0.0915595864141505,-0.149803650193003
52,-0.0931385413864202,-0.150391735092377,0.779197082138343,-0.557237282412837,0.779197082141455,-0.557237282416033,-0.0932187960529984,-0.150538383027154
52.5,-0.0948039344713072,-0.151106731562943,0.775666912615463,-0.561481274279009,0.775666912618486,-0.56148127428212,-0.0948860403610649,-0.151254437858393
53,-0.0964771215650476,-0.151802990869877,0.772114663872418,-0.565699578447324,0.772114663875354,-0.565699578450349,-0.0965610994845765,-0.151951733125378
53.5,-0.0981578817743027,-0.152480434430204,0.768540569927047,-0.569892091240298,0.768540569929896,-0.569892091243238,-0.098243752336187,-0.152630189895882
54,-0.0998459930154588,-0.15313898630496,0.764944865100258,-0.574058712298623,0.764944865103021,-0.57405871230148,-0.0999337766300207,-0.153289731890652
54.5,-0.101541232049828,-0.153778573222776,0.761327783942043,-0.578199344554587,0.761327783944724,-0.578199344557359,-0.101630948917198,-0.153930285507034
55,-0.103243374519319,-0.154399124603233,0.757689561159706,-0.582313894204693,0.757689561162303,-0.582313894207381,-0.103335044621845,-0.154551779842361
55.5,-0.104952194982593,-0.155000572579964,0.754030431548182,-0.586402270681535,0.754030431550697,-0.58640227068414,-0.105045838077577,-0.15515414671707
56,-0.106667466951697,-0.155582852023478,0.750350629922418,-0.590464386624971,0.750350629924853,-0.590464386627493,-0.106763102564482,-0.155737320697528
56.5,-0.10838896292919,-0.156145900563682,0.746650391051704,-0.59450015785262,0.746650391054061,-0.59450015785506,-0.108486610346587,-0.156301239118553
57,-0.110116454445759,-0.156689658612095,0.742929949595907,-0.598509503329737,0.742929949598186,-0.598509503332095,-0.110216132709827,-0.156845842105602
57.5,-0.111849712098335,-0.157214069383713,0.739189540043529,-0.602492345138488,0.739189540045731,-0.602492345140765,-0.111951440000507,-0.157371072596603
58,-0.113588505588698,-0.157719078918511,0.735429396651549,-0.606448608446657,0.735429396653676,-0.606448608448852,-0.113692301664258,-0.157876876363416
58.5,-0.115332603762598,-0.158204636102572,0.731649753386976,-0.610378221475822,0.731649753389029,-0.610378221477937,-0.115438486285507,-0.158363202032902
59,-0.117081774649363,-0.1586706926888,0.727850843870061,-0.614281115469024,0.727850843872042,-0.61428111547106,-0.11718976162744,-0.158830001107568
59.5,-0.118835785502025,-0.159117203317216,0.724032901319137,-0.618157224657957,0.724032901321046,-0.618157224659913,-0.118945894672467,-0.159277227985777
60,-0.12059440283794,-0.159544125534793,0.720196158497008,-0.622006486229695,0.720196158498848,-0.622006486231574,-0.120706651663196,-0.1597048399815
60.5,-0.122357392479925,-0.159951419814838,0.716340847658883,-0.625828840293001,0.716340847660654,-0.625828840294802,-0.122471798143904,-0.160112797343584
61,-0.124124519597889,-0.16033904957587,0.712467200501776,-0.629624229844217,0.712467200503479,-0.629624229845941,-0.124241099002507,-0.160501063274517
61.5,-0.125895548750973,-0.160706981199986,0.708575448115359,-0.633392600732775,0.708575448116997,-0.633392600734422,-0.126014318513038,-0.160869603948673
62,-0.127670243930193,-0.161055184050702,0.70466582093422,-0.637133901626335,0.704665820935794,-0.637133901627907,-0.12779122037861,-0.161218388530008
62.5,-0.129448368601579,-0.161383630490223,0.700738548691499,-0.640848083975589,0.700738548693009,-0.640848083977086,-0.129571567774874,-0.161547389189184
63,-0.131229685749812,-0.161692295896149,0.696793860373851,-0.644535101978725,0.696793860375299,-0.644535101980148,-0.131355123393979,-0.161856581120119
