"Freq [GHz]","re(St(P1,P1)) []","im(St(P1,P1)) []","re(St(P1,P2)) []","im(St(P1,P2)) []","re(St(P2,P1)) []","im(St(P2,P1)) []","re(St(P2,P2)) []","im(St(P2,P2)) []"
0,0.00744292344813857,0,0.99257135183143,0,0.992571352457162,0,0.00744292376907651,0
0.5,0.00804033831250095,0.00132442944700983,0.991912186378865,-0.00797816394032758,0.991912186380343,-0.0079781639213703,0.00804028017773817,0.00132454977079632
1,0.0085334470232965,0.00195361309126163,0.991266658320987,-0.0152492457626003,0.991266658347948,-0.0152492457808506,0.00853325786074244,0.00195388131591123
1.5,0.00885303965294959,0.00245194156466866,0.990665375261544,-0.0225806657519669,0.990665375279491,-0.0225806657749263,0.00885245871189611,0.00245218328731056
2,0.00904853276552942,0.00293096645791557,0.990022572926997,-0.0297354490038817,0.990022572935348,-0.0297354490278039,0.00904754679321584,0.00293144595655548
2.5,0.00918849293421076,0.00342668884475295,0.989380293120153,-0.0367740844096787,0.989380293119871,-0.0367740844315954,0.00918715384669433,0.00342750724527541
3,0.00930630139827571,0.00394034138242816,0.988742484950591,-0.0437439089547258,0.988742484943357,-0.0437439089727807,0.00930463868704212,0.00394153527598817
3.5,0.00941766458566207,0.00446776537885629,0.98809843554992,-0.0506733154327268,0.988098435537554,-0.0506733154459944,0.00941568498705792,0.0044693512822116
4,0.00953039224115293,0.00500499947735911,0.987434786607917,-0.0575767948074644,0.987434786592111,-0.05757679481568,0.00952808799353222,0.00500698935726085
4.5,0.00964863429789387,0.00554902420613956,0.98673981902232,-0.0644605260762212,0.986739819004567,-0.0644605260795297,0.0096459891420313,0.0055514307268032
5,0.00977473531587347,0.00609762699269378,0.986004346835965,-0.0713261566629191,0.986004346817566,-0.0713261566617138,0.00977172814661786,0.00610046523618912
5.5,0.00991009238142859,0.00664917617213234,0.985221469910782,-0.0781729948860503,0.985221469892886,-0.0781729948808776,0.00990669943243572,0.0066524641285044
6,0.0100555769033941,0.00720244189977315,0.98438607436104,-0.084999203666964,0.984386074344678,-0.0849992036584446,0.0100517730876559,0.00720620052676146
6.5,0.0102117540901953,0.00775647137515545,0.983494369272213,-0.0918024320445481,0.983494369258338,-0.091802432033365,0.0102075138567872,0.00776072451451526
7,0.0103790030522405,0.0083105045784615,0.98254352577067,-0.0985801438263101,0.98254352576018,-0.0985801438131579,0.0103743009606566,0.00831527883326721
7.5,0.0105575854852624,0.00886391742216652,0.981531413816817,-0.105329785824793,0.981531413810577,-0.105329785810383,0.0105523966107329,0.00886924203187522
8,0.0107476864835903,0.00941618299890301,0.980456415483597,-0.112048871633551,0.980456415482454,-0.112048871618591,0.0107419867185221,0.00942208972370251
8.5,0.0109494396122223,0.00996684477225473,0.979317293867427,-0.118735021064685,0.97931729387222,-0.118735021049881,0.0109432059021969,0.00997336778872304
9,0.0111629427570985,0.0105154977260677,0.978113101239891,-0.125385976428034,0.978113101251457,-0.125385976414079,0.0111561532946624,0.0105226735328943
9.5,0.0113882683939115,0.011061774890631,0.976843114545251,-0.131999606856549,0.976843114564429,-0.13199960684412,0.0113809027845616,0.0110696422221923
10,0.0116254703785058,0.0116053375572398,0.975506789895247,-0.138573906613659,0.975506789922882,-0.138573906603412,0.0116175097880026,0.0116139373028319
10.5,0.0118937882099082,0.0121257029668866,0.97430596986533,-0.145148802439407,0.97430596990643,-0.145148802447787,0.0118852551990948,0.012134870140613
11,0.01217256858604,0.0126379962842247,0.973058460441291,-0.151712012670614,0.97305846049168,-0.151712012696207,0.0121634408256124,0.0126477494769035
11.5,0.012461487559466,0.0131419835696134,0.97176460239479,-0.158262160358082,0.971764602451059,-0.158262160399403,0.0124517433929334,0.0131523419383428
12,0.012760216535523,0.013637447511293,0.970424816833034,-0.16479808028517,0.970424816892403,-0.164798080340706,0.012749834986166,0.0136484307473506
12.5,0.0130684232764231,0.0141241873552214,0.969039579990612,-0.171318785503413,0.96903958005082,-0.171318785571664,0.013057384052276,0.0141358156526836
13,0.0133857728774999,0.0146020187685227,0.967609404126926,-0.177823440219366,0.967609404186149,-0.177823440298864,0.0133740563745015,0.0146143127937566
13.5,0.0137119287111059,0.0150707736405189,0.966134822912207,-0.184311337539516,0.966134822968981,-0.18431133762885,0.0136995160145377,0.015083754502645
14,0.0140465533341766,0.0155302998256417,0.964616380173356,-0.190781880975774,0.964616380226523,-0.190781881073587,0.014033426218545,0.0155439890480786
14.5,0.0143893093559658,0.0159804608326617,0.963054621197836,-0.197234568898447,0.963054621246495,-0.197234569003459,0.0143754502834669,0.0159948803258381
15,0.0147398602629945,0.0164211354649133,0.96145008601598,-0.203668981329437,0.961450086059448,-0.203668981440439,0.0147252523807117,0.0164363075002014
15.5,0.0150978711987302,0.0168522174162384,0.959803304235319,-0.210084768618258,0.959803304273097,-0.21008476873412,0.0150824983347197,0.0168681646011666
16,0.0154630096960466,0.0172736148274333,0.958114791107632,-0.216481641653439,0.958114791139375,-0.216481641773108,0.0154468563544485,0.0172903600822196
16.5,0.0158349463609561,0.0176852498080142,0.956385044585427,-0.222859363342784,0.956385044610924,-0.222859363465284,0.0158179977162906,0.0177028163434219
17,0.0162133555065993,0.0180870579280019,0.954614543179267,-0.229217741156082,0.954614543198416,-0.229217741280519,0.0161955973973786,0.0181054692245375
17.5,0.0165979157369009,0.018478987684412,0.952803744467291,-0.235556620568554,0.952803744480084,-0.235556620694105,0.0165793346586997,0.018498267472858
18,0.016988310479712,0.0188609999469689,0.950953084137989,-0.241875879276851,0.950953084144495,-0.241875879402767,0.0169688935778208,0.0188811721902051
18.5,0.0173842284696416,0.0192330673873458,0.949062975469648,-0.248175422084728,0.949062975469999,-0.248175422210331,0.0173639635314552,0.019254156263544
19,0.0177853641811327,0.0195951738963145,0.94713380916712,-0.254455176374586,0.947133809161502,-0.254455176499263,0.0177642396283164,0.0196172037831892
19.5,0.01819141821265,0.0199473139924256,0.945165953489976,-0.260715088095721,0.945165953478618,-0.260715088218928,0.0181694230932883,0.0199703094528645
20,0.0186020976231357,0.0202894922263099,0.943159754616839,-0.26695511821135,0.943159754600003,-0.266955118332598,0.0185792216038881,0.0203134779950513
20.5,0.0190171162221339,0.0206217225838807,0.941115537199292,-0.273175239555145,0.941115537177265,-0.273175239674006,0.0189933495805166,0.0206467235552745
21,0.0194361948152058,0.0209440278917408,0.939033605065914,-0.279375434054905,0.939033605039006,-0.279375434171004,0.0194115284320764,0.0209700691085317
21.5,0.0198590614064456,0.0212564392277694,0.936914242042916,-0.285555690286329,0.936914242011447,-0.285555690399341,0.0198334867587532,0.0212835458708094
22,0.020285451360037,0.0215589953395883,0.934757712862807,-0.291716001324315,0.934757712827111,-0.291716001433962,0.0202589605139144,0.0215871927184157
22.5,0.0207151075229554,0.021851742073359,0.932564264136886,-0.297856362862686,0.932564264097297,-0.297856362968735,0.020687693127188,0.0218810556175655
23,0.0211477803109655,0.0221347318150886,0.930334125370916,-0.303976771576271,0.930334125327774,-0.303976771678529,0.0211194355908929,0.0221651870664072
23.5,0.0215832277601679,0.0224080229463615,0.928067510006616,-0.310077223701776,0.928067509960256,-0.310077223800088,0.0215539465120503,0.0224396455513773
24,0.0220212155463727,0.0226716793161796,0.925764616474289,-0.316157713816019,0.925764616425043,-0.316157713910263,0.0219909921322478,0.0227044950196158
24.5,0.0224615169746096,0.022925769730336,0.92342562924438,-0.32221823379201,0.923425629192574,-0.322218233882097,0.0224303463176587,0.022959804368814
25,0.0229039129410577,0.0231703674595078,0.921050719867803,-0.32825877191506,0.921050719813754,-0.328258772000929,0.0228717905215006,0.0232056469557289
25.5,0.0233481918697059,0.0234055497670795,0.91864004799675,-0.334279312142566,0.918640047940765,-0.334279312224183,0.0233151137212197,0.0234421001243437
26,0.0237941496259603,0.0236313974574418,0.916193762379271,-0.340279833492541,0.916193762321647,-0.340279833569893,0.0237601123326346,0.0236692447544475
26.5,0.0242415894094152,0.0238479944453598,0.913712001822312,-0.346260309547183,0.913712001763334,-0.346260309620282,0.0242065901032298,0.023887164831206
27,0.0246903216279191,0.0240554273468194,0.9111948961191,-0.352220708058955,0.91119489605904,-0.35222070812783,0.0246543579867353,0.0240959470361668
27.5,0.0251401637549849,0.0242537850915778,0.908642566937795,-0.358160990647707,0.908642566876914,-0.358160990712405,0.025103234001038,0.024295680359893
28,0.0255909401725419,0.02444315855752,0.906055128669247,-0.364081112578371,0.90605512860779,-0.364081112638954,0.0255530430714156,0.024486455736364
28.5,0.0260424820009065,0.0246236402267666,0.903432689232412,-0.369981022609682,0.903432689170612,-0.369981022666225,0.0260036168609697,0.0246683656990692
29,0.0264946269177846,0.0247953238633649,0.900775350836683,-0.375860662905258,0.90077535077476,-0.375860662957848,0.026454793590057,0.0248415040586405
29.5,0.0269472189679938,0.0249583042122903,0.89808321070089,-0.381719968999115,0.89808321063905,-0.381719969047848,0.0269064178464273,0.0250059656017574
30,0.0274001083655197,0.0251126767193768,0.895356361729195,-0.38755886980851,0.895356361667629,-0.387558869853492,0.0273583403876518,0.0251618458109382
30.5,0.0278531512893972,0.0252585372717284,0.892594893144481,-0.393377287687623,0.892594893083368,-0.393377287728968,0.0278104179373574,0.0253092406047815
31,0.0283062096748224,0.0253959819580745,0.889798891080147,-0.399175138516275,0.889798891019653,-0.399175138554101,0.0282625129766522,0.0254482460981207
31.5,0.0287591510007929,0.0255251068484836,0.886968439131432,-0.404952331818418,0.886968439071711,-0.404952331852849,0.0287144935320515,0.0255789583815096
32,0.0292118480754724,0.0256460077927966,0.884103618867613,-0.410708770905734,0.884103618808806,-0.410708770936899,0.029166232961089,0.025701473319405
32.5,0.0296641788203841,0.0257587802370921,0.881204510306554,-0.416444353042118,0.881204510248789,-0.416444353070149,0.0296176097367308,0.0258158863663663
33,0.0301160260544408,0.0258635190574829,0.878271192353185,-0.422158969625299,0.87827119229658,-0.422158969650327,0.0300685072315848,0.0259222924005629
33.5,0.030567277278722,0.0259603184104892,0.87530374320356,-0.42785250638229,0.875303743148222,-0.427852506404452,0.0305188135028329,0.0260207855738495
34,0.0310178244628361,0.0260492715992477,0.872302240716194,-0.433524843575711,0.872302240662219,-0.433524843595142,0.0309684210787026,0.02611145917767
34.5,0.0314675638335942,0.0261304709547865,0.869266762752385,-0.439175856218373,0.869266762699859,-0.439175856235209,0.0314172267472321,0.0261944055240152
35,0.0319163956666778,0.026204007731601,0.866197387487245,-0.444805414293854,0.866197387436243,-0.444805414308233,0.0318651313479869,0.0262697158406758
35.5,0.0323642240818718,0.0262699720167506,0.863094193693115,-0.450413382981064,0.863094193643705,-0.450413382993118,0.0323120395673198,0.0263374801800246
36,0.0328109568423884,0.0263284526517349,0.859957260997055,-0.455999622881031,0.859957260949294,-0.455999622890895,0.032757859737684,0.0263977873405624
36.5,0.0332565051587264,0.0263795371663778,0.856786670113994,-0.461563990244436,0.856786670067935,-0.461563990252241,0.0332025036414602,0.0264507248004856
37,0.0337007834974527,0.0264233117239866,0.853582503057161,-0.467106337198559,0.853582503012843,-0.467106337204435,0.0336458863196746,0.0264963786625293
37.5,0.0341437093952316,0.0264598610770698,0.850344843327253,-0.472626511972534,0.850344843284712,-0.472626511976609,0.034087925885941,0.0265348336093735
38,0.0345852032783768,0.0264892685328956,0.847073776081854,-0.478124359119972,0.847073776041117,-0.47812435912237,0.0345285433459001,0.0265661728688976
38.5,0.0350251882881513,0.026511615928223,0.843769388286455,-0.483599719738128,0.843769388247543,-0.483599719738973,0.0349676624223821,0.0265904781886138
39,0.0354635901119837,0.0265269836125296,0.840431768848417,-0.489052431682974,0.840431768811347,-0.489052431682383,0.0354052093864695,0.0266078298186145
39.5,0.0359003368207478,0.0265354504391094,0.837061008735135,-0.494482329779602,0.837061008699915,-0.494482329777692,0.0358411128945938,0.0266183065023893
40,0.0363353587121916,0.0265370937634263,0.833657201077585,-0.499889246027531,0.833657201044219,-0.499889246024414,0.0362753038317696,0.0266219854749151
40.5,0.0367685881605823,0.0265319894481297,0.830220441260386,-0.505273009800551,0.830220441228874,-0.505273009796336,0.036707715161024,0.0266189424674251
41,0.0371999594725942,0.0265202118741834,0.826750826999434,-0.510633448040839,0.82675082696977,-0.510633448035633,0.0371382817790531,0.0266092517182934
41.5,0.0376294087494468,0.0265018339575616,0.823248458408099,-0.515970385447142,0.823248458380274,-0.515970385441046,0.0375669403781133,0.0265929859895088
42,0.0380568737552618,0.0264769271710114,0.819713438052921,-0.521283644656873,0.81971343802692,-0.521283644649987,0.0379936293141155,0.0265702165882282
42.5,0.0384822937915987,0.0264455615703999,0.816145870999671,-0.526573046422064,0.816145870975478,-0.526573046414481,0.0384182884808894,0.0265410133929253
43,0.0389056095780967,0.0264078058251834,0.812545864850603,-0.531838409779089,0.812545864828197,-0.531838409770901,0.0388408591905409,0.0265054448836773
43.5,0.0393267631391491,0.0263637272525736,0.808913529773646,-0.537079552212196,0.808913529753002,-0.537079552203492,0.0392612840598277,0.0264635781761685
44,0.0397456976964986,0.0263133918549935,0.805248978524245,-0.542296289810858,0.805248978505338,-0.54229628980172,0.0396795069024527,0.0264154790589933
44.5,0.0401623575676519,0.0262568643604436,0.80155232646052,-0.547488437420995,0.801552326443321,-0.547488437411506,0.040095472627166,0.0263612120338845
45,0.0405766880699854,0.0261942082654119,0.79782369155233,-0.552655808790183,0.797823691536807,-0.552655808780417,0.040509127141549,0.0263008403585066
45.5,0.0409886354304097,0.0261254858800026,0.794063194384834,-0.557798216706912,0.794063194370954,-0.557798216696944,0.0409204172613529,0.0262344260914767
46,0.0413981467004524,0.026050758374966,0.790270958157051,-0.562915473134055,0.790270958144778,-0.562915473123954,0.0413292906252525,0.0261620301393031
46.5,0.0418051696766145,0.0259700858303307,0.786447108675917,-0.568007389336646,0.786447108665213,-0.568007389326479,0.0417356956148651,0.0260837123049462
47,0.0422096528258457,0.0258835272853759,0.782591774346278,-0.573073776004139,0.782591774337106,-0.573073775993969,0.0421395812798876,0.025999531337728
47.5,0.0426115452159829,0.0257911407896853,0.778705086157236,-0.578114443367286,0.778705086149556,-0.578114443357173,0.0425408972681934,0.0259095449843408
48,0.0430107964509968,0.0256929834550439,0.774787177665223,-0.583129201309796,0.774787177658995,-0.583129201299795,0.0429395937607353,0.0258138100407157
48.5,0.0434073566108809,0.0255891115079738,0.770838184974162,-0.588117859474937,0.770838184969342,-0.588117859465102,0.0433356214110921,0.0257123824045387
49,0.0438011761960283,0.0254795803426889,0.766858246713017,-0.593080227367257,0.766858246709565,-0.593080227357639,0.0437289312894967,0.0256053171282035
49.5,0.0441922060759276,0.0253644445742999,0.762847504011056,-0.598016114449576,0.762847504008927,-0.598016114440222,0.0441194748311918,0.0254926684720307
50,0.0445803974420239,0.0252437580920902,0.758806100471067,-0.602925330235428,0.758806100470217,-0.602925330226382,0.044507203788943,0.0253744899575653
50.5,0.0449657017645803,0.0251175741127128,0.754734182140793,-0.607807684377114,0.754734182141178,-0.607807684368417,0.0448920701895622,0.0252508344208126
51,0.045348070753384,0.0249859452331558,0.75063189748282,-0.612662986749538,0.750631897484396,-0.612662986741229,0.0452740262942711,0.0251217540652551
51.5,0.0457274563221434,0.024848923483358,0.746499397343093,-0.617491047529981,0.746499397345815,-0.617491047522096,0.04565302456276,0.0249873005145294
52,0.0461038105564174,0.0247065603783443,0.742336834918293,-0.62229167727398,0.742336834922116,-0.622291677266551,0.046029017620784,0.0248475248646387
52.5,0.0464770856849301,0.0245589069697788,0.738144365722211,-0.627064686987464,0.73814436572709,-0.627064686980523,0.046401958231145,0.0247024777355924
53,0.0468472340541234,0.0244060138968381,0.733922147551296,-0.631809888195305,0.733922147557186,-0.63180988818888,0.0467717992679185,0.0245522093223766
53.5,0.0472142081058012,0.0242479314363105,0.729670340449514,-0.636527093006432,0.729670340456372,-0.636527093000549,0.0471384936937725,0.0243967694451651
54,0.0475779603577288,0.0240847095518503,0.725389106672658,-0.641216114175649,0.725389106680437,-0.641216114170331,0.0475019945402484,0.0242362075986929
54.5,0.0479384433870404,0.0239163979423067,0.721078610652199,-0.645876765162304,0.721078610660857,-0.645876765157572,0.0478622548908583,0.0240705730007147
55,0.0482956098163368,0.0237430460890699,0.716739018958828,-0.65050886018594,0.716739018968322,-0.650508860181815,0.0482192278668696,0.0238999146394914
55.5,0.0486494123023302,0.0235647033023767,0.712370500265749,-0.655112214279066,0.712370500276034,-0.655112214275563,0.0485728666156494,0.0237242813202477
56,0.0489998035269161,0.0233814187665208,0.707973225311821,-0.659686643337164,0.707973225322856,-0.659686643334299,0.0489231243014392,0.0235437217105412
56.5,0.0493467361905513,0.0231932415839339,0.703547366864648,-0.664231964166071,0.70354736687639,-0.664231964163858,0.0492699540984424,0.0233582843845094
57,0.0496901630078183,0.0230002208180889,0.699093099683653,-0.668747994526836,0.69909309969606,-0.668747994525285,0.0496133091861035,0.0231680178659521
57.5,0.0500300367050629,0.0228024055351981,0.694610600483226,-0.673234553178177,0.694610600496259,-0.673234553177299,0.0499531427464661,0.0229729706702126
58,0.0503663100199942,0.0225998448446774,0.690100047896002,-0.677691459916643,0.690100047909619,-0.677691459916445,0.050289407963505,0.022773191344837
58.5,0.0506989357031402,0.0223925879383534,0.6855616224363,-0.682118535614587,0.685561622450462,-0.682118535615076,0.0506220580243155,0.0225687285089768
59,0.0510278665210602,0.0221806841283894,0.680995506463795,-0.686515602256045,0.680995506478464,-0.686515602257226,0.0509510461220685,0.0223596308915289
59.5,0.0513530552612106,0.0219641828839242,0.676401884147445,-0.690882482970627,0.676401884162581,-0.690882482972501,0.0512763254606263,0.0221459473679819
60,0.0516744547383698,0.0217431338663999,0.671780941429714,-0.695219002065496,0.671780941445282,-0.695219002068067,0.0515978492607242,0.0219277269959652
60.5,0.0519920178025315,0.0215175869635761,0.667132865991133,-0.699524985055544,0.667132866007096,-0.699524985058813,0.0519155707676314,0.0217050190494926
61,0.052305697348182,0.021287592322224,0.66245784721521,-0.703800258691826,0.662457847231532,-0.703800258695791,0.0522294432601955,0.0214778730518863
61.5,0.0526154463248611,0.021053200379495,0.657756076153722,-0.708044650988353,0.657756076170369,-0.708044650993012,0.0525394200611896,0.021246338807382
62,0.0529212177489498,0.020814461892961,0.653027745492416,-0.712257991247303,0.653027745509355,-0.712257991252654,0.0528454545488831,0.0210104664314145
62.5,0.0532229647165823,0.0205714279693344,0.648273049517133,-0.716440110082739,0.648273049534329,-0.716440110088776,0.0531475001697516,0.0207703063795808
63,0.0535206404176209,0.0203241500918597,0.643492184080356,-0.720590839442891,0.643492184097778,-0.72059083944961,0.0534455104522543,0.0205259094752878
63.5,0.0538141981506147,0.0200726801463914,0.638685346568233,-0.72471001263108,0.638685346585849,-0.724710012638475,0.0537394390216054,0.0202773269360816
64,0.0541035913386774,0.0198170704461588,0.63385273586804,-0.728797464325336,0.633852735885822,-0.728797464333398,0.0540292396154708,0.0200246103986754
