"Freq [GHz]","re(St(P1,P1)) []","im(St(P1,P1)) []","re(St(P1,P2)) []","im(St(P1,P2)) []","re(St(P2,P1)) []","im(St(P2,P1)) []","re(St(P2,P2)) []","im(St(P2,P2)) []"
0,0.00332931172087569,0,0.996683148303418,0,0.996683149787714,0,0.00332931582849483,0
0.5,0.00366225438570922,0.001101477063564,0.996289194952553,-0.00457767399685594,0.996289194423049,-0.0045776729941025,0.00366219158811276,0.00110159073694405
1,0.00398756903327424,0.00176848992887457,0.995818440563948,-0.00870239170671283,0.995818440169014,-0.00870239159156583,0.00398738539744414,0.00176876786381897
1.5,0.00392785340556934,0.00227060154331582,0.995498577382971,-0.0129077847073944,0.995498577056836,-0.012907784568025,0.00392727629980527,0.00227118790492042
2,0.00391054101594257,0.00284402788178895,0.995111614234784,-0.0169828387258626,0.995111613980393,-0.0169828385860953,0.00390971410917551,0.00284481117759583
2.5,0.00390743473960509,0.00345136630766163,0.994690493334658,-0.0209338837399535,0.994690493144868,-0.0209338836163582,0.00390638222306094,0.00345233088674135
3,0.00391113798945231,0.00407905126053443,0.994257256747903,-0.0247807759840377,0.994257256611135,-0.0247807758849277,0.00390984712247011,0.00408019817885297
3.5,0.00391906656812147,0.004721487420138,0.993823499757349,-0.0285473379061507,0.993823499661628,-0.0285473378334178,0.00391751004844654,0.00472282206664865
4,0.00393014659083235,0.00537629333324752,0.993393278155495,-0.0322555724651874,0.993393278090443,-0.0322555724168101,0.00392828986740268,0.00537782282986932
4.5,0.00394388308156346,0.00604258767904042,0.992966155739774,-0.0359232970886119,0.992966155697189,-0.0359232970607444,0.0039416870735427,0.00604432028115731
5,0.00396003766475306,0.00672027670564468,0.992539469325215,-0.0395638424254052,0.992539469298944,-0.0395638424136742,0.00395745981312401,0.00672222170468473
5.5,0.00397849967004027,0.00740972490795144,0.992109732598644,-0.0431866673610077,0.992109732584213,-0.0431866673612138,0.00397549429090516,0.00741189267867703
6,0.00399922875848424,0.00811159077055201,0.991673397145161,-0.0467982195687728,0.991673397139377,-0.0467982195772496,0.00399574706349282,0.00811399286624415
6.5,0.00402222724268198,0.00882674063258015,0.991227210712526,-0.050402737817052,0.99122721071313,-0.0504027378307335,0.00401821717801387,0.00882938990095816
7,0.00404752592281377,0.00955620255215095,0.990768349781,-0.0540028971930031,0.990768349786405,-0.0540028972093882,0.00404293189333882,0.00955911326522152
7.5,0.00407517656275314,0.0103011421300083,0.990294437148078,-0.0576002911320854,0.990294437157175,-0.0576002911491917,0.00406993907087583,0.0103043301276564
8,0.0041052478532333,0.0110628512215483,0.989803507364049,-0.0611957769711289,0.989803507376065,-0.0611957769873959,0.00409930306418227,0.0110663340710175
8.5,0.00413782332420154,0.0118427447608367,0.98929395317871,-0.0647897177004904,0.989293953193112,-0.0647897177147057,0.00413110256016236,0.0118465419350287
9,0.00417300041834634,0.0126423631032422,0.988764469258359,-0.0683821486018488,0.988764469274783,-0.0683821486130771,0.00416542957820265,0.0126464961814232
9.5,0.00421089030687383,0.0134633784674358,0.988214000356414,-0.0719728910343642,0.988214000374616,-0.0719728910418915,0.0042023892044496,0.013467871362332
10,0.00425161822013215,0.0143076047240474,0.987641696496488,-0.0755616296308146,0.98764169651631,-0.0755616296341,0.00424209983064766,0.0143124839399595
10.5,0.00437134767609615,0.0150153928599526,0.987099978117785,-0.0791515570449919,0.987099978137699,-0.0791515570491361,0.00436112266222366,0.0150205568680732
11,0.00449683449591312,0.0157220742151392,0.986547902654087,-0.0827250122151719,0.986547902674014,-0.0827250122201848,0.00448586802802003,0.015727529120654
11.5,0.00462806686664366,0.01642759709671,0.98598629824598,-0.0862827849222221,0.985986298265845,-0.0862827849280938,0.00461632406818557,0.0164333493261051
12,0.00476503243936416,0.0171319099518659,0.985415875899973,-0.0898256794298709,0.985415875919705,-0.0898256794365926,0.00475247838575205,0.0171379662570708
12.5,0.00490771833097906,0.0178349613740769,0.984837237050914,-0.0933545019746376,0.984837237070445,-0.0933545019821924,0.00489431804858506,0.0178413288367913
13,0.00505611112611264,0.0185367001091823,0.984250881840933,-0.096870050265907,0.984250881860199,-0.0968700502742657,0.00504182959142621,0.0185433861453506
13.5,0.00521019687907323,0.0192370750614996,0.983657217780157,-0.100373104869792,0.983657217799103,-0.10037310487893,0.00519499901800559,0.0192440874259363
14,0.00536996111589858,0.0199360352998927,0.983056568514042,-0.103864422318793,0.983056568532614,-0.103864422328676,0.00535381180324735,0.0199433820910784
14.5,0.00553538883646791,0.0206335300637814,0.982449182478246,-0.107344729771223,0.982449182496397,-0.107344729781814,0.00551825289554589,0.0206412197287968
15,0.00570646451668858,0.0213295087691594,0.981835241272921,-0.110814721037264,0.98183524129061,-0.110814721048526,0.00568830671912335,0.0213375501087669
15.5,0.00588317211076557,0.0220239210145441,0.981214867632984,-0.114275053789835,0.981214867650174,-0.114275053801726,0.00586395717646734,0.0220323231884123
16,0.00606549505353,0.0227167165869231,0.980588132909182,-0.11772634778587,0.980588132925839,-0.117726347798349,0.00604518765084695,0.0227254891189839
16.5,0.00625341626284759,0.0234078454676219,0.979955064006579,-0.121169183935192,0.979955064022677,-0.121169183948219,0.00623198100890253,0.0234169982515691
17,0.0064469181420931,0.0240972578381804,0.979315649752906,-0.124604104068256,0.979315649768422,-0.124604104081786,0.00642431960331492,0.0241068011430934
17.5,0.00664598258270012,0.0247849040861508,0.978669846689568,-0.12803161126957,0.978669846704482,-0.128031611283562,0.00662218527554433,0.0247948485622391
18,0.0068505909667743,0.0254707348108907,0.978017584293698,-0.13145217065933,0.978017584307996,-0.131452170673741,0.00682555935865398,0.0254810914953665
18.5,0.00706072416977901,0.0261547008292871,0.977358769651166,-0.134866210521402,0.977358769664835,-0.134866210536192,0.00703442268019414,0.026165481152344
19,0.0072763625632844,0.0268367531814522,0.976693291608533,-0.138274123690315,0.976693291621566,-0.138274123705443,0.00724875556516985,0.026847968972362
19.5,0.00749748601778888,0.0275168431363784,0.976021024437292,-0.141676269123596,0.976021024449684,-0.141676269139025,0.00746853783907292,0.0275285066296886
20,0.00772407390560098,0.0281949221975379,0.975341831046816,-0.145072973598005,0.975341831058563,-0.145072973613696,0.00769374883098681,0.0282070460393755
20.5,0.00795610510378647,0.0288709421084561,0.974655565783814,-0.148464533479118,0.974655565794917,-0.148464533495036,0.00792436737676408,0.0288835393629214
21,0.0081935579971823,0.0295448548582153,0.973962076856182,-0.15185121652337,0.973962076866642,-0.151851216539479,0.00816037182226514,0.0295579390138703
21.5,0.00843641048146934,0.030216612686945,0.973261208418175,-0.155233263679829,0.973261208427995,-0.155233263696098,0.00840174002667327,0.0302301976633776
22,0.00868463996630953,0.0308861680912189,0.972552802352298,-0.158610890866237,0.972552802361485,-0.158610890882632,0.00864844936586637,0.030900268245702
22.5,0.00893822337854344,0.0315534738294461,0.971836699781224,-0.161984290699624,0.971836699789783,-0.161984290716118,0.00890047673586214,0.0315681039636582
23,0.00919713716544399,0.0322184829271999,0.97111274234073,-0.165353634167036,0.97111274234867,-0.1653536341836,0.00915779855632412,0.0322336582940181
23.5,0.00946135729803152,0.0328811486824758,0.970380773242205,-0.16871907222592,0.970380773249536,-0.168719072242526,0.00942039077412768,0.0328968849928302
24,0.009730859274448,0.0335414246709309,0.96964063815074,-0.17208073732714,0.96964063815747,-0.172080737343766,0.0096882288669928,0.0335577381007184
24.5,0.0100056181233795,0.0341992647510438,0.968892185902366,-0.175438744856398,0.968892185908508,-0.175438744873017,0.00996128784717193,0.0342161719480907
25,0.0102856084075429,0.0348546230692421,0.968135269081655,-0.178793194491933,0.96813526908722,-0.178793194508524,0.0102395422652017,0.0348721411603097
25.5,0.0105708042272208,0.03550745406497,0.967369744478596,-0.182144171478184,0.967369744483598,-0.182144171494727,0.0105229662137107,0.0355256006628011
26,0.0108611792238464,0.0361577124756889,0.966595473441626,-0.185491747816418,0.966595473446076,-0.185491747832894,0.0108115333312807,0.0361765056860843
26.5,0.0111567065836451,0.0368053533418435,0.965812322141717,-0.18883598337428,0.965812322145628,-0.18883598339067,0.0111052168063673,0.0368248117707668
27,0.0114573590413231,0.0374503320117605,0.965020161760671,-0.192176926917055,0.965020161764056,-0.192176926933342,0.0114039893812724,0.0374704747724577
27.5,0.0117631088838026,0.0380926041464917,0.964218868615158,-0.195514617063909,0.964218868618032,-0.195514617080078,0.01170782335617,0.0381134508666308
28,0.0120739279540059,0.0387321257246063,0.963408324226609,-0.198849083172735,0.963408324228984,-0.198849083188771,0.0120166905931796,0.0387536965534099
28.5,0.012389787654682,0.039368853046915,0.962588415345725,-0.202180346157462,0.962588415347616,-0.202180346173352,0.0123305625204929,0.0393911686623056
29,0.0127106589522831,0.0400027427411445,0.961759033939291,-0.205508419241776,0.96175903394071,-0.205508419257507,0.0126494101365466,0.0400258243568754
29.5,0.0130365123808764,0.0406337517665587,0.960920077145862,-0.208833308653216,0.960920077146825,-0.208833308668777,0.0129732040142422,0.0406576211393261
30,0.0133673180461003,0.0412618374185008,0.960071447206071,-0.212155014261581,0.960071447206591,-0.212155014276962,0.0133019143052083,0.0412865168550405
30.5,0.0137030456291591,0.0418869573328975,0.959213051372426,-0.215473530165457,0.959213051372517,-0.215473530180647,0.01363551074411,0.0419124696970479
31,0.0140436643908572,0.0425090694906909,0.958344801802846,-0.21878884523057,0.958344801802521,-0.218788845245563,0.0139739626529956,0.0425354382104159
31.5,0.0143891431756633,0.0431281322222106,0.957466615441487,-0.222100943583492,0.957466615440758,-0.222100943598277,0.014317238945687,0.0431553812965872
32,0.014739450415818,0.0437441042114932,0.956578413889937,-0.225409805064052,0.95657841388882,-0.225409805078624,0.0146653081322045,0.0437722582176345
32.5,0.0150945541354653,0.0443569445005294,0.955680123271384,-0.228715405639639,0.955680123269889,-0.22871540565399,0.0150181383232322,0.0443860286004572
33,0.0154544219548203,0.044966612493464,0.954771674089893,-0.232017717784365,0.954771674088034,-0.232017717798489,0.0153756972346139,0.0449966524409036
33.5,0.0158190210943599,0.0455730679607116,0.953853001086683,-0.23531671082591,0.953853001084473,-0.235316710839803,0.0157379521918836,0.0456040901078176
34,0.0161883183790508,0.0461762710430362,0.952924043094893,-0.238612351262621,0.952924043092344,-0.238612351276277,0.0161048701348294,0.046208302347031
34.5,0.0165622802425902,0.0467761822555577,0.951984742894128,-0.241904603053309,0.951984742891252,-0.241904603066724,0.0164764176220812,0.0468092502852711
35,0.0169408727316787,0.0473727624916882,0.951035047065816,-0.245193427882015,0.951035047062624,-0.245193427895186,0.0168525608357297,0.0474068954340019
35.5,0.01732406151031,0.0479659730270239,0.950074905850243,-0.248478785399783,0.950074905846746,-0.248478785412706,0.017233265585971,0.0480011996931982
36,0.0177118118640819,0.0485557755231574,0.949104273005935,-0.251760633445413,0.949104273002146,-0.251760633458084,0.0176184973157708,0.0485921253550412
36.5,0.0181040887045225,0.0491421320314471,0.948123105671956,-0.255038928246926,0.948123105667885,-0.255038928259344,0.0180082211055521,0.0491796351075564
37,0.0185008565734299,0.0497250049967033,0.94713136423352,-0.258313624605421,0.947131364229178,-0.258313624617583,0.0184024016779026,0.0497636920381574
37.5,0.0189020796472329,0.0503043572608344,0.946129012191277,-0.261584676062777,0.946129012186674,-0.261584676074683,0.0188010034022977,0.0503442596371482
38,0.0193077217413475,0.0508801520664162,0.94511601603448,-0.264852035054636,0.945116016029626,-0.264852035066284,0.0192039902998387,0.0509213018011268
38.5,0.0197177463145566,0.0514523530602145,0.944092345118228,-0.268115653049875,0.944092345113133,-0.268115653061264,0.0196113260480032,0.0514947828363397
39,0.0201321164733843,0.0520209242966292,0.943057971544876,-0.27137548067779,0.94305797153955,-0.271375480688918,0.0200229739854067,0.0520646674619452
39.5,0.0205507949764804,0.052585830241102,0.942012870049677,-0.274631467843999,0.94201287004413,-0.274631467854867,0.0204388971165707,0.052630920813229
40,0.0209737442390013,0.0531470357734487,0.940957017890678,-0.277883563836085,0.940957017884918,-0.277883563846693,0.0208590581166991,0.0531935084447321
40.5,0.0214009263369911,0.0537045061911368,0.93989039474283,-0.281131717419844,0.939890394736867,-0.281131717430192,0.0212834193364526,0.053752396333312
41,0.0218323030117601,0.0542582072125106,0.938812982596302,-0.284375876926957,0.938812982590144,-0.284375876937045,0.0217119428067295,0.0543075508811408
41.5,0.0222678356742514,0.0548081049799594,0.937724765658895,-0.287615990334839,0.93772476565255,-0.287615990344667,0.0221445902434416,0.0548589389186356
42,0.0227074854094035,0.0553541660630255,0.936625730262494,-0.290852005339345,0.936625730255972,-0.290852005348914,0.0225813230522844,0.0554065277073066
42.5,0.0231512129804957,0.0558963574614655,0.935515864773453,-0.294083869420944,0.93551586476676,-0.294083869430255,0.0230221023335043,0.0559502849425559
43,0.0235989788334808,0.0564346466082544,0.934395159506792,-0.297311529904944,0.934395159499936,-0.297311529913998,0.0234668888866503,0.0564901787564012
43.5,0.0240507431013,0.0569690013725443,0.933263606644104,-0.300534934016283,0.933263606637093,-0.300534934025081,0.0239156432153183,0.0570261777201317
44,0.0245064656081733,0.0574993900625675,0.932121200155036,-0.303754028929349,0.932121200147878,-0.303754028937892,0.0243683255318768,0.0575582508469072
44.5,0.0249661058738675,0.0580257814284941,0.930967935722226,-0.306968761813276,0.930967935714927,-0.306968761821566,0.0248248957621739,0.0580863675942835
45,0.0254296231179386,0.0585481446652516,0.929803810669553,-0.310179079873106,0.929803810662121,-0.310179079881145,0.0252853135502238,0.0586104978666868
45.5,0.0258969762639393,0.0590664494152922,0.928628823893588,-0.31338493038717,0.928628823886029,-0.313384930394959,0.0257495382628699,0.0591306120178245
46,0.0263681239435962,0.0595806657713254,0.927442975798103,-0.316586260741025,0.927442975790422,-0.316586260748566,0.0262175289944169,0.0596466808530316
46.5,0.0268430245009459,0.0600907642790072,0.926246268231509,-0.319783018458249,0.926246268223714,-0.319783018465543,0.026689244571235,0.0601586756315631
47,0.0273216359964347,0.060596715939603,0.925038704427116,-0.322975151228353,0.925038704419212,-0.322975151235404,0.027164643556327,0.0606665680688374
47.5,0.0278039162109689,0.0610984922126039,0.923820288946058,-0.326162606932089,0.923820288938053,-0.326162606938899,0.0276436842538608,0.0611703303386126
48,0.0282898226499219,0.0615960650183336,0.922591027622804,-0.329345333664335,0.922591027614702,-0.329345333670905,0.0281263247136573,0.0616699350751291
48.5,0.0287793125470848,0.0620894067405124,0.921350927513095,-0.332523279754822,0.921350927504901,-0.332523279761154,0.028612522735635,0.0621653553751871
49,0.0292723428685654,0.0625784902288069,0.920099996844228,-0.335696393786845,0.920099996835948,-0.335696393792942,0.0291022358742081,0.0626565648001889
49.5,0.0297688703166241,0.0630632888013649,0.918838244967561,-0.338864624614159,0.918838244959201,-0.338864624620023,0.0295954214426263,0.0631435373781328
50,0.0302688513334524,0.0635437762473341,0.91756568231314,-0.342027921376204,0.917565682304704,-0.342027921381838,0.0300920365172663,0.0636262476055711
50.5,0.0307722421048773,0.0640199268293722,0.916282320346335,-0.345186233511816,0.916282320337829,-0.345186233517222,0.0305920379418567,0.0641046704495267
51,0.031278998563997,0.0644917152861542,0.914988171526406,-0.348339510771545,0.914988171517834,-0.348339510776725,0.0310953823316398,0.0645787813493768
51.5,0.0317890763947425,0.0649591168348875,0.913683249266892,-0.351487703228696,0.91368324925826,-0.351487703233655,0.0316020260774686,0.0650485562187118
52,0.0323024310353608,0.0654221071738295,0.91236756789774,-0.354630761289229,0.91236756788905,-0.354630761293968,0.0321119253498252,0.0655139714471673
52.5,0.0328190176818056,0.0658806624848214,0.91104114262908,-0.357768635700583,0.911041142620337,-0.357768635705104,0.0326250361027672,0.0659750039022287
53,0.0333387912910521,0.0663347594358499,0.90970398951658,-0.360901277559538,0.909703989507789,-0.360901277563844,0.0331413140777875,0.0664316309310296
53.5,0.033861706584309,0.0667843751836308,0.908356125428293,-0.364028638319199,0.908356125419459,-0.364028638323293,0.0336607148075927,0.0668838303621371
54,0.0343877180501409,0.0672294873762354,0.906997568012918,-0.367150669795164,0.906997568004043,-0.367150669799049,0.0341831936197846,0.067331580507324
54.5,0.0349167799474797,0.0676700741557628,0.905628335669413,-0.37026732417096,0.905628335660502,-0.370267324174638,0.0347087056404505,0.0677748601633568
55,0.0354488463085436,0.0681061141610675,0.904248447517896,-0.373378554002797,0.904248447508952,-0.373378554006271,0.0352372057976493,0.0682136486137784
55.5,0.0359838709416335,0.068537586530551,0.902857923371753,-0.376484312223722,0.902857923362779,-0.376484312226995,0.0357686488247916,0.0686479256307098
56,0.0365218074338219,0.0689644709050331,0.901456783710912,-0.379584552147188,0.901456783701914,-0.379584552150264,0.0363029892639113,0.0690776714766782
56.5,0.0370626091535204,0.0693867474307104,0.90004504965622,-0.38267922747013,0.900045049647198,-0.382679227473009,0.0368401814688139,0.0695028669064722
57,0.0376062292529247,0.0698043967622125,0.898622742944849,-0.385768292275549,0.898622742935807,-0.385768292278236,0.0373801796081125,0.0699234931690341
57.5,0.0381526206703307,0.0702174000657778,0.897189885906717,-0.388851701034693,0.89718988589766,-0.388851701037191,0.0379229376681238,0.0703395320094068
58,0.0387017361323235,0.0706257390225497,0.895746501441841,-0.391929408608817,0.895746501432771,-0.391929408611127,0.0384684094556422,0.0707509656707359
58.5,0.0392535281558255,0.0710293958320227,0.894292612998587,-0.395001370250604,0.894292612989506,-0.395001370252731,0.0390165486005686,0.0711577768963437
59,0.0398079490500121,0.0714283532156473,0.892828244552778,-0.398067541605249,0.89282824454369,-0.398067541607195,0.0395673085583952,0.0715599489318874
59.5,0.0403649509180771,0.0718225944206078,0.891353420587614,-0.401127878711246,0.89135342057852,-0.401127878713013,0.0401206426125401,0.0719574655276053
60,0.0409244856588638,0.0722121032238018,0.889868166074354,-0.404182338000897,0.889868166065258,-0.404182338002489,0.0406765038765282,0.0723503109406813
60.5,0.041486504968339,0.0725968639360349,0.888372506453748,-0.407230876300572,0.888372506444654,-0.407230876301991,0.0412348452960071,0.072738469937731
61,0.0420509603409228,0.0729768614064519,0.886866467618155,-0.410273450830744,0.886866467609063,-0.410273450831994,0.041795619650595,0.0731219277974187
61.5,0.0426178030706628,0.0733520810272312,0.885350075894322,-0.413310019205805,0.885350075885236,-0.413310019206887,0.0423587795555596,0.0735006703132473
62,0.043186984252261,0.0737225087385693,0.883823358026812,-0.416340539433695,0.883823358017733,-0.416340539434613,0.0429242774633135,0.0738746837965104
62.5,0.0437584547819451,0.0740881310339688,0.882286341162013,-0.419364969915359,0.882286341152945,-0.419364969916116,0.0434920656647253,0.0742439550794486
63,0.044332165358188,0.0744489349658847,0.880739052832739,-0.422383269444034,0.880739052823682,-0.422383269444631,0.0440620962902485,0.0746084715186213
63.5,0.0449080664822787,0.074804908151727,0.87918152094336,-0.425395397204394,0.879181520934317,-0.425395397204836,0.0446343213108457,0.07496822099852
