"Freq [GHz]","re(St(P1,P1)) []","im(St(P1,P1)) []","re(St(P1,P2)) []","im(St(P1,P2)) []","re(St(P2,P1)) []","im(St(P2,P1)) []","re(St(P2,P2)) []","im(St(P2,P2)) []"
0,0.00302864361486854,0,0.996982213051524,0,0.996982216718607,0,0.00302864978820594,0
0.5,0.00336417298225911,0.000698135528487853,0.996575497246333,-0.00459529716196272,0.996575497202485,-0.00459529693339533,0.00336412598730362,0.000698141439684719
1,0.00367900735588478,0.000953257164013621,0.996088093517397,-0.00872250778186157,0.996088093652016,-0.0087225078904396,0.00367889246182784,0.000953300132998436
1.5,0.0034976904440267,0.0011893785984185,0.995766896800349,-0.0129374947320571,0.995766896902721,-0.0129374948646372,0.00349739042785124,0.00118985191419085
2,0.00338912984404338,0.00139569735623368,0.995369564869151,-0.0170186569404649,0.995369564937887,-0.0170186570746971,0.0033885194269736,0.00139634298650293
2.5,0.0033244229292837,0.00160613961340417,0.994927634693666,-0.020969335151598,0.99492763473264,-0.0209693352712819,0.00332353550487863,0.00160681883129499
3,0.00328427154944411,0.00182922700740562,0.994464784675039,-0.0248074608311626,0.994464784690695,-0.0248074609276472,0.00328315535103929,0.00182988645495286
3.5,0.00325802105457518,0.00206658836151163,0.993995774182137,-0.0285563731238518,0.993995774181314,-0.0285563731947178,0.00325670922065324,0.00206721454646797
4,0.0032397477800199,0.0023184310948654,0.993527949423522,-0.0322387215124387,0.993527949412205,-0.0322387215592865,0.00323825726955818,0.0023190280828711
4.5,0.00322593795505366,0.00258498211893254,0.993063535056816,-0.0358735794119269,0.993063535039667,-0.0358735794383982,0.00322427284967119,0.00258556207890948
5,0.00321429867405687,0.0028668249315924,0.992601695194102,-0.0394757128226377,0.992601695174491,-0.039475712833088,0.00321245288772332,0.00286740430346555
5.5,0.00320314398267629,0.00316495150636698,0.992140027289335,-0.0430559363165486,0.992140027269527,-0.0430559363152803,0.00320110278677443,0.00316554955061044
6,0.00319105804305386,0.00348075383769419,0.991675510503841,-0.0466218566795398,0.991675510485264,-0.0466218566704057,0.00318879858886167,0.00348139220779231
6.5,0.00317669080671568,0.00381601559899991,0.991205047798799,-0.0501786464858096,0.99120504778227,-0.0501786464720908,0.00317418185120943,0.0038167183596034
7,0.00315861490766878,0.00417291855903912,0.990725743095425,-0.0537297049766128,0.990725743081344,-0.0537297049610022,0.003155815851694,0.00417371238992459
7.5,0.00313520605925499,0.00455406601296904,0.990235020369026,-0.0572771729064216,0.99023502035751,-0.0572771728910881,0.00313206531046506,0.00455498046317437
8,0.00310452424516605,0.00496252256832275,0.989730655257666,-0.0608223137782486,0.989730655248649,-0.0608223137649064,0.0031009768336433,0.0049635902628804
8.5,0.00306417900861189,0.00540186917425611,0.989210762153168,-0.0643657878078203,0.989210762146473,-0.0643657877978203,0.0030601433019698,0.00540312586660274
9,0.00301116330208195,0.00587627209974873,0.988673761411417,-0.0679078452195245,0.988673761406797,-0.0679078452139033,0.00300653657835082,0.00587775641590049
9.5,0.00294163830818256,0.00639056376328995,0.988118340050235,-0.0714484610591688,0.988118340047411,-0.07144846105873,0.00293629083869357,0.0063923163915538
10,0.00285064680152058,0.00695033117784405,0.987543412724851,-0.0749874285048984,0.987543412723523,-0.0749874285102496,0.0028444139636391,0.00695239309848805
10.5,0.0028725540850929,0.00730362161347209,0.987000382263324,-0.0784865460505264,0.987000382261686,-0.0784865460552178,0.0028670989982223,0.00730434488000764
11,0.00289475972359016,0.00765845083936423,0.986453859607265,-0.0819699529856273,0.986453859605394,-0.0819699529896747,0.002890011115598,0.00765757732066685
11.5,0.00291719297621432,0.00801509067811157,0.985904211513625,-0.0854390971307435,0.985904211511593,-0.085439097134163,0.00291304787975677,0.0080123416626483
12,0.00293979771310171,0.00837385130146195,0.985351650054758,-0.088895331093453,0.985351650052627,-0.0888953310962668,0.00293611509501829,0.00836892823243485
12.5,0.00296253857491902,0.00873508486646291,0.984796258220622,-0.0923399066504498,0.984796258218449,-0.0923399066526853,0.00295913200292877,0.00872767104901051
13,0.00298540861837415,0.00909918893986195,0.984238012992043,-0.0957739727734479,0.984238012989878,-0.0957739727751354,0.00298203793540122,0.00908895256734521
13.5,0.00300843870361397,0.00946660942806599,0.983676805780281,-0.0991985764478036,0.983676805778166,-0.0991985764489742,0.00300480074045281,0.00945320835863139
14,0.00303170888125107,0.00983784261628795,0.983112460265633,-0.10261466555741,0.983112460263605,-0.102614665558098,0.00302742733336311,0.00982093142290275
14.5,0.00305536201231781,0.0102134357774037,0.982544747760946,-0.106023093232454,0.982544747759035,-0.106023093232697,0.00304997674846649,0.0101926756874882
15,0.0030796197884617,0.0105939856378479,0.981973400284128,-0.109424623170647,0.981973400282359,-0.109424623170475,0.00307257606141673,0.0105690580593594
15.5,0.00310480119147658,0.0109801337876321,0.981398121555352,-0.112819935544265,0.981398121553746,-0.112819935543715,0.00309543949802773,0.0109507581654684
16,0.00313134321518278,0.0113725579063715,0.980818596146837,-0.116209633193102,0.980818596145412,-0.116209633192208,0.00311889091498214,0.0113385146329574
16.5,0.00315982333903796,0.0117719574709607,0.980234497011722,-0.119594247877081,0.980234497010491,-0.119594247875875,0.00314338959137037,0.0117331164399634
17,0.00319098276260055,0.0121790324567064,0.979645491608215,-0.122974246422901,0.979645491607186,-0.122974246421412,0.00316955886099937,0.0121353875356589
17.5,0.00322574876217285,0.0125944535094145,0.979051246819383,-0.126350036647748,0.979051246818563,-0.126350036646005,0.00319821649193672,0.0125461626392251
18,0.00326525371735409,0.0130188222470764,0.978451432850233,-0.1297219729818,0.978451432849628,-0.129721972979833,0.00323040483633999,0.0129662519752651
18.5,0.00331084742056897,0.0134526208687675,0.977845726263925,-0.133090361740877,0.977845726263536,-0.13309036173871,0.00326741761177601,0.0133963928303076
19,0.00336409834075616,0.0138961512385016,0.977233812299278,-0.136455466023527,0.977233812299105,-0.136455466021187,0.00331081877696943,0.0138371864145008
19.5,0.00342677877163278,0.0143494651859792,0.976615386593032,-0.139817510223518,0.976615386593074,-0.139817510221026,0.00336244747924419,0.0142890198135834
20,0.00350082857072692,0.0148122899558398,0.975990156412991,-0.143176684161064,0.975990156413245,-0.143176684158443,0.00342440178477663,0.0147519750313649
20.5,0.00358829288825396,0.0152839554131057,0.975357841492512,-0.146533146844607,0.975357841492973,-0.146533146841876,0.0034989933558045,0.0152257303541994
21,0.00369123130153715,0.0157633323979445,0.974718174542873,-0.1498870298808,0.974718174543537,-0.149887029877979,0.00358866608221767,0.0157094633580703
21.5,0.00381159936974929,0.0162487938452811,0.974070901507845,-0.153238440553818,0.974070901508706,-0.153238440550922,0.00369587462348039,0.0162017692424938
22,0.00395110870367277,0.0167382110247538,0.97341578161413,-0.156587464597187,0.973415781615182,-0.156587464594232,0.00382292435460108,0.0167006116930555
22.5,0.00411107753968715,0.0172289955576055,0.972752587262257,-0.15993416868204,0.972752587263493,-0.159934168679044,0.00397178218928315,0.0172033245653167
23,0.00429228921321875,0.0177181931080961,0.972081103794691,-0.163278602645664,0.972081103796103,-0.163278602642638,0.00414387699901866,0.0177066796914982
23.5,0.00449487910353794,0.0182026269886055,0.97140112917134,-0.166620801483481,0.971401129172921,-0.166620801480439,0.00433991652598728,0.0182070280323314
24,0.00471826991707303,0.0186790806042301,0.970712473577057,-0.169960787126618,0.970712473578799,-0.169960787123569,0.00455975173570047,0.0187005087233652
24.5,0.00496116975886382,0.0191444989279264,0.970014958981087,-0.173298570025828,0.970014958982982,-0.173298570022785,0.00480231675851792,0.0191833058024056
25,0.0052216379072344,0.019596183644655,0.9693084186645,-0.176634150561132,0.96930841866654,-0.176634150558102,0.00506566198068206,0.0196519197128429
25.5,0.00549721167274481,0.0200319562224198,0.968592696728456,-0.179967520294999,0.968592696730631,-0.179967520291991,0.00534708128806816,0.0201034144727883
26,0.0057850772164168,0.0204502684350749,0.967867647593417,-0.183298663085411,0.96786764759572,-0.183298663082434,0.00564331634038795,0.0205356044041807
26.5,0.00608226054900135,0.0208502494244698,0.967133135497303,-0.186627556073673,0.967133135499726,-0.186627556070732,0.00595080645837626,0.0209471561063559
27,0.00638581367631952,0.0212316895604654,0.966389033998709,-0.189954170560434,0.966389034001243,-0.189954170557537,0.00626594637773625,0.021337598355903
27.5,0.00669297476205383,0.0215949711750829,0.965635225489876,-0.1932784727821,0.965635225492512,-0.193278472779252,0.00658531694159264,0.0217072496183461
28,0.00700128852839255,0.0219409625533729,0.964871600722905,-0.196600424598531,0.964871600725637,-0.196600424595737,0.00690586378276459,0.0220570852559101
28.5,0.00730868153901798,0.0222708935930305,0.964098058351733,-0.199919984101858,0.964098058354553,-0.199919984099123,0.00722501227666633,0.0223885719494685
29,0.00761349440211972,0.0225862298598378,0.963314504491617,-0.203237106155194,0.963314504494516,-0.203237106152522,0.00754071950991053,0.0227034955907519
29.5,0.00791447802499418,0.0228885577258953,0.962520852297241,-0.206551742869068,0.962520852300212,-0.206551742866462,0.00785147299687122,0.0230038030566226
30,0.00821076352695627,0.0231794883961736,0.961717021560105,-0.209863844022587,0.961717021563141,-0.209863844020049,0.0081562504580785,0.0232914705514973
30.5,0.00850181566577168,0.0234605841028173,0.96090293832542,-0.213173357435536,0.960902938328512,-0.213173357433071,0.00845445567113756,0.0235684038500961
31,0.00878737839025112,0.0237333062596456,0.96007853452848,-0.216480229296983,0.960078534531622,-0.21648022929459,0.00874584348327623,0.02383637011245
31.5,0.00906741915830062,0.023998983127473,0.959243747650223,-0.219784404455277,0.959243747653408,-0.21978440445296,0.00903044389486041,0.0240969573857359
32,0.00934207655184754,0.0242587934236689,0.958398520391533,-0.22308582667385,0.958398520394754,-0.223085826671611,0.00930849174759052,0.0243515562390162
32.5,0.00961161384951259,0.0245137620391818,0.957542800365708,-0.226384438856678,0.957542800368958,-0.226384438854518,0.00958036562023601,0.0246013576933251
33,0.00987637975510808,0.0247647642969986,0.956676539808419,-0.229680183246862,0.956676539811693,-0.229680183244781,0.00984653731787571,0.0248473621680436
33.5,0.010136776453359,0.0250125357369888,0.955799695304456,-0.232973001601371,0.955799695307746,-0.232973001599371,0.01010753185535,0.0250903951188981
34,0.0103932345213443,0.0252576850552813,0.95491222753046,-0.236262835344672,0.954912227533761,-0.236262835342751,0.0103638969675005,0.0253311260876543
34.5,0.0106461938798808,0.0255007084450922,0.954014101012899,-0.239549625703631,0.954014101016206,-0.239549625701791,0.0106161807684456,0.0255700888419674
35,0.0108960898352525,0.0257420041200953,0.953105283900478,-0.242833313825826,0.953105283903784,-0.242833313824066,0.0108649160768808,0.0258077010762887
35.5,0.0111433432628592,0.0259818862295325,0.952185747750196,-0.246113840883157,0.952185747753496,-0.246113840881476,0.011110610000562,0.0260442827527092
36,0.0113883540626039,0.0262205976978824,0.951255467326321,-0.249391148162414,0.95125546732961,-0.249391148160814,0.0113537375416825,0.0262800725995052
36.5,0.0116314971307325,0.0264583217542806,0.950314420411491,-0.252665177144308,0.950314420414763,-0.252665177142787,0.0115947381872891,0.0265152425843083
37,0.0118731202182081,0.0266951920754903,0.949362587629271,-0.255935869572243,0.949362587632523,-0.2559358695708,0.0118340146503066,0.0267499103705522
37.5,0.0121135431662042,0.0269313015683612,0.948399952277442,-0.259203167512035,0.948399952280667,-0.259203167510669,0.0120719331089,0.0269841498794208
38,0.0123530581170093,0.027166709878728,0.947426500171376,-0.262467013403573,0.94742650017457,-0.262467013402284,0.0123088244470881,0.027218000139021
38.5,0.0125919303904021,0.027401449745847,0.946442219496884,-0.265727350105367,0.946442219500043,-0.265727350104151,0.0125449861263982,0.0274514726261803
39,0.0128303997910509,0.0276355323343238,0.945447100671924,-0.268984120932756,0.945447100675044,-0.268984120931614,0.0127806844189657,0.0276845573076479
39.5,0.0130686821730829,0.0278689516759385,0.944441136216616,-0.272237269690552,0.944441136219693,-0.272237269689483,0.0130161568102923,0.0279172275757951
40,0.0133069711354782,0.0281016883469551,0.943424320631036,-0.2754867407007,0.943424320634066,-0.275486740699701,0.0132516144389008,0.0281494442555734
40.5,0.0135454397585889,0.0283337124955989,0.942396650280292,-0.278732478825549,0.94239665028327,-0.278732478824619,0.0134872444840251,0.0283811588383589
41,0.013784242319882,0.0285649863217969,0.941358123286406,-0.281974429487243,0.941358123289329,-0.281974429486381,0.0137232124446205,0.028612316077042
41.5,0.0140235159477786,0.0287954660983909,0.940308739426574,-0.285212538683657,0.940308739429439,-0.285212538682861,0.013959664276062,0.0288428560565759
42,0.0142633821877628,0.0290251038106515,0.939248500037385,-0.288446753001278,0.939248500040189,-0.288446753000545,0.0141967283672052,0.0290727158360187
42.5,0.014503948465975,0.0292538484795282,0.938177407924613,-0.291677019625401,0.938177407927352,-0.291677019624729,0.014434517351699,0.0293018307420501
43,0.0147453094434289,0.0294816472239545,0.937095467278224,-0.294903286347922,0.937095467280895,-0.294903286347311,0.0146731297549739,0.0295301353801376
43.5,0.0149875482594132,0.0297084461085801,0.936002683592268,-0.298125501573029,0.936002683594869,-0.298125501572476,0.0149126514831618,0.0297575644178234
44,0.0152307376663703,0.0299341908156512,0.934899063589328,-0.301343614321017,0.934899063591855,-0.30134361432052,0.0151531571631349,0.0299840531846809
44.5,0.0154749410609109,0.030158827173205,0.933784615149241,-0.304557574230464,0.933784615151693,-0.304557574230022,0.0153947113444389,0.0302095381253535
45,0.015720213417098,0.0303823015662017,0.932659347241823,-0.30776733155894,0.932659347244197,-0.307767331558548,0.0156373695745585,0.0304339571352483
45.5,0.0159666021288781,0.0306045612525596,0.93152326986333,-0.310972837182434,0.931523269865622,-0.310972837182091,0.0158811793590074,0.0306572498028732
46,0.0162141477688788,0.0308255546021852,0.930376393976421,-0.314174042593659,0.93037639397863,-0.314174042593363,0.0161261810173664,0.0308793575782627
46.5,0.0164628847707649,0.0310452312738574,0.92921873145341,-0.317370899899348,0.929218731455535,-0.317370899899097,0.0163724084458098,0.0311002238831444
47,0.0167128420421225,0.0312635423421277,0.928050295022597,-0.320563361816675,0.928050295024635,-0.320563361816467,0.0166198897959176,0.0313197941755012
47.5,0.0169640435144895,0.0314804403842097,0.926871098217471,-0.323751381668911,0.92687109821942,-0.323751381668743,0.0168686480787678,0.0315380159786725
48,0.0172165086367221,0.0316958795349886,0.925681155328624,-0.326934913380398,0.925681155330484,-0.326934913380268,0.0171187017024936,0.0317548388831428
48.5,0.0174702528174078,0.0319098155167832,0.924480481358212,-0.330113911470933,0.92448048135998,-0.330113911470838,0.0173700649507015,0.0319702145275473
49,0.0177252878215679,0.0321222056492567,0.923269091976777,-0.333288331049635,0.923269091978452,-0.333288331049573,0.0176227484083826,0.0321840965640949
49.5,0.0179816221264102,0.0323330088438663,0.922047003482326,-0.336458127808361,0.922047003483907,-0.336458127808331,0.0178767593412523,0.0323964406125405
50,0.0182392612404483,0.0325421855863939,0.920814232761504,-0.339623258014727,0.92081423276299,-0.339623258014724,0.0181321020338078,0.0326072042060075
50.5,0.0184982079898738,0.0327496979104458,0.91957079725274,-0.342783678504784,0.919570797254129,-0.342783678504808,0.0183887780908006,0.0328163467312375
51,0.0187584627756721,0.0329555093642171,0.918316714911257,-0.345939346675412,0.918316714912549,-0.345939346675459,0.0186467867062915,0.033023829365308
51.5,0.0190200238046208,0.0331595849724098,0.917052004175833,-0.349090220476437,0.917052004177027,-0.349090220476506,0.0189061249039787,0.0332296150104148
52,0.0192828872969553,0.0333618911947562,0.915776683937203,-0.35223625840256,0.915776683938297,-0.352236258402647,0.019166787752064,0.0334336682279195
52.5,0.0195470476732145,0.0335623958823805,0.914490773508021,-0.355377419485064,0.914490773509017,-0.355377419485168,0.019428768555543,0.0336359551726473
53,0.0198124977224851,0.033761068232895,0.913194292594285,-0.358513663283394,0.91319429259518,-0.358513663283513,0.0196920590284666,0.0338364435281013
53.5,0.0200792287540408,0.033957878744999,0.911887261268138,-0.361644949876588,0.911887261268934,-0.361644949876719,0.0199566494484271,0.0340351024431564
54,0.0203472307341351,0.034152799173147,0.910569699941984,-0.364771239854595,0.91056969994268,-0.364771239854736,0.0202225287952568,0.0342319024705955
54.5,0.020616492409525,0.0343458024827239,0.909241629343827,-0.367892494309512,0.909241629344423,-0.367892494309661,0.0204896848756956,0.0344268155077574
55,0.0208870014191342,0.03453686280608,0.907903070493781,-0.371008674826738,0.907903070494277,-0.371008674826892,0.0207581044355783,0.0346198147394854
55.5,0.0211587443950931,0.0347259553996628,0.906554044681681,-0.374119743476071,0.906554044682077,-0.374119743476228,0.0210277732609133,0.0348108745834703
56,0.0214317070542687,0.0349130566024292,0.905194573445739,-0.377225662802762,0.905194573446036,-0.37722566280292,0.0212986762690665,0.0349999706380384
56.5,0.0217058742812765,0.0350981437956732,0.903824678552193,-0.380326395818534,0.903824678552389,-0.38032639581869,0.0215707975911167,0.0351870796323943
57,0.021981230203846,0.0352811953643437,0.902444381975884,-0.38342190599257,0.902444381975982,-0.383421905992723,0.0218441206463432,0.0353721793793058
57.5,0.0222577582613372,0.0354621906598915,0.901053705881738,-0.386512157242504,0.901053705881737,-0.386512157242652,0.0221186282096691,0.0355552487301507
58,0.022535441267088,0.0356411099646847,0.89965267260708,-0.389597113925389,0.899652672606982,-0.38959711392553,0.022394302472823,0.0357362675322956
58.5,0.0228142614652311,0.0358179344579743,0.898241304644767,-0.392676740828671,0.898241304644572,-0.392676740828804,0.0226711250998676,0.0359152165886996
59,0.0230942005825306,0.0359926461833862,0.896819624627068,-0.395751003161179,0.896819624626777,-0.3957510031613,0.0229490772776837,0.0360920776196669
59.5,0.0233752398757326,0.0361652280179292,0.895387655310288,-0.398819866544111,0.895387655309902,-0.398819866544218,0.023228139761937,0.0362668332266531
60,0.0236573601748734,0.0363356636424581,0.893945419560077,-0.401883297002054,0.893945419559597,-0.401883297002147,0.0235082929189789,0.0364394668580219
60.5,0.0239405419229448,0.0365039375135466,0.892492940337404,-0.40494126095402,0.892492940336831,-0.404941260954095,0.0237895167641059,0.0366099627766665
61,0.0242247652122667,0.0366700348367327,0.891030240685159,-0.407993725204495,0.891030240684496,-0.407993725204552,0.0240717909965346,0.0367783060293883
61.5,0.024510009817886,0.0368339415410543,0.889557343715365,-0.411040656934544,0.889557343714611,-0.411040656934581,0.0243550950314222,0.0369444824179358
62,0.0247962552282838,0.0369956442548465,0.888074272596954,-0.414082023692919,0.888074272596112,-0.414082023692934,0.024639408029228,0.0371084784716254
62.5,0.0250834806736506,0.037155130282718,0.886581050544111,-0.41711779338722,0.886581050543181,-0.417117793387212,0.0249247089226689,0.0372702814214307
63,0.0253716651519488,0.0373123875836625,0.885077700805127,-0.420147934275088,0.885077700804112,-0.420147934275055,0.0252109764415069,0.0374298791754754
63.5,0.0256607874529801,0.0374674047502471,0.883564246651778,-0.423172414955428,0.88356424665068,-0.423172414955369,0.0254981891353737,0.0375872602958344
