"Freq [GHz]","re(St(P1,P1)) []","im(St(P1,P1)) []","re(St(P1,P2)) []","im(St(P1,P2)) []","re(St(P2,P1)) []","im(St(P2,P1)) []","re(St(P2,P2)) []","im(St(P2,P2)) []"
0,0.00297166298952334,0,0.997043079099967,0,0.997043079099967,0,0.00297165794691523,0
0.5,0.00343551654523111,-0.000974283832661627,0.996527467432223,-0.00494349156977236,0.996527467144148,-0.00494349203639288,0.00343526677733763,-0.000973544536492454
1,0.00388046309574008,-0.00255534779429567,0.995961348810091,-0.00927627836620104,0.995961348823293,-0.00927627876896153,0.00387983793830671,-0.00255354715854139
1.5,0.00408084601692238,-0.00433800644607629,0.995558586558278,-0.013685852306466,0.995558586493562,-0.0136858527510846,0.00407973801916484,-0.00433508079096256
2,0.00414347596372977,-0.00609328671993836,0.995135528069181,-0.0179382395644652,0.995135527979816,-0.0179382399746437,0.0041420104661789,-0.0060890705011083
2.5,0.00414217396571637,-0.00781620543877892,0.994730911342591,-0.0220739019471523,0.994730911274688,-0.022073902288156,0.00414042190847397,-0.00781067067934771
3,0.00410470598168899,-0.00951540968472742,0.994353197442305,-0.0261324308741919,0.994353197420136,-0.026132431137146,0.00410269157720577,-0.00950855809706042
3.5,0.00404261853406496,-0.0111975757916163,0.993996016084868,-0.0301428569655648,0.993996016113734,-0.0301428571539688,0.00404034153645405,-0.0111894127030645
4,0.00396129618101959,-0.0128669122146121,0.993648502109147,-0.0341239941342195,0.99364850218294,-0.0341239942566638,0.00395874387021422,-0.0128574408103113
4.5,0.00386351673629637,-0.0145259884757749,0.993300090350057,-0.0380873653799654,0.993300090457605,-0.0380873654468772,0.003860669846107,-0.0145152088802405
5,0.0037508457868709,-0.0161763643548234,0.992942115775834,-0.042039837247092,0.992942115904868,-0.0420398372692361,0.00374768153411065,-0.0161642738309844
5.5,0.00362423995542116,-0.0178189750818252,0.992568003163126,-0.0459854193261631,0.992568003302372,-0.04598541931394,0.00362073367467008,-0.0178055684227942
6,0.00348433058483089,-0.01945436075777,0.99217296490044,-0.0499263813335276,0.992172965040463,-0.0499263812965491,0.00348045666300845,-0.0194396306489644
6.5,0.00333156679203173,-0.0210828049295468,0.991753598590688,-0.0538639255679065,0.991753598724046,-0.0538639255147899,0.00332729923354158,-0.0210667422414978
7,0.00316629194967843,-0.02270442045638,0.991307524987526,-0.0577985914513111,0.991307525108628,-0.0577985913896217,0.00316160473706928,-0.0226870144740658
7.5,0.00298878663538593,-0.0243192042289042,0.990833101952698,-0.0617305022238224,0.990833102057509,-0.0617305021600707,0.00298365397161149,-0.0243004428318248
8,0.00279929376945187,-0.0259270730107257,0.990329211628683,-0.0656595182625388,0.990329211714406,-0.0656595182022297,0.00279369024869425,-0.0259069428167642
8.5,0.00259803384789192,-0.0275278875309297,0.989795106935949,-0.0695853342117214,0.989795107000744,-0.0695853341594663,0.00259193458154261,-0.0275063740141821
9,0.00238521444329365,-0.0291214690730417,0.989230302688712,-0.0735075415384419,0.989230302731458,-0.0735075414980528,0.00237859515667527,-0.0290985566629534
9.5,0.00216103626976194,-0.0307076111540781,0.988634499023362,-0.0774256693229294,0.988634499043459,-0.0774256692975239,0.00215387337901962,-0.0306832833211619
10,0.00192569712324087,-0.0322860879175142,0.988007527756622,-0.0813392110624775,0.988007527753837,-0.0813392110545781,0.00191796779827458,-0.0322603272494923
10.5,0.00169449923326725,-0.0338799182317295,0.987419066760939,-0.0852216485508244,0.987419066758606,-0.0852216485431221,0.00168677762274916,-0.0338579230472469
11,0.00145357582483419,-0.0354717153443094,0.986817680809965,-0.0890899912394065,0.986817680808049,-0.0890899912319227,0.0014450801161201,-0.0354536288980292
11.5,0.00120303309698544,-0.0370615869111841,0.986203840487607,-0.0929450991699081,0.98620384048607,-0.0929450991626517,0.00119295219450422,-0.0370474402602312
12,0.000942954435558585,-0.038649656505477,0.985577902907189,-0.0967877960779298,0.985577902905996,-0.0967877960709114,0.000930465312083406,-0.0386393627493753
12.5,0.000673397717350754,-0.0402360603559284,0.98494012612064,-0.100618861404269,0.984940126119759,-0.100618861397505,0.00065768402966393,-0.0402294117688919
13,0.000394393131871396,-0.0418209435635211,0.984290682825369,-0.104439024871492,0.984290682824769,-0.10443902486498,0.000374664570004568,-0.0418176119292424
13.5,0.000105941636740825,-0.0434044558914612,0.983629673128669,-0.108248963197195,0.983629673128319,-0.108248963190942,8.14533935162842E-005,-0.0434039962414374
14,-0.000191985857912691,-0.0449867472528487,0.982957136226707,-0.112049298545601,0.982957136226581,-0.112049298539604,-0.000221914167399029,-0.0449886050766004
14.5,-0.000499448509332034,-0.0465679630438274,0.982273060931373,-0.115840598359056,0.982273060931446,-0.11584059835331,-0.000535415173340326,-0.0465714848903813
15,-0.000816534734535579,-0.0481482394861326,0.981577395035565,-0.119623376255783,0.981577395035813,-0.119623376250285,-0.000859040197872751,-0.048152686719142
15.5,-0.00114336058242631,-0.0497276991492415,0.980870053549004,-0.123398093725494,0.980870053549406,-0.123398093720244,-0.00119279425740026,-0.0497322644638869
16,-0.0014800673329351,-0.0513064468186233,0.980150925864823,-0.127165162398315,0.98015092586536,-0.127165162393305,-0.0015366975073563,-0.0513102729878518
16.5,-0.00182681840863247,-0.0528845658619082,0.979419881934964,-0.130924946702398,0.979419881935617,-0.130924946697623,-0.00189078566474432,-0.0528867660633168
17,-0.00218379571737704,-0.0544621152207183,0.978676777542099,-0.134677766761595,0.978676777542851,-0.134677766757045,-0.00225511012316948,-0.0544617942123624
17.5,-0.00255119557013417,-0.056039127124107,0.977921458759444,-0.138423901415689,0.977921458760282,-0.138423901411361,-0.00262973773485981,-0.0560354024946479
18,-0.00292922433422527,-0.0576156055825372,0.977153765689181,-0.142163591272304,0.97715376569009,-0.142163591268186,-0.00301475024465925,-0.0576076283013016
18.5,-0.00331809398812127,-0.0591915256820679,0.976373535566594,-0.145897041721813,0.976373535567563,-0.145897041717901,-0.00341024337303225,-0.0591784992182083
19,-0.0037180177394332,-0.0607668336603124,0.975580605311499,-0.149624425865021,0.975580605312517,-0.149624425861305,-0.00381632555832712,-0.0607480310230386
19.5,-0.00412920585412002,-0.0623414477108319,0.974774813601919,-0.153345887317981,0.974774813602977,-0.153345887314454,-0.00423311638195639,-0.0623162258784218
20,-0.00455186182368156,-0.0639152594340366,0.973956002537887,-0.157061542870426,0.973956002538976,-0.157061542867078,-0.00466074471315331,-0.063883070778612
20.5,-0.00498617897074649,-0.0654881358311536,0.973124018955953,-0.16077148498337,0.973124018957063,-0.1607714849802,-0.00509934662164058,-0.0654485362988986
21,-0.00543233756405359,-0.0670599217245114,0.972278715448073,-0.164475784118713,0.972278715449198,-0.164475784115704,-0.00554906311609865,-0.0670125756862241
21.5,-0.00589050248411765,-0.0686304424820197,0.971419951131877,-0.16817449089906,0.971419951133011,-0.168174490896211,-0.00601003777324505,-0.0685751243168999
22,-0.00636082145270123,-0.0701995069257828,0.970547592213187,-0.171867638100089,0.970547592214325,-0.171867638097391,-0.00648241432608915,-0.0701360995331806
22.5,-0.00684342381421055,-0.0717669103126042,0.969661512376153,-0.175555242480482,0.969661512377289,-0.175555242477932,-0.00696633428030458,-0.0716954008561723
23,-0.00733841983659189,-0.0733324372870339,0.968761593031314,-0.179237306456704,0.968761593032444,-0.179237306454291,-0.00746193462480182,-0.073252910558633
23.5,-0.00784590048354819,-0.0748958647230156,0.967847723447502,-0.182913819630926,0.967847723448622,-0.182913819628645,-0.0079693456966603,-0.0748084945685097
24,-0.00836593759916943,-0.0764569643875479,0.966919800789612,-0.186584760181346,0.966919800790717,-0.186584760179192,-0.00848868925206903,-0.0763620036633998
24.5,-0.00889858444012553,-0.0780155053771123,0.965977730080812,-0.190250096124449,0.965977730081899,-0.190250096122412,-0.0090200767846573,-0.0779132749079645
25,-0.00944387648861206,-0.0795712562941207,0.965021424104871,-0.193909786458713,0.96502142410594,-0.193909786456794,-0.00956360812093537,-0.0794621332806855
25.5,-0.0100018324808389,-0.0811239871456131,0.96405080326171,-0.197563782199267,0.964050803262756,-0.197563782197455,-0.0101193703106865,-0.0810083934339296
26,-0.0105724555899697,-0.0826734709591697,0.963065795387073,-0.201212027312452,0.963065795388095,-0.201212027310747,-0.0106874368183729,-0.0825518615312149
26.5,-0.0111557347083485,-0.0842194851215132,0.962066335545414,-0.204854459559026,0.96206633554641,-0.204854459557418,-0.0112678670108481,-0.0840923371082152
27,-0.0117516457809552,-0.0857618124533408,0.961052365803439,-0.208491011254108,0.961052365804407,-0.208491011252595,-0.0118607059271791,-0.0856296149086293
27.5,-0.0123601531495302,-0.0873002420397251,0.960023834990441,-0.212121609951462,0.960023834991379,-0.21212160995004,-0.0124659843086444,-0.0871634866520425
28,-0.012981210874376,-0.0888345698392667,0.958980698450421,-0.215746179059196,0.958980698451328,-0.215746179057857,-0.0130837188610767,-0.0886937426981418
28.5,-0.0136147640080293,-0.090364599097283,0.957922917790029,-0.219364638393387,0.957922917790905,-0.219364638392129,-0.0137139127177708,-0.0902201735792696
29,-0.0142607498015427,-0.0918901405889487,0.956850460625561,-0.222976904675604,0.956850460626404,-0.222976904674426,-0.0143565560689958,-0.0917425713809035
29.5,-0.0149190988299523,-0.0934110127179424,0.955763300331579,-0.226582891979816,0.955763300332389,-0.226582891978709,-0.0150116269236734,-0.0932607309571329
30,-0.0155897360284468,-0.0949270414948606,0.954661415793172,-0.230182512133647,0.954661415793948,-0.23018251213261,-0.0156790919696563,-0.0947744509748558
30.5,-0.0162725816349036,-0.0964380604179498,0.953544791163411,-0.233775675078543,0.953544791164152,-0.233775675077571,-0.0163589075010372,-0.0962835347863198
31,-0.0169675520377953,-0.0979439102765216,0.95241341562715,-0.23736228919295,0.952413415627855,-0.237362289192042,-0.0170510203837796,-0.0977877911346354
31.5,-0.0176745605310411,-0.0994444388951359,0.95126728317206,-0.240942261582221,0.951267283172731,-0.240942261581373,-0.0177553690342882,-0.0992870347007404
32,-0.0183935179793306,-0.100939500834325,0.950106392367478,-0.244515498338623,0.950106392368114,-0.244515498337831,-0.0184718843892603,-0.100781086503331
32.5,-0.0191243333988643,-0.102428957061323,0.948930746151465,-0.248081904774486,0.948930746152066,-0.248081904773749,-0.0192004908488846,-0.102269774165247
33,-0.0198669144592943,-0.103912674602142,0.947740351626313,-0.251641385631201,0.947740351626877,-0.251641385630514,-0.0199411071791198,-0.103752932061036
33.5,-0.0206211679132841,-0.105390526184382,0.94653521986257,-0.255193845266565,0.946535219863099,-0.255193845265925,-0.0206936473622613,-0.105230401360974
34,-0.0213869999602463,-0.106862389878351,0.945315365711598,-0.258739187822665,0.945315365712091,-0.258739187822071,-0.0214580213881008,-0.106702029986645
34.5,-0.0221643165508759,-0.108328148742567,0.944080807626518,-0.262277317376294,0.944080807626976,-0.262277317375743,-0.0222341359807735,-0.108167672492788
35,-0.022953023638891,-0.109787690478269,0.942831567491433,-0.265808138073684,0.942831567491857,-0.265808138073173,-0.0230218952587623,-0.109627189889128
35.5,-0.0237530273861178,-0.111240907096518,0.941567670458667,-0.269331554251168,0.941567670459054,-0.269331554250696,-0.0238212013274955,-0.111080449414911
36,-0.0245642343266528,-0.112687694600385,0.940289144793782,-0.272847470543213,0.940289144794136,-0.272847470542776,-0.0246319548055914,-0.112527324277584
36.5,-0.0253865514954215,-0.114127952683963,0.938996021728121,-0.276355791979087,0.93899602172844,-0.276355791978685,-0.0254540552870365,-0.11396769336573
37,-0.0262198865259882,-0.115561584449302,0.937688335318541,-0.279856424069367,0.937688335318825,-0.279856424068995,-0.0262874017425164,-0.115401440945078
37.5,-0.0270641477220184,-0.116988496141725,0.936366122314057,-0.283349272883273,0.936366122314307,-0.283349272882932,-0.0271318928637934,-0.11682845634515
38,-0.0279192441063314,-0.118408596903697,0.935029422029091,-0.286834245117802,0.935029422029308,-0.28683424511749,-0.0279874273554171,-0.118248633642815
38.5,-0.0287850854510543,-0.119821798546978,0.933678276222989,-0.290311248159476,0.933678276223173,-0.290311248159191,-0.0288539041783038,-0.119661871348001
39,-0.0296615822919876,-0.121228015342598,0.932312728985519,-0.293780190139445,0.932312728985672,-0.293780190139183,-0.02973122274978,-0.121068072095726
39.5,-0.0305486459298817,-0.122627163827969,0.930932826628053,-0.297240979982634,0.930932826628173,-0.297240979982394,-0.0306192831046181,-0.122467142347728
40,-0.0314461884210228,-0.124019162630387,0.929538617580108,-0.300693527451521,0.929538617580196,-0.300693527451304,-0.0315179860214707,-0.123858992106218
40.5,-0.0323541225591764,-0.125403932305998,0.928130152290987,-0.304137743185106,0.928130152291045,-0.304137743184907,-0.0324272331188731,-0.125243534641528
41,-0.0332723618506479,-0.126781395193319,0.926707483136246,-0.307573538733503,0.926707483136273,-0.307573538733323,-0.0333469269247092,-0.12662068623491
41.5,-0.0342008204840153,-0.128151475280391,0.92527066432869,-0.311000826588668,0.925270664328687,-0.311000826588506,-0.0342769709227812,-0.127990365937249
42,-0.035139413295786,-0.129514098084555,0.923819751833692,-0.314419520211564,0.923819751833659,-0.314419520211417,-0.0352172695797734,-0.12935249534398
42.5,-0.0360880557331164,-0.130869190543976,0.922354803288543,-0.317829534056184,0.92235480328848,-0.31782953405605,-0.0361677283556237,-0.130706998386317
43,-0.0370466638144863,-0.132216680919976,0.920875877925645,-0.321230783590699,0.920875877925554,-0.321230783590578,-0.0371282536999942,-0.132053801138492
43.5,-0.0380151540891198,-0.133556498709309,0.919383036499307,-0.324623185316027,0.91938303649919,-0.324623185315918,-0.03809875303723,-0.133392831640611
44,-0.0389934435957865,-0.134888574565572,0.91787634121594,-0.328006656782085,0.917876341215795,-0.328006656781985,-0.0390791347419542,-0.134724019736544
44.5,-0.0399814498215066,-0.136212840228936,0.916355855667454,-0.331381116601918,0.916355855667282,-0.331381116601827,-0.0400693081071339,-0.136047296926161
45,-0.0409790906606003,-0.137529228463512,0.914821644767679,-0.334746484463948,0.91482164476748,-0.334746484463865,-0.0410691833062629,-0.13736259623115
45.5,-0.0419862843744157,-0.138837673001633,0.913273774691631,-0.338102681142494,0.913273774691408,-0.338102681142419,-0.0420786713510551,-0.138669852073617
46,-0.0430029495520172,-0.140138108494426,0.911712312817461,-0.341449628506735,0.911712312817213,-0.341449628506665,-0.0430976840458528,-0.139969000166649
46.5,-0.0440290050720493,-0.141430470468114,0.910137327670924,-0.344787249528273,0.910137327670652,-0.344787249528208,-0.0441261339397936,-0.141259977416001
47,-0.0450643700659332,-0.142714695285469,0.908548888872236,-0.348115468287416,0.908548888871941,-0.348115468287356,-0.0451639342775882,-0.142542721832083
47.5,-0.0461089638825263,-0.143990720111958,0.906947067085174,-0.351434209978296,0.906947067084855,-0.351434209978238,-0.0462109989496556,-0.143817172451462
48,-0.0471627060543185,-0.145258482886095,0.905331933968288,-0.354743400912941,0.905331933967947,-0.354743400912886,-0.047267242442211,-0.145083269267102
48.5,-0.0482255162652278,-0.146517922293611,0.903703562128119,-0.358042968524397,0.903703562127756,-0.358042968524342,-0.0483325797878174,-0.146340953166606
49,-0.0492973143200247,-0.147768977745042,0.902062025074287,-0.36133284136896,0.902062025073903,-0.361332841368907,-0.0494069265167982,-0.147590165877773
49.5,-0.0503780201153955,-0.149011589356407,0.900407397176366,-0.364612949127643,0.900407397175961,-0.36461294912759,-0.0504901986098409,-0.148830849920803
50,-0.0514675536126308,-0.150245697932645,0.898739753622432,-0.367883222606888,0.898739753622008,-0.367883222606834,-0.0515823124520414,-0.150062948566554
50.5,-0.0525658348119364,-0.151471244953545,0.897059170379197,-0.371143593738648,0.897059170378754,-0.371143593738591,-0.0526831847885949,-0.151286405800269
51,-0.0536727837283205,-0.152688172561892,0.895365724153643,-0.374393995579837,0.895365724153182,-0.374393995579778,-0.0537927326822696,-0.152501166290253
51.5,-0.0547883203690305,-0.15389642355361,0.893659492356061,-0.377634362311246,0.893659492355583,-0.377634362311185,-0.0549108734727667,-0.153707175360997
52,-0.0559123647124882,-0.155095941369673,0.891940553064449,-0.380864629235943,0.891940553063953,-0.380864629235878,-0.0560375247380361,-0.154904378970329
52.5,-0.0570448366886824,-0.156286670089625,0.890208984990156,-0.384084732777207,0.890208984989644,-0.384084732777138,-0.0571726042575886,-0.156092723690155
53,-0.0581856561609625,-0.157468554426481,0.888464867444745,-0.387294610476026,0.888464867444216,-0.387294610475951,-0.0583160299778023,-0.157272156690427
53.5,-0.0593347429091835,-0.158641539722928,0.886708280307973,-0.39049420098822,0.88670828030743,-0.39049420098814,-0.0594677199792392,-0.158442625725992
54,-0.0604920166141318,-0.159805571948598,0.884939303996883,-0.393683444081166,0.884939303996326,-0.39368344408108,-0.0606275924459133,-0.159604079125997
54.5,-0.0616573968432138,-0.160960597698374,0.883158019435881,-0.396862280630214,0.883158019435309,-0.396862280630122,-0.0617955656365186,-0.1607564657856
55,-0.0628308030373012,-0.162106564191538,0.881364508027815,-0.400030652614771,0.881364508027231,-0.400030652614673,-0.0629715578575158,-0.16189973515969
55.5,-0.0640121544987277,-0.16324341927172,0.879558851625965,-0.403188503114105,0.879558851625369,-0.403188503114,-0.0641554874380774,-0.163033837258413
56,-0.065201370380344,-0.164371111407501,0.877741132506918,-0.406335776302864,0.87774113250631,-0.406335776302752,-0.0653472727067845,-0.16415872264427
56.5,-0.0663983696756095,-0.16548958969364,0.875911433344274,-0.409472417446359,0.875911433343655,-0.409472417446239,-0.0665468319700366,-0.165274342430625
57,-0.0676030712096445,-0.166598803852801,0.874069837183158,-0.41259837289559,0.874069837182529,-0.412598372895462,-0.0677540834921001,-0.166380648281418
57.5,-0.0688153936312177,-0.167698704237752,0.872216427415483,-0.415713590082077,0.872216427414844,-0.41571359008194,-0.0689689454767231,-0.16747759241197
58,-0.0700352554056011,-0.168789241833948,0.870351287755949,-0.418818017512455,0.870351287755302,-0.418818017512308,-0.0701913360502453,-0.168565127590699
58.5,-0.0712625748082604,-0.169870368262458,0.868474502218724,-0.421911604762894,0.868474502218068,-0.42191160476274,-0.0714211732461457,-0.16964320714166
59,-0.0724972699193279,-0.170942035783182,0.866586155094802,-0.424994302473325,0.866586155094139,-0.424994302473161,-0.072658374990935,-0.170711784947762
59.5,-0.0737392586188341,-0.172004197298325,0.864686330929976,-0.428066062341498,0.864686330929306,-0.428066062341325,-0.0739028590913585,-0.171770815454618
60,-0.0749884585826277,-0.173056806356063,0.86277511450344,-0.431126837116875,0.862775114502764,-0.431126837116692,-0.0751545432228041,-0.172820253674863
60.5,-0.0762447872789764,-0.174099817154393,0.860852590806961,-0.434176580594356,0.860852590806279,-0.434176580594162,-0.0764133449188839,-0.173860055192929
61,-0.0775081619658018,-0.175133184545129,0.858918845024607,-0.437215247607882,0.858918845023919,-0.437215247607678,-0.0776791815621178,-0.174890176170171
61.5,-0.0787784996885034,-0.176156864037998,0.856973962513025,-0.440242794023871,0.856973962512333,-0.440242794023656,-0.0789519703756431,-0.175910573350288
62,-0.0800557172783583,-0.177170811804838,0.855018028782223,-0.443259176734538,0.855018028781527,-0.443259176734314,-0.0802316284159186,-0.176921204064988
62.5,-0.0813397313514507,-0.178174984683845,0.853051129476857,-0.446264353651082,0.853051129476159,-0.446264353650847,-0.0815180725663501,-0.177922026239834
