"Freq [GHz]","re(St(P1,P1)) []","im(St(P1,P1)) []","re(St(P1,P2)) []","im(St(P1,P2)) []","re(St(P2,P1)) []","im(St(P2,P1)) []","re(St(P2,P2)) []","im(St(P2,P2)) []"
0,0.00321743055030765,0,0.996794193662936,0,0.996794194317772,0,0.00321743194854207,0
0.5,0.00354024723775836,0.000742871435861048,0.996418170383876,-0.00441545755195705,0.996418170187361,-0.00441545773388441,0.00354025649160405,0.000742980392963943
1,0.00385322478280514,0.00107224185766341,0.995983803303805,-0.00840103335907827,0.995983803451924,-0.0084010334552076,0.00385329956184322,0.00107248905919732
1.5,0.0038848778192957,0.00121753571729855,0.995681525649683,-0.0124639665910884,0.995681525746845,-0.0124639667035851,0.00388553897056632,0.00121798788401506
2,0.00389841013803505,0.00144129855901909,0.99532274776722,-0.0164065799309974,0.995322747816237,-0.0164065800387689,0.00389939195566491,0.00144188088014729
2.5,0.00390726246470674,0.0016986990068375,0.994939671341515,-0.0202371241109596,0.994939671352797,-0.0202371242007047,0.00390851655114677,0.00169940056457918
3,0.0039147844435492,0.0019748292968238,0.994551843495642,-0.0239754798311509,0.994551843481423,-0.0239754798974801,0.00391631947447646,0.00197564784498994
3.5,0.00392211784522978,0.00226359931812681,0.994167840708227,-0.0276440423851696,0.994167840679164,-0.0276440424282676,0.0039239637814914,0.00226453377077718
4,0.00392972698643579,0.00256228492244226,0.993789080458601,-0.0312627161216152,0.993789080422637,-0.0312627161446333,0.00393192430022182,0.00256333396215247
4.5,0.00393781821087291,0.00286968617718486,0.993413231667676,-0.0348471765242255,0.993413231630145,-0.034847176531418,0.00394041410550416,0.00287084798458714
5,0.00394648236530371,0.00318538764744325,0.993036475277379,-0.0384089055279198,0.99303647524157,-0.0384089055236032,0.00394952943112203,0.00318665987219724
5.5,0.00395575067270104,0.00350942363668416,0.992654749030657,-0.041955914271,0.99265474899841,-0.0419559142590273,0.00395930655045551,0.00351080342032617
6,0.00396561878502744,0.00384211355359376,0.992264325503847,-0.0454935859444081,0.992264325476047,-0.0454935859280035,0.00396974631869806,0.00384359756039032
6.5,0.00397605756781561,0.00418397652844504,0.991862018091184,-0.0490254111476425,0.991862018068118,-0.0490254111293993,0.00398082524082,0.00418556097580236
7,0.00398701770207555,0.00453568622505607,0.991445204113537,-0.0525535581463252,0.991445204095127,-0.0525535581282934,0.00399250027257758,0.00453736691440376
7.5,0.0039984310579626,0.00489804764766344,0.991011770472798,-0.0560792892653508,0.99101177045876,-0.0560792892491042,0.00400471036242833,0.00489981999938838
8,0.0040102101413344,0.00527198691620168,0.99056003496985,-0.0596032548646495,0.990560034959797,-0.0596032548513961,0.00401737606207542,0.00527384601332681
8.5,0.00402224618760527,0.00565854933207799,0.990088667476777,-0.0631256968479379,0.990088667470274,-0.0631256968385889,0.00403039779554848,0.00566048997835189
9,0.00403440612554229,0.00605890325823744,0.989596620417056,-0.0666465878910909,0.989596620413656,-0.066646587886324,0.00404365302047138,0.00606092005751346
9.5,0.00404652844149367,0.0064743485241161,0.989083071040061,-0.0701657259894137,0.989083071039329,-0.0701657259897361,0.00405699232154288,0.00647643598976533
10,0.00405841785081529,0.00690632875174302,0.98854737498434,-0.073682798328635,0.988547374985859,-0.0736827983344126,0.00407023435271359,0.00690848145738432
10.5,0.00412121195496817,0.00724983355906872,0.988043425521507,-0.0771698195919095,0.988043425522861,-0.0771698195998756,0.00413300494861746,0.00725324740863886
11,0.00418719500156173,0.00759306920302105,0.987532551351469,-0.0806422887248948,0.987532551352432,-0.0806422887349818,0.00419906574025003,0.00759789356910634
11.5,0.00425638877425366,0.00793602055232512,0.987015304231878,-0.0841012415157447,0.987015304232246,-0.0841012415278533,0.00426845398461734,0.00794240620972797
12,0.00432881692425183,0.00827867167190366,0.986492106138033,-0.0875476783047171,0.986492106137625,-0.0875476783187343,0.00434120959514034,0.00828676964508457
12.5,0.00440450506922854,0.00862100566049495,0.985963264806588,-0.0909825542868115,0.985963264805244,-0.0909825543026095,0.00441737520196572,0.00863096593962442
13,0.00448348088937112,0.00896300446676257,0.985428988676039,-0.0944067726816771,0.985428988673622,-0.0944067726991182,0.0044969961941568,0.00897497458403151
13.5,0.00456577421844237,0.00930464868200431,0.984889400930281,-0.0978211803218887,0.984889400926676,-0.0978211803408309,0.00458012073914041,0.0093187721407233
14,0.00465141712731254,0.00964591730781716,0.984344552459005,-0.101226565234932,0.984344552454117,-0.101226565255232,0.00466679977419249,0.00966233185811571
14.5,0.00474044399701186,0.00998678749695969,0.983794433634598,-0.104623655831317,0.983794433628352,-0.104623655852821,0.00475708696418464,0.0100056232536057
15,0.00483289157782934,0.0103272342658443,0.983238984871346,-0.108013121354847,0.983238984863684,-0.108013121377406,0.00485103861921158,0.010348611666072
15.5,0.00492879903044887,0.0106672301772908,0.982678105981766,-0.111395573297091,0.982678105972647,-0.111395573320564,0.00494871356516054,0.0106912577794698
16,0.00502820794453294,0.0110067449923603,0.982111664379406,-0.114771567523397,0.982111664368803,-0.11477156754764,0.00505017295979022,0.0110335171201101
16.5,0.0051311623295278,0.0113457452905923,0.98153950220039,-0.118141606900157,0.981539502188291,-0.118141606925037,0.00515548004645146,0.0113753395314449
17,0.00523770857180788,0.0116841940583905,0.980961442429646,-0.121506144251742,0.980961442416049,-0.121506144277128,0.00526469983729354,0.0117166686315939
17.5,0.00534789535160194,0.0120220502459523,0.980377294124451,-0.124865585509496,0.980377294109366,-0.124865585535265,0.00537789871769505,0.0120574412604073
18,0.00546177351248403,0.0123592682940892,0.979786856829483,-0.128220292944577,0.979786856812928,-0.128220292970609,0.00549514396376896,0.012397586924763
18.5,0.00557939587556162,0.012695797633151,0.979189924275424,-0.131570588401467,0.979189924257424,-0.131570588427654,0.0056165031652195,0.0127370272526743
19,0.00570081698995227,0.0130315821576419,0.97858628744859,-0.134916756469681,0.978586287429179,-0.134916756495921,0.00574204354661692,0.0130756754690227
19.5,0.00582609281066257,0.0133665596815296,0.977975737112971,-0.138259047548259,0.977975737092187,-0.138259047574454,0.00587183118138601,0.0134134359078919
20,0.00595528029471365,0.0137006613810571,0.977358065859086,-0.141597680771427,0.977358065836974,-0.141597680797489,0.00600593009454223,0.0137502035788124
20.5,0.00608843690631417,0.0140338112337242,0.976733069746801,-0.144932846774811,0.976733069723407,-0.144932846800656,0.00614440125251997,0.0140858638063421
21,0.00622562002212204,0.0143659254644808,0.976100549602001,-0.148264710290117,0.976100549577377,-0.148264710315674,0.00628730144137424,0.0144202919644667
21.5,0.00636688622832732,0.0146969120125404,0.975460312020064,-0.151593412562885,0.975460311994262,-0.151593412588081,0.00643468203823369,0.0147533533290169
22,0.00651229050239166,0.0150266700348682,0.974812170122487,-0.154919073592905,0.974812170095563,-0.15491907361768,0.00658658768510761,0.0150849030722791
22.5,0.00666188527406222,0.0153550894651451,0.97415594410706,-0.158241794200581,0.97415594407907,-0.158241794224877,0.00674305487903473,0.0154147864247061
23,0.00681571936264527,0.0156820506497506,0.973491461626458,-0.161561657925156,0.97349146159746,-0.161561657948924,0.00690411049791481,0.0157428390279484
23.5,0.00697383679071573,0.016007424084874,0.972818558025278,-0.164878732762584,0.972818557995331,-0.164878732785776,0.0070697702871523,0.0160688875020396
24,0.00713627547845475,0.0163310702812209,0.97213707646115,-0.168193072751888,0.972137076430313,-0.168193072774462,0.0072400373381398,0.0163927502466739
24.5,0.00730306582764348,0.0166528397845145,0.971446867931778,-0.17150471941961,0.971446867900109,-0.171504719441531,0.00741490059544583,0.0167142384922871
25,0.00747422921008073,0.0169725733810302,0.97074779122638,-0.174813703092175,0.970747791193937,-0.174813703113414,0.00759433343490995,0.0170331576108227
25.5,0.00764977638165001,0.0172901025173764,0.97003971281713,-0.178120044086003,0.970039712783972,-0.17812004410653,0.00777829235935973,0.0173493086887566
26,0.0078297058503928,0.0176052499624162,0.969322506703686,-0.181423753784983,0.969322506669869,-0.181423753804776,0.00796671586189049,0.0176624903561398
26.5,0.0080140022344187,0.0179178307362435,0.968596054221712,-0.184724835614617,0.968596054187292,-0.184724835633655,0.00815952350813229,0.0179725008554041
27,0.00820263465300111,0.0182276533263801,0.967860243824503,-0.188023285921619,0.967860243789536,-0.188023285939886,0.00835661528831233,0.0182791403227491
27.5,0.00839555520136073,0.0185345212045225,0.967114970845211,-0.191319094767308,0.96711497080975,-0.191319094784792,0.00855787128678609,0.0185822132435876
28,0.00859269756582093,0.0188382346482396,0.96636013724585,-0.194612246642548,0.966360137209947,-0.194612246659236,0.00876315171092573,0.0188815310324117
28.5,0.00879397584067676,0.0191385928610051,0.965595651358134,-0.197902721111467,0.965595651321843,-0.197902721127354,0.00897229731261867,0.0191769146771117
29,0.00899928361062396,0.0194353963711564,0.964821427620241,-0.201190493390621,0.964821427583611,-0.201190493405702,0.00918513022441247,0.0194681973792297
29.5,0.0092084933622531,0.019728449676137,0.964037386312792,-0.204475534869707,0.964037386275871,-0.204475534883978,0.00940145521875496,0.0197552271152937
30,0.0094214562844771,0.0200175640833393,0.963243453296673,-0.207757813579472,0.96324345325951,-0.207757813592935,0.00962106138343211,0.0200378690411509
30.5,0.00963800251030505,0.0203025606839997,0.962439559754769,-0.211037294611939,0.96243955971741,-0.211037294624594,0.00984372418996382,0.0203160076615396
31,0.00985794184104827,0.0205832733827016,0.961625641939196,-0.214313940497585,0.961625641901684,-0.214313940509436,0.0100692079152636,0.0205895486912118
31.5,0.0100810649788512,0.0208595518933907,0.960801640925246,-0.217587711543769,0.960801640887624,-0.21758771155482,0.0102972683613047,0.0208584205420081
32,0.0103071452749058,0.0211312646044304,0.95996750237295,-0.220858566138207,0.95996750233526,-0.220858566148467,0.0105276558039207,0.0211225753819042
32.5,0.0105359409795569,0.0213983012111958,0.959123176296874,-0.224126461021003,0.959123176259156,-0.224126461030479,0.0107601180910737,0.0213819897268626
33,0.0107671979579543,0.0216605750158039,0.95826861684458,-0.227391351528375,0.958268616806873,-0.227391351537076,0.010994403803775,0.021636664543387
33.5,0.0110006528122402,0.0219180248002941,0.957403782083989,-0.230653191810912,0.957403782046329,-0.23065319181885,0.0112302653898029,0.021886624858124
34,0.0112360363301561,0.0221706161920106,0.956528633799759,-0.233911935028941,0.956528633762182,-0.233911935036128,0.0114674621817138,0.0221319188894848
34.5,0.0114730771618705,0.0224183424575812,0.955643137298666,-0.237167533527301,0.955643137261207,-0.237167533533749,0.0117057632162307,0.0223726167339942
35,0.0117115056133064,0.0226612246840416,0.95474726122391,-0.240419938991594,0.954747261186602,-0.240419938997316,0.0119449497815445,0.0226088086558731
35.5,0.0119510574363458,0.0228993113307157,0.953840977378158,-0.243669102587812,0.953840977341031,-0.243669102592825,0.0121848176316791,0.02284060304129
36,0.0121914774948083,0.0231326771621687,0.952924260555138,-0.24691497508701,0.952924260518224,-0.246914975091328,0.0124251788219945,0.0230681240882158
36.5,0.0124325231902016,0.0233614215987743,0.951997088379517,-0.250157506976516,0.951997088342843,-0.250157506980156,0.0126658631361129,0.0232915093084778
37,0.0126739675425874,0.0235856665455918,0.95105944115478,-0.253396648559087,0.951059441118375,-0.253396648562065,0.012906719091045,0.0235109069203596
37.5,0.012915601838712,0.0238055537807438,0.950111301718821,-0.256632350041187,0.950111301682709,-0.256632350043521,0.0131476145231199,0.0237264732081832
38,0.0131572377804453,0.0240212419998991,0.949152655306911,-0.25986456161151,0.94915265527112,-0.259864561613217,0.0133884367716589,0.0239383699201641
38.5,0.0133987090901245,0.0242329036232045,0.94818348942176,-0.263093233510735,0.948183489386312,-0.263093233511833,0.0136290924895077,0.0241467617680204
39,0.0136398725537998,0.0244407214745879,0.947203793710306,-0.266318316093391,0.947203793675223,-0.266318316093901,0.0138695071192164,0.0243518140821126
39.5,0.0138806085071529,0.0246448854410977,0.946213559846953,-0.269539759882627,0.946213559812258,-0.269539759882566,0.0141096240805379,0.0245536906650583
40,0.0141208207903744,0.0248455892123454,0.94521278142292,-0.272757515618615,0.945212781388633,-0.272757515618003,0.0143494037190581,0.0247525518753686
40.5,0.0143604362166041,0.0250430271883313,0.944201453841395,-0.275971534301213,0.944201453807535,-0.275971534300068,0.0145888220673527,0.0249485529615956
41,0.0145994036127351,0.0252373916289492,0.943179574218211,-0.279181767227472,0.943179574184795,-0.279181767225815,0.0148278694693487,0.0251418426570293
41.5,0.0148376925011644,0.0254288701016721,0.94214714128773,-0.282388166024515,0.942147141254776,-0.282388166022367,0.0150665491159738,0.025332562035679
42,0.01507529149644,0.0256176432665747,0.941104155313686,-0.285590682678235,0.94110415528121,-0.285590682675613,0.0153048755361465,0.0255208436224192
42.5,0.0153122064919593,0.0258038830208656,0.940050618004693,-0.288789269558236,0.940050617972709,-0.288789269555162,0.015542873082082,0.0257068107437106
43,0.01554845870953,0.0259877510095816,0.938986532434179,-0.291983879439415,0.938986532402703,-0.29198387943591,0.0157805744422375,0.0258905771005169
43.5,0.015784082679391,0.0261693974955868,0.937911902964508,-0.295174465520484,0.937911902933551,-0.295174465516566,0.0160180192093101,0.0260722465416521
44,0.016019124210905,0.0263489605708187,0.936826735175031,-0.298360981439772,0.936826735144606,-0.298360981435463,0.0162552525248598,0.0262519130137344
44.5,0.0162536384054868,0.0265265656822424,0.935731035793883,-0.30154338128856,0.935731035764001,-0.301543381283878,0.016492323816598,0.0264296606631513
45,0.0164876877539218,0.0267023254399212,0.934624812633291,-0.304721619622197,0.934624812603962,-0.304721619617163,0.0167292856393079,0.0266055640654768
45.5,0.0167213403508518,0.0268763396709879,0.933508074528204,-0.307895651469227,0.933508074499438,-0.307895651463861,0.0169661926258911,0.0267796885587757
46,0.0169546682501651,0.0270486956817706,0.932380831278064,-0.311065432338721,0.93238083124987,-0.311065432333044,0.0172031005511886,0.0269520906586436
46.5,0.0171877459768239,0.0272194686904703,0.931243093591531,-0.314230918225986,0.931243093563916,-0.314230918220016,0.0174400655080447,0.0271228185347667
47,0.0174206492033705,0.027388722394404,0.93009487303401,-0.317392065616823,0.93009487300698,-0.317392065610579,0.0176771431925371,0.0272919125308839
47.5,0.017653453593251,0.0275565096383283,0.928936181977804,-0.320548831490473,0.928936181951367,-0.320548831483976,0.0179143882933412,0.0274594057122799
48,0.0178862338080842,0.0277228731536752,0.927767033554774,-0.323701173321386,0.927767033528935,-0.323701173314656,0.0181518539787811,0.027625324427214
48.5,0.0181190626721144,0.0278878463420964,0.926587441611332,-0.326849049079926,0.926587441586095,-0.326849049072979,0.0183895914741685,0.02778968887082
49,0.0183520104842463,0.0280514540805654,0.925397420665672,-0.329992417232116,0.925397420641041,-0.329992417224973,0.0186276497214696,0.0279525136421075
49.5,0.0185851444660811,0.0282137135289575,0.924196985867084,-0.333131236738532,0.924196985843064,-0.333131236731211,0.0188660751131173,0.028113808286536
50,0.0188185283332356,0.0283746349246663,0.922986152957269,-0.336265467052411,0.922986152933861,-0.336265467044931,0.019104911291806,0.0282735778183469
50.5,0.0190522219766621,0.0285342223520215,0.921764938233507,-0.339395068117077,0.921764938210715,-0.339395068109456,0.0193441990083378,0.0284318232182914
51,0.0192862812407032,0.028692474477316,0.92053335851362,-0.342520000362725,0.920533358491444,-0.34252000035498,0.0195839760299666,0.0285885419037106
51.5,0.0195207577849706,0.0288493852427367,0.919291431102595,-0.345640224702649,0.919291431081035,-0.345640224694797,0.0198242770921631,0.0287437281689804
52,0.0197556990178251,0.0290049445147929,0.918039173760803,-0.348755702528968,0.918039173739861,-0.348755702521028,0.0200651338872618,0.0288973735952591
52.5,0.0199911480900682,0.0291591386846459,0.916776604673722,-0.351866395707889,0.916776604653397,-0.351866395699877,0.0203065750840435,0.0290494674292214
53,0.0202271439384583,0.0293119512192699,0.915503742423078,-0.35497226657457,0.915503742403369,-0.354972266566502,0.0205486263728733,0.0291999969310304
53.5,0.0204637213696909,0.0294633631636079,0.914220605959342,-0.358073277927605,0.914220605940247,-0.358073277919498,0.0207913105316246,0.029348947692301
54,0.0207009111765238,0.0296133535947942,0.912927214575498,-0.361169393023196,0.912927214557016,-0.361169393015065,0.0210346475081504,0.029496303925125
54.5,0.0209387402787772,0.0297619000302725,0.911623587882041,-0.364260575569019,0.911623587864169,-0.36426057556088,0.0212786545156144,0.0296420487235123
55,0.0211772318828827,0.0299089787920959,0.910309745783106,-0.367346789717833,0.910309745765841,-0.367346789709702,0.0215233461374744,0.0297861642987436
55.5,0.0214164056545917,0.0300545653300819,0.908985708453713,-0.370428000060853,0.908985708437052,-0.370428000052744,0.021768734439378,0.0299286321902899
56,0.0216562779002675,0.0301986345066743,0.907651496318037,-0.373504171620914,0.907651496301976,-0.373504171612843,0.0220148290856163,0.0300694334539504
56.5,0.0218968617529549,0.0303411608464763,0.906307130028676,-0.37657526984545,0.90630713001321,-0.376575269837429,0.0222616374581829,0.0302085488289341
57,0.0221381673600717,0.0304821187534212,0.904952630446857,-0.379641260599302,0.904952630431983,-0.379641260591346,0.0225091647767821,0.0303459588855366
57.5,0.0223802020701756,0.0306214826985056,0.903588018623542,-0.382702110157389,0.903588018609254,-0.382702110149512,0.022757414218445,0.0304816441550559
58,0.0226229706167588,0.0307592273808919,0.902213315781382,-0.385757785197247,0.902213315767674,-0.38575778518946,0.0230063870356435,0.0306155852435102
58.5,0.0228664752974799,0.0308953278650772,0.900828543297491,-0.388808252791445,0.900828543284357,-0.388808252783762,0.0232560826720369,0.0307477629306507
59,0.0231107161476082,0.0310297596966271,0.899433722686995,-0.39185348039992,0.899433722674429,-0.391853480392352,0.0235064988751504,0.0308781582556676
59.5,0.023355691106785,0.0311624989988504,0.89802887558732,-0.394893435862207,0.898028875575316,-0.394893435854766,0.0237576318054648,0.0310067525909095
60,0.0236013961784713,0.0312935225525648,0.896614023743197,-0.397928087389607,0.896614023731749,-0.397928087382305,0.0240094761415257,0.0311335277048281
60.5,0.0238478255816699,0.0314228078609535,0.895189188992331,-0.40095740355729,0.895189188981431,-0.400957403550138,0.0242620251808019,0.0312584658152872
61,0.0240949718947046,0.0315503332013316,0.893754393251731,-0.403981353296336,0.89375439324137,-0.403981353289344,0.0245152709361143,0.0313815496342622
61.5,0.0243428261909658,0.0316760776654548,0.892309658504647,-0.406999905885742,0.892309658494819,-0.406999905878921,0.0247692042275411,0.0315027624048876
62,0.024591378166677,0.0318000211898664,0.890855006788115,-0.410013030944382,0.890855006778812,-0.41001303093774,0.025023814769772,0.0316220879317139
62.5,0.0248406162607987,0.0319221445775999,0.889390460181061,-0.413020698422946,0.889390460172274,-0.413020698416494,0.0252790912549267,0.0317395106049544
63,0.0250905277672876,0.0320424295124425,0.887916040792956,-0.416022878595852,0.887916040784676,-0.416022878589598,0.0255350214309163,0.031855015419449
63.5,0.0253410989399555,0.0321608585667937,0.88643177075299,-0.419019542053146,0.886431770745209,-0.419019542047098,0.0257915921754366,0.0319685879889644
