"Freq [GHz]","re(St(P1,P1)) []","im(St(P1,P1)) []","re(St(P1,P2)) []","im(St(P1,P2)) []","re(St(P2,P1)) []","im(St(P2,P1)) []","re(St(P2,P2)) []","im(St(P2,P2)) []"
0,0.00331874910412466,0,0.996692136512138,0,0.996692132219323,0,0.00331874783373109,0
0.5,0.00368458996695153,0.000646831938620807,0.996277165103521,-0.00441110334093509,0.99627716555058,-0.00441110382231713,0.00368447924316229,0.00064726958630601
1,0.00404134037146875,0.000824153808796524,0.995811414835146,-0.00833866580262921,0.99581141488704,-0.00833866603315414,0.00404102287140873,0.000825161749165915
1.5,0.00411833063841982,0.000799139173054186,0.995501577810753,-0.0123540713441379,0.995501577786928,-0.0123540716167838,0.00411722998249076,0.000800653240336402
2,0.00414923300386327,0.000853314783100245,0.995143124785928,-0.0162405588741237,0.995143124699316,-0.01624055914208,0.00414776648247539,0.000855528524812854
2.5,0.00416667627478517,0.000943753878942744,0.994769775017006,-0.0200121055949154,0.994769774890544,-0.0200121058294762,0.00416497111248049,0.000946687378331035
3,0.00417920975417108,0.00105442760741425,0.994399390898578,-0.0236933445797369,0.99439939075421,-0.0236933447691321,0.00417730515391668,0.00105808130346929
3.5,0.0041897886529858,0.00117835143701583,0.994037718460172,-0.0273092775252728,0.99403771831412,-0.0273092776689339,0.00418769016868303,0.00118272623106463
4,0.00419960033393085,0.00131219208026678,0.993683585247721,-0.0308806018992058,0.993683585110075,-0.0308806020022629,0.00419729775993183,0.0013172921924518
4.5,0.0042091425300419,0.00145431745674252,0.993332815419328,-0.0344227145420497,0.993332815295411,-0.0344227146117078,0.00420661670998879,0.00146015048066417
5,0.00421859395569069,0.00160398367997594,0.992980482543273,-0.0379463524785084,0.992980482435236,-0.0379463525220984,0.00421581957958406,0.001610560221879
5.5,0.00422795937493303,0.00176095805247556,0.992621968427696,-0.0414586764422182,0.992621968335784,-0.0414586764663021,0.00422490609975901,0.00176829138302281
6,0.00423713045285967,0.00192532995743022,0.992253345856815,-0.0449642864068611,0.992253345780241,-0.0449642864169704,0.00423376322575875,0.00193343572995985
6.5,0.00424591073557457,0.00209741058450952,0.991871435188889,-0.0484660191321371,0.99187143512637,-0.0484660191327517,0.00424218968303114,0.00210630660070343
7,0.00425402325517421,0.00227767793962919,0.991473728279766,-0.051965525840405,0.991473728229837,-0.0519655258350884,0.00424990329745589,0.00228738393199457
7.5,0.00426110837453964,0.00246674641401867,0.991058273732798,-0.0554636732944935,0.991058273693988,-0.0554636732860541,0.00425653863534858,0.00247728381474133
8,0.00426671506914234,0.00266535034726179,0.990623563853472,-0.0589608158150847,0.990623563824384,-0.0589608158056922,0.00426163810797042,0.00267674201247115
8.5,0.00427028685394615,0.00287433582346264,0.990168437639594,-0.0624569773165833,0.990168437618952,-0.0624569773079307,0.00426463772667451,0.00288660567930243
9,0.00427114255624639,0.00309465730159886,0.989692002616321,-0.0659519721571469,0.98969200260298,-0.0659519721505335,0.00426484769731528,0.00310782987255909
9.5,0.00426845154335298,0.00332737683693907,0.989193573837055,-0.0694454849364945,0.989193573829992,-0.0694454849329187,0.00426142745600899,0.00334147660742889
10,0.00426120259928908,0.00357366415284943,0.988672627048801,-0.0729371229396412,0.988672627047115,-0.0729371229398668,0.00425335433717011,0.00358871469951438
10.5,0.00431214266805896,0.00374603705541521,0.988184672250679,-0.0763976688640406,0.988184672249016,-0.0763976688647121,0.00430415318917787,0.00376173725969942
11,0.00436542038921905,0.003917504866223,0.987689548222971,-0.0798441913442396,0.987689548221282,-0.0798441913453498,0.00435727588380175,0.00393384114533379
11.5,0.00442101540619749,0.00408802876961634,0.987187810727146,-0.0832776544375395,0.987187810725389,-0.0832776544390672,0.0044127011449917,0.00410498723291663
12,0.00447890656871908,0.00425757051917497,0.986679892488555,-0.0866989940191543,0.986679892486689,-0.0866989940210807,0.00447040687557737,0.00427513701190563
12.5,0.00453907195240438,0.00442609245732406,0.986166117175823,-0.0901091080610188,0.986166117173812,-0.0901091080633201,0.00453037017872776,0.00444425260558745
13,0.00460148887896863,0.00459355753417157,0.985646712979381,-0.0935088495797505,0.985646712977196,-0.0935088495824017,0.00459256738005048,0.00461229679103781
13.5,0.00466613393700252,0.00475992932554714,0.98512182549414,-0.0968990218624501,0.985121825491752,-0.0968990218654229,0.00465697405029214,0.00477923301824656
14,0.00473298300327735,0.00492517205022391,0.984591529710008,-0.100280375593872,0.984591529707397,-0.100280375597137,0.00472356502860041,0.00494502542832365
14.5,0.00480201126457035,0.00508925058635779,0.984055840994393,-0.103653607535954,0.984055840991542,-0.103653607539482,0.00479231444631231,0.0051096388708185
15,0.00487319323995902,0.00525213048699413,0.983514725013864,-0.107019360445979,0.983514725010758,-0.107019360449741,0.00486319575123367,0.00527303892007414
15.5,0.00494650280355825,0.00541377799480447,0.982968106590035,-0.110378223957977,0.982968106586664,-0.110378223961946,0.00493618173237109,0.00543519189067965
16,0.00502191320767039,0.00557416005587985,0.982415877519453,-0.113730736191083,0.982415877515807,-0.113730736195227,0.00501124454506963,0.0055960648519271
16.5,0.00509939710631258,0.00573324433267564,0.981857903411198,-0.117077385885758,0.981857903407275,-0.117077385890051,0.00508835573654055,0.00575562564135534
17,0.00517892657909036,0.00589099921604008,0.981294029611177,-0.120418614903378,0.981294029606973,-0.120418614907793,0.00516748627171569,0.00591384287727204
17.5,0.00526047315537917,0.00604739383631969,0.98072408629062,-0.123754820955498,0.980724086286136,-0.123754820960009,0.00524860655941011,0.00607068597030569
18,0.00534400783879913,0.00620239807358658,0.980147892779766,-0.12708636045616,0.980147892775005,-0.127086360460743,0.00533168647874859,0.00622612513401011
18.5,0.00542950113192206,0.00635598256687153,0.979565261227485,-0.130413551413967,0.979565261222449,-0.130413551418598,0.00541669540581665,0.00638013139440652
19,0.00551692306121393,0.00650811872254087,0.978975999664762,-0.133736676299948,0.978975999659458,-0.133736676304608,0.00550360224051484,0.00653267659861534
19.5,0.00560624320214823,0.00665877872164655,0.978379914545494,-0.137055984843907,0.978379914539929,-0.137055984848574,0.00559237543355653,0.00668373342241813
20,0.0056974307044883,0.00680793552639392,0.977776812832502,-0.140371696724827,0.977776812826682,-0.140371696729483,0.00568298301360001,0.00683327537686829
20.5,0.00579045431768789,0.00695556288562083,0.9771665036906,-0.143684004131976,0.977166503684537,-0.143684004136604,0.00577539261446812,0.00698127681390881
21,0.00588528241639222,0.00710163533931363,0.976548799842443,-0.146993074181732,0.976548799836144,-0.146993074186318,0.00586957150241982,0.00712771293095438
21.5,0.00598188302600799,0.00724612822219184,0.975923518636682,-0.150299051181793,0.975923518630158,-0.150299051186318,0.00596548660345689,0.00727255977455998
22,0.00608022384831231,0.00738901766628297,0.97529048287227,-0.15360205873971,0.975290482865532,-0.153602058744164,0.00606310453061815,0.00741579424301753
22.5,0.00618027228707671,0.0075302806025479,0.974649521417252,-0.156902201716416,0.97464952141031,-0.156902201720786,0.0061623916112474,0.00755739408804113
23,0.00628199547368372,0.00766989476153013,0.974000469655457,-0.160199568028338,0.974000469648324,-0.160199568032613,0.00626331391419624,0.00769733791545368
23.5,0.00638536029269915,0.00780783867301205,0.973343169790004,-0.163494230303713,0.973343169782692,-0.163494230307884,0.00636583727694204,0.00783560518489645
24,0.0064903334073918,0.00794409166468402,0.972677471028478,-0.166786247400054,0.972677471020996,-0.166786247404109,0.00646992733259671,0.00797217620858337
24.5,0.00659688128516198,0.00807863385982976,0.972003229671088,-0.170075665790636,0.97200322966345,-0.17007566579457,0.00657554953677822,0.00810703214910946
25,0.00670497022287536,0.00821144617399971,0.97132030911999,-0.173362520828312,0.971320309112207,-0.173362520832118,0.00668266919433136,0.00824015501629827
25.5,0.00681456637206149,0.00834251031066557,0.970628579825131,-0.176646837895171,0.970628579817215,-0.176646837898842,0.00679125148587281,0.00837152766310822
26,0.00692563576397234,0.00847180875587839,0.969927919179674,-0.179928633446476,0.969927919171637,-0.17992863345001,0.00690126149414586,0.0085011337806038
26.5,0.00703814433447697,0.00859932477185943,0.969218211375933,-0.183207915957171,0.969218211367786,-0.18320791596056,0.00701266423017113,0.00862895789199003
27,0.00715205794877474,0.00872504238957283,0.968499347230975,-0.186484686778861,0.968499347222729,-0.186484686782103,0.00712542465917793,0.00875498534573271
27.5,0.00726734242591029,0.0088489464001924,0.96777122398954,-0.18975894091486,0.967771223981206,-0.189758940917951,0.0072395077263106,0.00887920230772865
28,0.00738396356307969,0.00897102234550573,0.967033745110593,-0.193030667720381,0.967033745102183,-0.193030667723321,0.00735487838209384,0.0090015957525682
28.5,0.00750188715970396,0.0090912565071779,0.966286820042753,-0.196299851534554,0.966286820034277,-0.196299851537339,0.00747150160766513,0.00912215345387191
29,0.00762107904126647,0.00920963589487256,0.965530363992841,-0.199566472250419,0.965530363984309,-0.199566472253048,0.00758934243976062,0.00924086397368162
29.5,0.00774150508289934,0.00932614823318323,0.96476429769106,-0.202830505828649,0.964764297682483,-0.202830505831123,0.0077083659954606,0.00935771665093998
30,0.007863131232693,0.00944078194731013,0.963988547155599,-0.206091924760243,0.963988547146985,-0.206091924762562,0.00782853749669904,0.00947270158899682
30.5,0.00798592353474042,0.00955352614747529,0.963203043458901,-0.209350698483005,0.96320304345026,-0.209350698485167,0.00794982229454833,0.00958580964218259
31,0.00810984815187926,0.00966437061196501,0.962407722497377,-0.212606793756255,0.962407722488719,-0.212606793758262,0.00807218589327957,0.00969703240137054
31.5,0.00823487138813445,0.00977330576875612,0.961602524765939,-0.215860174997765,0.961602524757273,-0.215860174999619,0.00819559397423314,0.00980636217857622
32,0.00836095971084327,0.00988032267563055,0.960787395138403,-0.219110804586609,0.960787395129737,-0.219110804588309,0.00832001241949998,0.00991379199048303
32.5,0.00848807977243726,0.00998541299868405,0.959962282654529,-0.222358643135238,0.959962282645873,-0.222358643136788,0.00844540733545429,0.0100193155409158
33,0.00861619843187755,0.010088568989111,0.959127140314277,-0.225603649733796,0.959127140305637,-0.225603649735197,0.00857174507615827,0.0101229272021941
33.5,0.00874528277570585,0.0101897834581364,0.958281924879624,-0.228845782169425,0.958281924871008,-0.22884578217068,0.00869899226668264,0.0102246219953031
34,0.00887530013869597,0.0102890497499353,0.957426596684185,-0.232084997123022,0.957426596675601,-0.232084997124132,0.00882711582637574,0.0103243955688166
34.5,0.00900621812405844,0.0103863617123674,0.956561119450736,-0.235321250345665,0.956561119442191,-0.235321250346635,0.0089560829921429,0.0104222441764921
35,0.00913800462316861,0.0104817136653133,0.955685460116636,-0.238554496816758,0.955685460108137,-0.238554496817587,0.00908586134178097,0.0105181646534396
35.5,0.00927062783474769,0.0105751003663856,0.954799588667086,-0.241784690885677,0.954799588658639,-0.241784690886373,0.00921641881743951,0.0106121543907294
36,0.00940405628344348,0.0106665169737212,0.953903477976091,-0.24501178639859,0.953903477967703,-0.245011786399153,0.00934772374928383,0.010704211308336
36.5,0.00953825883770776,0.0107559590055595,0.952997103654952,-0.248235736811897,0.952997103646628,-0.248235736812332,0.00947974487943848,0.0107943338261989
37,0.00967320472687244,0.0108434222962068,0.952080443908061,-0.251456495293649,0.952080443899808,-0.251456495293959,0.00961245138631517,0.010882520833259
37.5,0.00980886355727162,0.0109289029479953,0.95115347939578,-0.254674014814126,0.951153479387603,-0.254674014814315,0.00974581290942511,0.0109687716541982
38,0.00994520532723764,0.0110123972787208,0.950216193104134,-0.257888248226662,0.950216193096038,-0.257888248226733,0.00987979957480722,0.0110530860136295
38.5,0.0100822004407409,0.0110939017639911,0.949268570221054,-0.261099148339685,0.949268570213045,-0.261099148339642,0.0100143820212019,0.0111354639974053
39,0.0102198197193898,0.0111734129738434,0.948310598018899,-0.264306667980845,0.948310598010981,-0.264306667980693,0.0101495314271353,0.0112159060106729
39.5,0.0103580344124248,0.0112509275028403,0.947342265742973,-0.267510760054027,0.94734226573515,-0.26751076005377,0.0102852195390806,0.011294412732197
40,0.0104968162042478,0.0113264418927947,0.946363564505768,-0.270711377589935,0.946363564498044,-0.270711377589576,0.0104214187009019,0.0113709850644512
40.5,0.0106361372189174,0.0113999525470827,0.945374487186657,-0.273908473790913,0.945374487179036,-0.273908473790457,0.0105581018847944,0.0114456240788003
41,0.0107759700208692,0.0114714556353721,0.94437502833677,-0.277102002070542,0.944375028329258,-0.277102002069993,0.0106952427239796,0.0115183309550522
41.5,0.0109162876109372,0.0115409469873935,0.943365184088796,-0.280291916088572,0.943365184081394,-0.280291916087934,0.0108328155474157,0.0115891069144256
42,0.0110570634165232,0.0116084219742061,0.942344952071446,-0.2834781697816,0.942344952064158,-0.283478169780879,0.0109707954168556,0.0116579531449061
42.5,0.0111982712744194,0.0116738753751038,0.941314331328356,-0.286660717389969,0.941314331321186,-0.286660717389166,0.0111091581665722,0.0117248707176376
43,0.0113398854044245,0.0117373012280946,0.940273322241177,-0.289839513481214,0.940273322234127,-0.289839513480335,0.0112478804461464,0.0117898604928071
43.5,0.0114818803713913,0.0117986926615434,0.939221926456634,-0.293014512970424,0.939221926449708,-0.293014512969474,0.0113869397667292,0.0118529230131457
44,0.0116242310326764,0.0118580417042102,0.938160146817348,-0.29618567113782,0.938160146810547,-0.296185671136803,0.0115263145512269,0.0119140583827153
44.5,0.0117669124672008,0.011915339070566,0.937087987296197,-0.299352943643807,0.937087987289524,-0.299352943642728,0.0116659841888995,0.0119732661282366
45,0.0119098998812396,0.0119705739178169,0.936005452934047,-0.302516286541779,0.936005452927504,-0.30251628654064,0.0118059290948774,0.0120305450395206
45.5,0.012053168484769,0.0120237335706799,0.934912549780654,-0.305675656288857,0.934912549774243,-0.305675656287664,0.0119461307751227,0.0120858929848597
46,0.0121966933304561,0.0120748032094764,0.933809284838557,-0.308831009754808,0.93380928483228,-0.308831009753564,0.012086571897339,0.0121393066962165
46.5,0.0123404491052303,0.0121237655167994,0.932695666009818,-0.311982304229279,0.932695666003677,-0.31198230422799,0.0122272363682848,0.0121907815178586
47,0.012484409861522,0.0121706002776805,0.931571702045429,-0.31512949742756,0.931571702039424,-0.315129497426229,0.0123681094178372,0.0122403111105311
47.5,0.0126285486716868,0.0122152839282077,0.930437402497249,-0.318272547494966,0.930437402491384,-0.318272547493597,0.012509177689934,0.0122878871012928
48,0.0127728371844826,0.0122577890478186,0.929292777672343,-0.321411413010021,0.929292777666617,-0.321411413008618,0.0126504293401676,0.0123334986665782
48.5,0.0129172450565646,0.012298083791541,0.92813783858956,-0.324546052986533,0.928137838583974,-0.324546052985102,0.0127918541392293,0.0123771320328381
49,0.0130617392243997,0.0123361312604153,0.926972596938266,-0.327676426874681,0.926972596932823,-0.327676426873224,0.0129334435804621,0.0124187698748173
49.5,0.0132062829724349,0.012371888812023,0.925797065039084,-0.330802494561205,0.925797065033783,-0.330802494559726,0.0130751909883454,0.0124583905860363
50,0.0133508347412695,0.012405307319151,0.92461125580654,-0.333924216368792,0.924611255801381,-0.333924216367295,0.0132170916224872,0.0124959673887761
50.5,0.0134953466045978,0.0124363303946851,0.923415182713524,-0.337041553054736,0.923415182708509,-0.337041553053226,0.0133591427682392,0.0125314672412846
51,0.0136397623253832,0.0124648936165463,0.92220885975745,-0.340154465808937,0.922208859752579,-0.340154465807416,0.0135013437997253,0.0125648494871755
51.5,0.0137840148799658,0.0124909238109383,0.920992301428036,-0.343262916251316,0.920992301423309,-0.343262916249789,0.0136436961928612,0.0125960641749927
52,0.0139280233142172,0.0125143384893507,0.919765522676609,-0.346366866428697,0.919765522672026,-0.346366866427168,0.0137862034532632,0.0126250499530716
52.5,0.0140716887700981,0.0125350455903148,0.918528538886867,-0.349466278811204,0.918528538882428,-0.349466278809676,0.0139288709041992,0.0126517314139509
53,0.01421488949831,0.0125529437589076,0.917281365847007,-0.352561116288236,0.917281365842712,-0.352561116286712,0.0140717052489372,0.0126760157208414
53.5,0.0143574746616017,0.0125679235154283,0.916024019723157,-0.35565134216404,0.916024019719006,-0.355651342162524,0.0142147137732586,0.0126977882919634
54,0.014499256749484,0.0125798698319752,0.914756517034041,-0.358736920152955,0.914756517030034,-0.35873692015145,0.0143579029767698,0.0127169072416389
54.5,0.0146400024964181,0.0125886668643576,0.913478874626819,-0.361817814374321,0.913478874622955,-0.361817814372832,0.014501276297866,0.0127331961733035
55,0.0147794223684413,0.0125942058848856,0.912191109654032,-0.364893989347127,0.912191109650311,-0.364893989345655,0.0146448303965936,0.0127464347813813
55.5,0.0149171590305272,0.0125963978213093,0.910893239551608,-0.367965409984383,0.910893239548028,-0.367965409982932,0.0147885491309724,0.012756346539643
56,0.0150527758350349,0.0125951921827421,0.909585282017866,-0.371032041587291,0.909585282014429,-0.371032041585864,0.0149323938179063,0.0127625825333391
56.5,0.015185747416708,0.0125906044216557,0.908267254993487,-0.374093849839196,0.908267254990191,-0.374093849837796,0.0150762874587098,0.0127647002530999
57,0.0153154560778825,0.0125827536802714,0.906939176642374,-0.37715080079936,0.906939176639217,-0.37715080079799,0.0152200890712389,0.0127621359923413
57.5,0.0154411998414902,0.0125719119255254,0.905601065333386,-0.380202860896585,0.905601065330368,-0.380202860895248,0.0153635516605647,0.0127541696114737
58,0.0155622205838198,0.0125585629592679,0.9042529396229,-0.383249996922676,0.904252939620022,-0.383249996921375,0.0155062529376009,0.0127398814607611
58.5,0.0156777626300851,0.0125434648248119,0.902894818238149,-0.386292176025792,0.902894818235407,-0.38629217602453,0.0156474805109124,0.0127181046959555
59,0.0157871716302468,0.0125277011912173,0.901526720061308,-0.389329365703676,0.901526720058702,-0.389329365702454,0.0157860414618815,0.0126873856847229
59.5,0.0158900372772587,0.0125126973373555,0.900148664114301,-0.392361533796789,0.90014866411183,-0.39236153379561,0.0159199492947727,0.0126459890198829
60,0.0159863682105638,0.0125001684818233,0.898760669544282,-0.39538864848136,0.898760669541945,-0.395388648480227,0.0160459243709864,0.0125920398963295
60.5,0.0160767631025602,0.0124919706165312,0.897362755609774,-0.398410678262353,0.897362755607569,-0.398410678261269,0.0161586556060958,0.0125240191813516
61,0.0161625163581517,0.012489846370106,0.895954941667425,-0.401427591966382,0.895954941665352,-0.401427591965348,0.0162499137600864,0.0124420549219963
61.5,0.0162455882584343,0.0124951031377321,0.894537247159367,-0.404439358734552,0.894537247157424,-0.404439358733571,0.016308156159661,0.0123507216914278
62,0.0163283979357092,0.0125083117011351,0.893109691601136,-0.407445948015269,0.893109691599321,-0.407445948014343,0.0163206497672927,0.0122637394841318
62.5,0.0164134651097119,0.0125291364401916,0.891672294570148,-0.410447329557001,0.89167229456846,-0.410447329556132,0.0162817904026671,0.012208080251255
63,0.0165030011409635,0.0125563737374423,0.890225075694693,-0.413443473401009,0.890225075693131,-0.413443473400198,0.0162079199108967,0.012218299921027
