"Freq [GHz]","re(St(P1,P1)) []","im(St(P1,P1)) []","re(St(P1,P2)) []","im(St(P1,P2)) []","re(St(P2,P1)) []","im(St(P2,P1)) []","re(St(P2,P2)) []","im(St(P2,P2)) []"
0,0.00299684284735235,0,0.997018523717998,0,0.997018522844883,0,0.00299683813329921,0
0.5,0.00349367561589986,-0.00178904342150332,0.996466956260385,-0.00551121010013134,0.996466956196421,-0.00551120972992081,0.00349353534601704,-0.00178892587952717
1,0.00397593660191831,-0.00422589591895317,0.995853731590543,-0.0103741734652516,0.99585373154558,-0.0103741733344442,0.00397549815630072,-0.00422553759380762
1.5,0.00423790017064007,-0.00685755628934714,0.9953663894565,-0.015256548853035,0.995366389474519,-0.0152565487323599,0.00423669974066598,-0.00685728989290979
2,0.004331798926966,-0.00950804978436892,0.99488991418762,-0.0199729097710382,0.994889914240083,-0.0199729096796837,0.00432984224496735,-0.00950735208060749
2.5,0.00433226033281997,-0.0121384783000593,0.994454080281926,-0.0245894377102438,0.994454080346713,-0.0245894376479541,0.00432967247506966,-0.0121371527470089
3,0.00427543594901714,-0.0147473258466881,0.99405303030959,-0.0291520756974144,0.994053030374399,-0.0291520756575565,0.00427229356204784,-0.0147453027946227
3.5,0.0041783014814456,-0.0173387718833133,0.993670656583904,-0.0336863020606408,0.993670656643076,-0.0336863020364113,0.00417463450245847,-0.0173360204873774
4,0.00404929561687162,-0.0199167272977689,0.993291149987284,-0.03820473638363,0.99329115003869,-0.038204736369746,0.00404510443003403,-0.0199132251243412
4.5,0.00389290929173569,-0.0224840618333424,0.99290183865932,-0.0427131605722622,0.992901838702508,-0.042713160565043,0.0038881768770711,-0.0224797847115603
5,0.00371168973843616,-0.025042762541073,0.992493275168824,-0.0472139944390477,0.992493275204062,-0.0472139944360528,0.00370638897999687,-0.0250376812978033
5.5,0.00350716634029347,-0.0275941830633997,0.992058621911337,-0.0517080796521547,0.992058621939163,-0.0517080796517817,0.00350126435644071,-0.0275882626337101
6,0.00328030547016311,-0.0301392392753037,0.991592998815992,-0.0561955435568855,0.991592998837019,-0.0561955435581467,0.00327376624078024,-0.0301324386306199
6.5,0.00303174706419362,-0.0326785450120415,0.991092955769865,-0.0606762008421455,0.991092955784678,-0.0606762008444139,0.00302453308451422,-0.0326708173518639
7,0.00276193407746472,-0.0352125034848445,0.990556079325564,-0.0651497326845689,0.990556079334711,-0.065149732687491,0.00275400744412302,-0.0352037964932812
7.5,0.00247118655060419,-0.0377413688280281,0.989980707288587,-0.0696157623194527,0.989980707292557,-0.0696157623228348,0.0024625097072013,-0.0377316249260993
8,0.00215974567210342,-0.0402652879757976,0.989365722943044,-0.0740738843567978,0.989365722942264,-0.0740738843605406,0.00215028194478695,-0.0402544445491557
8.5,0.00182780090422918,-0.0427843295783905,0.988710406533818,-0.0785236747341731,0.988710406528676,-0.0785236747382534,0.0018175149039994,-0.0427723191775424
9,0.00147550719397227,-0.0452985042922887,0.988014327714243,-0.082964693472384,0.988014327705081,-0.0829646934768089,0.00146436513203874,-0.0452852548083289
9.5,0.00110299618846321,-0.0478077792491458,0.987277267396963,-0.0873964854155194,0.987277267384079,-0.0873964854203333,0.00109096613336801,-0.0477932140695856
10,0.000710383718557583,-0.0503120885362573,0.986499160824216,-0.0918185809225367,0.986499160807879,-0.0918185809277734,0.000697435813274083,-0.0502961266853159
10.5,0.000356234745176209,-0.0528267600506513,0.985752803015183,-0.0962214100146639,0.98575280299849,-0.0962214100192682,0.000351944914990909,-0.052762472892983
11,-2.28717517707366E-005,-0.0553412233348904,0.984984759004129,-0.100608463581569,0.984984758987155,-0.100608463585541,-1.54585509415384E-005,-0.0552389241509221
11.5,-0.000426917331522336,-0.0578550175839077,0.984195512100874,-0.104980395169131,0.984195512083693,-0.104980395172475,-0.000406288776993113,-0.0577235369467051
12,-0.000855853204931867,-0.0603676681820033,0.983385443726096,-0.109337827298233,0.983385443708773,-0.109337827300957,-0.000821599871582812,-0.0602144453409128
12.5,-0.00130960439145289,-0.0628786949737581,0.982554846389226,-0.113681344046531,0.982554846371823,-0.113681344048647,-0.00126208315889054,-0.0627099083208069
13,-0.00178807342858667,-0.0653876187008837,0.981703936068068,-0.118011485966878,0.981703936050641,-0.11801148596841,-0.00172814991571735,-0.0652083324261454
13.5,-0.00229114369796357,-0.0678939658953777,0.980832863765359,-0.122328746958837,0.980832863747955,-0.122328746959806,-0.00221999930621064,-0.0677082781224563
14,-0.00281868240718697,-0.0703972724946809,0.979941726105918,-0.126633572735175,0.979941726088582,-0.126633572735606,-0.00273767275112458,-0.0702084560808718
14.5,-0.0033705432534874,-0.0728970864145815,0.979030574907536,-0.130926360559775,0.979030574890308,-0.130926360559696,-0.00328109659111808,-0.0727077176550299
15,-0.00394656878920507,-0.0753929692837856,0.978099425711645,-0.135207459972539,0.978099425694558,-0.135207459971982,-0.00385011503560451,-0.0752050424320512
15.5,-0.00454659250723288,-0.0778844975143524,0.977148265298006,-0.139477174257501,0.977148265281092,-0.139477174256494,-0.00444451526566825,-0.0776995247127674
16,-0.00517044066443273,-0.0803712628534292,0.976177058234286,-0.143735762448786,0.976177058217567,-0.143735762447357,-0.00506404632401714,-0.0801903600625131
16.5,-0.00581793386193741,-0.0828528725372646,0.975185752528098,-0.147983441705585,0.975185752511597,-0.147983441703765,-0.0057084331582572,-0.0826768325916678
17,-0.0064888884019465,-0.0853289491462155,0.974174284458694,-0.15222038991929,0.974174284442428,-0.152220389917109,-0.00637738692772105,-0.0851583033073107
17.5,-0.00718311744114175,-0.0877991302407297,0.973142582669393,-0.156446748444288,0.973142582653379,-0.156446748441773,-0.00707061245772078,-0.0876341996757084
18,-0.00790043196094004,-0.0902630678423995,0.972090571601732,-0.160662624868127,0.97209057158598,-0.16066262486531,-0.0077878135344982,-0.0901040064117904
18.5,-0.00864064157435018,-0.0927204278108169,0.971018174349507,-0.164868095757008,0.971018174334027,-0.164868095753913,-0.00852869657852073,-0.0925672574402086
19,-0.00940355518847558,-0.0951708891558063,0.969925315006221,-0.169063209329248,0.969925314991018,-0.169063209325897,-0.00929297310944888,-0.0950235289349717
19.5,-0.0101889815406181,-0.0976141433157967,0.968811920573662,-0.173247988023175,0.968811920558743,-0.173247988019599,-0.0100803613183572,-0.0974724333282895
20,-0.010996729624635,-0.100049893425425,0.967677922493175,-0.177422430936579,0.967677922478543,-0.177422430932795,-0.0108905869866364,-0.099913614175736
20.5,-0.0118266090228953,-0.102477853589867,0.966523257854669,-0.1815865161237,0.966523257840326,-0.181586516119735,-0.0117233839324061,-0.102346741769265
21,-0.0126784301575982,-0.104897748178377,0.965347870332292,-0.185740202742178,0.965347870318236,-0.185740202738046,-0.0125784941201744,-0.104771509397422
21.5,-0.0135520044738933,-0.107309311145934,0.964151710889667,-0.189883433047621,0.9641517108759,-0.189883433043346,-0.0134556675352434,-0.107187630162484
22,-0.014447144565763,-0.109712285388945,0.962934738292146,-0.194016134237173,0.962934738278665,-0.194016134232773,-0.0143546618982633,-0.109594834274318
22.5,-0.0153636642543509,-0.112106422138629,0.961696919458448,-0.198138220146165,0.961696919445251,-0.198138220141658,-0.0152752422756272,-0.111992866751276
23,-0.0163013786271502,-0.114491480394033,0.960438229679598,-0.202249592803933,0.96043822966668,-0.20224959279933,-0.016217180626504,-0.11438148546755
23.5,-0.0172601040453698,-0.116867226395255,0.959158652729005,-0.206350143856032,0.959158652716363,-0.206350143851352,-0.0171802553161362,-0.116760459495182
24,-0.0182396581257455,-0.119233433136562,0.957858180883988,-0.210439755860953,0.957858180871618,-0.210439755856207,-0.0181642506166243,-0.119129567696204
24.5,-0.0192398597021931,-0.121589879918318,0.956536814875951,-0.21451830346975,0.956536814863847,-0.214518303464949,-0.019168956210186,-0.121488597527228
25,-0.0202605287718303,-0.12393635193618,0.955194563783714,-0.218585654497063,0.955194563771872,-0.218585654492224,-0.0201941667051588,-0.123837344024168
25.5,-0.0213014864292614,-0.126272639905749,0.953831444882154,-0.222641670892065,0.953831444870569,-0.222641670887196,-0.0212396811716699,-0.126175608940008
26,-0.0223625547922879,-0.128598539720494,0.952447483456362,-0.22668620961729,0.952447483445028,-0.2266862096124,-0.0223053027012288,-0.128503200012288
26.5,-0.023443556921814,-0.130913852140943,0.951042712589699,-0.230719123443314,0.951042712578608,-0.230719123438414,-0.0233908379928096,-0.130819930340945
27,-0.0245443167380988,-0.133218382512805,0.949617172932799,-0.234740261666516,0.949617172921949,-0.234740261661615,-0.0244960969665141,-0.133125617859764
27.5,-0.0256646589352091,-0.13551194051192,0.948170912459256,-0.238749470756838,0.948170912448638,-0.238749470751941,-0.0256208924050515,-0.135420084887502
28,-0.0268044088951593,-0.137794339913912,0.94670398621265,-0.242746594941957,0.94670398620226,-0.242746594937073,-0.0267650396225893,-0.137703157746739
28.5,-0.0279633926029058,-0.140065398386519,0.945216456048796,-0.246731476733784,0.945216456038628,-0.246731476728917,-0.0279283561600607,-0.139974666440435
29,-0.0291414365631606,-0.142324937302636,0.94370839037623,-0.250703957402698,0.943708390366277,-0.250703957397859,-0.0291106615057581,-0.14223444437758
29.5,-0.0303383677197531,-0.144572781572317,0.942179863897412,-0.254663877404571,0.94217986388767,-0.254663877399761,-0.0303117768398398,-0.144482328140753
30,-0.0315540133781031,-0.146808759491989,0.940630957352593,-0.258611076765043,0.940630957343055,-0.258611076760266,-0.0315315248013065,-0.14671815728938
30.5,-0.0327882011312303,-0.149032702609328,0.939061757267809,-0.262545395425286,0.939061757258471,-0.262545395420547,-0.0327697292759604,-0.148941774193469
31,-0.0340407587895971,-0.151244445602341,0.937472355708199,-0.266466673552959,0.937472355699054,-0.266466673548264,-0.0340262152038739,-0.151153023893398
31.5,-0.0353115143149918,-0.153443826171268,0.935862850037458,-0.270374751821763,0.935862850028502,-0.270374751817116,-0.0353008084049334,-0.153351753981874
32,-0.0366002957585635,-0.155630684942144,0.934233342684079,-0.274269471662739,0.934233342675305,-0.27426947165814,-0.0365933354210943,-0.155537814504946
32.5,-0.0379069312030763,-0.157804865380809,0.932583940914763,-0.278150675490016,0.932583940906168,-0.278150675485469,-0.0379036233740201,-0.157711057879191
33,-0.0392312487093638,-0.159966213716373,0.930914756615311,-0.282018206903574,0.930914756606889,-0.282018206899083,-0.0392314998368949,-0.15987133882278
33.5,-0.0405730762669805,-0.162114578873215,0.92922590607905,-0.285871910871291,0.929225906070797,-0.285871910866855,-0.0405767927192659,-0.162018514298391
34,-0.0419322417489337,-0.16424981241059,0.927517509802912,-0.289711633892264,0.927517509794824,-0.289711633887886,-0.0419393301638284,-0.16415244346622
34.5,-0.043308572870426,-0.16637176846912,0.925789692291048,-0.293537224143294,0.92578969228312,-0.293537224138976,-0.0433189404541823,-0.166272987645622
35,-0.044701897151487,-0.168480303723452,0.924042581865885,-0.297348531610154,0.924042581858111,-0.2973485316059,-0.0447154519326349,-0.168380010284107
35.5,-0.0461120418833401,-0.170575277340416,0.922276310486479,-0.301145408205131,0.922276310478857,-0.301145408200938,-0.0461286929272189,-0.170473376932585
36,-0.0475388340983908,-0.17265655094211,0.920491013573942,-0.304927707872162,0.920491013566467,-0.304927707868035,-0.0475584916871404,-0.172552955225954
36.5,-0.0489821005436653,-0.174723988573404,0.918686829843731,-0.308695286680796,0.918686829836399,-0.308695286676731,-0.0490046763259581,-0.174618614868161
37,-0.0504416676575468,-0.17677745667335,0.916863901144559,-0.312448002909991,0.916863901137367,-0.312448002905991,-0.050467074771825,-0.176670227621111
37.5,-0.0519173615496773,-0.17881682405011,0.915022372303657,-0.316185717122802,0.915022372296602,-0.31618571711887,-0.0519455147242303,-0.17870766729677
38,-0.0534090079838316,-0.180841961858969,0.91316239097815,-0.319908292232743,0.913162390971228,-0.319908292228874,-0.0534398236166486,-0.180730809751973
38.5,-0.0549164323636446,-0.182852743583098,0.911284107512272,-0.323615593562629,0.911284107505479,-0.323615593558828,-0.0549498285846383,-0.182739532885472
39,-0.0564394597210153,-0.184849045016763,0.90938767480016,-0.327307488896631,0.909387674793494,-0.327307488892894,-0.0564753564389007,-0.184733716636845
39.5,-0.0579779147070612,-0.18683074425067,0.907473248153968,-0.330983848526111,0.907473248147424,-0.330983848522439,-0.0580162336429078,-0.186713242986948
40,-0.0595316215854735,-0.188797721659197,0.905540985177045,-0.334644545289863,0.905540985170622,-0.334644545286258,-0.0595722862947037,-0.188677995959606
40.5,-0.0611004042281169,-0.190749859889283,0.90359104564196,-0.338289454609213,0.903591045635656,-0.338289454605673,-0.0611433401125159,-0.190627861624273
41,-0.0626840861127694,-0.192687043850744,0.901623591373102,-0.34191845451846,0.901623591366912,-0.341918454514985,-0.0627292204238832,-0.192562728099505
41.5,-0.0642824903228642,-0.194609160707868,0.899638786133635,-0.345531425691088,0.899638786127558,-0.345531425687677,-0.064329752157994,-0.194482485557005
42,-0.0658954395490935,-0.196516099872047,0.897636795516629,-0.34912825146206,0.897636795510663,-0.349128251458713,-0.0659447598409567,-0.196387026226087
42.5,-0.0675227560927865,-0.198407752995373,0.895617786840107,-0.35270881784659,0.895617786834249,-0.352708817843307,-0.0675740675937714,-0.198276244398468
43,-0.0691642618709306,-0.200284013964999,0.89358192904584,-0.356273013555651,0.893581929040088,-0.356273013552431,-0.0692174991327729,-0.200150036433195
43.5,-0.0708197784227287,-0.202144778898159,0.891529392601713,-0.359820730008501,0.891529392596065,-0.359820730005343,-0.0708748777723269,-0.202008300761653
44,-0.0724891269176119,-0.203989946137745,0.889460349407445,-0.36335186134247,0.889460349401899,-0.363351861339373,-0.0725460264296146,-0.203850937892568
44.5,-0.0741721281645796,-0.205819416248321,0.887374972703551,-0.366866304420236,0.887374972698105,-0.3668663044172,-0.0742307676312957,-0.205677850416889
45,-0.0758686026228078,-0.207633092012494,0.885273436983333,-0.370363958834768,0.885273436977985,-0.370363958831791,-0.0759289235219256,-0.207488943012518
45.5,-0.0775783704134126,-0.209430878427558,0.883155917907794,-0.373844726912132,0.883155917902543,-0.373844726909215,-0.0776403158739504,-0.20928412244882
46,-0.0793012513323099,-0.211212682702334,0.881022592223313,-0.377308513712326,0.881022592218156,-0.377308513709468,-0.0793647660991599,-0.211063297590856
46.5,-0.0810370648640699,-0.212978414254137,0.878873637681951,-0.380755227028264,0.878873637676888,-0.380755227025463,-0.0811020952614695,-0.212826379403315
47,-0.0827856301967206,-0.214727984705837,0.876709232964272,-0.384184777383087,0.876709232959301,-0.384184777380342,-0.082852124090917,-0.214573280954102
47.5,-0.0845467662373984,-0.216461307882903,0.874529557604566,-0.387597078025861,0.874529557599686,-0.387597078023172,-0.0846146729987559,-0.216303917417542
48,-0.0863202916288112,-0.218178299810459,0.87233479191834,-0.39099204492585,0.87233479191355,-0.390992044923216,-0.0863895620935696,-0.218018206077186
48.5,-0.0881060247664269,-0.219878878710239,0.870125116932016,-0.39436959676538,0.870125116927314,-0.394369596762799,-0.0881766111982902,-0.219716066328207
49,-0.0899037838163441,-0.221562964997443,0.867900714314705,-0.397729654931454,0.86790071431009,-0.397729654928926,-0.0899756398680545,-0.221397419679341
49.5,-0.0917133867337862,-0.223230481277469,0.865661766311978,-0.401072143506167,0.865661766307449,-0.40107214350369,-0.0917864674088194,-0.2230621897544
50,-0.0935346512821575,-0.224881352342444,0.863408455681564,-0.404396989255997,0.86340845567712,-0.404396989253573,-0.0936089128966502,-0.224710302293301
50.5,-0.0953673950526147,-0.22651550516757,0.861140965630883,-0.407704121620064,0.861140965626523,-0.407704121617689,-0.0954427951976258,-0.226341685152627
51,-0.0972114354841246,-0.22813286890726,0.858859479756335,-0.410993472697385,0.858859479752058,-0.41099347269506,-0.0972879329883015,-0.227956268305729
51.5,-0.0990665898839289,-0.229733374891007,0.856564181984295,-0.414264977233234,0.856564181980101,-0.414264977230957,-0.0991441447766608,-0.229553983842322
52,-0.100932675448408,-0.231316956619015,0.854255256513734,-0.417518572604605,0.854255256509621,-0.417518572602377,-0.101011248923511,-0.231134765967612
52.5,-0.102809509284276,-0.232883549757545,0.851932887760416,-0.420754198804877,0.851932887756383,-0.420754198802694,-0.102889063664263,-0.23269855100092
53,-0.104696908430094,-0.234433092133968,0.849597260302603,-0.423971798427692,0.849597260298649,-0.423971798425555,-0.104777407131068,-0.234245277373845
53.5,-0.106594689878048,-0.235965523731527,0.847248558828226,-0.427171316650119,0.847248558824351,-0.427171316648027,-0.106676097375238,-0.235774885627915
54,-0.108502670595951,-0.237480786683772,0.84488696808348,-0.430352701215109,0.844886968079683,-0.430352701213061,-0.108584952389935,-0.237287318411763
54.5,-0.110420667549477,-0.238978825268705,0.842512672822764,-0.433515902413322,0.842512672819044,-0.433515902411316,-0.110503790133085,-0.238782520477828
55,-0.112348497724538,-0.24045958590256,0.84012585775996,-0.436660873064316,0.840125857756318,-0.436660873062352,-0.112432428550464,-0.240260438678569
55.5,-0.114285978149823,-0.241923017133282,0.837726707520997,-0.439787568497163,0.837726707517432,-0.439787568495241,-0.114370685598953,-0.241721021962204
56,-0.116232925919454,-0.243369069633661,0.835315406597646,-0.442895946530509,0.835315406594156,-0.442895946528628,-0.116318379269902,-0.243164221367993
56.5,-0.118189158215725,-0.24479769619412,0.832892139302536,-0.445985967452114,0.832892139299122,-0.445985967450272,-0.118275327612592,-0.244589990021035
57,-0.120154492331913,-0.246208851715174,0.830457089725339,-0.449057593997885,0.830457089721999,-0.449057593996081,-0.120241348757762,-0.245998283126632
57.5,-0.122128745695135,-0.247602493199533,0.8280104416901,-0.452110791330443,0.828010441686834,-0.452110791328677,-0.122216260941172,-0.247389057964177
58,-0.124111735889217,-0.248978579743876,0.825552378713685,-0.455145527017248,0.825552378710492,-0.455145527015521,-0.124199882527183,-0.248762273880611
58.5,-0.126103280677573,-0.250337072530266,0.823083083965304,-0.458161771008292,0.823083083962184,-0.458161771006602,-0.126192032032332,-0.250117892283434
59,-0.128103198026063,-0.251677934817241,0.820602740227102,-0.461159495613392,0.820602740224055,-0.461159495611738,-0.128192528148875,-0.25145587663329
59.5,-0.130111306125803,-0.253001131930545,0.818111529855785,-0.464138675479104,0.81811152985281,-0.464138675477485,-0.130201189768278,-0.252776192436113
60,-0.132127423415935,-0.254306631253538,0.815609634745245,-0.467099287565279,0.815609634742342,-0.467099287563694,-0.132217836004652,-0.254078807234874
60.5,-0.134151368606309,-0.255594402217259,0.813097236290183,-0.470041311121276,0.813097236287352,-0.470041311119725,-0.134242286218092,-0.255363690600902
61,-0.136182960700086,-0.25686441629016,0.810574515350702,-0.472964727661847,0.81057451534794,-0.472964727660329,-0.136274360037917,-0.256630814124811
61.5,-0.138222019016232,-0.258116646967513,0.808041652217826,-0.475869520942729,0.808041652215135,-0.475869520941243,-0.138313877385795,-0.257880151407027
62,-0.14026836321189,-0.259351069760482,0.805498826579976,-0.47875567693594,0.805498826577354,-0.478755676934485,-0.140360658498733,-0.259111678047932
62.5,-0.142321813304633,-0.260567662184891,0.802946217490323,-0.481623183804803,0.80294621748777,-0.481623183803381,-0.142414523951925,-0.260325371637629
63,-0.144382189694551,-0.261766403749658,0.800384003335063,-0.484472031878733,0.800384003332579,-0.48447203187734,-0.144475294681431,-0.261521211745329
