"Freq [GHz]","re(St(P1,P1)) []","im(St(P1,P1)) []","re(St(P1,P2)) []","im(St(P1,P2)) []","re(St(P2,P1)) []","im(St(P2,P1)) []","re(St(P2,P2)) []","im(St(P2,P2)) []"
0,0.00296880151717005,0,0.997042718663579,0,0.997042730537942,0,0.0029688138307904,0
0.5,0.00327991999227351,0.000756307383603883,0.996655586797587,-0.00464178094933487,0.996655586622339,-0.00464177819826261,0.00327985262858732,0.000756653328288337
1,0.00356547627568915,0.0011051075718882,0.996183019033207,-0.00884832568665672,0.996183019611053,-0.00884832614972453,0.00356525417184983,0.00110587236486026
1.5,0.00339137264938927,0.00147585638855929,0.995849048381329,-0.0131313513347777,0.995849048851861,-0.0131313519066403,0.00339116510830806,0.00147760289373977
2,0.00326954292313708,0.00180112988013192,0.995435084283509,-0.0172831330077194,0.995435084639801,-0.017283133594848,0.00326908671720716,0.00180367080220734
2.5,0.00318876177624627,0.00211808278597658,0.994973729400381,-0.0213047036853347,0.994973729652387,-0.0213047042170338,0.00318801508521371,0.00212124182887763
3,0.00313463519621049,0.00244151835515893,0.994489737562054,-0.0252117775277583,0.99448973772848,-0.0252117779636336,0.00313362967419017,0.00244519861550785
3.5,0.00309708003369513,0.00277689223635313,0.993998794573644,-0.029026253091617,0.993998794675217,-0.029026253417527,0.00309585719114347,0.0027810524235381
4,0.00306975251026298,0.00312642273904196,0.993508937617563,-0.0327702021441194,0.993508937673037,-0.0327702023639169,0.00306834610654239,0.00313105266280367
4.5,0.00304865717048219,0.00349139990454006,0.993022836266803,-0.0364627582008925,0.993022836291317,-0.0364627583283319,0.00304709074272669,0.00349650625480535
5,0.00303116279993554,0.00387300974733051,0.99253989116539,-0.0401191046868199,0.992539891170291,-0.0401191047397429,0.00302945100723218,0.00387860887064662
5.5,0.00301540864650507,0.00427262540832807,0.992057783086641,-0.0437506134623415,0.992057783079964,-0.0437506134590411,0.00301355907248313,0.00427873984700433
6,0.0029999527422182,0.00469191407955094,0.991573473978874,-0.0473654556877268,0.991573473966038,-0.0473654556450622,0.00299796733345903,0.00469857103844262
6.5,0.00298355601334621,0.00513288549228896,0.991083790737348,-0.0509693093055166,0.991083790721824,-0.0509693092381358,0.00298143204816936,0.00514011630604294
7,0.00296503945999815,0.0055979279233993,0.990585731762947,-0.0545659958392823,0.990585731746802,-0.0545659957594253,0.00296277011007617,0.00560576807148916
7.5,0.00294317841136038,0.00608984912657728,0.99007660510144,-0.0581579938066588,0.990076605085761,-0.058157993724322,0.00294075297252239,0.00609833858011921
8,0.00291661231291496,0.00661192952227729,0.989554071474013,-0.0617468288491008,0.989554071459219,-0.0617468287723044,0.00291401615809928,0.00662111332560578
8.5,0.00288375574892807,0.00716799173394556,0.989016137627812,-0.065333360041345,0.989016137613877,-0.0653333599764467,0.00288097002744847,0.00717792078620683
9,0.00284269948983618,0.00776248993502549,0.98846112651862,-0.0689179855676736,0.988461126505224,-0.0689179855196524,0.00283970056930499,0.00777322197263075
9.5,0.00279109081218565,0.00840062293212451,0.987887638998765,-0.072500788496483,0.987887638985402,-0.0725007884692177,0.00278784943177712,0.00841222373606687
10,0.00272598077992114,0.00908847587998007,0.987294514656359,-0.0760816391986454,0.987294514642411,-0.076081639195106,0.00272246085273825,0.00910102075050201
10.5,0.00279985505739189,0.00953816793634932,0.986731319593795,-0.0796643025531329,0.986731319579913,-0.0796643025491264,0.00279601958778014,0.00955139562452256
11,0.0028772778578276,0.00998716786155907,0.986160246456671,-0.08322926460845,0.986160246442894,-0.0832292646039843,0.0028731113456332,0.0100010865903952
11.5,0.00295824122845148,0.0104354427563775,0.985582098209185,-0.0867776131640516,0.985582098195548,-0.08677761315914,0.00295372814804518,0.0104500611634091
12,0.00304273682653691,0.0108829597242819,0.984997531336313,-0.0903104244641524,0.984997531322851,-0.0903104244588109,0.00303786162313302,0.0108982868652658
12.5,0.00313075591628136,0.011329685870213,0.984407069384461,-0.0938287496806911,0.984407069371202,-0.0938287496749375,0.00312550300186457,0.0113457312231251
13,0.00322228936546115,0.0117755882991206,0.983811116672109,-0.0973336043249802,0.983811116659081,-0.097333604318834,0.00321664311428861,0.0117923617684523
13.5,0.00331732764183126,0.0122206341142412,0.983209971771751,-0.100825960260729,0.983209971758977,-0.100825960254213,0.00331127238548234,0.0122381460356342
14,0.00341586080927035,0.0126647904151564,0.982603840465591,-0.104306739978901,0.982603840453092,-0.104306739972038,0.00340938083120175,0.0126830515603871
14.5,0.00351787852364106,0.0131080242955557,0.981992847964987,-0.107776812800288,0.98199284795278,-0.107776812793103,0.00351095805321625,0.0131270458778934
15,0.00362337002835941,0.0135503028407027,0.981377050256873,-0.11123699268936,0.981377050244973,-0.111236992681878,0.00361599323430654,0.0135700965206742
15.5,0.00373232414964088,0.0139915931245898,0.980756444499829,-0.11468803738852,0.980756444488248,-0.114688037380765,0.00372447513290008,0.0140121710161725
16,0.00384472929141139,0.0144318622067163,0.980130978439192,-0.118130648611888,0.980130978427938,-0.118130648603884,0.00383639207732039,0.0144532368839916
16.5,0.0039605734298546,0.0148710771285163,0.979500558846181,-0.121565473069471,0.979500558835262,-0.121565473061243,0.00395173195962648,0.0148932616328183
17,0.00407984410757314,0.0153092049093555,0.978865059011968,-0.124993104124122,0.978865059001389,-0.124993104115693,0.00407048222900279,0.0153322127569466
17.5,0.0042025284273326,0.0157462125420911,0.978224325345697,-0.128414083913801,0.978224325335461,-0.128414083905193,0.00419262988468164,0.0157700577324063
18,0.00432861304536156,0.016182066988137,0.977578183137104,-0.131828905799342,0.977578183127212,-0.131828905790578,0.0043181614683506,0.0162067640126287
18.5,0.00445808416417626,0.0166167351720263,0.976926441551047,-0.135238017022943,0.976926441541499,-0.135238017014043,0.00444706305601469,0.0166422990236734
19,0.00459092752488885,0.0170501839753743,0.976268897924001,-0.138641821484644,0.976268897914795,-0.13864182147563,0.00457932024926855,0.0170766301588783
19.5,0.00472712839896997,0.0174823802302493,0.975605341432543,-0.142040682563056,0.975605341423678,-0.142040682553944,0.00471491816593489,0.0175097247729941
20,0.00486667157941748,0.0179132907118511,0.974935556201739,-0.145434925922968,0.974935556193209,-0.145434925913778,0.00485384143002035,0.0179415501756597
20.5,0.00500954137128973,0.0183428821304656,0.97425932391784,-0.148824842266086,0.97425932390964,-0.148824842256836,0.00499607416093764,0.0183720736242319
21,0.0051557215815532,0.0187711211226236,0.973576426005382,-0.152210689992546,0.973576425997508,-0.152210689983251,0.00514159996192867,0.0188012623158782
21.5,0.0053051955081965,0.0191979742413779,0.9728866454239,-0.155592697750147,0.972886645416346,-0.155592697740822,0.00529040190763647,0.0192290833788582
22,0.0054579459285431,0.0196234079456561,0.972189768134462,-0.158971066855797,0.97218976812722,-0.158971066846457,0.00544246253074887,0.0196555038629569
22.5,0.00561395508671081,0.0200473885885493,0.971485584281192,-0.162345973579684,0.971485584274255,-0.16234597357034,0.00559776380763929,0.0200804907289465
23,0.00577320468014494,0.0204698824044907,0.970773889128148,-0.165717571287387,0.970773889121509,-0.165717571278053,0.00575628714292656,0.0205040108370125
23.5,0.00593567584514976,0.0208908554951899,0.970054483787275,-0.169085992438846,0.970054483780925,-0.169085992429533,0.00591801335285921,0.0209260309340547
24,0.00610134914134125,0.021310273814211,0.969327175768941,-0.172451350445864,0.969327175762873,-0.172451350436583,0.0060829226474268,0.0213465176397154
24.5,0.0062702045349276,0.0217281031500618,0.968591779382622,-0.175813741391905,0.968591779376827,-0.175813741382665,0.00625099461109258,0.0217654374310694
25,0.00644222138072836,0.0221443091076798,0.967848116011774,-0.179173245619359,0.967848116006243,-0.179173245610172,0.00642220818202374,0.0221827566257895
25.5,0.00661737840281637,0.0225588570880846,0.967096014283721,-0.182529929190578,0.967096014278447,-0.182529929181448,0.00659654162969542,0.0225984413636713
26,0.00679565367367868,0.0229717122661079,0.966335310152561,-0.185883845229472,0.966335310147534,-0.185883845220408,0.00677397253071885,0.02301245758634
26.5,0.00697702459176161,0.0233828395659232,0.96556584691056,-0.189235035150972,0.965565846905773,-0.189235035141981,0.00695447774273988,0.0234247710149522
27,0.00716146785726596,0.0237922036342124,0.964787475141286,-0.19258352978565,0.96478747513673,-0.192583529776739,0.00713803337623475,0.02383534712569
27.5,0.00734895944604058,0.0241997688106799,0.964000052625793,-0.195929350406864,0.964000052621459,-0.195929350398039,0.00732461476400936,0.0242441511228262
28,0.00753947458140819,0.0246054990956717,0.963203444211459,-0.199272509667566,0.963203444207339,-0.199272509658832,0.00751419642819456,0.0246511479090779
28.5,0.00773298770374092,0.0250093581145499,0.962397521651614,-0.20261301245372,0.9623975216477,-0.20261301244508,0.00770675204450072,0.0250563020529744
29,0.00792947243758424,0.0254113090785242,0.961582163422808,-0.205950856660883,0.961582163419092,-0.205950856652342,0.00790225440347742,0.0254595777529181
29.5,0.0081289015561184,0.0258113147415,0.960757254525479,-0.209286033900275,0.960757254521953,-0.209286033891837,0.00810067536849196,0.0258609387975626
30,0.00833124694269866,0.0262093373525427,0.959922686272816,-0.21261853014016,0.959922686269471,-0.212618530131829,0.00830198583011077,0.0262603485220905
30.5,0.00853647954923131,0.0266053386034322,0.95907835607181,-0.215948326288081,0.95907835606864,-0.21594832627986,0.00850615565653501,0.0266577697599413
31,0.0087445693510762,0.0269992795707739,0.958224167199801,-0.219275398719057,0.958224167196797,-0.219275398710947,0.00871315363970188,0.0270531647894408
31.5,0.00895548529815526,0.0273911206519977,0.957360028579194,-0.222599719754488,0.957360028576349,-0.222599719746492,0.00892294743661148,0.0274464952747391
32,0.00916919526192983,0.0277808214945758,0.956485854552581,-0.225921258096143,0.956485854549889,-0.225921258088264,0.00913550350541886,0.027837722200404
32.5,0.0093856659778333,0.0281683409175864,0.955601564660015,-0.229239979219295,0.955601564657468,-0.229239979211534,0.00935078703572756,0.0282268057988477
33,0.00960486298274166,0.0285536368247499,0.954707083419849,-0.232555845728665,0.954707083417441,-0.232555845721023,0.0095687618725146,0.0286137054697573
33.5,0.00982675054701321,0.0289366661078383,0.953802340114267,-0.235868817680612,0.953802340111989,-0.235868817673089,0.00978939043300203,0.0289983796904876
34,0.0100512916005562,0.029317384539276,0.95288726858033,-0.239178852874653,0.952887268578178,-0.239178852867252,0.0100126336157345,0.0293807859162845
34.5,0.0102784476523654,0.0296957466525405,0.951961807007213,-0.24248590711716,0.951961807005181,-0.24248590710988,0.0102384507010354,0.029760880469015
35,0.0105081787028852,0.0300717056087882,0.951025897740058,-0.245789934459802,0.951025897738138,-0.245789934452645,0.0104667992418994,0.0301386184128938
35.5,0.0107404431484919,0.0304452130478639,0.950079487090779,-0.24909088741513,0.950079487088966,-0.249090887408095,0.0106976349442741,0.0305139534154431
36,0.0109751976773379,0.0308162189216423,0.949122525156018,-0.252388717151381,0.949122525154306,-0.252388717144469,0.0109309115355664,0.0308868375917037
36.5,0.0112123971556982,0.0311846713072292,0.948154965642322,-0.25568337366853,0.948154965640706,-0.255683373661741,0.0111665806200338,0.0312572213293285
37,0.0114519945038894,0.0315505161972813,0.947176765698587,-0.258974805957278,0.94717676569706,-0.25897480595061,0.0114045915195941,0.0316250530918865
37.5,0.0116939405607407,0.0319136972641556,0.946187885755676,-0.262262962142656,0.946187885754234,-0.26226296213611,0.0116448910983665,0.0319902791972044
38,0.0119381839355009,0.0322741555941546,0.94518828937316,-0.265547789613642,0.945188289371798,-0.265547789607218,0.0118874235690698,0.0323528435671034
38.5,0.012184670845956,0.0326318293874635,0.944177943092985,-0.268829235140154,0.944177943091698,-0.268829235133851,0.0121321302791482,0.032712687444223
39,0.0124333449414326,0.0329866536186394,0.943156816299923,-0.272107244978592,0.943156816298707,-0.272107244972409,0.0123789494742347,0.0330697490709104
39.5,0.0126841471092733,0.0333385596516762,0.942124881088602,-0.27538176496702,0.942124881087451,-0.275381764960956,0.0126278160362459,0.033423963324277
40,0.0129370152632261,0.0336874748025489,0.941082112136882,-0.278652740610982,0.941082112135791,-0.278652740605035,0.012878661193064,0.0337752613004159
40.5,0.0131918841121403,0.034033321840955,0.940028486585366,-0.281920117160824,0.940028486584332,-0.281920117154996,0.0131314121963622,0.0341235698395679
41,0.0134486849072574,0.0343760184214195,0.938963983922808,-0.285183839681345,0.938963983921825,-0.285183839675632,0.0133859919637009,0.0344688109824167
41.5,0.0137073451663371,0.0347154764321407,0.937888585877158,-0.288443853114486,0.937888585876223,-0.288443853108888,0.0136423186805296,0.0348109013458664
42,0.0139677883728739,0.0350516012477264,0.936802276312031,-0.291700102335741,0.936802276311141,-0.291700102330258,0.0139003053571719,0.0351497514043626
42.5,0.0142299336486998,0.0353842908693602,0.935705041128337,-0.294952532204877,0.935705041127487,-0.294952532199506,0.0141598593353,0.0354852646600465
43,0.014493695398469,0.0357134349326622,0.934596868170839,-0.298201087611492,0.934596868170027,-0.298201087606231,0.0144208817377238,0.0358173366816423
43.5,0.0147589829248298,0.0360389135595791,0.933477747139423,-0.301445713515928,0.933477747138643,-0.301445713510776,0.0146832668546534,0.0361458539877673
44,0.0150257000136449,0.0363605960258042,0.932347669504821,-0.304686354985952,0.93234766950407,-0.30468635498091,0.0149469014588424,0.0364706927451977
44.5,0.015293744489491,0.0366783392092813,0.931206628428603,-0.307922957229642,0.93120662842788,-0.307922957224705,0.0152116640413245,0.0367917172462016
45,0.0155630077429969,0.0369919857780254,0.930054618687199,-0.311155465624794,0.930054618686498,-0.311155465619962,0.0154774239587667,0.0371087781210224
45.5,0.0158333742335534,0.0373013620664033,0.928891636599747,-0.314383825745231,0.928891636599067,-0.314383825740503,0.0157440404829294,0.0374217102315939
46,0.0161047209738167,0.037606275577756,0.927717679959593,-0.317607983384275,0.92771767995893,-0.317607983379648,0.0160113617424325,0.0377303301799137
46.5,0.0163769170066587,0.0379065120371826,0.92653274796922,-0.320827884575658,0.926532747968571,-0.320827884571132,0.0162792235471964,0.03803443334856
47,0.0166498228912376,0.0382018319006774,0.925336841178454,-0.324043475612136,0.925336841177816,-0.324043475607708,0.0165474480868262,0.0383337903705285
47.5,0.0169232902236189,0.0384919662047594,0.924129961425755,-0.327254703061998,0.924129961425126,-0.327254703057667,0.0168158424963411,0.0386281428996413
48,0.0171971612298172,0.0387766116128283,0.922912111782439,-0.330461513783694,0.922912111781817,-0.330461513779458,0.0170841972866627,0.038917198519496
48.5,0.0174712684870212,0.0390554244793095,0.921683296499673,-0.333663854938747,0.921683296499054,-0.333663854934604,0.0173522846442788,0.0392006245858938
49,0.017745434854408,0.0393280137080236,0.920443520958083,-0.336861674003126,0.920443520957465,-0.336861673999074,0.0176198566161059,0.0394780407419162
49.5,0.0180194737317421,0.0395939321245784,0.919192791619847,-0.340054918777216,0.919192791619229,-0.340054918773254,0.0178866432142743,0.0397490097719222
50,0.0182931898170318,0.0398526660104963,0.917931115983138,-0.343243537394536,0.917931115982517,-0.343243537390662,0.0181523505052071,0.0400130263651581
50.5,0.0185663806111891,0.0401036223552129,0.916658502538779,-0.346427478329297,0.916658502538152,-0.346427478325509,0.018416658793891,0.0402695032335647
51,0.0188388390289767,0.0403461132656313,0.915374960728991,-0.349606690402958,0.915374960728357,-0.349606690399254,0.0186792210868748,0.0405177538611365
51.5,0.0191103576379846,0.0405793368257388,0.914080500908142,-0.352781122789827,0.914080500907498,-0.352781122786206,0.0189396621307164,0.0407569709396038
52,0.0193807352855702,0.0408023535139077,0.91277513430535,-0.355950725021843,0.912775134304695,-0.355950725018302,0.0191975784991254,0.0409861992475555
52.5,0.0196497872249382,0.0410140570564861,0.911458872988872,-0.359115446992582,0.911458872988205,-0.359115446989121,0.0194525404781253,0.0412043013313173
53,0.0199173603723488,0.0412131383190872,0.910131729832171,-0.362275238960598,0.910131729831488,-0.362275238957214,0.0197040969322496,0.0414099138109751
53.5,0.0201833561039671,0.041398040514864,0.908793718481559,-0.365430051552139,0.90879371848086,-0.365430051548829,0.0199517850199901,0.0416013914189335
54,0.0204477641645461,0.0415669036629489,0.907444853325349,-0.368579835763307,0.907444853324632,-0.368579835760071,0.0201951477167356,0.0417767349263549
54.5,0.0207107130114095,0.0417174959191782,0.90608514946442,-0.371724542961727,0.906085149463684,-0.371724542958563,0.0204337638503967,0.0419334978647605
55,0.0209725445600032,0.041847129263836,0.904714622684125,-0.37486412488776,0.904714622683368,-0.374864124884665,0.0206672981771714,0.0420686653590774
55.5,0.0212339252859174,0.0419525573664596,0.903333289427469,-0.377998533655315,0.90333328942669,-0.377998533652288,0.0208955836200814,0.0421784964697343
56,0.0214960116334703,0.042029854873088,0.901941166769485,-0.381127721752296,0.901941166768682,-0.381127721749335,0.021118755328034,0.042258319394302
56.5,0.0217606965905137,0.0420742811158865,0.900538272392749,-0.384251642040726,0.900538272391921,-0.384251642037829,0.0213374686341088,0.0423022673751436
57,0.0220309772146698,0.0420801397618693,0.89912462456397,-0.387370247756575,0.899124624563116,-0.387370247753741,0.0215532534999994,0.0423029440070097
57.5,0.0223115007579474,0.0420406638677764,0.897700242111597,-0.390483492509331,0.897700242110716,-0.390483492506557,0.0217690917213636,0.0422510142850538
58,0.0226093692799113,0.0419479918870025,0.896265144404391,-0.393591330281329,0.896265144403481,-0.393591330278614,0.0219903575240792,0.042134742599929
58.5,0.0229353035772316,0.041793369757023,0.894819351330905,-0.396693715426877,0.894819351329967,-0.396693715424219,0.022226346131128,0.0419395645352427
59,0.0233052668491787,0.0415678419033171,0.893362883279842,-0.399790602671192,0.893362883278873,-0.399790602668589,0.0224927316884672,0.0416479369746017
59.5,0.0237425716084705,0.041263910909621,0.891895761121214,-0.402881947109166,0.891895761120214,-0.402881947106617,0.022815415507741,0.0412400651194869
60,0.0242802104384021,0.040878962686331,0.890418006188292,-0.405967704203989,0.890418006187261,-0.405967704201492,0.0232361970578313,0.0406968417775256
60.5,0.024962410862593,0.0404215622728886,0.888929640260286,-0.409047829785633,0.888929640259222,-0.409047829783186,0.023820021232147,0.0400076784007295
61,0.0258428872138073,0.0399215347647172,0.887430685545722,-0.412122280049222,0.887430685544625,-0.412122280046823,0.024660925968403,0.0391876840423382
61.5,0.0269750350770319,0.0394427681778948,0.885921164666486,-0.415191011553298,0.885921164665356,-0.415191011550946,0.0258769696666101,0.0383085639393821
62,0.0283884693116216,0.0390920042745061,0.884401100642488,-0.418253981217994,0.884401100641323,-0.418253981215687,0.0275733850477919,0.0375376216242005
62.5,0.0300528519067306,0.0390083313113279,0.882870516876931,-0.421311146323123,0.88287051687573,-0.42131114632086,0.0297539094627056,0.0371474448150646
63,0.0318492236606647,0.0393179356282531,0.881329437142138,-0.4243624645062,0.881329437140901,-0.424362464503978,0.032215369849362,0.0374251823219037
63.5,0.0335861670183596,0.0400656613249762,0.879777885565923,-0.427407893760395,0.87977788556465,-0.427407893758212,0.034560002896097,0.0384771017592909
