"Freq [GHz]","re(St(P1,P1)) []","im(St(P1,P1)) []","re(St(P1,P2)) []","im(St(P1,P2)) []","re(St(P2,P1)) []","im(St(P2,P1)) []","re(St(P2,P2)) []","im(St(P2,P2)) []"
0,0.00292006436245629,0,0.99709266021091,0,0.997092661942588,0,0.00292006597163663,0
0.5,0.00329991116998229,7.32202329984943E-005,0.99665012598674,-0.00456186484685617,0.996650125548001,-0.00456186397182279,0.0032999264893121,7.30145536351756E-005
1,0.0036533197998132,-0.000353293584424819,0.996144712664108,-0.00860659825873711,0.996144712718689,-0.00860659793806917,0.00365335814116818,-0.000353760398816405
1.5,0.00366187734039869,-0.000976192875743465,0.995832471170992,-0.0127537209954198,0.99583247122192,-0.0127537206100179,0.00366180890573986,-0.000976915889186358
2,0.00364190128815522,-0.00150683583525435,0.995454061135634,-0.0167630646514034,0.995454061181308,-0.0167630642681544,0.00364175295035452,-0.00150779958650915
2.5,0.00360777165092152,-0.00199633861299375,0.99504151095825,-0.0206432064697495,0.995041510997432,-0.0206432061339932,0.00360754108696604,-0.00199753653625834
3,0.00356335040217992,-0.00246131358744961,0.994616471009153,-0.0244166153377492,0.994616471041168,-0.0244166150710967,0.00356302846228296,-0.0024627399428816
3.5,0.00351025440697761,-0.00290832189572399,0.994190548903442,-0.0281091781451828,0.994190548928214,-0.0281091779514107,0.00350983021776585,-0.00290997056734099
4,0.00344945158525434,-0.00334016496697309,0.993768025315802,-0.0317441771549483,0.993768025333709,-0.0317441770274218,0.00344891419978577,-0.00334202925236049
4.5,0.00338169228880902,-0.00375801323280101,0.993348750301529,-0.0353400541384534,0.993348750313233,-0.0353400540658768,0.00338103136309442,-0.00376008585237564
5,0.00330765042556491,-0.00416226683129928,0.992930324507452,-0.0389103350477384,0.99293032451378,-0.0389103350177784,0.003306856546335,-0.00416454000123068
5.5,0.00322797394328189,-0.00455295038396919,0.99250947093259,-0.0424644381073467,0.992509470934414,-0.0424644381084871,0.00322703880330133,-0.00455541591026609
6,0.0031433022552485,-0.00492991165867096,0.992082792580463,-0.0460086635228336,0.992082792578647,-0.0460086635451109,0.00314221874872356,-0.00493256103773376
6.5,0.00305427027042104,-0.00529292854486307,0.991647139399165,-0.0495470702996954,0.991647139394527,-0.0495470703348833,0.00305303253919864,-0.00529575306374497
7,0.00296150668395367,-0.00564176934489069,0.991199752487634,-0.0530821593080706,0.991199752480932,-0.0530821593495592,0.00296011012941722,-0.0056447601775691
7.5,0.00286562984801253,-0.00597622752908755,0.990738292323691,-0.0566153715806585,0.990738292315614,-0.0566153716232343,0.0028640711170087,-0.00597937582630337
8,0.0027672427976313,-0.00629614164230574,0.990260812624475,-0.0601474386282685,0.990260812615649,-0.0601474386678706,0.00276551974795236,-0.00629943861330418
8.5,0.00266692823308579,-0.00660140612132842,0.989765712978094,-0.0636786234103788,0.989765712969086,-0.0636786234438702,0.00266503988261757,-0.00660484310648535
9,0.00256524388471591,-0.00689197631394567,0.989251686899408,-0.0672088839036462,0.989251686890731,-0.0672088839286289,0.00256319034767449,-0.00689554484758848
9.5,0.00246271848698898,-0.00716786968665772,0.988717672953093,-0.0707379831857633,0.988717672945211,-0.0707379832004174,0.00246050090024541,-0.00717156154989151
10,0.00235984847365001,-0.00742916448397324,0.98816281190054,-0.0742655630649391,0.988162811893878,-0.0742655630678923,0.00235746891581901,-0.0074329717475905
10.5,0.00228145823014814,-0.00775878300184552,0.987642072861215,-0.0777502220266628,0.987642072856882,-0.0777502220084161,0.00227874851811261,-0.00776355476725232
11,0.00220346651263681,-0.00808426815934649,0.98711685831206,-0.0812200767389459,0.987116858312406,-0.0812200767007401,0.00220028503616621,-0.00808996716084032
11.5,0.00212627831696233,-0.00840587557221628,0.986587557517634,-0.0846764330485721,0.986587557524698,-0.0846764329918388,0.00212249114346913,-0.00841244282116893
12,0.00205026537770181,-0.00872390619518182,0.986054415715278,-0.0881205177833237,0.986054415730793,-0.0881205177096405,0.00204574987428163,-0.00873126270722846
12.5,0.00197576014083256,-0.0090387016407858,0.985517556700396,-0.0915534723556393,0.985517556725797,-0.0915534722666731,0.00197040819954114,-0.00904675081165074
13,0.00190305050340234,-0.00935063852015716,0.984977003399654,-0.094976349747931,0.984977003436101,-0.0949763496453864,0.00189677124279097,-0.00935926905499684
13.5,0.00183237550822302,-0.00966012195816646,0.984432696280577,-0.0983901141408712,0.98443269632897,-0.0983901140264791,0.00182509734874231,-0.00966921123181574
14,0.00176392214499338,-0.00996757847613683,0.983884509575029,-0.101795642543781,0.983884509636033,-0.101795642419242,0.00175559418701887,-0.0099769961812024
14.5,0.00169782336329741,-0.010273448465532,0.983332265384945,-0.105193727885722,0.983332265459011,-0.105193727752705,0.00168841603188283,-0.0102830603936148
15,0.00163415735060546,-0.0105781784942467,0.982775745798543,-0.108585083121292,0.982775745885932,-0.108585082981401,0.00162366230809313,-0.0105878502932066
15.5,0.00157294807348143,-0.0108822136913984,0.982214703181017,-0.111970345991834,0.982214703281821,-0.111970345846602,0.00156137743699702,-0.0108918144489252
16,0.00151416702655026,-0.011185990447073,0.98164886882133,-0.115350084158934,0.981648868935494,-0.115350084009811,0.00150155195959092,-0.0111953959667437
16.5,0.0014577360850118,-0.0114899296415469,0.981077960121341,-0.118724800492394,0.981077960248683,-0.118724800340742,0.00144412485865317,-0.0114990253006457
17,0.00140353131574437,-0.0117944305858995,0.980501686509084,-0.122094938349245,0.980501686649312,-0.122094938196334,0.00138898695385571,-0.0118031136923351
17.5,0.00135138757147336,-0.0120998658156024,0.979919754247773,-0.125460886724941,0.979919754400506,-0.125460886571943,0.0013359852050208,-0.0121080474120046
18,0.00130110367343771,-0.0124065768340396,0.979331870298437,-0.128822985193635,0.979331870463216,-0.128822985041626,0.00128492773138048,-0.0124141829280298
18.5,0.00125244798058062,-0.012714870856863,0.978737745378702,-0.132181528582639,0.978737745555004,-0.132181528432606,0.0012355893397699,-0.0127218430855276
19,0.00120516414693617,-0.0130250185641407,0.978137096344365,-0.135536771347997,0.978137096531618,-0.13553677120083,0.00118771735192306,-0.0130313143259397
19.5,0.00115897688193888,-0.0133372528275877,0.977529648004891,-0.138888931634692,0.977529648202481,-0.138888931491197,0.00114103752938208,-0.0133428449353343
20,0.00111359754906125,-0.0136517683468371,0.976915134469315,-0.142238195017278,0.9769151346766,-0.14223819487817,0.00109525991213583,-0.013656644269985
20.5,0.00106872946401487,-0.013968722102907,0.976293300105554,-0.145584717925688,0.976293300321868,-0.145584717791608,0.00105008441161139,-0.0139728828763697
21,0.0010240727825909,-0.0142882345189586,0.975663900183945,-0.148928630767169,0.975663900408606,-0.148928630638672,0.00100520602769974,-0.0142916933991515
21.5,0.000979328897889209,-0.0146103912081972,0.975026701265066,-0.15227004075942,0.975026701497387,-0.152270040636997,0.000960319590581266,-0.0146131721558205
22,0.000934204295340302,-0.014935245185463,0.974381481382379,-0.155609034492609,0.974381481621668,-0.155609034376676,0.000915123959183056,-0.0149373812494131
22.5,0.000888413840243574,-0.0152628194217157,0.973728030062,-0.158945680239276,0.973728030307567,-0.158945680130187,0.000869325637281232,-0.0152643510907313
23,0.000841683495458267,-0.0155931096280502,0.973066148214813,-0.162280030031651,0.973066148465972,-0.1622800299297,0.000822641794395507,-0.0155940832069317
23.5,0.000793752485883259,-0.0159260871667013,0.972395647930076,-0.16561212152574,0.97239564818615,-0.165612121431167,0.000774802700739763,-0.0159265532234079
24,0.000744374941221426,-0.016261701999595,0.971716352194506,-0.168941979670946,0.971716352454831,-0.168941979583936,0.000725553603273504,-0.0162617139187646
24.5,0.000693321059352686,-0.016599885599208,0.971028094556464,-0.172269618203177,0.971028094820389,-0.17226961812387,0.000674656083251207,-0.0165994982674591
25,0.000640377839713852,-0.0169405537608722,0.970330718751226,-0.175595040978231,0.970330719018115,-0.175595040906717,0.000621888944890459,-0.0169398223999115
25.5,0.000585349439930216,-0.0172836092695032,0.969624078300221,-0.178918243161159,0.969624078569456,-0.178918243097491,0.000567048690186811,-0.0172825884250165
26,0.000528057210024691,-0.0176289443866318,0.968908036094605,-0.1822392122861,0.968908036365588,-0.182239212230295,0.000509949637199025,-0.0176276870741319
26.5,0.000468339457442873,-0.0179764431349141,0.968182463971384,-0.185557929199826,0.968182464243533,-0.18555792915186,0.000450423738781014,-0.0179750001383958
27,0.000406050993416507,-0.0183259833672498,0.967447242288564,-0.188874368901123,0.967447242561321,-0.188874368860947,0.000388320156420208,-0.0183244026824148
27.5,0.00034106250732252,-0.018677438615764,0.966702259504387,-0.192188501287005,0.966702259777213,-0.192188501254536,0.000323504640085792,-0.0186757650266887
28,0.000273259811086501,-0.0190306797225874,0.965947411764472,-0.195500291815677,0.96594741203685,-0.195500291790807,0.000255858760297378,-0.0190289544989124
28.5,0.000202542990750343,-0.0193855762594439,0.965182602499779,-0.198809702095243,0.965182602771213,-0.198809702077837,0.000185279033396935,-0.0193838369601527
29,0.000128825497257623,-0.0197419977468503,0.964407742037504,-0.202116690406153,0.964407742307521,-0.202116690396058,0.000111675975611125,-0.0197402781164921
29.5,5.20332036153537E-005,-0.0200998146864122,0.96362274722637,-0.205421212164701,0.963622747494517,-0.205421212161739,3.49731161375377E-005,-0.0200981446298654
30,-2.78965490795313E-005,-0.020458899421286,0.962827541077295,-0.208723220333959,0.962827541343142,-0.208723220337937,-4.48940055904345E-005,-0.0204573050438648
30.5,-0.0001110158984719,-0.020819126840764,0.962022052420011,-0.212022665787996,0.96202205268315,-0.212022665798703,-0.000127978838000031,-0.0208176305414223
31,-0.00019736738623477,-0.0211803749451454,0.961206215575863,-0.215319497634512,0.961206215835907,-0.215319497651724,-0.000214324794628518,-0.0211789955516339
31.5,-0.000286984850747851,-0.0215425252867814,0.960379970046811,-0.218613663500507,0.960379970303394,-0.218613663523985,-0.000303966198057448,-0.021541278222859
32,-0.000379894279008808,-0.0219054633025344,0.959543260220422,-0.221905109785085,0.959543260473198,-0.221905109814578,-0.000396929181306516,-0.0219043607785405
32.5,-0.000476114612104062,-0.0222690785520263,0.958696035090528,-0.225193781883059,0.958696035339172,-0.225193781918308,-0.000493232540229815,-0.0222681297713319
33,-0.000575658500607701,-0.0226332648749739,0.957838247993089,-0.228479624382593,0.957838248237297,-0.228479624423327,-0.000592888532750524,-0.0226324762499739
33.5,-0.000678533007969551,-0.0229979204797965,0.956969856356746,-0.231762581239785,0.956969856596235,-0.231762581285725,-0.000695903622663863,-0.0229972958521687
34,-0.000784740261311145,-0.0233629479744857,0.95609082146748,-0.235042595932761,0.956090821701983,-0.235042595983624,-0.000802279167260944,-0.0233624888353869
34.5,-0.00089427805010811,-0.0237282543495616,0.95520110824675,-0.238319611597567,0.955201108476021,-0.238319611653061,-0.000912012049212985,-0.023727960056307
35,-0.00100714037406269,-0.0240937509218391,0.9543006850425,-0.241593571147888,0.954300685266314,-0.241593571207718,-0.00102509525408606,-0.0240936189083438
35.5,-0.00112331794207415,-0.0244593532466157,0.95338952343238,-0.244864417380406,0.953389523650527,-0.244864417444273,-0.00114151839551291,-0.024459379225553
36,-0.00124279862464544,-0.0248249810049277,0.952467598038538,-0.248132093067385,0.952467598250826,-0.248132093134985,-0.00126126819056249,-0.0248251591600872
36.5,-0.00136556786236552,-0.0251905578716185,0.951534886353366,-0.251396541037934,0.951534886559622,-0.25139654110896,-0.00138432888814516,-0.0251908810394328
37,-0.00149160903325407,-0.0255560113690732,0.950591368575589,-0.254657704249178,0.950591368775655,-0.254657704323327,-0.00151068265349319,-0.0255564712086813
37.5,-0.00162090378186863,-0.0259212727108493,0.949637027456088,-0.257915525848508,0.949637027649824,-0.25791552592547,-0.00164030991185116,-0.0259218598623421
38,-0.0017534323130467,-0.0262862766386185,0.948671848152903,-0.261169949227863,0.948671848340185,-0.26116994930733,-0.00177318965449902,-0.0262869808694208
38.5,-0.0018891736531339,-0.0266509612553794,0.947695818094857,-0.264420918070952,0.947695818275577,-0.264420918152618,-0.00190929971019971,-0.0266517715948922
39,-0.00202810588145003,-0.027015267857355,0.946708926853284,-0.267668376394226,0.946708927027348,-0.267668376477783,-0.00204861698504399,-0.0270161727201381
39.5,-0.00217020633461129,-0.0273791407664854,0.945711166021365,-0.270912268582246,0.945711166188693,-0.27091226866739,-0.00219111767354258,-0.0273801280644062
40,-0.00231545178621739,-0.0277425271651404,0.944702529100592,-0.274152539418141,0.944702529261121,-0.274152539504568,-0.00233677744366129,-0.02774358440897
40.5,-0.00246381860424449,-0.0281053769342752,0.943683011393935,-0.277389134109636,0.943683011547615,-0.277389134197046,-0.0024855715983223,-0.0281064913252913
41,-0.0026152828883092,-0.0284676424960089,0.942652609905272,-0.280621998311209,0.942652610052065,-0.280621998399304,-0.00263747521572405,-0.0284688010081948
41.5,-0.00276982058885833,-0.0288292786613626,0.941611323244689,-0.28385107814277,0.941611323384571,-0.283851078231255,-0.00279246327066229,-0.0288304681148082
42,-0.00292740761012084,-0.0291902424836754,0.940559151539298,-0.287076320205262,0.940559151672258,-0.287076320293847,-0.00295051073884101,-0.0291914496098031
42.5,-0.00308801989855423,-0.0295504931180903,0.939496096349198,-0.290297671593544,0.939496096475238,-0.290297671681942,-0.00311159268602168,-0.0295517046173084
43,-0.00325163351834568,-0.0299099916873304,0.938422160588268,-0.293515079906853,0.938422160707401,-0.293515079994783,-0.00327568434367498,-0.0299111942797103
43.5,-0.00341822471538783,-0.0302687011538763,0.937337348449485,-0.296728493257108,0.937337348561734,-0.296728493344293,-0.00344276117265407,-0.0302698816234328
44,-0.00358776997103294,-0.030626586198597,0.936241665334459,-0.299937860275328,0.936241665439862,-0.299937860361495,-0.00361279891627042,-0.0306277314317089
44.5,-0.00376024604678254,-0.0309836131057617,0.93513511778696,-0.303143130116349,0.935135117885561,-0.303143130201233,-0.00378577364401245,-0.0309847101242751
45,-0.00393563002098568,-0.0313397496543497,0.934017713430131,-0.306344252462058,0.934017713521988,-0.306344252545398,-0.00396166178701923,-0.0313407856438297
45.5,-0.00411389931847767,-0.0316949650154952,0.932889460907203,-0.309541177523298,0.932889460992381,-0.309541177604839,-0.00414044016632242,-0.0316959273491062
46,-0.00429503173402868,-0.0320492296558923,0.931750369825456,-0.312733856040609,0.931750369904031,-0.312733856120103,-0.0043220860147507,-0.0320501059143279
46.5,-0.00447900545036078,-0.0324025152469531,0.930600450703238,-0.315922239283934,0.930600450775296,-0.315922239361139,-0.0045065769933027,-0.0324032932348086
47,-0.0046657990514144,-0.0327547945794753,0.929439714919861,-0.319106279051408,0.929439714985494,-0.319106279126088,-0.00469389120270053,-0.0327554623384392
47.5,-0.00485539153148307,-0.0331060414835984,0.928268174668161,-0.322285927667346,0.928268174727474,-0.322285927739275,-0.00488400719077103,-0.0331065873027983
48,-0.00504776230075388,-0.0334562307538,0.927085842909602,-0.325461137979525,0.927085842962703,-0.325461138048482,-0.00507690395621524,-0.0334566431776069
48.5,-0.00524289118774096,-0.0338053380786729,0.92589273333173,-0.328631863355828,0.925892733378737,-0.328631863421599,-0.00527256094926937,-0.0338056059122567
49,-0.00544075843904113,-0.0341533399752434,0.924688860307848,-0.331798057680353,0.924688860348887,-0.331798057742732,-0.00547095806970771,-0.0341534522881355
49.5,-0.00564134471679212,-0.0345002137275883,0.923474238858788,-0.334959675349031,0.923474238893991,-0.334959675407818,-0.00567207566257316,-0.0345001598554817
50,-0.0058446310941716,-0.034845937329502,0.922248884616629,-0.338116671264822,0.922248884646135,-0.338116671319829,-0.00587589451199166,-0.0348457068745116
50.5,-0.00605059904923477,-0.035190489430992,0.921012813790263,-0.341269000832548,0.921012813814216,-0.341269000883592,-0.00608239583336573,-0.0351900722605594
51,-0.00625923045734689,-0.0355338492883637,0.919766043132697,-0.344416619953396,0.919766043151248,-0.344416620000301,-0.00629156126422303,-0.0355332355329889
51.5,-0.00647050758245493,-0.0358759967176949,0.918508589909977,-0.34755948501914,0.918508589923282,-0.347559485061742,-0.00650337285395652,-0.035875176767648
52,-0.00668441306739043,-0.0362169120514775,0.917240471871654,-0.350697552906132,0.917240471879875,-0.350697552944271,-0.00671781305265418,-0.036215876552633
52.5,-0.00690092992338359,-0.0365565760982423,0.915961707222692,-0.353830780969063,0.915961707225995,-0.353830781002592,-0.00693486469920512,-0.0365553159471654
53,-0.0071200415189453,-0.0368949701049659,0.914672314596739,-0.356959127034561,0.914672314595294,-0.356959127063338,-0.00715451100883585,-0.0368934764433571
53.5,-0.00734173156825702,-0.0372320757220896,0.913372313030684,-0.360082549394623,0.913372313024667,-0.360082549418516,-0.00737673556021701,-0.0372303399307032
54,-0.0075659841191778,-0.037567874970986,0.912061721940426,-0.363201006799915,0.912061721930016,-0.363201006818799,-0.00760152228224936,-0.0375658886630985
54.5,-0.00779278354098384,-0.0379023502137039,0.910740561097791,-0.366314458452965,0.910740561083168,-0.366314458466726,-0.00782885544064393,-0.0379001052282248
55,-0.0080221145119117,-0.0382354841248453,0.90940885060852,-0.36942286400126,0.909408850589871,-0.369422864009793,-0.00805871962436983,-0.0382329725191319
55.5,-0.00825396200660533,-0.0385672596654443,0.908066610891297,-0.372526183530263,0.90806661086881,-0.37252618353347,-0.0082910997320591,-0.0385644737078918
56,-0.00848831128350919,-0.0388976600586957,0.906713862657728,-0.375624377556365,0.906713862631593,-0.375624377554158,-0.0085259809584215,-0.0388945922211581
56.5,-0.00872514787228174,-0.0392266687674285,0.905350626893246,-0.378717407019792,0.905350626863657,-0.37871740701209,-0.00876334878072871,-0.0392233117175129
57,-0.00896445756126679,-0.0395542694731943,0.903976924838882,-0.381805233277458,0.903976924806032,-0.381805233264192,-0.00900318894541247,-0.0395506160664836
57.5,-0.00920622638507224,-0.0398804460568771,0.902592777973852,-0.384887818095805,0.902592777937938,-0.384887818076913,-0.00924548745482268,-0.0398764893291048
58,-0.00945044061227684,-0.040205182580703,0.901198207998933,-0.387965123643606,0.901198207960151,-0.387965123619036,-0.00949023055416004,-0.040200915739927
58.5,-0.00969708673331343,-0.0405284632715672,0.899793236820576,-0.391037112484758,0.899793236779126,-0.391037112454465,-0.00973740471862822,-0.0405238796903633
59,-0.00994615144852962,-0.0408502725055977,0.898377886535725,-0.394103747571062,0.898377886491805,-0.394103747535012,-0.0099869966408172,-0.0408453657132997
59.5,-0.010197621656469,-0.0411705947938508,0.896952179417297,-0.397164992235014,0.896952179371106,-0.397164992193182,-0.0102389932183365,-0.0411653584688587
60,-0.0104514844423629,-0.0414894147690803,0.89551613790031,-0.400220810182578,0.895516137852048,-0.400220810134946,-0.0104933815417113,-0.0414838427312574
60.5,-0.0107077270668674,-0.0418067171735026,0.894069784568614,-0.403271165485982,0.894069784518478,-0.403271165432541,-0.0107501488825519,-0.0418008033766712
61,-0.0109663369550442,-0.0421224868474854,0.892613142142192,-0.406316022576517,0.892613142090382,-0.406316022517268,-0.011009282682004,-0.0421162253720435
61.5,-0.0112273016855887,-0.0424367087191075,0.891146233465024,-0.409355346237353,0.891146233411736,-0.409355346172306,-0.0112707705394877,-0.0424300937647675
