"Freq [GHz]","re(St(P1,P1)) []","im(St(P1,P1)) []","re(St(P1,P2)) []","im(St(P1,P2)) []","re(St(P2,P1)) []","im(St(P2,P1)) []","re(St(P2,P2)) []","im(St(P2,P2)) []"
0,0.00343803353737826,0,0.996574680117192,0,0.996574680597405,0,0.00343803080826888,0
0.5,0.00387785321826328,0.000250121970594819,0.996093408565457,-0.00446630219449773,0.996093408549854,-0.00446630218089794,0.00387776838567078,0.000250435795862813
1,0.00430746818434358,-6.52801808804782E-005,0.995573117698971,-0.00835890094474578,0.995573117700353,-0.00835890095047986,0.00430726620109212,-6.45523929918568E-005
1.5,0.004522491709956,-0.000564040710358427,0.995216661693831,-0.0123341567131554,0.995216661689906,-0.0123341567182393,0.00452206564768787,-0.000562931973071557
2,0.00461854744305512,-0.00104105786515518,0.994839688027644,-0.016163856106413,0.994839688019592,-0.0161638561095394,0.0046179445527379,-0.00103946154066037
2.5,0.00466406636379446,-0.00148940548027454,0.994478774555066,-0.0198819479889174,0.994478774544445,-0.019881947989937,0.00466332127967206,-0.00148729594745589
3,0.00468525413246645,-0.00191655112812583,0.994143782054254,-0.0235241620657902,0.994143782042387,-0.0235241620651578,0.00468438042800123,-0.00191392314712502
3.5,0.00469308512554623,-0.0023286353212697,0.993830513833867,-0.0271180865250891,0.993830513821686,-0.0271180865234157,0.00469208442280955,-0.00232548762514639
4,0.00469267871933088,-0.0027296491382458,0.993529945875238,-0.0306823876760252,0.993529945863348,-0.0306823876738047,0.00469154640246305,-0.0027259802433317
4.5,0.00468665857224337,-0.00312210377642508,0.993232826668152,-0.0342289287917872,0.993232826656931,-0.0342289287893731,0.0046853867647858,-0.00311791099578329
5,0.00467648008451027,-0.00350758533758899,0.992931367583306,-0.037765010493489,0.992931367572979,-0.0377650104911069,0.0046750592143141,-0.0035028646571984
5.5,0.00466300729067237,-0.00388710351080768,0.992619559166455,-0.0412950241804744,0.992619559157136,-0.0412950241782291,0.00466142695136806,-0.00388184969029304
6,0.00464678498236548,-0.00426130194682095,0.992292968859825,-0.0448215367329077,0.992292968851562,-0.0448215367308329,0.00464503443400455,-0.00425550866437696
6.5,0.00462817624128853,-0.00463058631437008,0.991948407770732,-0.0483459725922319,0.99194840776353,-0.0483459725903259,0.00462624471744633,-0.00462424630653047
7,0.00460743610254233,-0.00499520405797504,0.991583614979034,-0.0518690383276041,0.991583614972869,-0.051869038325842,0.0046053130085808,-0.00498830924353832
7.5,0.00458475299057648,-0.00535529540861468,0.99119700257713,-0.0553909880193242,0.991197002571958,-0.0553909880176544,0.00458242803772846,-0.00534783699709429
8,0.00456027301591111,-0.00571092688228703,0.990787463829475,-0.0589117907500523,0.990787463825249,-0.0589117907484358,0.00455773631571255,-0.00570289546983815
8.5,0.00453411473355847,-0.0060621138358421,0.99035423391925,-0.0624312374239615,0.990354233915914,-0.0624312374223504,0.00453135686656991,-0.0060534994915713
9,0.00450637837951873,-0.00640883601003761,0.989896790752103,-0.0659490094957249,0.9898967907496,-0.0659490094940791,0.00450339044657722,-0.0063996283551786
9.5,0.00447715179795849,-0.00675104846938623,0.989414784952223,-0.0694647234563668,0.989414784950501,-0.0694647234546508,0.00447392545896941,-0.00674123675103466
10,0.00444651432379617,-0.00708868945083552,0.988907990643129,-0.0729779596942048,0.988907990642133,-0.0729779596923859,0.00444304182719046,-0.00707826261156974
10.5,0.0044364680395983,-0.00745221743920865,0.988437775152718,-0.076464960447221,0.988437775151839,-0.0764649604455219,0.00443278321132001,-0.00744127389876414
11,0.00442545401576278,-0.00781696500361662,0.987958816687247,-0.0799390828261695,0.987958816686469,-0.0799390828245992,0.00442154402112749,-0.00780550399874524
11.5,0.00441341080244395,-0.00818296525177509,0.987471669134649,-0.0834011094150711,0.987471669133955,-0.0834011094136295,0.00440926261128494,-0.00817098570025365
12,0.00440027555288192,-0.00855024827147588,0.98697678068306,-0.0868518101076283,0.986976780682435,-0.0868518101063156,0.00439587596015878,-0.00853774875012103
12.5,0.00438598418767799,-0.00891884108864982,0.98647450422518,-0.0902919327086895,0.986474504224609,-0.0902919327075047,0.00438131983617407,-0.00890581981345573
13,0.00437047155954029,-0.00928876763529196,0.98596510776181,-0.0937221957066647,0.985965107761279,-0.0937221957056025,0.00436552896440523,-0.00927522244383816
13.5,0.00435367161784972,-0.00966004872707416,0.985448784523764,-0.0971432829530245,0.985448784523264,-0.0971432829520849,0.00434843719274397,-0.00964597706340165
14,0.0043355175724385,-0.0100327020506024,0.98492566260814,-0.100555839981721,0.984925662607657,-0.100555839980897,0.00432997765700677,-0.0100181009526592
14.5,0.00431594205597186,-0.0104067421599883,0.984395813990085,-0.103960471710183,0.98439581398961,-0.103960471709472,0.00431008294438701,-0.0103916082497681
15,0.00429487728438605,-0.01078218048265,0.983859262824993,-0.107357741281197,0.983859262824516,-0.107357741280591,0.00428868525466258,-0.0107665099590815
15.5,0.00427225521478924,-0.0111590253339715,0.983315992998749,-0.110748169827234,0.983315992998264,-0.110748169826727,0.00426571655861085,-0.0111428139686058
16,0.00424800770035222,-0.0115372819405692,0.982765954916744,-0.114132236963818,0.982765954916243,-0.114132236963405,0.00424110875310887,-0.0115205250760768
16.5,0.00422206664166863,-0.0119169524718288,0.982209071546791,-0.11751038184406,0.98220907154627,-0.117510381843731,0.00421479381243989,-0.0118996450232958
17,0.0041943641341368,-0.0122980360793408,0.981645243748552,-0.120883004631246,0.981645243748006,-0.120883004631001,0.0041867039353489,-0.0122801725383166
17.5,0.00416483261094178,-0.0126805289439025,0.981074354933616,-0.12425046826961,0.98107435493304,-0.124250468269437,0.00415677168742562,-0.0126621033851171
18,0.00413340498124586,-0.0130644243295732,0.980496275107429,-0.127613100454317,0.98049627510682,-0.127613100454212,0.0041249301384623,-0.013045430420263
18.5,0.00410001476322949,-0.0134497126444897,0.979910864347686,-0.130971195720639,0.979910864347041,-0.130971195720598,0.00409111299441466,-0.0134301436561852
19,0.00406459621167205,-0.0138363815079199,0.979317975774633,-0.134325017588286,0.97931797577395,-0.134325017588298,0.00405525472368889,-0.0138162303305496
19.5,0.00402708443979052,-0.0142244158231333,0.978717458067611,-0.137674800710986,0.978717458066888,-0.137674800711049,0.00401729067747728,-0.0142036749813204
20,0.00398741553508381,-0.0146137978555974,0.978109157579748,-0.141020752993029,0.978109157578986,-0.141020752993134,0.00397715720392892,-0.0145924595269493
20.5,0.00394552666898586,-0.0150045073160889,0.977492920099426,-0.144363057644328,0.977492920098622,-0.144363057644473,0.00393479175595612,-0.0149825633512992
21,0.00390135620014687,-0.0153965214482015,0.976868592303356,-0.147701875153513,0.976868592302512,-0.147701875153692,0.00389013299253448,-0.0153739633927539
21.5,0.00385484377121217,-0.0157898151197804,0.97623602294214,-0.15103734516506,0.976236022941255,-0.151037345165268,0.00384312087338415,-0.0157666342370626
22,0.00380593039898922,-0.0161843609178502,0.975595063795068,-0.154369588251697,0.975595063794144,-0.154369588251929,0.00379369674693888,-0.0161605482134499
22.5,0.003754558557943,-0.0165801292465302,0.974945570427072,-0.157698707577315,0.974945570426108,-0.157698707577569,0.00374180343157744,-0.0165556754934881
23,0.00370067225697737,-0.0169770884275047,0.974287402776921,-0.161024790448873,0.974287402775918,-0.161024790449144,0.00368738529008394,-0.0169519841923127
23.5,0.00364421710949722,-0.0173752048025757,0.973620425602315,-0.16434790975808,0.973620425601275,-0.164347909758361,0.00363038829736778,-0.0173494404716861
24,0.00358514039677937,-0.0177744428378865,0.972944508804309,-0.167668125315527,0.972944508803234,-0.16766812531582,0.00357076010148266,-0.0177480086445247
24.5,0.00352339112470179,-0.0181747652293605,0.972259527650575,-0.170985485081125,0.972259527649464,-0.170985485081423,0.00350845007802025,-0.0181476512803993
25,0.00345892007390908,-0.0185761330089553,0.971565362914416,-0.174300026295655,0.971565362913272,-0.174300026295958,0.00344340937797488,-0.0185483293116757
25.5,0.00339167984351854,-0.0189785056513392,0.970861900944108,-0.177611776518762,0.970861900942933,-0.177611776519065,0.00337559096919959,-0.0189500021398481
26,0.00332162488849069,-0.0193818411805968,0.970149033675061,-0.180920754579059,0.970149033673855,-0.18092075457936,0.00330494967160272,-0.0193526277417178
26.5,0.00324871155081696,-0.0197860962766181,0.9694266585955,-0.184226971442143,0.969426658594267,-0.18422697144244,0.00323144218624105,-0.0197561627750753
27,0.00317289808467713,-0.0201912263808115,0.968694678674774,-0.187530431002295,0.968694678673515,-0.187530431002587,0.00315502711849114,-0.0201605626835373
27.5,0.00309414467576474,-0.020597185800812,0.96795300226198,-0.190831130803534,0.967953002260697,-0.190831130803818,0.0030756649954983,-0.0205657818002161
28,0.00301241345496681,-0.021003927813914,0.967201542961456,-0.194129062695505,0.96720154296015,-0.19412906269578,0.00299331827810717,-0.0209717734499795
28.5,0.00292766850661311,-0.0214114047689091,0.966440219490582,-0.197424213429414,0.966440219489255,-0.197424213429679,0.0029079513674948,-0.021378490049984
29,0.00283987587152101,-0.0218195681860749,0.965668955524506,-0.200716565198964,0.96566895552316,-0.200716565199215,0.00281953060674939,-0.0217858832082416
29.5,0.00274900354506374,-0.0222283688550862,0.964887679531586,-0.204006096130954,0.964887679530224,-0.204006096131194,0.00272802427760943,-0.0221939038200327
30,0.00265502147050273,-0.0226377569306324,0.964096324602728,-0.207292780729887,0.964096324601351,-0.207292780730111,0.00263340259263728,-0.022602502161905
30.5,0.00255790152783919,-0.0230476820255081,0.963294828277213,-0.210576590280591,0.963294828275822,-0.2105765902808,0.00253563768305459,-0.0230116279831241
31,0.00245761751842255,-0.0234580933010333,0.962483132367152,-0.213857493212646,0.96248313236575,-0.21385749321284,0.00243470358250747,-0.0234212305943728
31.5,0.00235414514558846,-0.0238689395546423,0.961661182782278,-0.217135455430031,0.961661182780866,-0.217135455430206,0.00233057620700933,-0.0238312589535905
32,0.0022474619915705,-0.0242801693044665,0.960828929356485,-0.220410440609146,0.960828929355064,-0.220410440609305,0.00222323333132357,-0.0242416617488002
32.5,0.00213754749094386,-0.0246917308708543,0.959986325677177,-0.223682410468169,0.959986325675751,-0.223682410468311,0.00211265456203558,-0.024652387477833
33,0.00202438290086798,-0.0251035724546584,0.959133328918329,-0.22695132501034,0.959133328916898,-0.226951325010464,0.00199882130757084,-0.0250633845248744
33.5,0.00190795126837329,-0.0255156422122673,0.958269899677876,-0.230217142743661,0.958269899676442,-0.230217142743765,0.0018817167454096,-0.0254746012337246
34,0.00178823739494777,-0.0259278883272782,0.957396001819942,-0.233479820879171,0.957396001818505,-0.233479820879257,0.00176132578674254,-0.0258859859777667
34.5,0.00166522779867156,-0.0263402590787787,0.956511602322253,-0.236739315509855,0.956511602320817,-0.236739315509922,0.00163763503881476,-0.0262974872265698
35,0.00153891067413758,-0.0267527029062058,0.955616671128972,-0.239995581771993,0.955616671127539,-0.239995581772043,0.0015106327651816,-0.0267090536091295
35.5,0.0014092758504084,-0.0271651684707521,0.954711181009088,-0.243248573990617,0.954711181007658,-0.243248573990648,0.00138030884412232,-0.0271206339737113
36,0.00127631474722306,-0.0275776047133309,0.953795107420426,-0.246498245810589,0.953795107418999,-0.246498245810602,0.00124665472541824,-0.0275321774443245
36.5,0.00114002032968852,-0.0279899609090966,0.95286842837929,-0.249744550314662,0.952868428377868,-0.249744550314656,0.00110966338572438,-0.0279436334738374
37,0.00100038706167183,-0.0284021867185515,0.951931124335671,-0.252987440129788,0.951931124334256,-0.252987440129765,0.000969329282727194,-0.0283549518937494
37.5,0.000857410858095264,-0.0288142322352596,0.950983178053956,-0.256226867522739,0.950983178052549,-0.256226867522698,0.000825648308302562,-0.0287660829606673
38,0.000711089036335488,-0.0292260480302198,0.950024574498991,-0.259462784486133,0.950024574497593,-0.259462784486075,0.000678617740850096,-0.0291769773995387
38.5,0.000561420266927848,-0.0296375851929591,0.949055300727383,-0.262695142815728,0.949055300725995,-0.262695142815652,0.000528236196993492,-0.0295875864436899
39,0.00040840452373242,-0.0300487953693782,0.948075345783863,-0.265923894179831,0.948075345782486,-0.265923894179737,0.000374503582815822,-0.029997861871732
39.5,0.000252043033766636,-0.0304596307964478,0.947084700602544,-0.269148990181588,0.94708470060118,-0.269148990181478,0.000217421044794386,-0.0304077560414051
40,9.23382268397388E-005,-0.0308700443338197,0.946083357912897,-0.27237038241482,0.946083357911546,-0.272370382414694,5.69909205859753E-005,-0.030817221920449
40.5,-7.07063148428499E-005,-0.0312799894924307,0.945071312150245,-0.275588022514026,0.945071312148908,-0.275588022513884,-0.000106783310191205,-0.031226213114568
41,-0.000237085906961587,-0.0316894204601863,0.944048559370611,-0.278801862199102,0.94404855936929,-0.278801862198946,-0.000273897075040108,-0.0316346838925767
41.5,-0.000406794813126055,-0.0320982921248345,0.943015097169704,-0.282011853315297,0.943015097168398,-0.282011853315126,-0.000444344757415338,-0.0320425892088394
42,-0.000579826294540287,-0.0325065600940939,0.941970924605871,-0.28521794786883,0.941970924604582,-0.285217947868646,-0.00061811974516951,-0.0324498847230561
42.5,-0.000756172659188592,-0.0329141807131657,0.940916042126837,-0.288420098058617,0.940916042125565,-0.28842009805842,-0.000795214478523654,-0.0328565268175436
43,-0.000935825310418137,-0.0333211110797051,0.939850451500033,-0.291618256304434,0.93985045149878,-0.291618256304223,-0.000975620497446761,-0.0332624726120556
43.5,-0.0011187747948368,-0.0337273090563808,0.938774155746362,-0.294812375271895,0.938774155745128,-0.294812375271672,-0.00115932848836131,-0.0336676799762927
44,-0.00130501084942569,-0.0341327332811037,0.937687159077209,-0.298002407894521,0.937687159075994,-0.298002407894286,-0.00134632833008802,-0.0340721075401613
44.5,-0.00149452244778381,-0.0345373431750491,0.936589466834548,-0.301188307393178,0.936589466833353,-0.301188307392932,-0.00153660913895837,-0.0344757147019155
45,-0.00168729784543881,-0.0349410989485657,0.935481085433991,-0.30437002729314,0.935481085432816,-0.304370027292884,-0.00173015931301412,-0.0348784616342586
45.5,-0.0018833246241543,-0.035343961605087,0.934362022310606,-0.307547521439002,0.934362022309452,-0.307547521438736,-0.00192696657525371,-0.0352803092885274
46,-0.00208258973517378,-0.0357458929431453,0.93323228586739,-0.310720744007621,0.933232285866258,-0.310720744007347,-0.0021270180158488,-0.0356812193970451
46.5,-0.0022850795413501,-0.0361468555565994,0.93209188542624,-0.313889649519323,0.932091885425129,-0.31388964951904,-0.00233030013330282,-0.0360811544737487
47,-0.00249077985812196,-0.0365468128331599,0.93094083118129,-0.317054192847457,0.930940831180202,-0.317054192847166,-0.00253679887449387,-0.0364800778131855
47.5,-0.00269967599328924,-0.0369457289513495,0.929779134154507,-0.320214329226547,0.92977913415344,-0.320214329226249,-0.00274649967358237,-0.0368779534879859
48,-0.0029117527855701,-0.0373435688759711,0.928606806153399,-0.323370014259097,0.928606806152355,-0.323370014258792,-0.00295938748974345,-0.0372747463448966
48.5,-0.00312699464189503,-0.0377402983521782,0.927423859730759,-0.326521203921199,0.927423859729738,-0.326521203920889,-0.00317544684370163,-0.0376704219994679
49,-0.00334538557343733,-0.0381358838982759,0.926230308146301,-0.329667854567084,0.926230308145304,-0.329667854566769,-0.0033946618530587,-0.0380649468294989
49.5,-0.00356690923034986,-0.0385302927973139,0.925026165330116,-0.332809922932665,0.925026165329141,-0.332809922932344,-0.00361701626638322,-0.0384582879673157
50,-0.00379154893520611,-0.0389234930875653,0.923811445847834,-0.335947366138194,0.923811445846883,-0.335947366137871,-0.00384249349606747,-0.0388504132909671
50.5,-0.00401928771513571,-0.0393154535520166,0.922586164867417,-0.339080141690133,0.92258616486649,-0.339080141689806,-0.00407107664994166,-0.039241291414442
51,-0.00425010833265727,-0.0397061437068909,0.921350338127482,-0.342208207482255,0.921350338126578,-0.342208207481925,-0.00430274856163826,-0.039630891676957
51.5,-0.00448399331520111,-0.0400955337893516,0.920103981907088,-0.345331521796115,0.920103981906208,-0.345331521795783,-0.00453749181971685,-0.0400191841314257
52,-0.0047209249833462,-0.0404835947444253,0.918847112996895,-0.348450043300898,0.918847112996039,-0.348450043300565,-0.00477528879555184,-0.0404061395321653
52.5,-0.00496088547775514,-0.0408702982112255,0.917579748671647,-0.351563731052725,0.917579748670815,-0.351563731052391,-0.00501612166998566,-0.0407917293219073
53,-0.00520385678484298,-0.0412556165085638,0.916301906663887,-0.354672544493456,0.916301906663078,-0.354672544493121,-0.00525997245876597,-0.0411759256181961
53.5,-0.0054498207611845,-0.0416395226200188,0.915013605138845,-0.357776443449056,0.91501360513806,-0.357776443448723,-0.00550682303678235,-0.0415587011992495
54,-0.00569875915667173,-0.0420219901785088,0.913714862670461,-0.360875388127543,0.913714862669699,-0.36087538812721,-0.00575665516110618,-0.041940029489312
54.5,-0.00595065363645308,-0.0424029934504486,0.912405698218458,-0.363969339116556,0.912405698217719,-0.363969339116224,-0.00600945049286211,-0.0423198845435881
55,-0.00620548580167063,-0.0427825073195593,0.911086131106421,-0.367058257380606,0.911086131105704,-0.367058257380275,-0.00626519061795222,-0.0426982410328154
55.5,-0.00646323720901454,-0.0431605072703625,0.909756181000844,-0.370142104258001,0.909756181000151,-0.370142104257674,-0.00652385706664393,-0.0430750742275074
56,-0.00672388938913021,-0.0435369693714434,0.908415867891079,-0.373220841457516,0.908415867890408,-0.373220841457192,-0.00678543133205706,-0.0434503599819489
56.5,-0.00698742386389278,-0.0439118702585077,0.907065212070155,-0.376294431054786,0.907065212069507,-0.376294431054465,-0.0070498948875623,-0.0438240747179668
57,-0.00725382216258336,-0.0442851871172985,0.905704234116422,-0.379362835488488,0.905704234115796,-0.37936283548817,-0.00731722920312622,-0.0441961954085359
57.5,-0.0075230658370023,-0.0446568976664183,0.904332954875972,-0.382426017556317,0.904332954875367,-0.382426017556004,-0.00758741576062572,-0.0445666995612719
58,-0.00779513647552427,-0.0450269801400836,0.902951395445818,-0.385483940410765,0.902951395445236,-0.385483940410457,-0.0078604360681514,-0.0449355652018266
58.5,-0.00807001571616245,-0.045395413270874,0.901559577157778,-0.388536567554736,0.901559577157217,-0.388536567554433,-0.00813627167334474,-0.0453027708572498
59,-0.00834768525863566,-0.0457621762724962,0.900157521563036,-0.391583862837006,0.900157521562495,-0.391583862836708,-0.00841490417577623,-0.0456682955393455
59.5,-0.0086281268754943,-0.0461272488226041,0.898745250417357,-0.394625790447546,0.898745250416837,-0.394625790447254,-0.00869631523841158,-0.0460321187280452
60,-0.00891132242232673,-0.0464906110457135,0.897322785666915,-0.39766231491272,0.897322785666415,-0.397662314912435,-0.00898048659818107,-0.0463942203548546
60.5,-0.0091972538470757,-0.0468522434962333,0.895890149434714,-0.400693401090366,0.895890149434233,-0.400693401090087,-0.00926740007569088,-0.0467545807863741
61,-0.00948590319850351,-0.0472121271416401,0.894447364007571,-0.403719014164778,0.894447364007109,-0.403719014164506,-0.00955703758409776,-0.0471131808079426
61.5,-0.00977725263383078,-0.0475702433458329,0.892994451823642,-0.406739119641595,0.892994451823198,-0.406739119641329,-0.00984938113718109,-0.0474700016074223
62,-0.0100712844255807,-0.0479265738526771,0.891531435460459,-0.409753683342606,0.891531435460033,-0.409753683342348,-0.0101444128566394,-0.0478250247591412
