"Freq [GHz]","re(St(P1,P1)) []","im(St(P1,P1)) []","re(St(P1,P2)) []","im(St(P1,P2)) []","re(St(P2,P1)) []","im(St(P2,P1)) []","re(St(P2,P2)) []","im(St(P2,P2)) []"
0,0.00291738311423728,0,0.997093612881145,0,0.997093611716991,0,0.00291737791405922,0
0.5,0.00327848121226282,0.000262249969551931,0.996664330991628,-0.00456575164331952,0.996664330978824,-0.00456575209533838,0.00327843500063096,0.000262367589265011
1,0.00361412893215274,4.96818752750983E-005,0.996164240179386,-0.00863372603944157,0.996164240187777,-0.00863372597683565,0.00361403302029473,4.99676128953297E-005
1.5,0.00354518393212544,-0.000360528802399784,0.995851415505516,-0.0127987134201923,0.995851415538159,-0.0127987133444059,0.00354432094070845,-0.000360014188323987
2,0.00349861032481158,-0.000677583222380207,0.99546641065905,-0.0168271177003554,0.995466410713572,-0.0168271176245369,0.0034975597152993,-0.000676963131112984
2.5,0.00345297796125088,-0.000948481369121623,0.995040380765752,-0.0207247697500996,0.995040380835428,-0.0207247696836248,0.00345192923594162,-0.000947727984581093
3,0.00340309077233858,-0.00118866377521343,0.994596117778232,-0.0245118965534203,0.994596117855169,-0.024511896501128,0.00340212073273349,-0.00118773093535651
3.5,0.00334744672027743,-0.00140431184281553,0.994147311288782,-0.028213249888779,0.994147311365994,-0.0282132498517811,0.00334658608268157,-0.00140315487517384
4,0.00328576302585626,-0.00159831950842815,0.993700336961151,-0.0318519795795744,0.993700337033459,-0.0318519795567163,0.0032850190079432,-0.00159690046311667
4.5,0.00321828377121847,-0.00177231971859193,0.993256689678565,-0.0354470219206213,0.993256689742626,-0.0354470219096115,0.00321765032145471,-0.00177060935310003
5,0.00314552788752431,-0.0019274736482231,0.992815065414263,-0.0390126717804726,0.992815065468237,-0.0390126717786572,0.00314499150712466,-0.00192545205801409
5.5,0.00306817093973688,-0.00206479726621644,0.992372812464845,-0.0425591589428915,0.992372812507987,-0.0425591589477197,0.00306771447269361,-0.00206245366041102
6,0.00298697477507348,-0.00218529342998508,0.991926818822641,-0.0460935185392213,0.991926818854929,-0.0460935185484264,0.00298657998714935,-0.00218262532759894
6.5,0.00290273805494201,-0.00228999658573414,0.991473998422447,-0.0496204230690243,0.991473998444303,-0.0496204230807074,0.00290238735323101,-0.00228700866021114
7,0.00281625876866176,-0.00237997759735187,0.991011525573991,-0.0531428611011666,0.991011525586089,-0.0531428611137752,0.00281593626832177,-0.00237668036067795
7.5,0.00272830566347726,-0.00245633137069845,0.990536924609293,-0.0566626493407938,0.990536924612424,-0.0566626493530951,0.00272799775982513,-0.0024527398435179
8,0.00263959729431962,-0.00252015850108478,0.990048082674845,-0.060180802501721,0.990048082669841,-0.0601808025127308,0.00263929287445341,-0.00251629096885608
8.5,0.00255078778787343,-0.00257254650389527,0.989543225592372,-0.0636977936764476,0.989543225580052,-0.0636977936854164,0.00255047819513754,-0.00256842341775254
9,0.00246245839683612,-0.00261455323793758,0.989020878882712,-0.067213734762257,0.989020878863856,-0.0672137347686022,0.00246213723981181,-0.00261019628661874
9.5,0.00237511384435596,-0.00264719355867094,0.988479825460443,-0.0707285002520397,0.988479825435778,-0.0707285002553144,0.00237477672055786,-0.00264262491515499
10,0.00228918243748744,-0.00267142940333009,0.987919065523632,-0.0742418115958339,0.98791906549383,-0.0742418115957042,0.0022888266224026,-0.00266667113549346
10.5,0.00223869997478621,-0.00273901640549212,0.9873915825103,-0.0777119100295698,0.98739158248053,-0.0777119100270109,0.00223868659274029,-0.00273338589030647
11,0.00219296741809816,-0.00280336233415923,0.986860631810853,-0.0811668273416393,0.986860631781366,-0.0811668273367552,0.00219337611525544,-0.00279694232997407
11.5,0.00215210176216446,-0.00286508911806926,0.986326570211118,-0.0846079678678748,0.986326570182136,-0.0846079678607863,0.00215299431555954,-0.00285796820907969
12,0.00211614916216102,-0.00292479482224728,0.98578960445007,-0.0880366440983824,0.985789604421787,-0.0880366440892297,0.00211757009786484,-0.0029170641605365
12.5,0.00208509302745202,-0.00298304746341937,0.985249815980583,-0.0914540711669938,0.985249815953163,-0.0914540711559271,0.00208707070079328,-0.00297479794104127
13,0.00205886212313225,-0.00304038041030008,0.984707183296057,-0.0948613648737613,0.984707183269639,-0.0948613648609324,0.00206141013380351,-0.00303170028849031
13.5,0.00203733846402782,-0.00309728919319952,0.984161601718439,-0.098259542417944,0.984161601693138,-0.0982595424035146,0.00204045729130664,-0.00308826218965663
14,0.00202036483929136,-0.00315422953854938,0.983612900676507,-0.101649525139001,0.983612900652412,-0.101649525123125,0.00202404359796474,-0.00314493335385091
14.5,0.0020077518528413,-0.00321161644464407,0.983060858593893,-0.105032142681287,0.983060858571076,-0.105032142664119,0.00201197008699253,-0.00320212169485323
15,0.00199928440484398,-0.00326982412306354,0.982505215563071,-0.108408138108582,0.982505215541583,-0.108408138090276,0.00200401385316136,-0.00326019363645091
15.5,0.00199472757247048,-0.00332918664262838,0.981945684012506,-0.111778173592468,0.981945683992382,-0.11177817357317,0.00199993385433581,-0.00331947507356212
16,0.00199383187454375,-0.0033899991283235,0.981381957586358,-0.115142836383533,0.981381957567622,-0.115142836363384,0.00199947606014894,-0.00338025283984145
16.5,0.00199633792509375,-0.00345251938453561,0.980813718455102,-0.118502644845675,0.980813718437761,-0.118502644824804,0.00200237796506008,-0.00344277655193093
17,0.00200198049608732,-0.00351696982899963,0.980240643265665,-0.121858054392281,0.980240643249717,-0.121858054370814,0.0020083724962794,-0.00350726071953034
17.5,0.00201049202039617,-0.00358353964070002,0.979662407924616,-0.12520946321051,0.97966240791005,-0.125209463188564,0.00201719135594074,-0.00357388702830175
18,0.00202160557326191,-0.00365238704043191,0.979078691389957,-0.128557217697026,0.979078691376755,-0.128557217674708,0.00202856784231683,-0.00364280671885497
18.5,0.00203505737476933,-0.00372364163723349,0.978489178628043,-0.131901617557705,0.978489178616179,-0.131901617535119,0.00204223919749624,-0.00371414299986172
19,0.00205058885783167,-0.00379740678657248,0.977893562873179,-0.135242920545749,0.97789356286262,-0.135242920522987,0.00205794852957297,-0.00378799344592284
19.5,0.0020679483464095,-0.00387376191751532,0.977291547309426,-0.138581346829136,0.977291547300138,-0.138581346806286,0.00207544635642325,-0.00386443234208356
20,0.0020868923876487,-0.00395276479583417,0.9766828462774,-0.141917082990209,0.976682846269344,-0.141917082967349,0.00209449181616669,-0.00394351294617756
20.5,0.00210718677966107,-0.00403445369822864,0.976067186093735,-0.145250285668548,0.976067186086868,-0.145250285645749,0.00211485358669225,-0.00402526964805316
21,0.00212860733410852,-0.00411884947991492,0.97544430555739,-0.148581084863936,0.975444305551668,-0.148581084841266,0.0021363105534622,-0.00410972001132537
21.5,0.00215094040981417,-0.00420595752354336,0.974813956205184,-0.15190958691973,0.97481395620056,-0.151909586897248,0.00215865226146031,-0.00419686668853991
22,0.00217398325052406,-0.00429576956212063,0.974175902368638,-0.155235877208844,0.974175902365067,-0.155235877186603,0.00218167918371975,-0.00428669920493041
22.5,0.0021975441567558,-0.00438826537245385,0.973529921075387,-0.158560022545413,0.973529921072821,-0.158560022523463,0.00220520283548431,-0.00437919560934619
23,0.00222144251857762,-0.004483414338603,0.972875801830869,-0.16188207334511,0.972875801829258,-0.161882073323493,0.00222904575984242,-0.00447432399353209
23.5,0.00224550873315404,-0.00458117688720261,0.972213346309596,-0.165202065556484,0.972213346308894,-0.165202065535239,0.00225304140760008,-0.00457204388294441
24,0.00226958402810118,-0.00468150579825855,0.971542367979931,-0.168520022384672,0.97154236798009,-0.168520022363835,0.00227703393134537,-0.00467230750379954
24.5,0.00229352020904205,-0.00478434739632094,0.970862691681762,-0.17183595582755,0.970862691682733,-0.171835955807147,0.0023008779110664,-0.00477506093199986
25,0.00231717934736295,-0.00488964262792457,0.970174153172673,-0.175149868043055,0.970174153174412,-0.175149868023115,0.00232443802630411,-0.00488024513045415
25.5,0.00234043342200321,-0.00499732803168218,0.969476598655132,-0.178461752564906,0.969476598657592,-0.178461752545451,0.00234758868773233,-0.00498779688153794
26,0.0023631639270785,-0.0051073366079164,0.968769884294532,-0.181771595382553,0.968769884297668,-0.181771595363603,0.00237021363913739,-0.00509764962184267
26.5,0.00238526145546492,-0.00521959859467191,0.968053875735894,-0.185079375899678,0.968053875739661,-0.18507937588125,0.00239220553911301,-0.00520973418620319
27,0.00240662526681534,-0.00533404215720079,0.967328447625186,-0.188385067784372,0.967328447629543,-0.18838506776648,0.00241346553027511,-0.00532397946811081
27.5,0.00242716284716082,-0.00545059399765746,0.966593483139874,-0.191688639722693,0.966593483144778,-0.191688639705346,0.00243390280253358,-0.00544031300322123
28,0.00244678946601362,-0.00556917989167216,0.965848873532076,-0.194990056086204,0.965848873537486,-0.194990056069413,0.00245343415580213,-0.00555866148255868
28.5,0.00246542773582464,-0.00568972515820088,0.965094517686812,-0.198289277523049,0.96509451769269,-0.198289277506819,0.00247198356653805,-0.00567895120164508
29,0.00248300717775546,-0.00581215506860966,0.964330321697072,-0.201586261480971,0.96433032170338,-0.201586261465307,0.00248948176168612,-0.0058011084514118
29.5,0.0024994637969038,-0.00593639520076605,0.963556198456795,-0.204880962669965,0.963556198463497,-0.20488096265487,0.00250586580282935,-0.0059250598564411
30,0.00251473966946991,-0.00606237174344049,0.96277206727241,-0.208173333471291,0.962772067279469,-0.208173333456765,0.00252107868274865,-0.00605073266569578
30.5,0.00252878254374406,-0.00619001175598122,0.961977853493187,-0.211463324298899,0.96197785350057,-0.211463324284946,0.00253506893606037,-0.00617805500050883
31,0.00254154545633312,-0.0063192433878787,0.961173488160376,-0.214750883918638,0.961173488168051,-0.214750883905252,0.00254779026513785,-0.00630695606424148
31.5,0.00255298636460033,-0.00644999606245245,0.96035890767487,-0.218035959730022,0.960358907682804,-0.218035959717202,0.00255920118215969,-0.00643736631772107
32,0.00256306779596133,-0.00658220062857362,0.95953405348296,-0.221318498014806,0.959534053491123,-0.221318498002545,0.00256926466780105,-0.00656921762411855
32.5,0.00257175651439057,-0.00671578948396601,0.958698871779645,-0.224598444156118,0.958698871788008,-0.224598444144414,0.00257794784682913,-0.00670244336673953
33,0.00257902320424064,-0.00685069667336924,0.957853313228854,-0.227875742831517,0.95785331323739,-0.227875742820361,0.00258522168063963,-0.00683697854278531
33.5,0.0025848421713015,-0.00698685796449006,0.956997332699877,-0.231150338182905,0.956997332708559,-0.231150338172292,0.00259106067660952,-0.00697275983591883
34,0.00258919106085254,-0.00712421090445003,0.956130889019278,-0.234422173965967,0.956130889028079,-0.234422173955889,0.00259544261398614,-0.00710972567019308
34.5,0.00259205059233797,-0.00726269485913944,0.955253944737525,-0.237691193681431,0.955253944746423,-0.237691193671878,0.00259834828592864,-0.00724781624764592
35,0.00259340431021926,-0.00740225103765901,0.954366465909603,-0.240957340690234,0.954366465918574,-0.240957340681198,0.00259976125723416,-0.00738697357162721
35.5,0.00259323835045233,-0.00754282250382121,0.953468421888823,-0.244220558314421,0.953468421897845,-0.244220558305891,0.00259966763720837,-0.00752714145774336
36,0.00259154122200261,-0.00768435417646929,0.952559785133122,-0.247480789925392,0.952559785142174,-0.247480789917359,0.0025980558670966,-0.0076682655340925
36.5,0.00258830360277362,-0.00782679282020871,0.951640531023112,-0.25073797902097,0.951640531032173,-0.250737979013421,0.00259491652145616,-0.00781029323229632
37,0.0025835181492912,-0.00797008702790269,0.950710637691197,-0.253992069292496,0.950710637700249,-0.253992069285422,0.00259024212284337,-0.00795317377063132
37.5,0.00257717931947765,-0.00811418719627688,0.949770085861094,-0.257243004683172,0.949770085870119,-0.25724300467656,0.00258402696914933,-0.00809685813053584
38,0.00256928320784461,-0.00825904549565348,0.948818858697104,-0.26049072943857,0.948818858706084,-0.260490729432408,0.00257626697295138,-0.00824129902745119
38.5,0.00255982739244004,-0.0084046158348634,0.94785694166255,-0.263735188150254,0.947856941671471,-0.263735188144531,0.00256695951222868,-0.00838645087702816
39,0.00254881079289121,-0.00855085382218257,0.946884322386799,-0.266976325793274,0.946884322395643,-0.266976325787976,0.00255610329181022,-0.00853226975746568
39.5,0.00253623353889398,-0.00869771672306752,0.945900990540307,-0.270214087758239,0.945900990549061,-0.270214087753355,0.00254369821493211,-0.00867871336877202
40,0.00252209684854537,-0.00884516341536035,0.944906937717216,-0.273448419878587,0.944906937725866,-0.273448419874104,0.00252974526431299,-0.00882574098953581
40.5,0.00250640291588505,-0.00899315434256631,0.943902157324968,-0.276679268453609,0.943902157333502,-0.276679268449513,0.00251424639215436,-0.0089733134318315
41,0.00248915480709333,-0.00914165146569901,0.94288664448053,-0.279906580267691,0.942886644488937,-0.279906580263969,0.00249720441852141,-0.00912139299470716
41.5,0.00247035636477277,-0.00929061821417876,0.941860395912775,-0.283130302606248,0.941860395921041,-0.283130302602887,0.00247862293755557,-0.00926994341672382
42,0.00245001211979279,-0.00944001943613038,0.940823409870622,-0.286350383268692,0.94082340987874,-0.28635038326568,0.00245850623102523,-0.00941892982789283
42.5,0.00242812721018548,-0.00958982134844555,0.939775686036588,-0.289566770578796,0.939775686044546,-0.289566770576118,0.00243685918871522,-0.00956831870135
43,0.00240470730661524,-0.0097399914868983,0.938717225445356,-0.292779413392754,0.938717225453146,-0.292779413390399,0.00241368723520097,-0.00971807780505207
43.5,0.00237975854397943,-0.00989049865653802,0.937648030407085,-0.295988261105206,0.937648030414699,-0.295988261103159,0.00238899626257505,-0.00986817615370184
44,0.00235328745869134,-0.0100413128825951,0.936568104435116,-0.299193263653461,0.936568104442545,-0.29919326365171,0.0023627925687062,-0.0100185839611553
44.5,0.00232530093126554,-0.0101924053620552,0.935477452177805,-0.302394371520129,0.935477452185044,-0.30239437151866,0.0023350828006497,-0.0101692725934257
45,0.00229580613381264,-0.0103437484160562,0.934376079354232,-0.305591535734361,0.934376079361275,-0.30559153573316,0.00230587390284431,-0.0103202145224757
45.5,0.00226481048208677,-0.0104953154432306,0.933263992693504,-0.308784707871844,0.933263992700344,-0.308784707870901,0.00227517306974334,-0.010471383280884
46,0.00223232159176484,-0.0106470808740893,0.932141199877452,-0.311973840053725,0.932141199884085,-0.311973840053025,0.00224298770257209,-0.010622753417493
46.5,0.00219834723862689,-0.0107990201265205,0.9310077094865,-0.315158884944566,0.93100770949292,-0.315158884944097,0.00220932536990159,-0.0107743004541259
47,0.00216289532236708,-0.0109511095624673,0.929863530948489,-0.318339795749466,0.929863530954694,-0.318339795749216,0.00217419377175754,-0.0109260008434064
47.5,0.00212597383374064,-0.0111033264458384,0.928708674490293,-0.32151652621045,0.928708674496278,-0.321516526210406,0.00213760070700164,-0.0110778319277665
48,0.00208759082480886,-0.0112556489016642,0.927543151092034,-0.324689030602211,0.927543151097797,-0.324689030602361,0.00209955404374351,-0.0112297718996304
48.5,0.00204775438203952,-0.011408055876539,0.926366972443746,-0.327857263727288,0.926366972449284,-0.327857263727619,0.00206006169254513,-0.0113817997628354
49,0.00200647260204062,-0.0115605271003512,0.925180150904329,-0.331021180910755,0.925180150909642,-0.331021180911256,0.00201913158221567,-0.0115338952952784
49.5,0.00196375356972373,-0.0117130430493071,0.923982699462659,-0.334180737994488,0.923982699467743,-0.334180737995149,0.0019767716379841,-0.0116860390128097
50,0.00191960533870622,-0.0118655849102383,0.922774631700712,-0.337335891331055,0.922774631705568,-0.337335891331863,0.00193298976187817,-0.0118382121343485
50.5,0.00187403591377522,-0.0120181345461903,0.9215559617586,-0.340486597777284,0.921555961763227,-0.340486597778226,0.00188779381512844,-0.0119903965482424
51,0.00182705323525179,-0.0121706744632728,0.920326704301378,-0.343632814687562,0.920326704305775,-0.343632814688629,0.00184119160244234,-0.0121425747798296
51.5,0.00177866516509601,-0.0123231877787513,0.919086874487539,-0.346774499906894,0.919086874491707,-0.346774499908075,0.00179319085799601,-0.0122947299601983
52,0.00172887947461836,-0.0124756581903569,0.917836487939087,-0.349911611763759,0.917836487943027,-0.349911611765043,0.00174379923301149,-0.0124468457961318
52.5,0.00167770383366578,-0.0126280699467907,0.916575560713099,-0.353044109062794,0.916575560716811,-0.35304410906417,0.0016930242847894,-0.0125989065411869
53,0.00162514580115442,-0.0127804078193887,0.915304109274681,-0.356171951077336,0.915304109278167,-0.356171951078795,0.0016408734670762,-0.0127508969679153
53.5,0.00157121281684941,-0.0129326570749269,0.91402215047126,-0.359295097541841,0.914022150474523,-0.359295097543372,0.00158735412166083,-0.0129028023411673
54,0.00151591219427771,-0.013084803449515,0.912729701508111,-0.362413508644205,0.912729701511152,-0.3624135086458,0.00153247347110025,-0.0130546083924683
54.5,0.00145925111467976,-0.0132368331235795,0.911426779925062,-0.365527145018003,0.911426779927883,-0.365527145019652,0.00147623861247381,-0.0132063012954331
55,0.00140123662192054,-0.0133887326978612,0.910113403574318,-0.368635967734664,0.910113403576922,-0.368635967736357,0.00141865651208795,-0.0133578676421775
55.5,0.00134187561826316,-0.0135404891704276,0.908789590599325,-0.371739938295594,0.908789590601715,-0.371739938297322,0.00135973400104605,-0.0135092944207114
56,0.00128117486094387,-0.0136920899146531,0.907455359414638,-0.374839018624265,0.907455359416818,-0.374839018626021,0.00129947777161099,-0.0136605689932634
56.5,0.00121914095947445,-0.0138435226581271,0.906110728686723,-0.377933171058272,0.906110728688696,-0.377933171060047,0.00123789437429356,-0.0138116790755196
57,0.00115578037360298,-0.0139947754624636,0.904755717315651,-0.381022358341378,0.90475571731742,-0.381022358343164,0.00117499021560141,-0.0139626127167354
57.5,0.00109109941188029,-0.0141458367039857,0.903390344417639,-0.384106543615548,0.90339034441921,-0.384106543617337,0.00111077155639289,-0.0141133582806954
58,0.00102510423077468,-0.0142966950552357,0.902014629308392,-0.38718569041298,0.902014629309769,-0.387185690414765,0.00104524451078042,-0.0142639044274808
58.5,0.000957800834291755,-0.0144473394672893,0.900628591487201,-0.390259762648148,0.900628591488388,-0.390259762649921,0.000978415045537973,-0.0144142400960208
59,0.000889195074036286,-0.0145977591528457,0.89923225062177,-0.393328724609846,0.899232250622772,-0.393328724611601,0.000910288979959151,-0.0145643544874032
59.5,0.000819292649697601,-0.0147479435700495,0.897825626533724,-0.396392540953255,0.897825626534546,-0.396392540954985,0.00084087198613525,-0.0147142370488971
60,0.000748099109898592,-0.0148978824070343,0.896408739184776,-0.399451176692033,0.896408739185423,-0.399451176693731,0.000770169589603187,-0.0148638774586773
60.5,0.000675619853389375,-0.0150475655671323,0.894981608663511,-0.402504597190416,0.894981608663988,-0.402504597192078,0.000698187170340814,-0.0150132656112105
61,0.000601860130535981,-0.0151969831547523,0.893544255172769,-0.405552768155361,0.893544255173082,-0.40555276815698,0.000624929964064047,-0.0151623916032819
61.5,0.000526825045090384,-0.0153461254618728,0.89209669901759,-0.408595655628707,0.892096699017745,-0.408595655630278,0.000550403063805049,-0.0153112457206379
62,0.000450519556206508,-0.0154949829551374,0.890638960593699,-0.411633225979375,0.890638960593701,-0.411633225980893,0.0004746114217416,-0.015459818425209
