"Freq [GHz]","re(St(P1,P1)) []","im(St(P1,P1)) []","re(St(P1,P2)) []","im(St(P1,P2)) []","re(St(P2,P1)) []","im(St(P2,P1)) []","re(St(P2,P2)) []","im(St(P2,P2)) []"
0,0.00358164261797356,0,0.996430635306751,0,0.996430638799211,0,0.0035816434346998,0
0.5,0.00395047149724803,0.000975402099161471,0.996014798047725,-0.00444592354121198,0.996014797826014,-0.00444592295673019,0.00395040311335748,0.000975586443498599
1,0.00431348305186674,0.00147820159949674,0.995546702349845,-0.0084070526077511,0.995546702349902,-0.00840705264882757,0.00431328873738934,0.00147864820644728
1.5,0.00443848614955655,0.00178932921470931,0.995228872907363,-0.0124526896919406,0.995228872891232,-0.0124526897388328,0.00443799144356127,0.0017900630191896
2,0.00449396581529093,0.00216281125303297,0.994864439099826,-0.0163680272125433,0.994864439071261,-0.0163680272565756,0.0044933125214861,0.00216393065494813
2.5,0.00452792781660882,0.00257047087696094,0.994488138505149,-0.0201687991672728,0.994488138470004,-0.0201687992038053,0.00452717244870549,0.00257198462096397
3,0.00455440649847816,0.00299852426785918,0.994117465169115,-0.0238807433957504,0.994117465132741,-0.0238807434235362,0.00455357077913465,0.00300042898814468
3.5,0.00457860074633132,0.00344028715345246,0.993757226504636,-0.0275291786031122,0.993757226470856,-0.0275291786228813,0.00457769184971646,0.00344257930862746
4,0.00460279728259216,0.00389235856325953,0.993405297004281,-0.0311346202117342,0.993405296975356,-0.0311346202250462,0.00460181556979977,0.00389503625461884
4.5,0.00462814581003324,0.00435296716668887,0.993056757725211,-0.03471208711799,0.993056757702224,-0.0347120871265378,0.00462708807186685,0.00435603017705866
5,0.0046552946973657,0.00482121625847398,0.992706179995938,-0.0382719253892727,0.992706179979193,-0.0382719253945805,0.00465415564052174,0.00482466581845742
5.5,0.00468465116637296,0.00529671325134551,0.992348640801958,-0.0418209685965927,0.9923486407913,-0.0418209685999198,0.00468342414294853,0.00530055182167111
6,0.0047164994599751,0.00577937559943997,0.99198004842321,-0.0453635700035075,0.991980048418241,-0.0453635700058417,0.00471517684163514,0.00578360671262601
6.5,0.00475105923293451,0.00626932347392994,0.991597150510091,-0.0489023911363642,0.991597150510307,-0.0489023911384638,0.00474963260512129,0.00627395162908684
7,0.00478851655157841,0.00676681780995025,0.991197422659113,-0.0524389633012721,0.991197422663974,-0.0524389633037039,0.00478697681018669,0.00677184840808387
7.5,0.00482904145541374,0.00727222340430966,0.990778929865791,-0.0559740731640295,0.990778929874772,-0.0559740731672216,0.00482737884705831,0.00727766271353758
8,0.00487279855473854,0.00778598652650331,0.990340198235718,-0.0595080223909612,0.990340198248328,-0.0595080223952245,0.00487100268214224,0.0077918416696523
8.5,0.00491995386279453,0.00830862131649379,0.989880108579263,-0.0630408006133667,0.989880108595053,-0.0630408006189276,0.00491801366699662,0.0083149002759848
9,0.00497067953135466,0.00884070172974027,0.989397812670233,-0.0665721999373448,0.9893978126888,-0.0665721999443702,0.00496858325720606,0.00884741336653505
9.5,0.00502515740459619,0.00938285713477516,0.988892669088948,-0.0701018904367778,0.988892669109931,-0.0701018904453887,0.00502289255311772,0.00939001121928484
10,0.00508358191706126,0.0099357704252494,0.988364194724045,-0.0736294697294078,0.988364194747125,-0.0736294697396858,0.0050811351865484,0.00994337767909759
10.5,0.00518252712960049,0.0104241162268419,0.987867528364362,-0.0771303814182138,0.987867528387023,-0.0771303814294741,0.00517995696896567,0.0104320900043273
11,0.0052861978868286,0.0109112210254505,0.987362532903209,-0.0806170727232098,0.987362532925368,-0.0806170727354099,0.00528349654960042,0.0109195598810761
11.5,0.00539457896581086,0.011397024487251,0.986849813588711,-0.0840904287972064,0.986849813610293,-0.0840904288102946,0.00539173849695995,0.0114057270399073
12,0.00550765424462615,0.0118814661308111,0.986329857476907,-0.0875513183124221,0.986329857497848,-0.0875513183263417,0.00550466647981801,0.0118905310806463
12.5,0.00562540667405695,0.0123644853274882,0.985803045395866,-0.0910005831491834,0.985803045416108,-0.0910005831638712,0.00562226324013859,0.0123739114731212
13,0.00574781824760584,0.012846021303246,0.985269663841848,-0.0944390305402836,0.985269663861342,-0.0944390305556819,0.0057445105643962,0.0128558075592009
13.5,0.00587486996984052,0.0133260131419695,0.984729916497973,-0.097867427361412,0.984729916516679,-0.097867427377448,0.00587138925326408,0.0133361585563021
14,0.00600654182304547,0.0138043997905442,0.984183935153456,-0.101286496257095,0.984183935171345,-0.101286496273703,0.00600287908966483,0.0138149035625226
14.5,0.00614281273218861,0.0142811200658004,0.983631789875436,-0.10469691330471,0.98363178989248,-0.104696913321825,0.00613895880517309,0.0142919815635647
15,0.0062836605282087,0.0147561126635551,0.983073498345713,-0.108099306940948,0.983073498361895,-0.108099306958499,0.00627960604478577,0.0147673314416648
15.5,0.00642906190965503,0.0152293161699495,0.982509034322486,-0.111494257902412,0.982509034337796,-0.111494257920335,0.00642479733007367,0.0152408919866738
16,0.00657899240271541,0.0157006690753021,0.981938335223489,-0.114882299961653,0.98193833523792,-0.114882299979885,0.00657450802075021,0.0157126019095708
16.5,0.00673342631969398,0.0161701097906986,0.981361308853708,-0.118263921269869,0.981361308867263,-0.118263921288349,0.00672871227471378,0.016182399858554
17,0.00689233671601571,0.016637576667577,0.980777839319528,-0.121639566146216,0.98077783933221,-0.121639566164885,0.00688738300662079,0.0166502244380191
17.5,0.00705569534585464,0.0171030080205465,0.98018779218328,-0.125009637180397,0.9801877921951,-0.125009637199197,0.00705049184509556,0.0171160142306195
18,0.00722347261651106,0.0175663421537,0.979591018919298,-0.128374497539188,0.979591018930266,-0.128374497558066,0.00721800908867169,0.0175797078226636
18.5,0.00739563754169165,0.0180275173907019,0.97898736073563,-0.131734473388805,0.978987360745764,-0.131734473407715,0.00738990366062152,0.0180412438331503
19,0.00757215769386609,0.01848647210891,0.978376651825933,-0.13508985636336,0.978376651835252,-0.135089856382252,0.00756614306282327,0.0185005609466735
19.5,0.00775299915591543,0.0189431447778445,0.977758722114174,-0.13844090602523,0.977758722122698,-0.138440906044062,0.00774669332887931,0.0189575979504983
20,0.00793812647232087,0.0193974740022242,0.977133399551638,-0.141787852276388,0.977133399559391,-0.141787852295117,0.00793151897669994,0.0194122937760501
20.5,0.00812750260016881,0.0198493985699262,0.976500512021653,-0.145130897690418,0.976500512028659,-0.145130897709009,0.00812058296083071,0.019864587545146
21,0.00832108886030786,0.0202988575050886,0.975859888902896,-0.148470219743901,0.975859888909182,-0.14847021976232,0.00831384662482143,0.0203144186212056
21.5,0.00851884488900453,0.0207457901266386,0.975211362337397,-0.151805972932943,0.975211362342989,-0.151805972951156,0.00851126965398599,0.0207617266657105
22,0.00872072859053147,0.0211901361125215,0.974554768244644,-0.15513829076621,0.97455476824957,-0.155138290784191,0.00871281002893454,0.0212064517001975
22.5,0.00892669609111299,0.0216318355698304,0.973889947118629,-0.158467287630359,0.973889947122917,-0.15846728764808,0.00891842398031747,0.0216485341739929
23,0.00913670169475472,0.022070829111092,0.973216744640374,-0.161793060527029,0.973216744644054,-0.161793060544469,0.00912806594525734,0.0220879150379307
23.5,0.0093506978415,0.0225070579368398,0.972535012134482,-0.165115690683228,0.972535012137581,-0.165115690700366,0.00934168852598935,0.0225245358242439
24,0.00956863506869915,0.0229404639246766,0.971844606894623,-0.168435245038689,0.971844606897171,-0.168435245055504,0.00955924245129749,0.0229583387327796
24.5,0.00979046197595945,0.0233709897248993,0.971145392399557,-0.17175177761523,0.971145392401581,-0.171751777631707,0.00978067654135487,0.0233892667236759
25,0.0100161251944474,0.0237985788627308,0.970437238438351,-0.175065330773934,0.970437238439882,-0.175065330790059,0.0100059376766478,0.023817263616559
25.5,0.0102455693612953,0.0242231758471947,0.969720021160847,-0.17837593636656,0.96972002116191,-0.178375936382322,0.0102349707716912,0.0242422741962862
26,0.0104787370998855,0.0246447262864953,0.968993623067065,-0.181683616787891,0.968993623067691,-0.181683616803277,0.0104677187542998,0.0246642443251828
26.5,0.0107155690068305,0.0250631770098244,0.968257932947299,-0.184988385935741,0.968257932947513,-0.184988385950742,0.0107041225512057,0.025083121061666
27,0.0109560036464899,0.0254784761953069,0.967512845782776,-0.188290250085378,0.967512845782604,-0.188290250099987,0.0109441210808552,0.0254988527850455
27.5,0.0111999775539033,0.0258905735037835,0.966758262615318,-0.191589208684831,0.966758262614788,-0.191589208699042,0.0111876512542451,0.0259113893262244
28,0.0114474252470235,0.0262994202180065,0.965994090393051,-0.194885255077392,0.965994090392187,-0.194885255091201,0.0114346479846692,0.0263206821039095
28.5,0.0116982792491384,0.0267049693866821,0.965220241798083,-0.198178377157234,0.96522024179691,-0.198178377170638,0.0116850442072678,0.0267266842658365
29,0.0119524701223704,0.0271071759727564,0.964436635061095,-0.201468557963792,0.964436635059638,-0.201468557976789,0.0119387709092652,0.0271293508344277
29.5,0.0122099265131191,0.0275059970051172,0.963643193766947,-0.204755776220164,0.963643193765228,-0.204755776232752,0.0121957571717629,0.0275286388561327
30,0.0124705752102779,0.027901391732847,0.962839846654659,-0.208040006820434,0.962839846652701,-0.208040006832614,0.0124559302239374,0.0279245075536152
30.5,0.0127343412169981,0.0282933217809862,0.962026527414563,-0.211321221270472,0.962026527412387,-0.211321221282244,0.0127192155104388,0.0283169184798333
31,0.0130011478367223,0.0286817513066417,0.961203174484859,-0.214599388086387,0.961203174482487,-0.214599388097754,0.0129855367727313,0.0287058356728613
31.5,0.013270916774095,0.0290666471541539,0.960369730849404,-0.217874473154535,0.960369730846856,-0.217874473165499,0.0132548161450323,0.0290912258102691
32,0.0135435682512698,0.0294479790079154,0.959526143838166,-0.221146440056583,0.959526143835462,-0.221146440067147,0.0135269742654054,0.0294730583616538
32.5,0.0138190211400011,0.0298257195412954,0.958672364931497,-0.224415250362901,0.958672364928656,-0.224415250373069,0.0138019304024519,0.0298513057378664
33,0.0140971931097446,0.0301998445600389,0.957808349569095,-0.227680863897242,0.957808349566134,-0.227680863907019,0.014079602597893,0.0302259434353183
33.5,0.0143780007918373,0.0305703331384022,0.95693405696431,-0.230943238975399,0.956934056961247,-0.23094323898479,0.0143599078251788,0.0305969501736882
34,0.0146613599596325,0.0309371677462151,0.956049449924299,-0.234202332620301,0.956049449921151,-0.234202332629312,0.0146427621640799,0.0309643080252218
34.5,0.0149471857242494,0.0313003343649854,0.955154494676344,-0.237458100755803,0.955154494673127,-0.237458100764439,0.0149280809910083,0.0313280025337832
35,0.0152353927453862,0.0316598225911691,0.954249160700555,-0.240710498381161,0.954249160697285,-0.240710498389431,0.0152157791846089,0.0316880228217673
35.5,0.0155258954563954,0.0320156257246638,0.95333342056908,-0.243959479728076,0.953333420565771,-0.243959479735984,0.0155057713459153,0.032044361682948
36,0.0158186083025844,0.0323677408406644,0.952407249791837,-0.247204998401934,0.952407249788502,-0.247204998409489,0.0157979720321258,0.0323970156593572
36.5,0.0161134459914323,0.032716168843044,0.951470626668754,-0.250447007508793,0.951470626665406,-0.250447007516003,0.016092296002806,0.0327459851003453
37,0.01641032375319,0.0330609144975311,0.950523532148429,-0.25368545976945,0.950523532145082,-0.253685459776322,0.0163886584770576,0.0330912742020379
37.5,0.0167091576100351,0.033401986443079,0.949565949693084,-0.256920307621841,0.94956594968975,-0.256920307628384,0.016686975399941,0.0334328910255097
38,0.0170098646517572,0.0337393971799851,0.94859786514966,-0.260151503312905,0.948597865146349,-0.260151503319126,0.0169871637162005,0.0337708474921807
38.5,0.0173123633156845,0.0340731630335558,0.947619266626876,-0.263378998980891,0.9476192666236,-0.263378998986798,0.0172891416490839,0.0341051593551061
39,0.0176165736683808,0.0344033040923066,0.94663014437806,-0.266602746729057,0.946630144374828,-0.266602746734661,0.0175928289818546,0.0344358461450653
39.5,0.0179224176864607,0.0347298441200072,0.945630490689539,-0.26982269869157,0.945630490686361,-0.269822698696878,0.0178981473393823,0.0347629310906321
40,0.0182298195337114,0.0350528104411629,0.94462029977438,-0.273038807092348,0.944620299771266,-0.27303880709737,0.018205020467052,0.0350864410116831
40.5,0.0185387058316325,0.0353722337998834,0.943599567671262,-0.27625102429753,0.94359956766822,-0.276251024302274,0.0185133745041057,0.0354064061861763
41,0.0188490059204157,0.0356881481924214,0.94256829214826,-0.27945930286218,0.942568292145296,-0.279459302866657,0.0188231382484403,0.035722860190313
41.5,0.0191606521074036,0.0360005906740428,0.941526472611318,-0.28266359557178,0.941526472608441,-0.282663595575997,0.0191342434098701,0.0360358397126359
42,0.0194735799000816,0.0363096011412878,0.940474110017208,-0.285863855478983,0.940474110014425,-0.285863855482949,0.0194466248488669,0.0363453843429573
42.5,0.0197877282207685,0.0366152220910294,0.939411206790753,-0.289060035936121,0.93941120678807,-0.289060035939846,0.0197602207978722,0.0366515363373996
43,0.0201030396003179,0.0369174983581309,0.938337766746112,-0.29225209062383,0.938337766743534,-0.292252090627323,0.0200749730623949,0.03695434036123
43.5,0.0204194603483265,0.0372164768338394,0.93725379501193,-0.295439973576185,0.937253795009463,-0.295439973579455,0.0203908271993005,0.037253843211503
44,0.0207369406976294,0.0375122061673923,0.936159297960159,-0.298623639202665,0.936159297957809,-0.298623639205721,0.0207077326699249,0.0375500935218991
44.5,0.0210554349211387,0.0378047364535918,0.935054283138369,-0.301803042307252,0.935054283136139,-0.301803042310104,0.0210256429659372,0.0378431414524396
45,0.0213749014194257,0.0380941189093709,0.933938759205363,-0.304978138104928,0.933938759203258,-0.304978138107584,0.021344515706204,0.0381330383670446
45.5,0.0216953027778434,0.0383804055425483,0.932812735869935,-0.308148882235829,0.932812735867958,-0.308148882238298,0.0216643127032803,0.0384198365020951
46,0.0220166057923725,0.038663648816146,0.931676223832606,-0.311315230777261,0.931676223830761,-0.311315230779552,0.0219849999985512,0.0387035886293772
46.5,0.022338781463811,0.0389439013117254,0.930529234730184,-0.314477140253784,0.930529234728473,-0.314477140255906,0.022306547865479,0.0389843477168723
47,0.0226618049603565,0.0392212153952087,0.929371781082992,-0.317634567645555,0.929371781081419,-0.317634567647516,0.022628930780848,0.0392621665909081
47.5,0.0229856555490768,0.0394956428886473,0.928203876244648,-0.320787470395073,0.928203876243213,-0.320787470396882,0.0229521273643384,0.0395370976032055
48,0.0233103164971734,0.0397672347512863,0.927025534354231,-0.323935806412499,0.927025534352938,-0.323935806414165,0.0232761202872178,0.0398091923062456
48.5,0.023635774944378,0.0400360407731302,0.925836770290744,-0.32707953407966,0.925836770289593,-0.327079534081191,0.0236008961513349,0.0400785011402816
49,0.0239620217481686,0.0403021092839984,0.92463759962972,-0.330218612252885,0.924637599628712,-0.330218612254289,0.0239264453400288,0.0403450731351125
49.5,0.0242890513038728,0.0405654868808192,0.923428038601888,-0.333353000264758,0.923428038601024,-0.333353000266043,0.0242527618429129,0.0406089556294957
50,0.0246168613420041,0.0408262181755945,0.922208104053773,-0.336482657924903,0.922208104053053,-0.336482657926077,0.0245798430568312,0.0408701940107892
50.5,0.0249454527054399,0.0410843455661316,0.920977813410137,-0.339607545519892,0.920977813409561,-0.339607545520962,0.0249076895655515,0.041128831477073
51,0.0252748291092572,0.0413399090312923,0.91973718463817,-0.342727623812351,0.919737184637738,-0.342727623813325,0.0252363049010032,0.0413849088236455
51.5,0.0256049968861888,0.0415929459521116,0.918486236213334,-0.345842854039336,0.918486236213046,-0.345842854040222,0.0255656952890231,0.0416384642554233
52,0.0259359647207418,0.0418434909597472,0.91722498708678,-0.348953197910064,0.917224987086635,-0.34895319791087,0.0258958693826957,0.0418895332263256
52.5,0.0262677433750866,0.0420915758108407,0.915953456654254,-0.35205861760304,0.915953456654251,-0.352058617603771,0.0262268379864316,0.0421381483063927
53,0.0266003454097674,0.042337229290478,0.914671664726425,-0.355159075762637,0.914671664726562,-0.355159075763302,0.026558613773926,0.0423843390769205
53.5,0.0269337849022566,0.0425804771425582,0.913379631500558,-0.35825453549521,0.913379631500834,-0.358254535495814,0.0268912110030881,0.0426281320535664
54,0.027268077166229,0.0428213420270538,0.912077377533465,-0.361344960364738,0.912077377533878,-0.36134496036529,0.0272246452309274,0.0428695506369774
54.5,0.0276032384742981,0.0430598435033027,0.910764923715671,-0.364430314388088,0.91076492371622,-0.364430314388591,0.0275589330312456,0.0431086150901725
55,0.0279392857867457,0.0432959980381979,0.909442291246745,-0.367510562029899,0.909442291247427,-0.367510562030362,0.0278940917177807,0.0433453425415995
55.5,0.0282762364885754,0.0435298190378892,0.908109501611725,-0.370585668197149,0.908109501612538,-0.370585668197577,0.0282301390752548,0.0435797470125276
56,0.0286141081369526,0.0437613169013842,0.906766576558597,-0.373655598233417,0.906766576559537,-0.373655598233815,0.0285670931005065,0.0438118394671749
56.5,0.0289529182208542,0.0439904990942916,0.905413538076767,-0.376720317912878,0.905413538077833,-0.376720317913253,0.0289049717556494,0.0440416278838296
57,0.0292926839344718,0.0442173702407882,0.9040504083765,-0.379779793434061,0.904050408377688,-0.379779793434417,0.0292437927349095,0.0442691173450256
57.5,0.029633421965624,0.0444419322318159,0.902677209869248,-0.38283399141338,0.902677209870555,-0.382833991413724,0.0295835732465179,0.0444943101447646
58,0.0299751483001932,0.0446641843474687,0.901293965148862,-0.385882878878477,0.901293965150285,-0.385882878878812,0.0299243298107488,0.0447172059106882
58.5,0.0303178780433073,0.0448841233914792,0.899900696973626,-0.38892642326138,0.899900696975162,-0.388926423261713,0.030266078074926,0.0449378017390787
59,0.0306616252577379,0.0451017438357739,0.898497428249081,-0.391964592391515,0.898497428250725,-0.391964592391848,0.0306088326459502,0.0451560923405872
59.5,0.0310064028197652,0.045317037973074,0.897084182011605,-0.394997354488558,0.897084182013354,-0.394997354488898,0.0309526069406432,0.0453720701946034
60,0.0313522222925152,0.045529996075606,0.895660981412724,-0.398024678155183,0.895660981414573,-0.398024678155532,0.0312974130539868,0.0455857257102618
60.5,0.0316990938165824,0.0457406065580819,0.894227849704103,-0.401046532369676,0.894227849706049,-0.401046532370039,0.0316432616451051,0.0457970473921678
61,0.0320470260175859,0.0459488561431938,0.892784810223214,-0.40406288647847,0.892784810225253,-0.404062886478851,0.031990161840655,0.0460060220090235
61.5,0.0323960259301187,0.0461547300280403,0.891331886379633,-0.407073710188575,0.891331886381761,-0.407073710188976,0.0323381211551303,0.0462126347634815
62,0.0327460989374484,0.0463582120499748,0.889869101641943,-0.410078973559943,0.889869101644155,-0.410078973560368,0.0326871454274184,0.0464168694616565
62.5,0.0330972487261952,0.0465592848505594,0.88839647952523,-0.413078646997765,0.888396479527521,-0.413078646998217,0.0330372387728575,0.0466187086809101
63,0.0334494772551392,0.046757930036434,0.886914043579138,-0.4160727012447,0.886914043581503,-0.416072701245183,0.0333884035499217,0.0468181339346504
63.5,0.0338027847372169,0.0469541283360584,0.885421817376457,-0.419061107373078,0.885421817378894,-0.419061107373593,0.0337406403405789,0.0470151258330049
