"Freq [GHz]","re(St(P1,P1)) []","im(St(P1,P1)) []","re(St(P1,P2)) []","im(St(P1,P2)) []","re(St(P2,P1)) []","im(St(P2,P1)) []","re(St(P2,P2)) []","im(St(P2,P2)) []"
0,0.00304391891381783,0,0.996970544831129,0,0.996970541644259,0,0.00304391508458934,0
0.5,0.00349543246441186,-0.000888523964459154,0.996472741659886,-0.00486427681946111,0.996472743525906,-0.00486427655845389,0.00349517276368516,-0.00088736128784106
1,0.00393512981511179,-0.00236428137903388,0.995927984905592,-0.00913936443519603,0.9959279850057,-0.0091393631192247,0.00393446080190074,-0.00236160245264117
1.5,0.00416827377846118,-0.00402065810254371,0.995519073246616,-0.0134655180979593,0.995519073804743,-0.0134655167747795,0.00416706163577985,-0.00401646891367946
2,0.00426149233367923,-0.00567709475069478,0.995105771746246,-0.0176399430280156,0.995105772509628,-0.0176399419240525,0.00425986960526714,-0.00567112739030762
2.5,0.00428481287565852,-0.00731007282081819,0.994722576994448,-0.0217114064472419,0.994722577750547,-0.0217114056112386,0.00428290183934621,-0.0073022563655023
3,0.0042687863978621,-0.00892241407742844,0.994372131973856,-0.0257203725401354,0.994372132603946,-0.0257203719431871,0.00426665679219518,-0.00891273647243551
3.5,0.00422704452088496,-0.0105191840011294,0.994044234651678,-0.0296929537809625,0.994044235111696,-0.029692953376653,0.00422473230070963,-0.0105076468394039
4,0.00416617443665679,-0.0121042663901179,0.993726186040325,-0.0336442388081402,0.993726186330425,-0.0336442385543343,0.00416369657741278,-0.0120908720267181
4.5,0.00408962452626316,-0.0136803088815185,0.993406741863328,-0.0375825312831743,0.993406742005454,-0.0375825311461391,0.00408698736743229,-0.0136650570336414
5,0.00399933314372092,-0.0152490744490557,0.993077066440852,-0.041512312538309,0.993077066465292,-0.0415123124912853,0.00399653693932134,-0.0152319615537024
5.5,0.00389646031607072,-0.0168117349113519,0.992730588570403,-0.0454359766951118,0.992730588508532,-0.045435976716135,0.00389350177943104,-0.016792754256123
6,0.00378174060683101,-0.0183690694817429,0.992362563926481,-0.0493547765851208,0.992362563807232,-0.0493547766555071,0.00377861439158256,-0.0183482115112348
6.5,0.00365566428421404,-0.0199215933704906,0.991969631612394,-0.0532693260619865,0.991969631460804,-0.0532693261653687,0.00365236388420254,-0.0198988459921967
7,0.0035185755189735,-0.0214696410238808,0.991549447015048,-0.0571798668419525,0.991549446851915,-0.057179866963823,0.00351509383914239,-0.0214449898693729
7.5,0.00337072815945216,-0.0230134207376249,0.991100400407228,-0.0610864132127471,0.991100400249308,-0.0610864133401918,0.00336705789361202,-0.0229868493750693
8,0.0032123187195876,-0.0245530511561007,0.990621408884392,-0.0649888335678508,0.990621408744898,-0.064988833689462,0.00320845261090996,-0.0245245412614512
8.5,0.00304350658792796,-0.0260885861505002,0.990111765341631,-0.068886898804454,0.990111765230763,-0.0688868989101881,0.00303943761584735,-0.0260581176460608
9,0.00286442679367527,-0.0276200321085351,0.989571029957774,-0.0727803128035411,0.989571029883256,-0.0727803128846638,0.002860148313234,-0.0275875832768495
9.5,0.00267519829008411,-0.0291473601756316,0.988998952675096,-0.0766687327574154,0.98899895264267,-0.0766687328064002,0.00267070413967074,-0.0291129077547989
10,0.00247592945682951,-0.0306705150742506,0.988395418015499,-0.0805517833895806,0.988395418029337,-0.0805517833999883,0.00247121404426487,-0.0306340343393803
10.5,0.00227872115836858,-0.0322012197896147,0.987829325092887,-0.0844139026835187,0.987829325106102,-0.0844139026936066,0.00227410276489803,-0.0321642032725435
11,0.00207177543220438,-0.0337316851204861,0.987249537110775,-0.0882626632438832,0.987249537123423,-0.0882626632536283,0.00206707524695338,-0.0336941695346056
11.5,0.00185504005836235,-0.035261920960453,0.986656554192049,-0.0920987859537838,0.986656554204185,-0.0920987859631719,0.00185007464557296,-0.0352239194806767
12,0.0016284550267085,-0.0367919345699441,0.986050774785574,-0.0959229717161332,0.986050774797247,-0.0959229717251464,0.00162303961198518,-0.0367534363954434
12.5,0.00139195263216174,-0.0383217295718357,0.985432506844435,-0.0997358930607559,0.985432506855696,-0.0997358930693943,0.00138590441812714,-0.0382826999681214
13,0.00114545770993235,-0.0398513049488738,0.984801978771034,-0.103538187941245,0.984801978781929,-0.103538187949508,0.00113859914745651,-0.0398116857694442
13.5,0.000888888010938227,-0.0413806540643806,0.984159349874541,-0.107330455416657,0.98415934988511,-0.107330455424546,0.00088104995250704,-0.0413403647400239
14,0.000622154713976419,-0.0429097637277547,0.983504720166269,-0.111113252920401,0.98350472017655,-0.111113252927918,0.000613179378294415,-0.0428687026993382
14.5,0.00034516306755672,-0.0444386133255907,0.982838139384602,-0.114887094837371,0.982838139394631,-0.114887094844531,0.000334906749325126,-0.0443966598845709
15,5.78131508203183E-005,-0.0459671740381165,0.982159615193677,-0.118652452135938,0.982159615203485,-0.118652452142746,4.61486165020952E-005,-0.0459241905283605
15.5,-0.000239999260286283,-0.0474954081584436,0.981469120540531,-0.122409752830231,0.981469120550147,-0.122409752836704,-0.000253180741092429,-0.0474512424837359
16,-0.000548381738271098,-0.0490232685298508,0.980766600185337,-0.126159383078392,0.980766600194787,-0.126159383084542,-0.0005631687658747,-0.0489777569039358
16.5,-0.000867444179764365,-0.0505506981130557,0.980051976440602,-0.129901688751524,0.980051976449908,-0.129901688757364,-0.00088390403033145,-0.0505036679837128
17,-0.00119729773232874,-0.0520776296921346,0.979325154169126,-0.133636977335576,0.979325154178307,-0.133636977341123,-0.0012154756129179,-0.0520289027676331
17.5,-0.00153805369409682,-0.0536039857240223,0.978586025098959,-0.1373655200532,0.978586025108032,-0.137365520058466,-0.00155797245044942,-0.0535533810294817
18,-0.00188982240831215,-0.0551296783327366,0.97783447151764,-0.141087554114455,0.977834471526621,-0.141087554119459,-0.00191148267671593,-0.055077015225514
18.5,-0.00225271217437462,-0.0566546094458413,0.977070369408868,-0.144803285024508,0.977070369417769,-0.144803285029263,-0.0022760929573033,-0.0565997105228
19,-0.00262682819594418,-0.0581786710669903,0.976293591093357,-0.148512888892372,0.976293591102189,-0.148512888896896,-0.00265188783065595,-0.0581213649023082
19.5,-0.00301227158497525,-0.0597017456753779,0.97550400743263,-0.152216514698559,0.975504007441401,-0.152216514702861,-0.0030389490651947,-0.0596418693349596
20,-0.0034091384383384,-0.0612237067400478,0.974701489650587,-0.155914286490535,0.974701489659307,-0.155914286494632,-0.00343735504182191,-0.0611611080274628
20.5,-0.00381751900106714,-0.0627444193348481,0.973885910823183,-0.159606305484107,0.973885910831855,-0.159606305488014,-0.00384718017047997,-0.0626789587333372
21,-0.00423749692743797,-0.0642637408381219,0.973057147081772,-0.163292652056119,0.973057147090403,-0.163292652059848,-0.00426849434852766,-0.064195293123495
21.5,-0.00466914864799994,-0.0657815217001758,0.972215078571045,-0.166973387619568,0.972215078579638,-0.166973387623131,-0.00470136246766423,-0.0657099772096537
22,-0.00511254284765156,-0.0672976062611186,0.971359590197778,-0.170648556376937,0.971359590206335,-0.170648556380348,-0.00514584397496376,-0.0672228718131844
22.5,-0.00556774005691746,-0.0688118336017025,0.970490572202408,-0.174318186950771,0.970490572210932,-0.17431818695404,-0.00560199249233945,-0.0687338330713505
23,-0.00603479235573112,-0.070324038410428,0.969607920581396,-0.177982293893225,0.969607920589887,-0.177982293896362,-0.00606985549744535,-0.0702427129725818
23.5,-0.00651374318663472,-0.0718340518511793,0.968711537384684,-0.181640879078182,0.968711537393142,-0.181640879081198,-0.00654947406776141,-0.071749359912344
24,-0.00700462727203319,-0.0733417024170047,0.96780133090931,-0.185293932980766,0.967801330917735,-0.18529393298367,-0.00704088268833625,-0.0732536192611688
24.5,-0.00750747062844415,-0.0748468167573568,0.966877215807236,-0.188941435850073,0.966877215815626,-0.188941435852874,-0.00754410912249628,-0.0747553339367775
25,-0.00802229066918494,-0.0763492204678675,0.965939113122924,-0.192583358781384,0.965939113131278,-0.192583358784091,-0.00805917434373019,-0.0762543449725763
25.5,-0.00854909638601517,-0.077848738833628,0.964986950273845,-0.19621966469438,0.964986950282162,-0.196219664696999,-0.00858609252601422,-0.077750492075467
26,-0.00908788859953508,-0.0793451975189399,0.964020660985149,-0.199850309224019,0.964020660993426,-0.199850309226559,-0.00912487108902038,-0.0792436141665642
26.5,-0.00963866026792515,-0.0808384231983448,0.963040185187943,-0.203475241530592,0.963040185196176,-0.203475241533059,-0.00967551079397727,-0.0807335498992288
27,-0.0102013968435467,-0.082328244125434,0.96204546888919,-0.207094405035258,0.962045468897379,-0.207094405037657,-0.0102380058854261,-0.0822201381495837
27.5,-0.0107760766672829,-0.0838144906377649,0.96103646401988,-0.210707738087186,0.96103646402802,-0.210707738089524,-0.0108123442737603,-0.083703218475661
28,-0.0113626713909429,-0.0852969955974392,0.960013128267038,-0.214315174568005,0.960013128275127,-0.214315174570289,-0.0113985077532001,-0.0851826315420556
28.5,-0.0119611464187368,-0.0867755947683597,0.958975424894217,-0.217916644439033,0.95897542490225,-0.217916644441266,-0.0119964722497753,-0.0866582195079064
29,-0.0125714613596215,-0.0882501271320928,0.957923322554255,-0.221512074236256,0.95792332256223,-0.221512074238441,-0.012606208093915,-0.0881298263767314
29.5,-0.0131935704831807,-0.0897204351452476,0.956856795097441,-0.22510138751785,0.956856795105355,-0.225101387519992,-0.0132276803123834,-0.0895972983074707
30,-0.0138274231726083,-0.0911863649418723,0.955775821377626,-0.228684505268502,0.955775821385474,-0.228684505270605,-0.0138608489345382,-0.0910604838866851
30.5,-0.014472964369297,-0.0926477664848808,0.954680385058323,-0.232261346264555,0.954680385066102,-0.232261346266623,-0.014505669308172,-0.0925192343624723
31,-0.0151301350044213,-0.0941044936708582,0.95357047442046,-0.235831827403654,0.953570474428166,-0.235831827405689,-0.0151620924205826,-0.0939734038412272
31.5,-0.0157988724137771,-0.0955564043927759,0.952446082173046,-0.239395864002211,0.952446082180677,-0.239395864004217,-0.0158300652208838,-0.095422849448723
32,-0.0164791107329502,-0.0970033605651683,0.95130720526779,-0.242953370063767,0.95130720527534,-0.242953370065745,-0.0165095309400267,-0.0968674314573841
32.5,-0.0171707812705971,-0.0984452281163213,0.950153844718402,-0.24650425852104,0.950153844725868,-0.246504258522992,-0.0172004294054132,-0.098307013381898
33,-0.0178738128583332,-0.099881876951843,0.948986005425177,-0.250048441454163,0.948986005432556,-0.250048441456091,-0.0179026973474214,-0.09974146204548
33.5,-0.018588132176263,-0.101313180893819,0.94780369600524,-0.253585830287443,0.947803696012528,-0.25358583028935,-0.0186162686956101,-0.101170647619242
34,-0.0193136640537411,-0.102739017599509,0.946606928628718,-0.257116335966705,0.946606928635913,-0.257116335968592,-0.0193410748627554,-0.102594443637237
34.5,-0.0200503317453393,-0.104159268463217,0.945395718861013,-0.260639869119099,0.94539571886811,-0.260639869120963,-0.0200770450152702,-0.104012726989657
35,-0.0207980571823965,-0.10557381850468,0.944170085511224,-0.264156340197083,0.944170085518219,-0.264156340198929,-0.0208241063289109,-0.105425377896748
35.5,-0.0215567612008067,-0.106982556247079,0.942930050486717,-0.267665659608148,0.942930050493608,-0.267665659609977,-0.021582184229016,-0.106832279865886
36,-0.0223263637459156,-0.108385373587294,0.941675638653805,-0.27116773783162,0.94167563866059,-0.271167737833431,-0.0223512026147794,-0.108233319634136
36.5,-0.0231067840556033,-0.109782165660893,0.940406877704394,-0.274662485523848,0.940406877711067,-0.274662485525641,-0.0231310840673679,-0.109628387098544
37,-0.0238979408227468,-0.111172830703933,0.939123798028476,-0.278149813612896,0.939123798035036,-0.278149813614672,-0.0239217500418772,-0.111017375236267
37.5,-0.0246997523383105,-0.112557269913375,0.93782643259232,-0.281629633383738,0.937826432598763,-0.281629633385496,-0.0247231210433244,-0.112400180016424
38,-0.0255121366164461,-0.113935387307746,0.936514816822131,-0.285101856554915,0.936514816828455,-0.285101856556657,-0.0255351167870617,-0.113776700305531
38.5,-0.0263350115028936,-0.115307089589274,0.935188988493022,-0.288566395347467,0.935188988499223,-0.288566395349191,-0.0263576563440808,-0.115146837768054
39,-0.0271682947680582,-0.116672286008658,0.93384898762307,-0.292023162546871,0.933848987629147,-0.292023162548576,-0.0271906582718217,-0.116510496763591
39.5,-0.0280119041860865,-0.118030888233335,0.932494856372249,-0.295472071558699,0.932494856378197,-0.295472071560387,-0.0280340407311719,-0.117867584241987
40,-0.0288657576012011,-0.119382810219971,0.931126638946016,-0.298913036458575,0.931126638951835,-0.298913036460243,-0.0288877215903805,-0.119218009637466
40.5,-0.0297297729825274,-0.120727968091696,0.92974438150337,-0.302345972036977,0.929744381509056,-0.302345972038627,-0.0297516185166872,-0.120561684762865
41,-0.0306038684685854,-0.122066280020549,0.928348132069124,-0.30577079383941,0.928348132074677,-0.305770793841038,-0.0306256490564509,-0.121898523704759
41.5,-0.0314879624025374,-0.123397666115369,0.926937940450236,-0.30918741820234,0.926937940455651,-0.309187418203947,-0.0315097307046093,-0.123228442720271
42,-0.0323819733592194,-0.124722048315359,0.925513858155952,-0.312595762285356,0.925513858161227,-0.312595762286941,-0.0324037809642636,-0.124551360136134
42.5,-0.0332858201649171,-0.126039350289403,0.9240759383216,-0.31599574409986,0.924075938326736,-0.315995744101423,-0.0333077173972017,-0.125867196250562
43,-0.0341994219107558,-0.127349497341146,0.922624235635844,-0.319387282534648,0.922624235640837,-0.319387282536184,-0.0342214576661141,-0.127175873238295
43.5,-0.0351226979605402,-0.128652416319845,0.921158806271179,-0.322770297378669,0.921158806276027,-0.322770297380182,-0.0351449195692904,-0.128477315059198
44,-0.0360555679537484,-0.129948035536828,0.919679707817564,-0.326144709341208,0.919679707822266,-0.326144709342693,-0.0360780210684557,-0.129771447370583
44.5,-0.0369979518043977,-0.131236284687508,0.918186999218957,-0.329510440069755,0.918186999223511,-0.329510440071213,-0.0370206803104912,-0.131058197443526
45,-0.0379497696963521,-0.132517094778717,0.916680740712639,-0.332867412165768,0.916680740717044,-0.332867412167195,-0.0379728156436373,-0.132337494083206
45.5,-0.0389109420756502,-0.133790398061225,0.915160993771167,-0.336215549198504,0.915160993775422,-0.3362155491999,-0.0389343456287996,-0.133609267553382
46,-0.0398813896403385,-0.135056127967206,0.913627821046803,-0.339554775717129,0.913627821050907,-0.339554775718494,-0.0399051890465235,-0.134873449505026
46.5,-0.0408610333282429,-0.136314219052442,0.912081286318298,-0.342885017261236,0.91208128632225,-0.342885017262569,-0.04088526490015,-0.13612997290905
47,-0.0418497943030838,-0.137564606943024,0.910521454439896,-0.346206200369921,0.910521454443694,-0.346206200371219,-0.0418744924156484,-0.137378771993132
47.5,-0.0428475939392787,-0.138807228286336,0.908948391292439,-0.349518252589546,0.908948391296082,-0.349518252590808,-0.0428727910385536,-0.138619782182515
48,-0.0438543538057375,-0.140042020706073,0.907362163736456,-0.352821102480319,0.907362163739944,-0.352821102481542,-0.0438800804284359,-0.139852940044705
48.5,-0.044869995648917,-0.141268922761069,0.905762839567139,-0.356114679621762,0.90576283957047,-0.356114679622946,-0.0448962804512534,-0.141078183237938
49,-0.0458944413753828,-0.142487873907684,0.904150487471086,-0.359398914617201,0.904150487474262,-0.359398914618345,-0.0459213111699328,-0.142295450463286
49.5,-0.0469276130340675,-0.14369881446557,0.902525176984737,-0.362673739097337,0.902525176987756,-0.362673739098439,-0.0469550928334908,-0.143504681420268
50,-0.0479694327984149,-0.144901685586549,0.900886978454393,-0.365939085722982,0.900886978457254,-0.365939085724041,-0.0479975458649501,-0.144705816765794
50.5,-0.049019822948559,-0.146096429226434,0.899235962997743,-0.36919488818704,0.899235963000446,-0.369194888188053,-0.0490485908483197,-0.14589879807633
51,-0.0500787058536568,-0.147282988119556,0.897572202466831,-0.372441081215767,0.897572202469378,-0.372441081216733,-0.050108148514833,-0.147083567813064
51.5,-0.0511460039545103,-0.148461305755851,0.895895769412358,-0.375677600569418,0.895895769414747,-0.375677600570336,-0.0511761397286677,-0.148260069289987
52,-0.0522216397465481,-0.149631326360276,0.894206737049271,-0.378904383042278,0.894206737051503,-0.378904383043147,-0.0522524854722949,-0.149428246644677
52.5,-0.0533055357632424,-0.150792994874412,0.89250517922358,-0.38212136646216,0.892505179225654,-0.382121366462977,-0.0533371068316217,-0.150588044811654
53,-0.0543976145600501,-0.151946256940087,0.890791170380306,-0.385328489689394,0.890791170382223,-0.385328489690159,-0.0544299249810655,-0.151739409498159
53.5,-0.0554977986988946,-0.153091058884849,0.88906478553255,-0.388525692615363,0.88906478553431,-0.388525692616074,-0.0555308611686557,-0.152882287162194
54,-0.0566060107332607,-0.154227347709167,0.887326100231574,-0.391712916160599,0.887326100233178,-0.391712916161253,-0.0566398367012971,-0.154016624992692
54.5,-0.0577221731939054,-0.155355071075203,0.885575190537896,-0.394890102272486,0.885575190539344,-0.394890102273085,-0.0577567729302456,-0.155142370891675
55,-0.0588462085752296,-0.156474177297041,0.883812132993307,-0.398057193922605,0.883812132994601,-0.398057193923144,-0.0588815912368927,-0.156259473458264
55.5,-0.0599780393223142,-0.157584615332256,0.88203700459379,-0.401214135103718,0.88203700459493,-0.401214135104198,-0.0600142130189207,-0.157367881974427
56,-0.061117587818633,-0.158686334774687,0.880249882763295,-0.404360870826449,0.880249882764282,-0.404360870826869,-0.0611545596768623,-0.158467546392312
56.5,-0.0622647763744514,-0.159779285848355,0.878450845328312,-0.407497347115666,0.878450845329148,-0.407497347116023,-0.06230255260114,-0.159558417323102
57,-0.0634195272159022,-0.160863419402385,0.876639970493235,-0.410623511006577,0.87663997049392,-0.410623511006871,-0.0634581131595827,-0.160640446027225
57.5,-0.0645817624747469,-0.161938686906874,0.87481733681645,-0.413739310540586,0.874817336816984,-0.413739310540815,-0.0646211626854827,-0.161713584405863
58,-0.0657514041788012,-0.163005040449604,0.872983023187141,-0.41684469476088,0.872983023187528,-0.416844694761044,-0.0657916224661816,-0.162777784993626
58.5,-0.0669283742430312,-0.164062432733528,0.871137108802761,-0.419939613707819,0.871137108803,-0.419939613707916,-0.0669694137322403,-0.163833000952334
59,-0.0681125944612914,-0.165110817074968,0.869279673147157,-0.423024018414085,0.869279673147252,-0.423024018414113,-0.0681544576471554,-0.164879186065777
59.5,-0.0693039864987135,-0.166150147402444,0.867410795969303,-0.426097860899649,0.867410795969254,-0.426097860899609,-0.0693466752976782,-0.165916294735424
60,-0.0705024718847022,-0.167180378256077,0.865530557262638,-0.429161094166539,0.865530557262447,-0.429161094166429,-0.0705459876847001,-0.166944281976956
60.5,-0.0717079720065535,-0.168201464787522,0.863639037244957,-0.432213672193432,0.863639037244626,-0.432213672193251,-0.0717523157147294,-0.167963103417579
61,-0.0729204081036492,-0.169213362760357,0.861736316338865,-0.435255549930075,0.861736316338396,-0.435255549929822,-0.0729655801919424,-0.168972715294049
61.5,-0.0741397012622388,-0.170216028550912,0.859822475152735,-0.43828668329155,0.85982247515213,-0.438286683291225,-0.0741857018108134,-0.169973074451341
62,-0.0753657724107633,-0.171209419149445,0.857897594462191,-0.441307029152377,0.857897594461452,-0.441307029151979,-0.0754126011493026,-0.170964138341891
62.5,-0.0765985423157258,-0.172193492161689,0.855961755192056,-0.44431654534049,0.855961755191185,-0.444316545340018,-0.0766461986626135,-0.171945865025394
