"Freq [GHz]","re(St(P1,P1)) []","im(St(P1,P1)) []","re(St(P1,P2)) []","im(St(P1,P2)) []","re(St(P2,P1)) []","im(St(P2,P1)) []","re(St(P2,P2)) []","im(St(P2,P2)) []"
0,0.00431399696492463,0,0.995698986254865,0,0.995698981234455,0,0.00431399148465061,0
0.5,0.00469331136586248,0.00129718071899632,0.995252781761266,-0.00574235482463337,0.995252782101602,-0.00574235609039064,0.00469324044266273,0.00129740287732005
1,0.00503522617547958,0.00212178286103892,0.994747059155618,-0.0109936851347001,0.994747059181496,-0.0109936850816048,0.00503504271542354,0.00212231367005344
1.5,0.0050417802268754,0.00276769601937588,0.994315211344679,-0.0163217312938428,0.99431521138569,-0.0163217312318622,0.00504120713900313,0.00276863535767191
2,0.0050574597915265,0.00349937777952292,0.993808429039422,-0.0215077467111406,0.993808429090076,-0.0215077466512064,0.00505671669107421,0.00350069198208658
2.5,0.00507949131159346,0.00426768058436622,0.993272670612572,-0.0265659554760873,0.993272670665111,-0.0265659554245712,0.00507863252908791,0.00426936204615558
3,0.00510725403430623,0.00505676706513825,0.992733852048381,-0.0315218020386592,0.992733852095991,-0.0315218019979309,0.00510629289335673,0.0050588156932605
3.5,0.00514060585170073,0.00586033804037633,0.992201594392777,-0.0364008439883428,0.992201594430961,-0.036400843958333,0.00513954144365902,0.00586275725020613
4,0.00517956370005335,0.00667568423208742,0.991675449475573,-0.0412238897185695,0.991675449502197,-0.0412238896981201,0.00517838898397205,0.00667847968562718
4.5,0.00522421710692944,0.00750170440047171,0.99115000596697,-0.0460061458139585,0.991150005981757,-0.0460061458016074,0.00522292191478235,0.00750488352637113
5,0.00527469954220816,0.00833811427756803,0.990618103817771,-0.050758066320185,0.990618103821698,-0.0507580663145184,0.00527327185102711,0.00834168607822594
5.5,0.00533117786281556,0.00918508878553403,0.990072544008814,-0.0554865862124281,0.990072544003605,-0.0554865862121616,0.00532960437902541,0.00918906377105255
6,0.00539384848334279,0.0100430849476458,0.989506860364204,-0.0601962072520212,0.989506860351959,-0.0601962072560225,0.00539211492046165,0.010047475135349
6.5,0.00546293644048812,0.010912748332955,0.988915580976111,-0.0648898062790648,0.988915580959046,-0.0648898062862946,0.00546102764668632,0.0109175672863788
7,0.00553869589762457,0.0117948614055781,0.988294239962038,-0.0695691904267814,0.988294239942325,-0.0695691904362601,0.00553659590354849,0.0118001243008976
7.5,0.00562141149142592,0.0126903143675134,0.987639281853668,-0.0742354626581623,0.987639281833343,-0.074235462668959,0.00561910351229522,0.0126960380818932
8,0.00571140026488287,0.0136000888079799,0.986947930577686,-0.0788892573157201,0.98694793055859,-0.0788892573269262,0.0057088666742186,0.0136062920275375
8.5,0.0058090140815521,0.0145252490510117,0.98621805681601,-0.0835308907710148,0.986218056799769,-0.0835308907817529,0.0058062363657812,0.0145319523977783
9,0.00591464248867279,0.0154669383848498,0.985448057961878,-0.0881604581072253,0.985448057949901,-0.0881604581166506,0.00591160118763337,0.0154741645632495
9.5,0.00602871603605962,0.0164263785659129,0.984636755316684,-0.0927778959911301,0.984636755310171,-0.0927778959984362,0.00602539067214455,0.0164341525300209
10,0.0061517100819905,0.0174048716580986,0.983783308749123,-0.0973830244745892,0.983783308749082,-0.0973830244790106,0.00614807907937487,0.0174132208015365
10.5,0.00634497738802503,0.0182586776073368,0.982992757352802,-0.101987997106569,0.982992757352527,-0.101987997111047,0.00634107789286455,0.0182675023364807
11,0.00654743722320417,0.0191100932951898,0.982186369328653,-0.106571606228354,0.982186369328148,-0.106571606232873,0.00654325774067234,0.0191194019188927
11.5,0.00675905631748423,0.0199590084883772,0.981365033411316,-0.11113506293107,0.981365033410584,-0.111135062935617,0.00675458557661349,0.0199688096641468
12,0.00697979992665734,0.0208053134408375,0.980529470166023,-0.115679557359273,0.98052947016507,-0.115679557363834,0.00697502688956536,0.020815616168314
12.5,0.00720963184181309,0.0216488989127686,0.979680248706409,-0.120206243794846,0.979680248705241,-0.120206243799409,0.00720454571275882,0.0216597125268976
13,0.00744851439909297,0.022489656189232,0.978817803386486,-0.124716229214804,0.978817803385108,-0.124716229219356,0.00744310463335965,0.0225009903531563
13.5,0.00769640848972175,0.0233274770983338,0.977942450020373,-0.129210564896711,0.977942450018794,-0.129210564901243,0.00769066480231125,0.0233393417959782
14,0.00795327357028949,0.024162254028917,0.977054401306494,-0.133690240641113,0.97705440130472,-0.133690240645615,0.00794718594442585,0.0241746595573082
14.5,0.00821906767326362,0.0249938799477754,0.976153781237383,-0.13815618119575,0.97615378123542,-0.138156181200211,0.00821262636869094,0.0250068369090473
15,0.00849374741771231,0.0258222484163673,0.975240638362036,-0.142609244495064,0.975240638359893,-0.142609244499477,0.00848694297877967,0.0258357677094936
15.5,0.00877726802019996,0.0266472536069777,0.97431495783599,-0.147050221365053,0.974314957833676,-0.147050221369408,0.00877009128372203,0.0266613464192127
16,0.00906958330584282,0.0274687903183541,0.973376672246708,-0.151479836384,0.973376672244229,-0.151479836388292,0.00906202540872461,0.0274834681163778
16.5,0.00937064571947716,0.0282867539907414,0.972425671240793,-0.155898749630826,0.972425671238158,-0.155898749635049,0.00936269810609408,0.0283020285115287
17,0.00968040633691963,0.0291010407203425,0.971461810006962,-0.160307559092728,0.971461810004179,-0.160307559096875,0.00967206076623972,0.0291169239617384
17.5,0.00999881487628221,0.0299115472731435,0.970484916686948,-0.164706803541071,0.970484916684025,-0.164706803545135,0.0099900634287152,0.0299280514841564
18,0.0103258197092923,0.0307181710981097,0.969494798797393,-0.169096965718219,0.969494798794339,-0.1690969657222,0.0103166547932567,0.0307353087689095
18.5,0.0106613678725906,0.0315208103397082,0.968491248751024,-0.17347847570799,0.968491248747846,-0.173478475711881,0.0106517822307848,0.03153859419136
19,0.011005405078952,0.0323193638497523,0.967474048566484,-0.177851714388345,0.967474048563191,-0.177851714392143,0.010995391794312,0.0323378068236457
19.5,0.0113578757283854,0.0331137311985299,0.966442973854213,-0.182217016887266,0.96644297385081,-0.18221701689097,0.0113474282297151,0.0331328464455383
20,0.0117187229190541,0.0339038126852143,0.965397797161711,-0.1865746759814,0.965397797158208,-0.186574675985006,0.0117078349863152,0.0339236135545691
20.5,0.0120878884579682,0.0346895093475048,0.964338290756167,-0.190924945392656,0.964338290752571,-0.190924945396163,0.0120765542272047,0.0347100093753938
21,0.0124653128713753,0.0354707229705187,0.963264228916249,-0.19526804295066,0.963264228912565,-0.195268042954063,0.0124535268392628,0.035491935868404
21.5,0.0128509354147937,0.0362473560948779,0.962175389798398,-0.199604153599254,0.962175389794636,-0.199604153602554,0.0128386924427877,0.0362692957375441
22,0.013244694082604,0.0370193120239859,0.961071556936444,-0.2039334322335,0.961071556932609,-0.203933432236697,0.0132319894006711,0.0370419924373087
22.5,0.0136465256171318,0.0377864948304854,0.959952520426985,-0.208256006360013,0.959952520423085,-0.208256006363105,0.0136333548270373,0.0378099301789456
23,0.0140563655171246,0.0385488093618633,0.958818077847032,-0.212571978578525,0.958818077843073,-0.212571978581511,0.0140427245952535,0.0385730139357889
23.5,0.0144741480455342,0.0393061612452212,0.957668034944732,-0.216881428886298,0.957668034940719,-0.216881428889178,0.0144600333452259,0.0393311494477719
24,0.0148998062365083,0.0400584568911566,0.956502206138936,-0.221184416809854,0.956502206134876,-0.221184416812629,0.0148852144898685,0.0400842432250634
24.5,0.0153332719014719,0.0408056034967901,0.955320414858643,-0.225480983370447,0.955320414854542,-0.225480983373116,0.0153182002206401,0.0408322025508476
25,0.0157744756341901,0.0415475090479112,0.954122493749226,-0.229771152891088,0.954122493745089,-0.229771152893652,0.0157589215120273,0.0415749354832355
25.5,0.0162233468146722,0.0422840823202599,0.952908284768572,-0.234054934653823,0.952908284764405,-0.234054934656282,0.0162073081248393,0.0423123508563283
26,0.0166798136117898,0.0430152328799394,0.951677639193014,-0.238332324416415,0.951677639188821,-0.23833232441877,0.0166632886081797,0.0430443582804179
26.5,0.0171438029844447,0.0437408710829765,0.950430417550002,-0.242603305797799,0.950430417545789,-0.24260330580005,0.0171267902999281,0.0437708681413536
27,0.0176152406811366,0.0444609080740765,0.94916648949196,-0.246867851541588,0.949166489487732,-0.246867851543737,0.0175977393255832,0.0444917915991194
27.5,0.0180940512377367,0.0451752557845668,0.947885733623534,-0.251125924666771,0.947885733619295,-0.25112592466882,0.0180760605952724,0.0452070405856297
28,0.0185801579732894,0.0458838269296051,0.946588037292556,-0.255377479514376,0.946588037288311,-0.255377479516325,0.0185616777987382,0.0459165278018032
28.5,0.0190734829836302,0.0465865350047048,0.945273296353394,-0.259622462698462,0.945273296349147,-0.259622462700313,0.019054513398095,0.0466201667139894
29,0.01957394713259,0.0472832942816275,0.943941414909913,-0.263860813969405,0.943941414905668,-0.263860813971158,0.0195544886181203,0.0473178715497991
29.5,0.0200814700405521,0.0479740198037859,0.942592305044099,-0.268092466996869,0.942592305039861,-0.268092466998527,0.02006152343385,0.0480095572934778
30,0.0205959700701022,0.0486586273812113,0.941225886535323,-0.272317350079475,0.941225886531095,-0.272317350081039,0.0205755365552024,0.0486951396808952
30.5,0.021117364308489,0.0493370335852656,0.939842086574342,-0.27653538678756,0.939842086570128,-0.276535386789031,0.0210964454083564,0.0493745351943344
31,0.0216455685465947,0.0500091557432547,0.938440839475399,-0.280746496545042,0.938440839471203,-0.280746496546422,0.0216241661135839,0.0500476610572329
31.5,0.0221804972541098,0.0506749119331378,0.937022086389129,-0.28495059515587,0.937022086384953,-0.284950595157161,0.0221586134592128,0.0507144352291029
32,0.0227220635505578,0.0513342209785768,0.935585775018436,-0.289147595280111,0.935585775014284,-0.289147595281316,0.0226997008713834,0.0513747764008681
32.5,0.023270179171819,0.0519870024446105,0.934131859339082,-0.293337406864333,0.934131859334958,-0.293337406865452,0.0232473403792337,0.0520286039909108
33,0.0238247544317726,0.0526331766342851,0.932660299326302,-0.297519937530485,0.932660299322208,-0.297519937531521,0.0238014425751364,0.0526758381421915
33.5,0.0243856981786598,0.0532726645866344,0.931171060688487,-0.301695092927175,0.931171060684426,-0.301695092928129,0.0243619165695899,0.0533163997208317
34,0.0249529177457459,0.0539053880764653,0.929664114608686,-0.305862777046848,0.929664114604661,-0.305862777047722,0.024928669940349,0.0539502103166418
34.5,0.0255263188958658,0.0545312696164915,0.928139437494468,-0.310022892512074,0.928139437490481,-0.310022892512871,0.0255016086753704,0.0545771922461447
35,0.0261058057593915,0.055150232462422,0.926597010736492,-0.314175340833873,0.926597010732545,-0.314175340834594,0.0260806371091319,0.055197268558737
35.5,0.0266912807651977,0.0557622006217382,0.925036820476013,-0.318320022644701,0.92503682047211,-0.318320022645348,0.0266656578518988,0.0558103630467277
36,0.0272826445641634,0.0563670988669651,0.923458857381395,-0.322456837908519,0.923458857377537,-0.322456837909093,0.0272565717114859,0.0564164002600906
36.5,0.0278797959447873,0.0569648527544191,0.921863116433634,-0.3265856861101,0.921863116429823,-0.326585686110605,0.0278532776071144,0.0570153055269382
37,0.0284826317404966,0.057555388649482,0.920249596720799,-0.330706466425566,0.920249596717037,-0.330706466426004,0.028455672474951,0.0576070049807966
37.5,0.0290910467282742,0.0581386337596783,0.918618301241245,-0.334819077875917,0.918618301237534,-0.334819077876288,0.0290636511649869,0.058191425595975
38,0.0297049335182881,0.0587145161769549,0.916969236715406,-0.338923419465175,0.916969236711748,-0.338923419465483,0.0296771063289595,0.0587684952324727
38.5,0.0303241824342732,0.0592829649307547,0.915302413405925,-0.343019390304618,0.915302413402322,-0.343019390304864,0.030295928299101,0.0593381426920414
39,0.0309486813845179,0.0598439100537136,0.913617844945874,-0.347106889724396,0.913617844942327,-0.347106889724582,0.030920004957627,0.059900297787264
39.5,0.0315783157234673,0.0603972826619927,0.911915548174777,-0.35118581737374,0.911915548171288,-0.351185817373869,0.031549221596995,0.0604548914256797
40,0.0322129681040998,0.0609430150525094,0.910195542982148,-0.355256073310856,0.910195542978718,-0.355256073310928,0.0321834607711802,0.0610018557112777
40.5,0.0328525183214809,0.0614810408196078,0.908457852158244,-0.359317558083441,0.908457852154875,-0.35931755808346,0.0328226021384281,0.0615411240658912
41,0.0334968431481774,0.0620112949939247,0.906702501251735,-0.363370172800745,0.906702501248428,-0.363370172800713,0.033466522296251,0.0620726313732951
41.5,0.0341458161625423,0.0625337142065199,0.904929518433984,-0.367413819197949,0.904929518430739,-0.367413819197867,0.0341150946097826,0.0625963141490713
42,0.0347993075713333,0.0630482368815768,0.903138934369632,-0.371448399693582,0.903138934366451,-0.371448399693453,0.0347681890350583,0.0631121107395676
42.5,0.0354571840286154,0.0635548034612423,0.90133078209322,-0.375473817440647,0.901330782090103,-0.375473817440471,0.0354256719392946,0.0636199615534934
43,0.0361193084535176,0.0640533566664144,0.899505096891525,-0.379489976372009,0.899505096888475,-0.37948997637179,0.0360874059208903,0.0641198093299455
43.5,0.0367855398501354,0.0645438417974523,0.897661916191366,-0.383496781240614,0.897661916188381,-0.383496781240353,0.036753249632583,0.0646115994467811
44,0.0374557331337159,0.0650262070789257,0.895801279452579,-0.387494137654993,0.895801279449662,-0.387494137654693,0.0374230576120749,0.0650952802733724
44.5,0.0381297389682382,0.0655004040525289,0.893923228065933,-0.3914819521105,0.893923228063083,-0.39148195211016,0.038096680125417,0.0655708035717789
45,0.0388074036216184,0.0659663880222376,0.892027805255707,-0.395460132016654,0.892027805252925,-0.39546013201628,0.0387739630295729,0.0660381249502211
45.5,0.0394885688460231,0.0664241185554422,0.890115055986714,-0.399428585720989,0.890115055984001,-0.39942858572058,0.0394547476618281,0.0664972043724337
46,0.040173071792179,0.0668735600434279,0.888185026875525,-0.403387222529666,0.88818502687288,-0.403387222529223,0.0401388707651223,0.0669480067259713
46.5,0.0408607449680777,0.0673146823237376,0.886237766105687,-0.407335952725192,0.886237766103111,-0.407335952724719,0.0408261644598666,0.0673905024517043
47,0.0415514162540942,0.0677474613659318,0.884273323346723,-0.411274687581487,0.884273323344217,-0.411274687580985,0.0415164562743988,0.0678246682356238
47.5,0.0422449089882229,0.0681718800207932,0.882291749676719,-0.415203339376533,0.882291749674282,-0.415203339376004,0.0422095692478682,0.06825048776253
48,0.0429410421367917,0.0685879288310677,0.8802930975083,-0.419121821402829,0.880293097505933,-0.419121821402275,0.0429053221209292,0.0686679525291647
48.5,0.0436396305676123,0.0689956068993777,0.878277420517842,-0.423030047975843,0.878277420515544,-0.423030047975265,0.0436035296311231,0.0690770627118109
49,0.0443404854438937,0.0693949228058761,0.87624477357772,-0.426927934440637,0.876244773575492,-0.426927934440038,0.0443040029310751,0.0694778280802352
49.5,0.0450434147582758,0.0697858955644612,0.874195212691465,-0.430815397176829,0.874195212689306,-0.430815397176209,0.0450065501485138,0.0698702689460882
50,0.0457482240268382,0.0701685556020123,0.872128794931651,-0.434692353602024,0.872128794929561,-0.434692353601385,0.0457109771074267,0.0702544171294522
50.5,0.0464547171626818,0.070542945739993,0.870045578380394,-0.438558722173871,0.870045578378373,-0.438558722173214,0.0464170882291959,0.0706303169221657
51,0.0471626975474402,0.0709091221521495,0.867945622072313,-0.442414422390826,0.86794562207036,-0.442414422390153,0.0471246876310735,0.0709980260209685
51.5,0.0478719693165585,0.0712671552658477,0.865828985939831,-0.446259374791772,0.865828985937946,-0.446259374791086,0.0478335804365739,0.0713576163974825
52,0.0485823388701215,0.0716171305682398,0.863695730760707,-0.450093500954563,0.863695730758889,-0.450093500953864,0.0485435743080554,0.0717091750658907
52.5,0.0492936166151488,0.0719591492720978,0.861545918107662,-0.453916723493585,0.861545918105912,-0.453916723492874,0.0492544812056305,0.072052804703107
53,0.0500056189373748,0.0722933287903443,0.85937961030003,-0.457728966056431,0.859379610298346,-0.457728966055711,0.049966119368469,0.072388624070858
53.5,0.0507181703904786,0.072619802963559,0.857196870357291,-0.461530153319747,0.857196870355672,-0.461530153319018,0.0506783155043628,0.072716768184796
54,0.0514311060784955,0.0729387219816575,0.854997761954432,-0.465320210984317,0.854997761952879,-0.46532021098358,0.0513909071611943,0.0730373881733107
54.5,0.0521442741929532,0.0732502519404208,0.852782349379023,-0.469099065769458,0.852782349377534,-0.469099065768715,0.0521037452399,0.0733506507688038
55,0.0528575386504977,0.0735545739762143,0.850550697489932,-0.472866645406767,0.850550697488505,-0.472866645406019,0.0528166965930958,0.0736567373775516
55.5,0.0535707817601628,0.0738518829289468,0.848302871677599,-0.476622878633276,0.848302871676235,-0.476622878632524,0.0535296466374738,0.0739558426816385
56,0.0542839068329571,0.074142385494717,0.846038937825809,-0.480367695184062,0.846038937824507,-0.480367695183308,0.0542425018924074,0.0742481727383802
56.5,0.0549968406314106,0.0744262978459811,0.843758962274867,-0.484101025784352,0.843758962273625,-0.484101025783596,0.0549551923432023,0.0745339425594167
57,0.0557095355446831,0.0747038427185976,0.841463011786137,-0.487822802141156,0.841463011784954,-0.487822802140399,0.0556676735165938,0.0748133731732652
57.5,0.0564219713674652,0.0749752459912097,0.839151153507871,-0.491532956934466,0.839151153506746,-0.49153295693371,0.0563799281500675,0.0750866882009541
58,0.0571341565598928,0.0752407328121464,0.836823454942268,-0.495231423808063,0.8368234549412,-0.495231423807308,0.0570919673368784,0.0753541100034026
58.5,0.0578461288724865,0.0755005233606942,0.834479983913725,-0.498918137359935,0.834479983912713,-0.498918137359181,0.0578038310366442,0.075615855489749
59,0.0585579552357237,0.0757548283610003,0.832120808538201,-0.502593033132356,0.832120808537243,-0.502593033131606,0.0585155878578876,0.0758721317056855
59.5,0.0592697308386236,0.0760038444953428,0.829745997193674,-0.506256047601645,0.829745997192769,-0.506256047600898,0.0592273340441049,0.0761231313474526
60,0.0599815773540472,0.0762477498862029,0.827355618491636,-0.509907118167613,0.827355618490783,-0.509907118166871,0.0599391916281509,0.0763690283677395
60.5,0.060693640308832,0.0764866998306308,0.824949741249571,-0.513546183142739,0.824949741248768,-0.513546183142002,0.0606513057593453,0.0766099738517479
61,0.0614060856418476,0.0767208229736316,0.822528434464396,-0.517173181741073,0.822528434463642,-0.517173181740342,0.061363841251218,0.0768460923430052
61.5,0.0621190955392746,0.0769502180980093,0.820091767286822,-0.520788054066904,0.820091767286115,-0.520788054066178,0.0620769784419749,0.0770774787878854
62,0.0628328636800513,0.0771749516861331,0.817639808996584,-0.524390741103187,0.817639808995922,-0.524390741102468,0.0627909085009414,0.0773041962450427
62.5,0.0635475900616186,0.0773950563751538,0.815172628978534,-0.527981184699759,0.815172628977915,-0.527981184699047,0.0635058283487694,0.0775262744721286
63,0.0642634756032689,0.0776105303836538,0.812690296699536,-0.531559327561355,0.81269029669896,-0.53155932756065,0.0642219353837838,0.0777437094594796
63.5,0.0649807167389303,0.0778213379377944,0.810192881686166,-0.535125113235427,0.810192881685629,-0.535125113234729,0.0649394222192053,0.0779564639322387
64,0.0656995002116531,0.0780274106728267,0.807680453503155,-0.538678486099791,0.807680453502656,-0.538678486099101,0.0656584716348126,0.078164468792446
