"Freq [GHz]","re(St(P1,P1)) []","im(St(P1,P1)) []","re(St(P1,P2)) []","im(St(P1,P2)) []","re(St(P2,P1)) []","im(St(P2,P1)) []","re(St(P2,P2)) []","im(St(P2,P2)) []"
0,0.00439445425814711,0,0.995620825138758,0,0.995620828442043,0,0.00439445439656083,0
0.5,0.00495588295626703,-0.000827267626192452,0.995012746783722,-0.0060296011298604,0.995012747019778,-0.00602960012091813,0.00495571300815101,-0.000826551654991903
1,0.00545323935439512,-0.00235349564964693,0.994407230578517,-0.0113614370743527,0.994407230404075,-0.0113614369111836,0.00545280088481448,-0.00235186264037424
1.5,0.00576356460707217,-0.00401539587439004,0.993897814150873,-0.016677199785839,0.993897814054172,-0.0166771996380959,0.00576277804062286,-0.00401284744272701
2,0.00591999430258561,-0.00572571923729726,0.993434250555749,-0.0218458508211619,0.993434250503716,-0.0218458507061854,0.00591887532842073,-0.00572210077154978
2.5,0.00598560657968328,-0.00742964646781985,0.993021815155391,-0.0269475850382896,0.993021815126662,-0.0269475849543888,0.0059841986920901,-0.00742489830690474
3,0.00599729556609852,-0.00911811949356434,0.992639471740668,-0.032023214302825,0.992639471724269,-0.0320232142439636,0.00599562308943113,-0.0091122236108383
3.5,0.00597401145096477,-0.0107927024531289,0.99226612978964,-0.0370894474535373,0.992266129780312,-0.037089447414024,0.00597208021364093,-0.0107856545782745
4,0.00592564026002318,-0.012456630359603,0.991886128074468,-0.0421516400976572,0.991886128069742,-0.0421516400730457,0.00592344383355048,-0.0124484295160432
4.5,0.0058575759742876,-0.014112822477502,0.991488701623137,-0.0472103458335216,0.991488701621832,-0.0472103458204352,0.00585510031358805,-0.0141034673586109
5,0.00577290146538756,-0.0157635858426541,0.991066532401698,-0.0522642539547391,0.991066532403221,-0.0522642539506037,0.00577012777809438,-0.0157530736476783
5.5,0.00567345056219493,-0.0174106924073385,0.990614569286686,-0.0573114417713096,0.990614569290692,-0.0573114417740968,0.0056703570274661,-0.0173990185449089
6,0.00556034808997552,-0.0190555082421984,0.990129232052758,-0.0623498909856028,0.990129232058989,-0.0623498909936622,0.00555691089721178,-0.0190426663288612
6.5,0.00543429755223412,-0.0206991035466118,0.989607903628524,-0.0673776889974675,0.989607903636725,-0.067377689009426,0.00543049154240993,-0.0206850854931737
7,0.0052957412939818,-0.0223423344850122,0.989048610712104,-0.0723930966153787,0.989048610721995,-0.072393096630071,0.00529154036566148,-0.0223271305966133
7.5,0.00514495331733267,-0.0239859016389712,0.988449822341979,-0.0773945601919444,0.988449822353234,-0.077394560208349,0.00514033069018605,-0.0239695007042009
8,0.0049820950297168,-0.0256303913618066,0.987810321630384,-0.0823807017825775,0.987810321642629,-0.0823807017998242,0.00497702341967621,-0.0256127807244511
8.5,0.00480724980909231,-0.0272763051284191,0.987129123038733,-0.0873503017308463,0.98712912305155,-0.0873503017481596,0.00480170154740955,-0.0272574707420103
9,0.00462044504555292,-0.0289240805453526,0.986405418247473,-0.092302279724473,0.986405418260396,-0.0923022797411743,0.00461439216142745,-0.0289040070125841
9.5,0.00442166654870091,-0.0305741065566822,0.985638540156913,-0.0972356767189995,0.985638540169444,-0.0972356767345097,0.00441508082781872,-0.030552777156287
10,0.00421086817087513,-0.0322267345790737,0.984827938489543,-0.102149638550324,0.984827938501151,-0.102149638564129,0.0042037211977195,-0.0322041312823114
10.5,0.00398237979232785,-0.033849152905824,0.98403861905102,-0.107089769249796,0.984038619061921,-0.107089769263979,0.00397534356714679,-0.0338274034174662
11,0.00374147963290639,-0.0354731121055751,0.983223165871005,-0.112013477480792,0.983223165881183,-0.112013477495304,0.00373428421068611,-0.0354523163625551
11.5,0.00348795797380053,-0.0370986430341533,0.982382289219746,-0.116921162767539,0.982382289229195,-0.116921162782345,0.00348031833264295,-0.0370788698370701
12,0.00322159217887119,-0.0387257640956173,0.981516614934178,-0.121813242470483,0.981516614942889,-0.121813242485534,0.00321321216829473,-0.0387070491055228
12.5,0.00294214730737086,-0.0403544796540931,0.980626689109766,-0.126690142212402,0.980626689117739,-0.126690142227657,0.00293272387503724,-0.040336823911141
13,0.00264937693826561,-0.0419847784571727,0.979712983452399,-0.131552287685927,0.979712983459633,-0.131552287701345,0.00263860456364662,-0.0419681474646163
13.5,0.00234302421099397,-0.0436166321012346,0.978775901045587,-0.136400097782141,0.978775901052086,-0.13640009779768,0.00233059946665848,-0.0436009555081256
14,0.0020228230829058,-0.0452499935707316,0.977815782326216,-0.141233978952489,0.977815782331984,-0.14123397896811,0.00200844923780874,-0.0452351654747014
14.5,0.00168849979844773,-0.0468847958844618,0.976832911098978,-0.146054320698814,0.976832911104025,-0.146054320714475,0.00167189137326462,-0.0468706757628823
15,0.00133977455987577,-0.0485209508816036,0.975827520454291,-0.150861492076243,0.975827520458627,-0.150861492091911,0.00132066174227724,-0.0485073651451335
15.5,0.000976363383672102,-0.0501583481795391,0.974799798485669,-0.155655839090488,0.974799798489306,-0.155655839106128,0.000954496211804795,-0.0501450923273428
16,0.000597980121502473,-0.0517968543333103,0.973749893730075,-0.160437682872305,0.973749893733027,-0.160437682887885,0.000573132346890687,-0.0517836956743807
16.5,0.000204338619253591,-0.0534363122237247,0.972677920278203,-0.165207318517071,0.972677920280488,-0.165207318532556,0.000176311166017518,-0.0534229931142178
17,-0.000204845016889138,-0.0550765406969971,0.97158396252137,-0.169965014484625,0.971583962523003,-0.169965014499986,-0.000236221071361148,-0.0550627822300918
17.5,-0.000629850082554284,-0.0567173344740923,0.970468079517592,-0.174711012463685,0.970468079518592,-0.174711012478896,-0.00066471106958263,-0.0567028405467789
18,-0.00107094890371839,-0.0583584643421227,0.969330308972248,-0.179445527614543,0.969330308972634,-0.179445527629579,-0.00110939671923985,-0.0583429260133683
18.5,-0.00152840447222774,-0.059999677634079,0.968170670838414,-0.184168749113951,0.968170670838207,-0.184168749128785,-0.00157050536327807,-0.059982777681109
19,-0.00200246812973728,-0.0616406989964102,0.966989170549398,-0.188880840935613,0.966989170548618,-0.188880840950225,-0.00204825213230858,-0.0616221165709998
19.5,-0.00249337734139091,-0.0632812314372577,0.965785801901122,-0.193581942809031,0.965785801899791,-0.1935819428234,-0.00254283837391667,-0.0632606467218984
20,-0.00300135359907619,-0.0649209576413914,0.964560549605595,-0.198272171308004,0.964560549603735,-0.198272171322112,-0.00305445019914809,-0.0648980564063333
20.5,-0.00352660049145531,-0.066559541531567,0.963313391538767,-0.202951621027891,0.963313391536399,-0.202951621041719,-0.00358325716727662,-0.0665340194977904
21,-0.00406930197420266,-0.0681966300502164,0.962044300707127,-0.207620365817709,0.962044300704273,-0.207620365831244,-0.00412941112726542,-0.0681681969703281
21.5,-0.00462962086911167,-0.0698318551303845,0.960753246957576,-0.212278460039344,0.960753246954259,-0.212278460052571,-0.00469304523123459,-0.069800238508853
22,-0.00520769761522372,-0.0714648358207834,0.959440198454658,-0.216925939831487,0.959440198450901,-0.216925939844395,-0.00527427313181178,-0.0714297842065492
22.5,-0.00580364928894669,-0.0730951805269369,0.958105122948339,-0.221562824360579,0.958105122944163,-0.221562824373158,-0.00587318837152326,-0.0730564663246547
23,-0.00641756890368436,-0.0747224893285665,0.956747988854313,-0.226189117044952,0.95674798884974,-0.226189117057192,-0.00648986396861126,-0.0746799110890763
23.5,-0.00704952499289091,-0.0763463563329054,0.955368766167413,-0.230804806741727,0.955368766162465,-0.230804806753617,-0.00712435219984123,-0.0762997404984112
24,-0.00769956147403567,-0.0779663720241826,0.953967427227153,-0.235409868888794,0.953967427221851,-0.235409868900328,-0.00777668457719155,-0.0779155741184914
24.5,-0.00836769778482749,-0.0795821255713087,0.95254394735291,-0.240004266596495,0.952543947347275,-0.240004266607668,-0.00844687201184896,-0.0795270308397571
25,-0.00905392927756826,-0.0811932070584849,0.951098305364658,-0.244587951685531,0.951098305358711,-0.244587951696339,-0.00913490515580495,-0.081133730575464
25.5,-0.00975822785262365,-0.0827992096070007,0.949630484003657,-0.249160865669109,0.949630483997418,-0.249160865679549,-0.00984075490856778,-0.0827352958808381
26,-0.0104805428080479,-0.0843997313607221,0.948140470266075,-0.253722940678614,0.948140470259563,-0.253722940688682,-0.0105643730742287,-0.0843313534757741
26.5,-0.0112208018792858,-0.085994377312359,0.946628255661134,-0.25827410033298,0.946628255654369,-0.258274100342673,-0.011305693152265,-0.0859215356563245
27,-0.0119789124407328,-0.0875827609525768,0.945093836404119,-0.262814260552704,0.94509383639712,-0.262814260562023,-0.0120646312441583,-0.0875054815831566
27.5,-0.0127547628397229,-0.0891645057290105,0.943537213553416,-0.267343330320065,0.943537213546201,-0.267343330329008,-0.012841087057085,-0.0890828384380677
28,-0.0135482238331399,-0.0907392463070931,0.941958393099672,-0.27186121238738,0.941958393092258,-0.271861212395949,-0.0136349449855689,-0.0906532624424727
28.5,-0.0143591500973549,-0.0923066296293578,0.940357386014214,-0.276367803935594,0.940357386006619,-0.276367803943789,-0.014446075252132,-0.0922164197347093
29,-0.0151873817832942,-0.0938663157740423,0.938734208262994,-0.280862997185515,0.938734208255234,-0.280862997193338,-0.0152743350884291,-0.0937719871054843
29.5,-0.0160327460902742,-0.0954179786178075,0.937088880791503,-0.285346679964276,0.937088880783595,-0.28534667997173,-0.0161195699392781,-0.0953196525932922
30,-0.016895058834395,-0.096961306310551,0.935421429485455,-0.289818736229544,0.935421429477415,-0.289818736236632,-0.0169816146730993,-0.0968591159437397
30.5,-0.0177741259898863,-0.098496001573086,0.933731885111372,-0.294279046554023,0.933731885103214,-0.29427904656075,-0.0178602947836629,-0.0983900889385088
31,-0.0186697451845793,-0.100021781830671,0.932020283240664,-0.298727488572825,0.932020283232403,-0.298727488579191,-0.0187554275696304,-0.0999122956013156
31.5,-0.0195817071335835,-0.101538379196858,0.930286664160307,-0.303163937396103,0.930286664151958,-0.303163937402115,-0.0196668232799924,-0.101425472289382
32,-0.0205097969981302,-0.103045540323304,0.92853107277281,-0.307588265989361,0.928531072764385,-0.307588265995024,-0.0205942862152388,-0.10292936767985
32.5,-0.0214537956594322,-0.104543026131693,0.926753558487729,-0.312000345523701,0.926753558479242,-0.312000345529018,-0.0215376157758343,-0.104423742661264
33,-0.0224134809000522,-0.106030611444054,0.924954175106733,-0.316400045698158,0.924954175098195,-0.316400045703135,-0.0224966074512323,-0.105908370140554
33.5,-0.0233886284877952,-0.107508084527527,0.923132980703861,-0.320787235036161,0.923132980695286,-0.320787235040804,-0.0234710537442857,-0.107383034776056
34,-0.024379013159416,-0.108975246569103,0.921290037502414,-0.325161781158089,0.921290037493812,-0.325161781162405,-0.0244607450274441,-0.108847532647105
34.5,-0.0253844095034031,-0.110431911094959,0.919425411749666,-0.32952355103167,0.91942541174105,-0.329523551035663,-0.0254654703284769,-0.110301670870323
35,-0.0264045927428703,-0.111877903348125,0.91753917359041,-0.333872411201961,0.917539173581789,-0.333872411205638,-0.0264850180447725,-0.11174526717244
35.5,-0.0274393394210147,-0.113313059636969,0.915631396940185,-0.338208228002462,0.915631396931569,-0.33820822800583,-0.0275191765863128,-0.113178149428822
36,-0.0284884279928217,-0.114737226665876,0.913702159358878,-0.342530867748846,0.913702159350276,-0.342530867751913,-0.0285677349484497,-0.114600155176333
36.5,-0.0295516393276231,-0.116150260858125,0.911751541925285,-0.346840196916648,0.911751541916708,-0.34684019691942,-0.0296304832163545,-0.116011131108392
37,-0.0306287571278322,-0.117552027679801,0.909779629113102,-0.351136082304199,0.909779629104559,-0.351136082306683,-0.0307072130037466,-0.117410932559401
37.5,-0.0317195682696784,-0.11894240097227,0.907786508668727,-0.355418391181953,0.907786508660224,-0.355418391184156,-0.0317977178289885,-0.118799422984922
38,-0.032823863072086,-0.120321262299601,0.905772271491164,-0.359686991429296,0.90577227148271,-0.359686991431226,-0.0329017934320845,-0.120176473443266
38.5,-0.0339414354999708,-0.121688500316182,0.903737011514294,-0.363941751659827,0.903737011505896,-0.363941751661491,-0.0340192380363828,-0.12154196208337
39,-0.0350720833082779,-0.123044010158754,0.901680825591665,-0.368182541336037,0.90168082558333,-0.368182541337442,-0.0351498525589998,-0.122895773643184
39.5,-0.0362156081329598,-0.124387692866149,0.899603813383951,-0.37240923087421,0.899603813375687,-0.372409230875363,-0.0362934407740622,-0.12423779896206
40,-0.0373718155349158,-0.125719454829139,0.897506077249166,-0.376621691740348,0.897506077240979,-0.376621691741258,-0.0374498094329071,-0.12556793451005
40.5,-0.0385405150026535,-0.127039207272117,0.8953877221357,-0.380819796537819,0.895387722127594,-0.380819796538493,-0.0386187683453291,-0.126886081936399
41,-0.0397215199191258,-0.128346865767597,0.893248855478189,-0.385003419087385,0.893248855470171,-0.38500341908783,-0.039800130425863,-0.128192147639046
41.5,-0.0409146474978312,-0.129642349784009,0.891089587096257,-0.38917243450021,0.891089587088333,-0.389172434500436,-0.0409937117089706,-0.129486042356401
42,-0.0421197186929156,-0.130925582266777,0.888910029096088,-0.39332671924442,0.888910029088263,-0.393326719244433,-0.0421993313367964,-0.130767680782292
42.5,-0.0433365580876075,-0.132196489252238,0.886710295774817,-0.397466151205691,0.886710295767093,-0.397466151205499,-0.0434168115229969,-0.132036981204601
43,-0.0445649937649456,-0.133454999513671,0.884490503527697,-0.401590609742357,0.884490503520079,-0.401590609741967,-0.0446459774958914,-0.133293865167754
43.5,-0.0458048571643668,-0.134701044238418,0.882250770757989,-0.40569997573545,0.882250770750482,-0.40569997573487,-0.0458866574239876,-0.134538257158991
44,-0.0470559829273614,-0.135934556734892,0.879991217789521,-0.409794131634079,0.879991217782128,-0.409794131633315,-0.0471386823266899,-0.135770084318085
44.5,-0.0483182087350291,-0.137155472168079,0.877711966781843,-0.413872961496475,0.877711966774568,-0.413872961495537,-0.048401885972752,-0.13698927616999
45,-0.0495913751400681,-0.138363727322104,0.875413141647918,-0.417936351027083,0.875413141640763,-0.417936351025978,-0.0496761047688334,-0.138195764379755
45.5,-0.0508753253953682,-0.139559260388274,0.873094867974272,-0.421984187609944,0.873094867967241,-0.421984187608679,-0.0509611776402658,-0.139389482528895
46,-0.052169905281129,-0.14074201077704,0.870757272943532,-0.426016360338687,0.870757272936627,-0.426016360337271,-0.0522569459059367,-0.14057036591233
46.5,-0.0534749629321423,-0.141911918952292,0.868400485259269,-0.430032760043375,0.86840048525249,-0.430032760041813,-0.0535632531489941,-0.141738351354935
47,-0.054790348666614,-0.143068926286378,0.866024635073075,-0.434033279314412,0.866024635066426,-0.434033279312712,-0.0548799450848591,-0.142893377046669
47.5,-0.0561159148177185,-0.144212974934345,0.863629853913811,-0.438017812523771,0.863629853907293,-0.43801781252194,-0.0562068694278877,-0.144035382395268
48,-0.0574515155688422,-0.145344007725855,0.861216274618916,-0.441986255843696,0.86121627461253,-0.441986255841742,-0.0575438757578209,-0.145164307895427
48.5,-0.0587970067933192,-0.146461968073352,0.85878403126775,-0.445938507263083,0.858784031261498,-0.445938507261011,-0.0588908153870255,-0.146280095013433
49,-0.0601522458992907,-0.147566799895089,0.856333259116858,-0.449874466601689,0.85633325911074,-0.449874466599508,-0.0602475412293826,-0.147382686086202
49.5,-0.061517091680193,-0.1486584475517,0.853864094537105,-0.453794035522347,0.853864094531123,-0.453794035520064,-0.0616139076715491,-0.148472024233704
50,-0.0628914041712393,-0.149736855795067,0.85137667495262,-0.457697117541286,0.851376674946774,-0.457697117538906,-0.0629897704471969,-0.149548053283782
50.5,-0.064275044512182,-0.150801969728327,0.848871138781457,-0.461583618036723,0.848871138775746,-0.461583618034253,-0.0643749865147385,-0.150610717708425
51,-0.0656678748165154,-0.151853734775915,0.846347625377935,-0.46545344425582,0.846347625372361,-0.465453444253267,-0.0657694139389403,-0.151659962570565
51.5,-0.0670697580472338,-0.152892096662627,0.84380627497659,-0.469306505320129,0.843806274971151,-0.469306505317499,-0.0671729117767547,-0.152695733480527
52,-0.068480557899176,-0.153917001400768,0.84124722863766,-0.473142712229612,0.841247228632357,-0.473142712226911,-0.0685853399676135,-0.153717976561317
52.5,-0.0699001386879269,-0.154928395284493,0.838670628194076,-0.476961977865338,0.838670628188908,-0.476961977862573,-0.0700065592283766,-0.154726638421948
53,-0.0713283652452181,-0.155926224890553,0.836076616199883,-0.480764216990944,0.83607661619485,-0.48076421698812,-0.0714364309530494,-0.155721666138076
53.5,-0.0727651028207112,-0.156910437084699,0.833465335880047,-0.484549346252915,0.833465335875148,-0.484549346250039,-0.0728748171173564,-0.156703007239261
54,-0.0742102169900342,-0.157880979033066,0.830836931081598,-0.488317284179796,0.830836931076831,-0.488317284176872,-0.0743215801882058,-0.157670609702192
54.5,-0.0756635735688972,-0.15883779821792,0.828191546226058,-0.49206795118036,0.828191546221424,-0.492067951177395,-0.0757765830380318,-0.158624421949288
55,-0.0771250385331121,-0.159780842457199,0.825529326263121,-0.495801269540821,0.825529326258617,-0.49580126953782,-0.0772396888639902,-0.159564392852104
55.5,-0.0785944779443279,-0.160710059927348,0.822850416625512,-0.499517163421142,0.822850416621137,-0.49951716341811,-0.0787107611119531,-0.160490471739045
56,-0.0800717578812444,-0.161625399188964,0.820154963185028,-0.503215558850487,0.820154963180781,-0.50321555884743,-0.0801896634051978,-0.161402608406876
56.5,-0.0815567443761326,-0.162526809214851,0.81744311220968,-0.506896383721867,0.817443112205558,-0.506896383718789,-0.0816762594777223,-0.162300753135626
57,-0.0830493033563994,-0.163414239420087,0.814715010321928,-0.510559567786032,0.81471501031793,-0.510559567782939,-0.0831704131120428,-0.16318485670644
57.5,-0.0845493005910153,-0.164287639693781,0.811970804457954,-0.514205042644641,0.811970804454079,-0.514205042641538,-0.0846719880813708,-0.164054870422048
58,-0.0860566016415596,-0.165146960432192,0.809210641827956,-0.517832741742762,0.809210641824201,-0.517832741739652,-0.0861808480960238,-0.164910746129469
58.5,-0.0875710718176748,-0.165992152572954,0.806434669877416,-0.52144260036072,0.806434669873779,-0.521442600357609,-0.0876968567539363,-0.165752436244674
59,-0.0890925761367243,-0.166823167630151,0.803643036249324,-0.525034555605346,0.803643036245802,-0.525034555602237,-0.089219877495113,-0.166579893778895
59.5,-0.0906209792874326,-0.167639957730025,0.800835888747319,-0.528608546400653,0.800835888743911,-0.528608546397552,-0.0907497735598986,-0.167393072366346
60,-0.0921561455973137,-0.168442475647122,0.798013375299734,-0.53216451347796,0.798013375296437,-0.532164513474869,-0.0922864079508958,-0.168191926293098
60.5,-0.0936979390036893,-0.169230674840701,0.795175643924499,-0.5357023993655,0.795175643921311,-0.535702399362424,-0.0938296433983928,-0.168976410526914
61,-0.0952462230281077,-0.170004509491265,0.792322842694895,-0.539222148377544,0.792322842691812,-0.539222148374487,-0.0953793423291519,-0.169746480747837
61.5,-0.0968008607539808,-0.170763934537053,0.789455119706127,-0.542723706603048,0.789455119703149,-0.542723706600013,-0.0969353668384091,-0.170502093379365
62,-0.0983617148072649,-0.171508905710403,0.786572623042704,-0.546207021893862,0.786572623039826,-0.546207021890852,-0.0984975786649467,-0.171243205620051
62.5,-0.0999286473400186,-0.172239379573864,0.783675500746577,-0.549672043852515,0.783675500743798,-0.549672043849535,-0.100065839169101,-0.171969775475393
63,-0.101501520016678,-0.172955313555966,0.780763900786064,-0.553118723819601,0.780763900783379,-0.553118723816652,-0.101640009313556,-0.172681761789873
