"Freq [GHz]","re(St(P1,P1)) []","im(St(P1,P1)) []","re(St(P1,P2)) []","im(St(P1,P2)) []","re(St(P2,P1)) []","im(St(P2,P1)) []","re(St(P2,P2)) []","im(St(P2,P2)) []"
0,0.0037040118099867,0,0.996311475973926,0,0.996311487222556,0,0.0037040159243702,0
0.5,0.00423055273670059,-0.00135383972454406,0.995719741553756,-0.00628797691461358,0.995719741559967,-0.00628796458239478,0.00423028309068485,-0.00135273385849999
1,0.00470144098140679,-0.00338442350325252,0.995086567945787,-0.0118947059960774,0.995086566692471,-0.011894706478035,0.00470069821244934,-0.00338191000714971
1.5,0.00491330412883428,-0.00561326418206676,0.994554895637506,-0.0175406769812838,0.994554894219725,-0.0175406773249343,0.00491182122845046,-0.00560928582254405
2,0.00496747778904982,-0.00782179614510525,0.994015653894216,-0.0230142078731603,0.994015652514364,-0.0230142080215927,0.00496542583788617,-0.00781603544566778
2.5,0.00494325241818849,-0.00999787006516684,0.993505423000112,-0.0283796827939469,0.993505421792737,-0.0283796827970555,0.00494075252400172,-0.00999025389182862
3,0.00487184377369942,-0.0121488562063412,0.993023226348411,-0.0336844254024271,0.993023225369695,-0.0336844253305166,0.00486894657499626,-0.0121393723510081
3.5,0.00476652076546902,-0.0142814189733684,0.992555351170967,-0.0389556111715414,0.992555350428101,-0.0389556110788547,0.00476323691865765,-0.0142700658915835
4,0.00463354511917391,-0.0163999628797242,0.992086815927475,-0.0442067746769599,0.992086815403631,-0.0442067745957182,0.00462986421710809,-0.0163867370159387
4.5,0.00447616870049483,-0.0185072410365414,0.991604968250481,-0.0494437860333914,0.991604967918923,-0.0494437859784149,0.00447206913084575,-0.0184921339929751
5,0.00429623027864556,-0.0206049492513767,0.991099974425735,-0.0546685873640662,0.991099974256476,-0.0546685873387052,0.00429168440447647,-0.0205879475479289
5.5,0.0040948540959076,-0.0226941154724845,0.990564393073971,-0.0598812417005181,0.990564393036648,-0.0598812417014969,0.00408983110382311,-0.0226752009345397
6,0.00387278085236531,-0.0247753393954895,0.989992615905973,-0.0650809917190536,0.989992615970984,-0.0650809917398689,0.00386724840454766,-0.0247544896291014
6.5,0.00363053551261672,-0.0268489399527052,0.989380396303712,-0.0702667862712989,0.989380396442654,-0.070266786304428,0.0036244607590965,-0.0268261287692351
7,0.00336851739153987,-0.0289150478279314,0.988724497781865,-0.0754375308013504,0.988724497967699,-0.0754375308395971,0.00336186762492652,-0.028890245595635
7.5,0.00308705091673356,-0.030973664910249,0.988022442694441,-0.0805921969837424,0.988022442901594,-0.0805921970210282,0.00307979401855896,-0.0309468388412881
8,0.00278641543370051,-0.0330247034715843,0.987272334201968,-0.0857298617778017,0.987272334406406,-0.0857298618095665,0.00277852019432023,-0.0329958178586445
8.5,0.00246686332742541,-0.0350680126170762,0.986472729088729,-0.0908497121722878,0.986472729268018,-0.0908497121956184,0.00245829968622258,-0.0350370290325159
9,0.00212863136914065,-0.0371033965559811,0.985622545245807,-0.0959510343617724,0.985622545379165,-0.0959510343753864,0.00211937060256084,-0.0370702740236597
9.5,0.00177194799624814,-0.0391306274950933,0.984720992783023,-0.101033196991096,0.984720992851353,-0.101033196995227,0.00176196287036423,-0.0390953226425328
10,0.00139703807468827,-0.041149454920248,0.983767521430789,-0.106095633329747,0.98376752141668,-0.106095633325944,0.00138630297271181,-0.0411119221166443
10.5,0.000953080243435878,-0.0431522842297927,0.982866294306636,-0.111162717468848,0.982866294292707,-0.111162717464866,0.000967628608920856,-0.0431227753552692
11,0.000485822587845242,-0.04514513556515,0.981940101039659,-0.116209848594824,0.981940101025919,-0.116209848590668,0.000528977222183036,-0.0451263243678941
11.5,-5.15506596243664E-006,-0.0471268106722924,0.980989619389109,-0.121237905996161,0.980989619375568,-0.121237905991847,7.04610308097653E-005,-0.0471219869204695
12,-0.000520359635226064,-0.0490958822484275,0.980015392342405,-0.126247738139857,0.980015392329069,-0.126247738135393,-0.000407782110545152,-0.0491091254995064
12.5,-0.00106040537345409,-0.0510506237605046,0.979017843749735,-0.131240151886408,0.979017843736611,-0.131240151881806,-0.000905581201646133,-0.0510870371923433
13,-0.00162603995775484,-0.0529889121499725,0.977997293500742,-0.13621590468774,0.977997293487837,-0.136215904683016,-0.00142272206844357,-0.0530549415226842
13.5,-0.00221817747525821,-0.0549080904673254,0.976953971914745,-0.141175699329178,0.976953971902061,-0.141175699324345,-0.00195893388609575,-0.0550119658240176
14,-0.00283793978537644,-0.056804769961623,0.975888033126456,-0.146120180793626,0.975888033113998,-0.146120180788693,-0.00251387094557293,-0.0569571276768635
14.5,-0.00348670730062151,-0.0586745383988498,0.974799567338931,-0.15104993485707,0.974799567326698,-0.15104993485205,-0.00308708781109657,-0.058889313901946
15,-0.00416617835948679,-0.0605115190713814,0.973688611885924,-0.155965488064428,0.97368861187392,-0.155965488059334,-0.00367800522463596,-0.0608072556278181
15.5,-0.00487843065307936,-0.0623076845387542,0.97255516109924,-0.160867308777769,0.972555161087464,-0.160867308772611,-0.0042858629601466,-0.0627094991096264
16,-0.00562596224505807,-0.0640517530123521,0.971399175015268,-0.165755809032825,0.971399175003719,-0.165755809027611,-0.00490965414359346,-0.0645943724054945
16.5,-0.00641164612341971,-0.0657273455881553,0.970220586981549,-0.17063134698149,0.970220586970228,-0.170631346976232,-0.00554803308998003,-0.0664599489828932
17,-0.00723841051110344,-0.067309773707823,0.969019310241118,-0.175494229736663,0.969019310230021,-0.17549422973137,-0.00619918512896972,-0.0683040113315254
17.5,-0.00810810180648094,-0.068760155429624,0.967795243581781,-0.18034471647027,0.967795243570907,-0.180344716464949,-0.00686064177431692,-0.070124021646671
18,-0.00901787722499217,-0.070014024479141,0.966548276141232,-0.185183021645772,0.966548276130579,-0.185183021640434,-0.00752901752535703,-0.0719171143882029
18.5,-0.00994868227805187,-0.0709579449247646,0.965278291458586,-0.190009318292135,0.96527829144815,-0.190009318286787,-0.0081996355140446,-0.0736801402945981
19,-0.010825868447649,-0.0713791837293845,0.963985170859633,-0.194823741248387,0.963985170849413,-0.194823741243036,-0.00886599946255506,-0.0754098191801074
19.5,-0.0113691096953378,-0.0708613857775449,0.962668796258061,-0.199626390325887,0.962668796248052,-0.199626390320539,-0.00951906448120232,-0.0771031098535095
20,-0.0104567620570483,-0.0687000270151863,0.961329052448637,-0.204417333350304,0.961329052438837,-0.204417333344967,-0.010146275595215,-0.0787579959034339
20.5,-0.00399157871787451,-0.0657382071940682,0.959965828961546,-0.209196609057353,0.95996582895195,-0.209196609052032,-0.0107304235623242,-0.0803750353385793
21,0.0079643206545274,-0.0742347066817497,0.958579021540131,-0.213964229825719,0.958579021530736,-0.21396422982042,-0.0112486125693876,-0.0819602322032771
21.5,0.00518492039594864,-0.0884919555382995,0.95716853329747,-0.218720184238139,0.957168533288273,-0.218720184232863,-0.0116722415237283,-0.0835299641933855
22,-0.00134600452757494,-0.0938473747959061,0.955734275600708,-0.223464439467242,0.955734275591704,-0.223464439461999,-0.0119701398306811,-0.0851184254892505
22.5,-0.00566251751560745,-0.0960968634866943,0.954276168725978,-0.228196943487155,0.954276168717165,-0.228196943481948,-0.0121187933600216,-0.0867861715813518
23,-0.00855808599948887,-0.0977096283057524,0.952794142321257,-0.232917627114892,0.952794142312631,-0.232917627109722,-0.012123981302005,-0.0886230449914098
23.5,-0.0107206048653106,-0.0992280293994714,0.951288135709368,-0.237626405887945,0.951288135700925,-0.237626405882818,-0.0120509302987774,-0.0907308046291653
24,-0.012487958899824,-0.100767552792875,0.949758098058929,-0.2423231817859,0.949758098050664,-0.242323181780819,-0.0120394650299643,-0.0931728466617074
24.5,-0.0140285123225389,-0.102347362335055,0.948203988446998,-0.247007844804929,0.948203988438909,-0.247007844799895,-0.0122657523810972,-0.0959123190644
25,-0.0154321921005614,-0.103964158506597,0.946625775833682,-0.251680274394495,0.946625775825766,-0.251680274389512,-0.0128528111588077,-0.0988031295558658
25.5,-0.0167504282584509,-0.105610300314019,0.94502343896588,-0.25634034076579,0.945023438958133,-0.256340340760862,-0.0138068139545424,-0.101663371951293
26,-0.0180144123676581,-0.107278372428436,0.943396966224681,-0.260987906081417,0.943396966217099,-0.260987906076543,-0.0150390703567132,-0.104363772085075
26.5,-0.019244011341142,-0.108962169215028,0.941746355428622,-0.265622825535524,0.941746355421202,-0.265622825530708,-0.0164345954693816,-0.106857086979848
27,-0.0204524050846032,-0.110656717361809,0.940071613603027,-0.270244948333311,0.940071613595766,-0.270244948328555,-0.0179010864801299,-0.109154508344146
27.5,-0.0216486395403205,-0.112358073086435,0.938372756723923,-0.274854118578344,0.938372756716819,-0.274854118573649,-0.0193816075983572,-0.111291684461528
28,-0.022839102745663,-0.114063101707524,0.936649809443614,-0.279450176075624,0.936649809436663,-0.279450176070992,-0.0208476437001325,-0.113306957743147
28.5,-0.0240284151821463,-0.115769291733481,0.934902804803709,-0.284032957057855,0.934902804796909,-0.284032957053284,-0.022288343668263,-0.115232458626749
29,-0.0252199869534016,-0.117474609792034,0.933131783940397,-0.288602294841823,0.933131783933745,-0.288602294837318,-0.0237022393751048,-0.117092357373328
29.5,-0.0264163778407585,-0.119177390556139,0.931336795785819,-0.293158020421282,0.931336795779312,-0.293158020416841,-0.0250921909490927,-0.118903893138595
30,-0.0276195366285017,-0.12087625392506,0.929517896768709,-0.297699963002166,0.929517896762344,-0.297699962997793,-0.0264626635367342,-0.120679033885612
30.5,-0.0288309641941286,-0.122570042681647,0.927675150516773,-0.302227950485605,0.927675150510548,-0.3022279504813,-0.0278183900384502,-0.122425976178633
31,-0.0300518271373669,-0.124257775336114,0.925808627562799,-0.306741809903605,0.925808627556712,-0.306741809899368,-0.0291637798609271,-0.12415029478414
31.5,-0.0312830385326173,-0.125938610207922,0.923918405056052,-0.311241367811908,0.923918405050101,-0.311241367807737,-0.0305027034679173,-0.1258557644725
32,-0.0325253163487734,-0.127611817849462,0.922004566480103,-0.31572645064412,0.922004566474285,-0.31572645064002,-0.031838454670512,-0.127544928848024
32.5,-0.0337792263986722,-0.129276759697701,0.92006720137798,-0.320196885030844,0.920067201372292,-0.320196885026812,-0.0331737897545243,-0.129219488588872
33,-0.0350452143799615,-0.130932871409147,0.918106405085283,-0.324652498087112,0.918106405079724,-0.324652498083151,-0.0345109941250904,-0.130880565286285
33.5,-0.0363236300988526,-0.132579649744476,0.916122278471649,-0.329093117671271,0.916122278466218,-0.329093117667379,-0.0358519535556611,-0.132528880937169
34,-0.0376147460088579,-0.13421664216527,0.914114927690865,-0.333518572617983,0.914114927685558,-0.333518572614162,-0.0371982202706277,-0.134164880554617
34.5,-0.0389187715588271,-0.135843438519795,0.912084463939722,-0.337928692947891,0.912084463934538,-0.337928692944141,-0.0385510704305401,-0.135788816399923
35,-0.0402358644131603,-0.13745966435061,0.91003100322564,-0.342323310056179,0.910031003220578,-0.342323310052499,-0.0399115525073739,-0.137400806221421
35.5,-0.0415661393105469,-0.139064975470975,0.907954666143,-0.346702256882051,0.907954666138058,-0.346702256878442,-0.0412805272687337,-0.139000873787773
36,-0.0429096751207938,-0.1406590535412,0.905855577658031,-0.351065368060974,0.905855577653206,-0.351065368057436,-0.0426587005120829,-0.140588977279865
36.5,-0.0442665205130923,-0.142241602438643,0.903733866902073,-0.355412480061336,0.903733866897365,-0.35541248005787,-0.044046649741744,-0.142165029297237
37,-0.045636698544395,-0.143812345261849,0.901589666973008,-0.359743431306972,0.901589666968415,-0.359743431303575,-0.0454448458783154,-0.143728911031194
37.5,-0.0470202104007676,-0.145371021844687,0.899423114744568,-0.364058062286945,0.899423114740089,-0.364058062283618,-0.0468536709356405,-0.145280482351352
38,-0.04841703846902,-0.146917386683149,0.897234350683276,-0.368356215653764,0.897234350678909,-0.368356215650508,-0.0482734324414443,-0.146819589010081
38.5,-0.0498271488748396,-0.148451207197974,0.895023518672725,-0.37263773631111,0.895023518668469,-0.372637736307924,-0.0497043752338342,-0.148346067801532
39,-0.0512504935929465,-0.149972262272135,0.892790765844895,-0.376902471492084,0.892790765840748,-0.376902471488969,-0.0511466911431664,-0.14985975026082
39.5,-0.0526870122116673,-0.151480341014448,0.890536242418218,-0.381150270828829,0.890536242414178,-0.381150270825783,-0.05260052696756,-0.151360465315902
40,-0.05413663341669,-0.152975241710155,0.888260101542088,-0.385380986414328,0.888260101538155,-0.385380986411354,-0.0540659910684065,-0.152848041184863
40.5,-0.0555992762453267,-0.154456770926859,0.885962499147539,-0.389594472857102,0.885962499143712,-0.389594472854197,-0.0555431588466085,-0.154322306727513
41,-0.057074851152156,-0.155924742750091,0.883643593803786,-0.393790587329432,0.883643593800063,-0.393790587326597,-0.0570320773080671,-0.155783092401265
41.5,-0.058563260918856,-0.157378978127572,0.881303546580364,-0.3979691896097,0.881303546576744,-0.397969189606934,-0.0585327688854566,-0.157230230929531
42,-0.0600644014346831,-0.158819304304956,0.878942520914589,-0.402130142119378,0.87894252091107,-0.402130142116681,-0.0600452346504889,-0.158663557761128
42.5,-0.0615781623690499,-0.160245554338854,0.876560682484082,-0.406273309955111,0.876560682480665,-0.406273309952483,-0.0615694570247479,-0.160082911377824
43,-0.0631044277537078,-0.161657566675442,0.87415819908412,-0.410398560916343,0.874158199080801,-0.410398560913783,-0.063105402076475,-0.161488133491777
43.5,-0.0646430764888827,-0.16305518478487,0.871735240509547,-0.414505765528861,0.871735240506328,-0.41450576552637,-0.0646530214741585,-0.162879069163486
44,-0.0661939827851683,-0.164438256843344,0.869291978441055,-0.418594797064599,0.869291978437933,-0.418594797062175,-0.0662122541546118,-0.164255566862696
44.5,-0.0677570165509579,-0.165806635456061,0.86682858633558,-0.422665531558021,0.866828586332555,-0.422665531555667,-0.067783027752646,-0.165617478488815
45,-0.0693320437335193,-0.167160177415249,0.864345239320643,-0.426717847819369,0.864345239317714,-0.426717847817082,-0.0693652598309596,-0.166964659362967
45.5,-0.070918926620504,-0.168498743488479,0.861842114092417,-0.430751627445013,0.861842114089581,-0.430751627442793,-0.0709588589420462,-0.168296968200652
46,-0.0725175241075486,-0.169822198233138,0.859319388817342,-0.434766754825157,0.8593193888146,-0.434766754823004,-0.0725637255483395,-0.169614267071546
46.5,-0.074127691936746,-0.171130409833589,0.856777243037129,-0.438763117149099,0.85677724303448,-0.438763117147012,-0.0741797528223739,-0.170916421351262
47,-0.0757492829100077,-0.172423249958021,0.854215857576963,-0.442740604408232,0.854215857574405,-0.442740604406211,-0.075806827345024,-0.172203299668526
47.5,-0.0773821470807345,-0.173700593632482,0.851635414456766,-0.446699109396963,0.851635414454298,-0.446699109395009,-0.0774448297169291,-0.173474773850326
48,-0.0790261319266774,-0.174962319129874,0.849036096805379,-0.450638527711709,0.849036096803001,-0.45063852770982,-0.0790936350957328,-0.174730718866782
48.5,-0.0806810825064622,-0.176208307872056,0.846418088777514,-0.454558757748094,0.846418088775224,-0.454558757746269,-0.0807531136697454,-0.175971012777023
49,-0.082346841601894,-0.177438444343436,0.843781575473351,-0.458459700696506,0.843781575471149,-0.458459700694747,-0.082423131076981,-0.17719553667692
49.5,-0.084023249847842,-0.178652616014638,0.84112674286066,-0.462341260536103,0.841126742858545,-0.462341260534407,-0.0841035487771076,-0.178404174649217
50,-0.0857101458512619,-0.179850713275037,0.838453777699338,-0.466203344027385,0.838453777697308,-0.466203344025754,-0.0857942243827382,-0.179596813716442
50.5,-0.0874073663006945,-0.1810326293731,0.835762867468244,-0.470045860703438,0.835762867466299,-0.470045860701871,-0.0874950119554827,-0.18077334379674
51,-0.0891147460674099,-0.18219826036362,0.833054200294241,-0.473868722859929,0.83305420029238,-0.473868722858425,-0.0892057622714236,-0.181933657662737
51.5,-0.0908321182991864,-0.183347505061021,0.830327964883349,-0.477671845543927,0.830327964881571,-0.477671845542486,-0.0909263230599696,-0.1830776509034
52,-0.0925593145076029,-0.184480264998035,0.827584350453918,-0.481455146541645,0.827584350452222,-0.481455146540266,-0.0926565392194902,-0.184205221888821
52.5,-0.0942961646496092,-0.185596444389152,0.824823546671737,-0.485218546365155,0.824823546670121,-0.485218546363839,-0.0943962530126623,-0.185316271737833
53,-0.0960424972040257,-0.186695950098249,0.822045743587006,-0.488961968238144,0.82204574358547,-0.488961968236889,-0.0961453042440322,-0.186410704288305
53.5,-0.0977981392435626,-0.187778691609971,0.8192511315731,-0.492685338080765,0.819251131571643,-0.492685338079571,-0.0979035304219733,-0.187488426069971
54,-0.0995629165028524,-0.188844581004398,0.816439901267046,-0.496388584493647,0.816439901265666,-0.496388584492513,-0.0996707669069264,-0.188549346279623
54.5,-0.101336653442955,-0.189893532934642,0.813612243511658,-0.500071638741101,0.813612243510355,-0.500071638740027,-0.101446847047539,-0.189593376758523
55,-0.103119173312716,-0.190925464607034,0.81076834929927,-0.503734434733573,0.810768349298043,-0.503734434732559,-0.103231602306137,-0.190620431971847
55.5,-0.104910298207325,-0.191940295763598,0.807908409717004,-0.507376909009392,0.807908409715852,-0.507376909008436,-0.105024862374757,-0.19163042899001
56,-0.106709849124382,-0.192937948666561,0.805032615893528,-0.510999000715838,0.805032615892449,-0.510999000714942,-0.106826455282816,-0.192623287471731
56.5,-0.10851764601773,-0.193918348084641,0.802141158947246,-0.51460065158958,0.80214115894624,-0.514600651588742,-0.108636207497363,-0.19359892964865
57,-0.110333507849309,-0.19488142128093,0.79923422993588,-0.518181805936517,0.799234229934945,-0.518181805935735,-0.110453944016753,-0.194557280311412
57.5,-0.112157252639217,-0.195827098002147,0.7963120198074,-0.521742410611042,0.796312019806535,-0.521742410610318,-0.112279488458433,-0.195498266797025
58,-0.113988697514182,-0.196755310469127,0.793374719352251,-0.525282414994777,0.793374719351455,-0.525282414994109,-0.114112663141523,-0.196421818977407
58.5,-0.115827658754612,-0.197665993368368,0.790422519156853,-0.528801770974789,0.790422519156124,-0.528801770974176,-0.115953289164715,-0.197327869248989
59,-0.117673951840347,-0.1985590838445,0.787455609558326,-0.532300432921329,0.787455609557664,-0.532300432920771,-0.117801186480013,-0.19821635252325
59.5,-0.119527391495281,-0.199434521493572,0.784474180600409,-0.535778357665111,0.784474180599813,-0.535778357664607,-0.119656173962733,-0.199087206218113
60,-0.121387791730924,-0.200292248357017,0.781478421990544,-0.539235504474153,0.781478421990013,-0.539235504473703,-0.121518069478159,-0.19994037025007
60.5,-0.123254965889052,-0.201132208916214,0.778468523058084,-0.542671835030212,0.778468523057616,-0.542671835029815,-0.123386689945203,-0.200775787026965
61,-0.125128726683502,-0.201954350087537,0.775444672713616,-0.546087313404823,0.77544467271321,-0.546087313404477,-0.125261851397351,-0.201593401441347
61.5,-0.12700888624122,-0.202758621217839,0.772407059409343,-0.549481906034967,0.772407059408997,-0.549481906034673,-0.1271433690412,-0.202393160864317
62,-0.12889525614261,-0.203544974080244,0.769355871100528,-0.552855581698399,0.769355871100241,-0.552855581698156,-0.129031057312791,-0.20317501513979
62.5,-0.130787647461271,-0.204313362870234,0.766291295207953,-0.556208311488628,0.766291295207724,-0.556208311488434,-0.130924729931981,-0.203938916579113
63,-0.132685870803167,-0.205063744201923,0.763213518581387,-0.559540068789594,0.763213518581215,-0.559540068789449,-0.132824199955014,-0.204684819955969
