"Freq [GHz]","re(St(P1,P1)) []","im(St(P1,P1)) []","re(St(P1,P2)) []","im(St(P1,P2)) []","re(St(P2,P1)) []","im(St(P2,P1)) []","re(St(P2,P2)) []","im(St(P2,P2)) []"
0,0.00473687184137361,0,0.995275038163527,0,0.995275033870712,0,0.00473686060468026,0
0.5,0.00520921634477389,0.000437634574563361,0.994760476613521,-0.0055591052496986,0.994760476679339,-0.00555910474130528,0.00520901824260989,0.000438413620408085
1,0.00563969491301819,0.000294722728781949,0.994238678298256,-0.0105296575805447,0.994238678480507,-0.0105296575825733,0.0056392382211321,0.000296521797110927
1.5,0.0059057579606705,1.81567055363985E-005,0.993797849261183,-0.0155311588620677,0.993797849435939,-0.0155311588813838,0.00590484719016615,2.08070275569128E-005
2,0.00605186471061892,-0.000278830782750816,0.99336129163849,-0.0203891365590323,0.99336129179158,-0.020389136592005,0.00605056872997878,-0.000274997371608521
2.5,0.00613820796475384,-0.000561860579905371,0.992956786896142,-0.0251612965387977,0.992956787020789,-0.0251612965770658,0.0061366607037785,-0.000556724550248688
3,0.00619483689242273,-0.00082883799482758,0.992580804928609,-0.0298877458010658,0.992580805023981,-0.0298877458374545,0.00619313513300135,-0.000822363119837632
3.5,0.00623606863641069,-0.00108307464914681,0.992220484022888,-0.0345904593803077,0.992220484091091,-0.0345904594104294,0.00623427526330467,-0.00107525051170931
4,0.00626907724907033,-0.00132791878741756,0.991862870774899,-0.0392798458639909,0.991862870819063,-0.0392798458858881,0.00626723353248604,-0.00131874090353534
4.5,0.00629769752900167,-0.00156595144558658,0.99149743887976,-0.0439600770736437,0.991497438903183,-0.0439600770870037,0.00629583162431313,-0.00155541468246234
5,0.00632410894136726,-0.00179905811106273,0.991116193287781,-0.0486322345835806,0.991116193293621,-0.0486322345891121,0.00632224093918143,-0.00178715461041001
5.5,0.00634962004501216,-0.00202861298859958,0.990713162116041,-0.0532959714131813,0.990713162107258,-0.0532959714121333,0.00634776491596378,-0.00201533162035439
6,0.00637505597958588,-0.00225563251921379,0.990283862833536,-0.057950347749621,0.990283862812916,-0.0579503477434855,0.00637322531703055,-0.00224095884200537
6.5,0.00640096080445374,-0.00248088449575601,0.98982488366296,-0.06259423853838,0.989824883633161,-0.0625942385287157,0.00639916388009443,-0.00246480086440837
7,0.00642770856035169,-0.00270496254294539,0.989333584660835,-0.0672265248209536,0.989333584624408,-0.0672265248092465,0.00642595297865234,-0.00268744823686973
7.5,0.00645556697976024,-0.00292833669513115,0.988807891462218,-0.0718461768910368,0.988807891421639,-0.0718461768786396,0.00645385909146423,-0.00290936802627151
8,0.00648473548653317,-0.00315138802181014,0.988246154176679,-0.0764522837524133,0.988246154134355,-0.0764522837405028,0.00648308065315661,-0.00313093841131451
8.5,0.00651536865811875,-0.00337443265147286,0.98764705032365,-0.0810440563875536,0.987647050281918,-0.0810440563771033,0.0065137714214405,-0.00335247267514038
9,0.00654759116767423,-0.00359773869766222,0.987009517069036,-0.085620818810499,0.987009517030157,-0.0856208188022825,0.00654605535681219,-0.00357423610345542
9.5,0.00658150757125775,-0.00382153837491028,0.98633270287734,-0.0901819940378967,0.986332702843493,-0.0901819940324788,0.00658003636744098,-0.00379645807632212
10,0.00661720888671041,-0.00404603680854088,0.985615932066944,-0.0947270886145271,0.985615932040213,-0.0947270886122809,0.00661580485841079,-0.00401934085721489
10.5,0.00666451697497628,-0.0042794193240363,0.984939908130843,-0.0993006600842943,0.984939908104008,-0.099300660081302,0.00666330284980532,-0.00425125946643146
11,0.00671222431600588,-0.0045167073618666,0.984243652174201,-0.103858442982554,0.984243652147331,-0.103858442978807,0.00671122384489198,-0.00448707212803434
11.5,0.00676011439613339,-0.00475795354406294,0.983527950186894,-0.108400909891575,0.98352795016006,-0.108400909887073,0.00675935258107596,-0.00472683232213367
12,0.00680797136286071,-0.0050031974511775,0.982793501561642,-0.112928561700772,0.98279350153491,-0.11292856169552,0.00680747437433088,-0.00497058058643685
12.5,0.00685558087622504,-0.00525246599481566,0.98204092242843,-0.117441917385097,0.982040922401866,-0.117441917379111,0.00685537596360147,-0.00521834487848416
13,0.00690273090386137,-0.00550577384569984,0.981270749844666,-0.121941505006405,0.981270749818329,-0.121941504999699,0.00690284630019516,-0.0054701409930944
13.5,0.00694921245679879,-0.0057631239101279,0.98048344660316,-0.126427853925344,0.980483446577106,-0.126427853917946,0.00694967727918522,-0.0057259730280026
14,0.00699482026391923,-0.00602450784753117,0.979679406448731,-0.130901488179404,0.979679406423011,-0.130901488171339,0.00699566441070763,-0.00598583389058494
14.5,0.00703935338382698,-0.00628990662201101,0.978858959524066,-0.135362920959431,0.978858959498728,-0.135362920950733,0.00704060742986863,-0.00624970583865769
15,0.00708261575366956,-0.00655929108101905,0.978022377894964,-0.13981265010106,0.978022377870051,-0.139812650091764,0.00708431084471084,-0.00651756104863432
15.5,0.00712441667514443,-0.00683262255447259,0.97716988103303,-0.144251154497777,0.977169881008579,-0.144251154487922,0.00712658442242432,-0.00678936220447923
16,0.00716457123858278,-0.00710985346804138,0.976301641159595,-0.148678891337953,0.976301641135639,-0.148678891327573,0.00716724361458773,-0.00706506310123478
16.5,0.00720290068656707,-0.00739092796475838,0.975417788377573,-0.153096294067883,0.975417788354142,-0.153096294057022,0.0072061099228117,-0.0073446092574132
17,0.00723923271902885,-0.00767578252943313,0.97451841553798,-0.157503770985449,0.974518415515095,-0.157503770974146,0.00724301120663635,-0.00762793853073029
17.5,0.00727340174218527,-0.00796434661091006,0.973603582804869,-0.161901704374068,0.973603582782553,-0.161901704362366,0.00727778193595047,-0.00791498173234073
18,0.00730524906405571,-0.008256543237664,0.972673321896721,-0.166290450092995,0.972673321874988,-0.166290450080933,0.00731026339055671,-0.00820566323504979
18.5,0.00733462303951712,-0.00855228962268928,0.971727639993827,-0.170670337547314,0.971727639972691,-0.170670337534936,0.0073403038097723,-0.00849990157151614
19,0.00736137916812124,-0.0088514977541494,0.970766523310541,-0.175041669968759,0.97076652329001,-0.175041669956101,0.0073677584951761,-0.00879761001890111
19.5,0.00738538014801673,-0.00915407496870824,0.969789940338325,-0.179404724946223,0.969789940318405,-0.179404724933325,0.00739248986976446,-0.00909869716691203
20,0.00740649588940515,-0.00945992450500333,0.968797844770958,-0.183759755152491,0.968797844751652,-0.183759755139393,0.00741436749686269,-0.00940306746666186
20.5,0.00742460349101459,-0.00976894603504075,0.967790178127061,-0.188106989220826,0.967790178108369,-0.188106989207562,0.00743326806220093,-0.00971062175813087
21,0.0074395871830687,-0.0100810361718193,0.966766872087769,-0.192446632731791,0.966766872069688,-0.192446632718397,0.00744907532254685,-0.0100212577745111
21.5,0.00745133824015409,-0.0103960889518393,0.965727850568896,-0.19677886927674,0.965727850551422,-0.196778869263249,0.00746168002426334,-0.0103348706220552
22,0.00745975486734984,-0.010713996291527,0.964673031547787,-0.201103861569938,0.964673031530915,-0.201103861556383,0.00747097979506164,-0.0106513532344321
22.5,0.00746474206283729,-0.0110346484169166,0.963602328665174,-0.20542175258608,0.963602328648894,-0.20542175257249,0.00747687901215205,-0.0109705968008789
23,0.00746621146009835,-0.0113579342662709,0.962515652622029,-0.209732666704304,0.962515652606333,-0.209732666690707,0.00747928864983169,-0.0112924911678207
23.5,0.00746408115263761,-0.0116837418655558,0.961412912390766,-0.214036710843514,0.961412912375641,-0.214036710829939,0.00747812610942458,-0.0116169252138141
24,0.00745827550402878,-0.0120119586769496,0.960294016259176,-0.218333975576952,0.960294016244611,-0.218333975563424,0.00747331503433207,-0.0119437871979362
24.5,0.00744872494586757,-0.0123424719207441,0.959158872724454,-0.222624536216776,0.959158872710437,-0.222624536203317,0.00746478511276216,-0.0122729650819755
25,0.00743536576607007,-0.0126751688712212,0.958007391253446,-0.226908453861646,0.958007391239961,-0.226908453848279,0.00745247187054704,-0.0126043468269317
25.5,0.00741813988974738,-0.013009937127185,0.956839482924033,-0.231185776402254,0.956839482911067,-0.231185776389,0.00743631645627357,-0.0129378206644755
26,0.00739699465470506,-0.0133466648579939,0.955655060961366,-0.235456539481353,0.955655060948903,-0.23545653946823,0.00741626542076218,-0.013273275344186
26.5,0.00737188258343646,-0.0136852410260326,0.954454041181402,-0.239720767406117,0.954454041169427,-0.239720767393141,0.00739227049275826,-0.0136106003574352
27,0.00734276115329968,-0.0140255555866164,0.953236342353077,-0.243978474011772,0.953236342341574,-0.243978473998962,0.00736428835252229,-0.0139496861389263
27.5,0.00730959256638114,-0.0143674996664362,0.952001886489289,-0.248229663476253,0.952001886478242,-0.24822966346362,0.00733228040482947,-0.0142904242469029
28,0.00727234352040612,-0.014710965721612,0.950750599075897,-0.252474331086327,0.950750599065289,-0.252474331073888,0.00729621255273055,-0.0146327075231218
28.5,0.00723098498186586,-0.0150558476765499,0.949482409246886,-0.25671246395618,0.949482409236701,-0.256712463943944,0.00725605497326853,-0.0149764302337094
29,0.00718549196241142,-0.0154020410447198,0.948197249913033,-0.260944041699806,0.948197249903254,-0.260944041687784,0.00721178189618793,-0.0153214881920287
29.5,0.00713584329940725,-0.0157494430325029,0.946895057850544,-0.26516903705886,0.946895057841157,-0.265169037047062,0.00716337138655904,-0.0156677788646546
30,0.00708202144140108,-0.0160979526273008,0.945575773755409,-0.269387416487885,0.945575773746395,-0.26938741647632,0.00711080513206919,-0.0160152014616439
30.5,0.00702401223916227,-0.0164474706709603,0.944239342268531,-0.273599140698861,0.944239342259874,-0.273599140687535,0.00705406823566174,-0.0163636570121393
31,0.00696180474282038,-0.0167978999196663,0.942885711976098,-0.277804165167201,0.942885711967783,-0.277804165156122,0.00699314901404469,-0.0167130484264222
31.5,0.00689539100552583,-0.0171491450913399,0.941514835389103,-0.28200244060131,0.941514835381114,-0.282002440590482,0.00692803880253057,-0.0170632805454563
32,0.00682476589397701,-0.0175011129015705,0.940126668905428,-0.286193913377811,0.940126668897751,-0.286193913367238,0.0068587317665425,-0.0174142601789311
32.5,0.00674992690606596,-0.0178537120890687,0.938721172757491,-0.290378525944553,0.938721172750109,-0.290378525934239,0.00678522472006338,-0.0177658961327793
33,0.00667087399581745,-0.0182068534315769,0.937298310948034,-0.294556217193416,0.937298310940933,-0.294556217183363,0.00670751695121852,-0.0181180992270973
33.5,0.00658760940573599,-0.0185604497531282,0.935858051176328,-0.298726922804913,0.935858051169495,-0.298726922795125,0.00662561005510864,-0.0184707823053551
34,0.00650013750661427,-0.018914415923502,0.934400364756727,-0.302890575566467,0.934400364750147,-0.302890575556944,0.00653950777396961,-0.0188238602357305
34.5,0.00640846464479783,-0.019268668850666,0.932925226531256,-0.30704710566618,0.932925226524915,-0.307047105656923,0.00644921584466213,-0.0191772499053582
35,0.00631259899686698,-0.0196231274669538,0.931432614777684,-0.311196440963816,0.93143261477157,-0.311196440954825,0.00635474185346518,-0.0195308702082433
35.5,0.00621255043164476,-0.0199777127096905,0.929922511114313,-0.315338507240637,0.929922511108411,-0.315338507231911,0.00625609509808944,-0.0198846420275323
36,0.00610833037942243,-0.020332347496886,0.928394900402531,-0.319473228429596,0.92839490039683,-0.319473228421135,0.00615328645682067,-0.0202384882127815
36.5,0.00599995170824214,-0.0206869566986458,0.926849770648044,-0.323600526827374,0.926849770642534,-0.323600526819175,0.00604632826463658,-0.0205923335528555
37,0.00588742860708696,-0.0210414671048254,0.925287112901528,-0.327720323289562,0.925287112896195,-0.327720323281623,0.0059352341961536,-0.0209461047449835
37.5,0.00577077647576058,-0.0213958073894587,0.923706921159327,-0.331832537410293,0.923706921154161,-0.331832537402613,0.00582001915521319,-0.0212997303605211
38,0.00565001182128627,-0.0217499080724455,0.922109192264766,-0.335937087687476,0.922109192259756,-0.335937087680052,0.00570069917091698,-0.0216531408078742
38.5,0.00552515216057281,-0.0221037014789334,0.920493925810469,-0.340033891674743,0.920493925805605,-0.340033891667572,0.00557729129989415,-0.0220062682930475
39,0.00539621592915307,-0.0224571216967775,0.918861124042077,-0.344122866121113,0.918861124037348,-0.34412286611419,0.00544981353458995,-0.0223590467781944
39.5,0.00526322239573485,-0.0228101045324747,0.917210791763645,-0.34820392709933,0.917210791759043,-0.348203927092651,0.00531828471734647,-0.0227114119385607
40,0.00512619158235073,-0.0231625874658798,0.915542936244952,-0.352276990123754,0.915542936240467,-0.352276990117316,0.00518272446003987,-0.0230633011181389
40.5,0.00498514418984825,-0.0235145096040186,0.9138575671309,-0.356341970258603,0.913857567126525,-0.356341970252402,0.00504315306904984,-0.023414653284354
41,0.00484010152850284,-0.02386581163426,0.91215469635316,-0.360398782217311,0.912154696348886,-0.360398782211341,0.00489959147532243,-0.0237654089820321
41.5,0.00469108545349156,-0.0242164357771022,0.910434338044147,-0.364447340453678,0.910434338039967,-0.364447340447936,0.00475206116929272,-0.0241155102869253
42,0.00453811830501827,-0.0245663257387876,0.9086965084534,-0.368487559245483,0.908696508449306,-0.368487559239963,0.00460058414043829,-0.0244649007590036
42.5,0.00438122285284148,-0.0249154266639373,0.906941225866428,-0.372519352771107,0.906941225862413,-0.372519352765803,0.00444518282124151,-0.0248135253957007
43,0.00422042224498137,-0.0252636850883952,0.905168510526015,-0.376542635179758,0.905168510522073,-0.376542635174665,0.0042858800353226,-0.0251613305853224
43.5,0.00405573996040309,-0.0256110488924073,0.903378384556021,-0.38055732065576,0.903378384552146,-0.380557320650873,0.00412269894954981,-0.0255082640607303
44,0.00388719976543078,-0.0259574672543108,0.901570871887633,-0.384563323477402,0.901570871883818,-0.384563323472717,0.00395566302988931,-0.0258542748534891
44.5,0.00371482567371567,-0.0263028906048111,0.899745998188068,-0.38856055807075,0.899745998184309,-0.388560558066259,0.00378479600081094,-0.0261993132485556
45,0.00353864190953829,-0.0266472705819771,0.897903790791682,-0.39254893905882,0.897903790787974,-0.392548939054519,0.00361012180803511,-0.0265433307396379
45.5,0.00335867287426062,-0.026990559987037,0.896044278633437,-0.396528381306489,0.896044278629773,-0.396528381302371,0.00343166458444161,-0.0268862799853147
46,0.00317494311573441,-0.0273327127410385,0.894167492184679,-0.40049879996145,0.894167492181058,-0.40049879995751,0.00324944861894638,-0.0272281147659841
46.5,0.0029874773005012,-0.0276736838424552,0.892273463391181,-0.404460110491545,0.892273463387598,-0.404460110487776,0.00306349832817721,-0.0275687899417172
47,0.00279630018859828,-0.0280134293257743,0.890362225613371,-0.408412228718728,0.890362225609821,-0.408412228715125,0.00287383823077353,-0.0279082614110637
47.5,0.00260143661081441,-0.0283519062211317,0.888433813568697,-0.41235507084995,0.888433813565177,-0.412355070846508,0.00268049292414685,-0.0282464860708682
48,0.00240291144824312,-0.0286890725150013,0.886488263276057,-0.416288553505177,0.886488263272566,-0.416288553501889,0.00248348706355728,-0.0285834217771137
48.5,0.00220074961398359,-0.0290248871119854,0.884525612002245,-0.42021259374277,0.884525611998778,-0.42021259373963,0.00228284534334372,-0.028919027306844
49,0.00199497603683907,-0.0293593097977209,0.882545898210304,-0.424127109082432,0.882545898206859,-0.424127109079435,0.00207859248018227,-0.0292532623211696
49.5,0.00178561564689894,-0.029692301202916,0.880549161509775,-0.428032017525909,0.880549161506351,-0.428032017523049,0.00187075319822605,-0.0295860873293836
50,0.0015726933628577,-0.0300238227685175,0.878535442608736,-0.431927237575599,0.878535442605331,-0.431927237572869,0.00165935221601093,-0.029917463654189
50.5,0.00135623408096247,-0.0303538367120215,0.87650478326757,-0.435812688251247,0.876504783264182,-0.435812688248643,0.00144441423500358,-0.030247353398047
51,0.0011362626654759,-0.0306823059949219,0.87445722625442,-0.439688289104863,0.874457226251047,-0.439688289102379,0.00122596392967378,-0.0305757194106469
51.5,0.00091280394053822,-0.0310091942912931,0.872392815302239,-0.443553960233986,0.87239281529888,-0.443553960231616,0.00100402593899229,-0.0309025252574908
52,0.000685882683338745,-0.031334465957491,0.870311595067394,-0.447409622293427,0.87031159506405,-0.447409622291166,0.00077862485924407,-0.0312277351895918
52.5,0.000455523618495934,-0.0316580860029734,0.868213611089758,-0.451255196505604,0.868213611086426,-0.451255196503448,0.00054978523807292,-0.0315513141142607
53,0.000221751413552407,-0.0319800200622177,0.86609890975422,-0.455090604669569,0.8660989097509,-0.45509060466751,0.000317531569652085,-0.0318732275669923
53.5,-1.54093244897902E-005,-0.0323002343677129,0.863967538253581,-0.458915769168813,0.863967538250274,-0.458915769166848,8.18882909141561E-005,-0.0321934416844127
54,-0.000255934051682505,-0.0326186957240331,0.861819544552757,-0.462730612977963,0.861819544549463,-0.462730612976086,-0.000157120221261187,-0.0325119231782878
54.5,-0.000499798288761788,-0.0329353714829327,0.859654977354256,-0.466535059668417,0.859654977350975,-0.466535059666624,-0.000399469651949425,-0.0328286393105599
55,-0.000746977621968958,-0.0332502295194861,0.857473886064859,-0.470329033413023,0.857473886061591,-0.470329033411308,-0.000645135749272552,-0.0331435578694081
55.5,-0.000997447703127541,-0.0335632382092174,0.855276320763478,-0.474112458989849,0.855276320760223,-0.474112458988207,-0.000894094324722206,-0.0334566471462965
56,-0.00125118424903248,-0.0338743664062091,0.853062332170126,-0.477885261785118,0.853062332166887,-0.477885261783546,-0.00114632125279018,-0.0337678759139977
56.5,-0.00150816304022,-0.0341835834221741,0.850831971615968,-0.481647367795366,0.850831971612744,-0.481647367793859,-0.00140179246996219,-0.0340772134055692
57,-0.00176835991915925,-0.0344908590064495,0.848585291014398,-0.485398703628869,0.848585291011191,-0.485398703627422,-0.00166048397312163,-0.0343846292942491
57.5,-0.00203175078792883,-0.0347961633269058,0.846322342833113,-0.489139196506396,0.846322342829924,-0.489139196505006,-0.00192237181742549,-0.0346900936742611
58,-0.00229831160541394,-0.0350994669517327,0.844043180067138,-0.492868774261335,0.844043180063968,-0.492868774259998,-0.00218743211369282,-0.0349935770424977
58.5,-0.00256801838408149,-0.0354007408320889,0.841747856212759,-0.496587365339226,0.841747856209612,-0.496587365337937,-0.00245564102535278,-0.0352950502810577
59,-0.00284084718635402,-0.0356999562855819,0.839436425242355,-0.500294898796745,0.839436425239229,-0.500294898795501,-0.00272697476499012,-0.0355944846406137
59.5,-0.00311677412064965,-0.0359970849805593,0.837108941580044,-0.503991304300181,0.837108941576943,-0.503991304298979,-0.00300140959053619,-0.0358918517245927
60,-0.00339577533709484,-0.0362920989211835,0.834765460078178,-0.507676512123424,0.834765460075103,-0.50767651212226,-0.00327892180112915,-0.0361871234741324
60.5,-0.00367782702296271,-0.0365849704332752,0.832406035994593,-0.511350453145513,0.832406035991547,-0.511350453144384,-0.00355948773269038,-0.0364802721538066
61,-0.00396290539786093,-0.0368756721508848,0.830030724970625,-0.515013058847758,0.830030724967608,-0.51501305884666,-0.00384308375323733,-0.0367712703380817
61.5,-0.00425098670870183,-0.0371641770035854,0.827639583009848,-0.518664261310468,0.827639583006865,-0.518664261309399,-0.00412968625796933,-0.037060090898493
62,-0.00454204722447349,-0.0374504582044606,0.825232666457515,-0.522303993209314,0.825232666454566,-0.522303993208272,-0.00441927166415207,-0.0373467069915071
