"Freq [GHz]","re(St(P1,P1)) []","im(St(P1,P1)) []","re(St(P1,P2)) []","im(St(P1,P2)) []","re(St(P2,P1)) []","im(St(P2,P1)) []","re(St(P2,P2)) []","im(St(P2,P2)) []"
0,0.00466358623583574,0,0.99534902391315,0,0.995349028060446,0,0.00466359035135611,0
0.5,0.00506682575380069,0.00104770381980046,0.994896169581402,-0.00555275778721764,0.99489616847162,-0.00555275660176235,0.00506670118524255,0.00104820835314356
1,0.0054362741770575,0.00160110701237315,0.99441304584775,-0.0105999720200991,0.994413046033337,-0.0105999716641563,0.00543598714112647,0.00160228294473086
1.5,0.00563170176987349,0.00200024891699968,0.993999368377137,-0.0157082891014184,0.9939993687035,-0.0157082887363451,0.00563118433396426,0.00200212100550701
2,0.00573441051549928,0.00242261328828519,0.993543576091321,-0.0206782763869846,0.99354357649157,-0.0206782760848974,0.00573377825790544,0.00242530124259233
2.5,0.00580282677025235,0.00287072343959416,0.993087015567706,-0.0255410709010953,0.993087015971072,-0.0255410706821984,0.00580216186874161,0.00287424881296694
3,0.00585867657261563,0.00333728996711358,0.992644420041911,-0.0303298917492327,0.992644420398932,-0.0303298916041825,0.00585803036441668,0.00334165245024565
3.5,0.0059109551874057,0.00381685740359927,0.992215097949103,-0.0350700770143693,0.992215098233884,-0.0350700769244519,0.00591036277181445,0.00382205341291453
4,0.00596385765948826,0.00430600123129388,0.991791887216543,-0.0397781155659658,0.991791887420611,-0.0397781155134744,0.00596334586565783,0.00431202815653009
4.5,0.00601955884522321,0.00480261876391985,0.991366046075798,-0.0444637703465514,0.991366046201526,-0.0444637703181918,0.006019150191233,0.00480947575604951
5,0.00607929905610138,0.00530541618423364,0.990929360969733,-0.0491324249696632,0.990929361025594,-0.0491324249566567,0.00607901378126985,0.00531310411539287
5.5,0.0061438526308295,0.00581359952672411,0.990474831465779,-0.0537868346339323,0.990474831463362,-0.05378683463094,0.00614370980139367,0.00582212078776845
6,0.00621374815143882,0.00632669224198956,0.989996745339262,-0.05842825818163,0.989996745291524,-0.0584282581855993,0.00621376630222659,0.00633605054449138
6.5,0.00628937964817755,0.0068444256950535,0.989490536960218,-0.0630571398196551,0.989490536880453,-0.0630571398287998,0.00628957718100354,0.00685462591246466
7,0.00637106631424056,0.00736667169136052,0.988952595470118,-0.0676735020648289,0.988952595371373,-0.0676735020779491,0.00637146176333236,0.0073777197391216
7.5,0.00645908634706849,0.00789339972663416,0.988380084220998,-0.0722771642319131,0.988380084115719,-0.0722771642479065,0.00645969856927298,0.00790530247374477
8,0.00655369709031328,0.00842464917040608,0.987770788938097,-0.0768678590303553,0.987770788837928,-0.0768678590479466,0.00655454541173961,0.00843741437465972
8.5,0.0066551475947893,0.0089605107171149,0.987122995478993,-0.0814452911292118,0.987122995394669,-0.0814452911468297,0.00665625193198455,0.0089741469777298
9,0.00676368682621176,0.0095011137385006,0.98643539288835,-0.0860091635431584,0.986435392829636,-0.0860091635588756,0.00676506779264752,0.00951563046147363
9.5,0.00687956929677541,0.0100466174842895,0.98570699663701,-0.0905591868380178,0.985706996612694,-0.0905591868495632,0.00688124830134024,0.0100620248569649
10,0.00700305913671145,0.0105972048466612,0.98493708756167,-0.0950950797283721,0.984937087579575,-0.0950950797331886,0.00700505847853067,0.0106135138189174
10.5,0.00715971135723198,0.0111030331194204,0.984221040514889,-0.0996489985139855,0.984221040532925,-0.099648998520375,0.00716206543069436,0.0111201723162182
11,0.00732319815683652,0.0116055050067327,0.983486507464841,-0.104184616487355,0.983486507482853,-0.104184616495316,0.00732592640740967,0.0116234759877285
11.5,0.00749341335314768,0.012104496970017,0.98273437471492,-0.108702662988651,0.982734374732758,-0.108702662998164,0.00749653549197732,0.0121233012354267
12,0.00767024779534467,0.0125998899405713,0.981965410858026,-0.11320388667462,0.981965410875551,-0.113203886685649,0.00767378380308548,0.0126195289154931
12.5,0.00785358958929523,0.0130915694001983,0.981180273798395,-0.117689042629208,0.981180273815476,-0.117689042641702,0.00785755971902861,0.0131120444188251
13,0.00804332432419596,0.0135794254490755,0.980379518590695,-0.122158881433921,0.98037951860721,-0.12215888144782,0.00804774910342805,0.0136007377388441
13.5,0.00823933529988225,0.0140633528608811,0.979563605759433,-0.126614140093708,0.979563605775275,-0.126614140108943,0.00824423553164454,0.0140855035266316
14,0.00844150375406581,0.0145432511253807,0.978732909817712,-0.131055534679108,0.978732909832783,-0.131055534695599,0.00844690051712237,0.0145662411335636
14.5,0.00864970908873223,0.0150190244786605,0.977887727757948,-0.135483754524064,0.977887727772163,-0.135483754541728,0.00865562373691518,0.0150428546416626
15,0.0088638290949741,0.0154905819212323,0.977028287336572,-0.139899457808374,0.977028287349856,-0.139899457827119,0.00887028325566407,0.0155152528818521
15.5,0.00908374017557007,0.0159578372243416,0.976154755018758,-0.14430326835189,0.976154755031048,-0.144303268371626,0.00909075574734802,0.01598334944048
16,0.00930931756464473,0.0164207089247581,0.975267243487389,-0.148695773452256,0.975267243498632,-0.148695773472889,0.00931691671413527,0.0164470626543602
16.5,0.00954043554378446,0.0168791203084693,0.974365818652691,-0.153077522607085,0.974365818662847,-0.15307752262852,0.00954864070172687,0.0169063155947713
17,0.00977696765401764,0.0173329993836422,0.973450506125526,-0.157449026973726,0.97345050613456,-0.157449026995868,0.00978580151058905,0.0173610360407443
17.5,0.0100187869031157,0.0177822788433133,0.972521297138593,-0.161810759433584,0.972521297146483,-0.16181075945634,0.0100282724025432,0.0178111564421419
18,0.010265765967699,0.0182268960182403,0.971578153916469,-0.166163155142632,0.9715781539232,-0.166163155165913,0.0102759263021902,0.0182566138729139
18.5,0.010517777389683,0.0186667928204365,0.970621014507943,-0.170506612464282,0.970621014513507,-0.170506612487997,0.0105286359927174,0.01869734997508
19,0.0107746937666346,0.0191019156778443,0.969649797103266,-0.174841494194928,0.969649797107661,-0.174841494218993,0.0107862743056483,0.0191333108938703
19.5,0.0110363879356601,0.0195322154607203,0.968664403865238,-0.179168129005578,0.968664403868471,-0.179168129029911,0.0110487143041674,0.019564447204611
20,0.0113027331504804,0.0199576474002172,0.967664724307038,-0.183486813035143,0.96766472430912,-0.183486813059663,0.0113158294596618,0.0199907138318247
20.5,0.011573603251391,0.0203781709997357,0.966650638251847,-0.187797811581761,0.966650638252795,-0.187797811606393,0.0115874938211978,0.0204120699611239
21,0.0118488728278507,0.0207937499395778,0.965622018410098,-0.192101360848216,0.965622018409932,-0.192101360872889,0.0118635821776634,0.0208284789444178
21.5,0.0121284173734879,0.0212043519754554,0.964578732609814,-0.19639766970592,0.964578732608559,-0.196397669730568,0.0121439702123597,0.0212399081989894
22,0.0124121134333366,0.0216099488314181,0.963520645714433,-0.200686921449161,0.963520645712119,-0.20068692147372,0.0124285346498759,0.0216463291010087
22.5,0.0126998387431699,0.0220105160877178,0.962447621260858,-0.204969275517602,0.962447621257513,-0.204969275542013,0.0127171533950894,0.0220477168739843
23,0.0129914723608293,0.0224060330641813,0.961359522848437,-0.209244869170202,0.961359522844098,-0.209244869194412,0.0130097056642081,0.022444050472723
23.5,0.0132868947894857,0.0227964826996145,0.960256215307435,-0.213513819098118,0.960256215302135,-0.213513819122075,0.0133060721077771,0.0228353124633394
24,0.0135859880927967,0.0231818514277513,0.959137565673164,-0.217776222967818,0.959137565666943,-0.217776222991474,0.0136061349256243,0.0232214888997997
24.5,0.013888636001967,0.023562129050283,0.958003443989706,-0.222032160888535,0.958003443982601,-0.222032160911847,0.0139097779737425,0.0236025691975406
25,0.0141947240147415,0.0239373086074339,0.956853723964817,-0.226281696800677,0.956853723956868,-0.226281696823605,0.0142168868631384,0.0239785460046404
25.5,0.0145041394863918,0.0243073862466012,0.955688283495488,-0.230524879783629,0.955688283486736,-0.230524879806137,0.0145273490507131,0.0243494150710457
26,0.0148167717127882,0.0246723610894901,0.95450700508155,-0.23476174528298,0.954507005072036,-0.234761745305036,0.0148410539222564,0.0247151751162782
26.5,0.0151325120056622,0.0250322350982115,0.953309776142802,-0.238992316258321,0.953309776132569,-0.238992316279896,0.0151578928676672,0.0250758276961069
27,0.0154512537602035,0.0253870129407676,0.952096489253396,-0.24321660425367,0.952096489242486,-0.243216604274737,0.0154777593485353,0.0254313770685852
27.5,0.0157728925151452,0.0257367018563257,0.950867042305584,-0.247434610393208,0.950867042294038,-0.247434610413743,0.0158005489582405,0.0257818300598678
28,0.0160973260055073,0.0260813115206682,0.949621338613456,-0.251646326305506,0.949621338601316,-0.25164632632549,0.0161261594747378,0.0261271959301959
28.5,0.0164244542081997,0.0264208539121877,0.948359286966028,-0.255851734979695,0.948359286953337,-0.255851734999109,0.0164544909062266,0.0264674862404037
29,0.016754179380682,0.0267553431787655,0.947080801637788,-0.260050811557217,0.947080801624584,-0.260050811576046,0.0167854455299029,0.026802714719298
29.5,0.0170864060929111,0.0270847955058604,0.945785802363801,-0.26424352406291,0.945785802350127,-0.264243524081142,0.0171189279240149,0.0271328971322287
30,0.0174210412527948,0.0274092289860983,0.944474214285522,-0.268429834079146,0.944474214271417,-0.26842983409677,0.017454844993454,0.0274580511511455
30.5,0.0177579941254027,0.0277286634906511,0.943145967872619,-0.272609697366731,0.943145967858123,-0.272609697383738,0.0177931059891169,0.0277781962264192
31,0.0180971763461801,0.0280431205426466,0.941800998825397,-0.276783064436148,0.941800998810547,-0.276783064452532,0.018133622521286,0.0280933534606873
31.5,0.0184385019284131,0.0283526231928659,0.940439247961744,-0.280949881072627,0.940439247946579,-0.280949881088385,0.0184763085672824,0.0284035454849534
32,0.0187818872652114,0.0286571958979043,0.939060661091988,-0.285110088818373,0.939060661076544,-0.285110088833501,0.0188210804736484,0.028708796337146
32.5,0.0191272511262677,0.0289568644010374,0.937665188884514,-0.289263625415077,0.937665188868828,-0.289263625429574,0.0191678569531197,0.0290091313433505
33,0.0194745146496602,0.0292516556159221,0.936252786724605,-0.293410425209752,0.936252786708711,-0.293410425223618,0.019516559076648,0.0293045770018623
33.5,0.0198236013289527,0.0295415975133047,0.934823414568555,-0.297550419526675,0.934823414552486,-0.297550419539912,0.0198671102607432,0.0295951608702298
34,0.0201744369958748,0.0298267190108765,0.933377036794801,-0.301683537008072,0.933377036778592,-0.301683537020685,0.0202194362503882,0.0298809114554204
34.5,0.0205269497988242,0.03010704986638,0.931913622053538,-0.305809703926031,0.931913622037219,-0.305809703938022,0.0205734650977981,0.0301618581072254
35,0.0208810701774638,0.0303826205740774,0.930433143116012,-0.309928844467919,0.930433143099615,-0.309928844479295,0.0209291271372716,0.0304380309149936
35.5,0.0212367308336672,0.0306534622646515,0.928935576724515,-0.314040880997458,0.92893557670807,-0.314040881008227,0.0212863549563985,0.0307094606078009
36,0.0215938666990582,0.0309196066086241,0.927420903443879,-0.318145734293413,0.927420903427414,-0.318145734303581,0.0216450833638666,0.0309761784580973
36.5,0.0219524148993983,0.0311810857233301,0.925889107515161,-0.322243323767737,0.925889107498704,-0.322243323777314,0.0220052493541197,0.0312382161889044
37,0.0223123147160629,0.0314379320834939,0.924340176712035,-0.326333567664864,0.924340176695613,-0.326333567673859,0.022366792069102,0.0314956058845972
37.5,0.0226735075448318,0.0316901784354369,0.922774102200315,-0.3304163832437,0.922774102183954,-0.330416383252123,0.0227296527573259,0.0317483799052924
38,0.0230359368522357,0.0319378577149212,0.921190878400939,-0.334491686943751,0.921190878384663,-0.334491686951614,0.0230937747304886,0.031996570804864
38.5,0.023399548129669,0.0321810029686405,0.91959050285665,-0.338559394536716,0.919590502840482,-0.338559394544031,0.0234591033178586,0.0322402112525877
39,0.0237642888454868,0.0324196472793536,0.917972976102551,-0.342619421264744,0.917972976086516,-0.342619421271523,0.023825585818647,0.0324793339584097
39.5,0.0241301083952942,0.0326538236946334,0.916338301540656,-0.346671681966478,0.916338301524774,-0.346671681972735,0.0241931714525638,0.0327139716018228
40,0.02449695805062,0.0328835651592112,0.914686485318485,-0.350716091191919,0.914686485302777,-0.350716091197666,0.0245618113087618,0.0329441567643136
40.5,0.0248647909061728,0.0331089044508845,0.91301753621176,-0.354752563307021,0.913017536196246,-0.354752563312273,0.0249314582933557,0.03316992186537
41,0.0252335618258541,0.0333298741199441,0.91133146551117,-0.358781012588913,0.911331465495868,-0.358781012593684,0.0253020670756986,0.0333912991019851
41.5,0.025603227387706,0.0335465064320728,0.909628286913187,-0.362801353312495,0.909628286898114,-0.3628013533168,0.0256735940335864,0.0336083203916284
42,0.0259737458279611,0.0337588333146652,0.907908016414871,-0.366813499829162,0.907908016400044,-0.366813499833015,0.026045997197563,0.0338210173186206
42.5,0.0263450769843478,0.0339668863065001,0.906170672212597,-0.370817366638307,0.906170672198034,-0.370817366641725,0.02641923619447,0.0340294210838497
43,0.0267171822388043,0.0341706965107202,0.90441627460462,-0.37481286845219,0.904416274590334,-0.374812868455189,0.0267932721904091,0.0342335624577879
43.5,0.0270900244597384,0.0343702945510271,0.902644845897356,-0.378799920254753,0.902644845883363,-0.378799920257347,0.0271680678332386,0.0344334717367079
44,0.0274635679439745,0.0345657105310435,0.90085641031532,-0.382778437354866,0.90085641030163,-0.382778437357072,0.0275435871947533,0.0346291787020585
44.5,0.0278377783585053,0.0347569739967539,0.899050993914555,-0.386748335434474,0.899050993901183,-0.386748335436308,0.0279197957126636,0.0348207125829116
45,0.0282126226821732,0.0349441139019508,0.897228624499489,-0.390709530592068,0.897228624486445,-0.390709530593546,0.0282966601324995,0.0350081020214028
45.5,0.0285880691473917,0.0351271585766113,0.895389331543055,-0.394661939381868,0.89538933153035,-0.394661939383007,0.0286741484495446,0.0351913750410948
46,0.0289640871820059,0.0353061356981186,0.893533146109992,-0.398605478849065,0.893533146097637,-0.398605478849882,0.0290522298509091,0.0353705590181792
46.5,0.0293406473513981,0.0354810722652508,0.891660100783191,-0.402540066561454,0.891660100771194,-0.402540066561964,0.0294308746578362,0.0355456806554357
47,0.0297177213009246,0.0356519945748549,0.889770229592961,-0.406465620637745,0.88977022958133,-0.406465620637964,0.0298100542683356,0.0357167659588719
47.5,0.0300952816987674,0.0358189282011191,0.887863567949121,-0.41038205977283,0.887863567937864,-0.410382059772775,0.0301897411002258,0.0358838402169513
48,0.0304733021792819,0.0359818979773657,0.885940152575783,-0.414289303260249,0.885940152564907,-0.414289303259937,0.0305699085346647,0.0360469279823437
48.5,0.0308517572869128,0.0361409279802776,0.884000021448722,-0.418187271012085,0.884000021438233,-0.418187271011532,0.0309505308602424,0.036206053056091
49,0.0312306224207458,0.0362960415164824,0.882043213735231,-0.422075883576482,0.882043213725133,-0.422075883575702,0.0313315832177044,0.0363612384741385
49.5,0.0316098737797526,0.0364472611114017,0.88006976973634,-0.425955062152999,0.880069769726639,-0.42595506215201,0.0317130415453599,0.0365125064961147
50,0.0319894883087967,0.0365946085002996,0.878079730831317,-0.429824728605946,0.878079730822015,-0.429824728604764,0.0320948825252432,0.0366598785963137
50.5,0.0323694436454339,0.0367381046214283,0.876073139424331,-0.43368480547589,0.876073139415433,-0.43368480547453,0.0324770835300688,0.0368033754567679
51,0.0327497180675818,0.0368777696112241,0.874050038893208,-0.437535215989437,0.874050038884718,-0.437535215987915,0.0328596225710404,0.0369430169623641
51.5,0.0331302904420689,0.0370136228014374,0.872010473540164,-0.441375884067471,0.872010473532082,-0.441375884065802,0.0332424782465424,0.0370788221978958
52,0.0335111401741348,0.0371456827181594,0.86995448854444,-0.445206734331925,0.869954488536768,-0.445206734330125,0.0336256296917684,0.0372108094470018
52.5,0.0338922471578905,0.0372739670826362,0.867882129916764,-0.449027692111233,0.867882129909501,-0.449027692109316,0.0340090565293076,0.0373389961928959
53,0.0342735917277895,0.037398492813826,0.865793444455536,-0.452838683444536,0.865793444448685,-0.452838683442518,0.0343927388207344,0.0374633991208279
53.5,0.0346551546111298,0.0375192760326055,0.863688479704694,-0.456639635084757,0.863688479698252,-0.456639635082651,0.0347766570192217,0.0375840341222032
54,0.03503691688161,0.0376363320675698,0.861567283913151,-0.460430474500616,0.861567283907118,-0.460430474498438,0.0351607919232041,0.037700916300283
54.5,0.0354188599139705,0.037749675462355,0.859429905995764,-0.464211129877676,0.85942990599014,-0.464211129875438,0.0355451246311199,0.0378140599774077
55,0.0358009653397355,0.0378593199844095,0.857276395495756,-0.467981530118478,0.857276395490538,-0.467981530116195,0.035929636497242,0.0379234787036701
55.5,0.036183215004068,0.0379652786351617,0.855106802548522,-0.471741604841849,0.855106802543707,-0.471741604839534,0.0363143090886263,0.0380291852669797
56,0.0365655909237664,0.0380675636615108,0.852921177846777,-0.475491284381421,0.852921177842363,-0.475491284379087,0.0366991241431844,0.0381311917044495
56.5,0.0369480752464008,0.0381661865685844,0.850719572606974,-0.479230499783443,0.850719572602958,-0.479230499781103,0.0370840635288976,0.0382295093150495
57,0.037330650210613,0.0382611581337081,0.848502038536946,-0.482959182803915,0.848502038533323,-0.48295918280158,0.0374691092041857,0.0383241486734681
57.5,0.0377132981075812,0.0383524884215187,0.846268627804716,-0.486677265905099,0.846268627801481,-0.486677265902783,0.037854243179435,0.038415119645118
58,0.0380960012436626,0.0384401868001717,0.844019393008431,-0.490384682251465,0.84401939300558,-0.490384682249179,0.0382394474796953,0.0385024314022364
58.5,0.0384787419042165,0.0385242619585948,0.841754387147373,-0.494081365705078,0.841754387144901,-0.494081365702833,0.0386247041085581,0.0385860924410276
59,0.038861502318617,0.0386047219247228,0.839473663594005,-0.4977672508205,0.839473663591906,-0.497767250818308,0.0390099950132112,0.0386661105997878
59.5,0.0392442646264543,0.0386815740846689,0.837177276067001,-0.501442272839216,0.837177276065269,-0.501442272837087,0.0393953020506813,0.0387424930779675
60,0.0396270108449342,0.0387548252027891,0.834865278605238,-0.505106367683624,0.834865278603867,-0.505106367681569,0.0397806069552651,0.038815246456124
60.5,0.0400097228374692,0.0388244814425772,0.832537725542697,-0.508759471950621,0.832537725541681,-0.508759471948649,0.0401658913071498,0.0388843767167064
61,0.0403923822834704,0.038890548388359,0.830194671484248,-0.512401522904803,0.830194671483578,-0.512401522902925,0.0405511365022243,0.0389498892656381
61.5,0.0407749706493338,0.0389530310677321,0.827836171282279,-0.516032458471311,0.827836171281949,-0.516032458469533,0.0409363237230843,0.0390117889546475
62,0.0411574691606265,0.0390119339747075,0.825462280014145,-0.519652217228337,0.825462280014148,-0.51965221722667,0.0413214339112242,0.0390700801042994
62.5,0.0415398587754631,0.0390672610935154,0.823073052960406,-0.523260738399334,0.823073052960732,-0.523260738397786,0.0417064477404225,0.0391247665276903
63,0.0419221201590822,0.0391190159230294,0.820668545583808,-0.526857961844909,0.82066854558445,-0.526857961843487,0.0420913455913126,0.0391758515547648
63.5,0.0423042336596092,0.0391672015017678,0.818248813509017,-0.530443828054458,0.818248813509966,-0.530443828053171,0.0424761075271415,0.0392233380572111
64,0.0426861792850106,0.0392118204334401,0.815813912503044,-0.534018278137538,0.815813912504291,-0.534018278136391,0.0428607132707068,0.0392672284738974
