"Freq [GHz]","re(St(P1,P1)) []","im(St(P1,P1)) []","re(St(P1,P2)) []","im(St(P1,P2)) []","re(St(P2,P1)) []","im(St(P2,P1)) []","re(St(P2,P2)) []","im(St(P2,P2)) []"
0,0.00426149054828784,0,0.995754251169274,0,0.995754250354366,0,0.00426148830013062,0
0.5,0.00486060301315661,-0.000885479226557351,0.995101981700564,-0.00614225005411839,0.995101981702405,-0.00614225002614077,0.00486046556690667,-0.000885055341907304
1,0.00539390639436732,-0.00252735560598438,0.994440949884812,-0.0115279075245525,0.994440949908626,-0.0115279075149992,0.00539352512917191,-0.00252636507562798
1.5,0.00569428049022491,-0.00433986395585606,0.993895653137649,-0.0169258025881334,0.993895653164394,-0.0169258025837813,0.00569329531357354,-0.00433857410980565
2,0.00582455112020241,-0.00617491368119971,0.993383838496438,-0.0221545689526614,0.993383838520819,-0.0221545689532476,0.00582298923970548,-0.00617289240605956
2.5,0.00586327258424824,-0.00799018853360423,0.992924071194992,-0.0272960134724514,0.992924071214505,-0.0272960134756737,0.00586125959588912,-0.00798727625021911
3,0.00584890967075857,-0.00978375161376732,0.992500620839246,-0.032397544975268,0.992500620853392,-0.0323975449791476,0.00584652985192591,-0.00977989618667507
3.5,0.00579960702042825,-0.0115600478303701,0.992092723721965,-0.0374812347482489,0.992092723731113,-0.0374812347515441,0.0057969047259725,-0.0115552308477422
4,0.00572439500541311,-0.0133233583613226,0.991683240154479,-0.0425557087212436,0.991683240159294,-0.0425557087233663,0.00572138914348574,-0.0133175695575005
4.5,0.00562807020774958,-0.0150769016504153,0.991259598303066,-0.0476233155681829,0.991259598304266,-0.0476233155689538,0.00562476451666072,-0.0150701303440357
5,0.00551333730888004,-0.0168229736616716,0.990812845217861,-0.0526837002515244,0.990812845216131,-0.052683700250995,0.0055097265375772,-0.0168152059960534
5.5,0.00538180162753976,-0.0185632023326665,0.990336579367565,-0.0577354651571795,0.990336579363543,-0.0577354651555346,0.00537787518745869,-0.0185544205183561
6,0.00523445769601993,-0.020298751440988,0.98982614206038,-0.0627769147727708,0.989826142054671,-0.0627769147702537,0.00523020186411971,-0.0202889336847676
6.5,0.00507194374328845,-0.0220304632314345,0.989278067829035,-0.0678063758995187,0.989278067822198,-0.0678063758963781,0.00506734303635215,-0.0220195838836439
7,0.00489468110068669,-0.0237589549061354,0.988689723823743,-0.0728223234502448,0.988689723816324,-0.0728223234467347,0.00488971916621628,-0.0237469846587111
7.5,0.00470295403146848,-0.025484683754625,0.98805907475011,-0.0778234180282471,0.988059074742629,-0.0778234180245807,0.00469761424905091,-0.0254715898320335
8,0.00449695725905364,-0.027207991532098,0.98738452841862,-0.0828085044253495,0.987384528411579,-0.0828085044217168,0.00449122316362516,-0.0271937378583598
8.5,0.00427682525018014,-0.0289291351216683,0.986664832520942,-0.0877765939137758,0.98666483251482,-0.0877765939103119,0.00427068084276039,-0.0289136824612752
9,0.00404265081157806,-0.0306483080478737,0.985899003975181,-0.0927268410021833,0.985899003970444,-0.0927268409990036,0.00403608079718376,-0.0306316141235898
9.5,0.00379449722231651,-0.0323656558065748,0.985086279110665,-0.0976585195856687,0.985086279107752,-0.0976585195828363,0.00378748719965993,-0.032347675398098
10,0.00353240634166674,-0.0340812869526426,0.984226077330331,-0.102571000684285,0.984226077329657,-0.102571000681832,0.00352494296028538,-0.034061971980103
10.5,0.00325773778864424,-0.0357812183188875,0.983406192309414,-0.107498750711365,0.983406192308836,-0.107498750708642,0.00325031335068759,-0.0357615818895365
11,0.00296929392581868,-0.0374806106085632,0.982562083172822,-0.112408472821329,0.982562083172367,-0.112408472818349,0.00296182533658718,-0.0374607028591214
11.5,0.00266699893147493,-0.0391794442998288,0.981694471517424,-0.117300835421431,0.981694471517111,-0.117300835418205,0.00265939526443193,-0.0391593080608592
12,0.00235076922678334,-0.0408776976623315,0.980803965755295,-0.122176504679332,0.980803965755144,-0.122176504675877,0.00234293238453032,-0.0408573674406227
12.5,0.00202051321448149,-0.0425753459937113,0.979891070893816,-0.127036133438731,0.979891070893846,-0.127036133435059,0.00201233872098772,-0.0425548470074233
13,0.00167613108596587,-0.044272360788483,0.978956198612596,-0.131880352357991,0.978956198612821,-0.131880352354125,0.00166750900812773,-0.0442517080726237
13.5,0.001317514708292,-0.0459687088442982,0.977999677315972,-0.136709763051263,0.977999677316406,-0.136709763047218,0.00130833070245368,-0.0459479064447308
14,0.00094454760248075,-0.0476643513126502,0.977021761914023,-0.141524932995305,0.977021761914675,-0.1415249329911,0.000934684078835291,-0.0476433915870764
14.5,0.000557105024182603,-0.0493592427027219,0.976022643150794,-0.14632639196268,0.976022643151674,-0.146326391958336,0.000546442419084719,-0.0493381057469193
15,0.000155054157111006,-0.0510533298492755,0.975002456354537,-0.151114629749941,0.975002456355649,-0.15111462974548,0.000143472300318331,-0.0510319830662063
15.5,-0.000261745571384225,-0.0527465508573197,0.973961289531353,-0.155890094984131,0.973961289532702,-0.155890094979568,-0.000274366010603516,-0.0527249486856123
16,-0.000693442044596065,-0.0544388340382964,0.972899190761145,-0.160653194810075,0.972899190762734,-0.160653194805432,-0.000707218051572089,-0.0544169178548364
16.5,-0.0011401898743516,-0.0561300968542895,0.971816174884081,-0.165404295282214,0.971816174885909,-0.165404295277512,-0.00115523454529659,-0.0561077950633555
17,-0.00160214967845268,-0.0578202448884237,0.970712229487873,-0.170143722306833,0.97071222948994,-0.170143722302087,-0.00161857066348942,-0.0577974732069482
17.5,-0.00207948721606557,-0.0595091708608919,0.969587320222284,-0.17487176300191,0.969587320224587,-0.174871762997133,-0.0020973851757948,-0.059485832805934
18,-0.0025723723824034,-0.0611967537110707,0.968441395478205,-0.179588667362316,0.968441395480741,-0.17958866735753,-0.00259183948649627,-0.0611727412916583
18.5,-0.00308097806705193,-0.0628828577666516,0.967274390475747,-0.184294650136605,0.96727439047851,-0.184294650131824,-0.00310209656445753,-0.062858052377766
19,-0.00360547888376359,-0.0645673320207685,0.966086230809495,-0.188989892838403,0.966086230812481,-0.188989892833641,-0.00362831977443356,-0.0645416055325372
19.5,-0.0041460497828785,-0.0662500095375336,0.96487683550057,-0.193674545830143,0.964876835503771,-0.193674545825414,-0.00417067162046553,-0.0662232255678021
20,-0.00470286456108721,-0.0679307070051447,0.963646119604686,-0.19834873042959,0.963646119608096,-0.198348730424907,-0.00472931241468774,-0.0679027223586792
20.5,-0.00527609428655623,-0.0696092244540427,0.962393996423763,-0.203012541000554,0.962393996427375,-0.203012540995928,-0.00530439888732331,-0.069579890706831
21,-0.00586590566057177,-0.0712853451549682,0.961120379366114,-0.207666046998233,0.961120379369918,-0.207666046993675,-0.00589608275583456,-0.0712545103576265
21.5,-0.0064724593395904,-0.0729588357088176,0.959825183497145,-0.212309294947364,0.959825183501133,-0.212309294942883,-0.00650450927312082,-0.072926346179174
22,-0.00709590824387388,-0.0746294463366115,0.958508326819155,-0.216942310337586,0.958508326823318,-0.216942310333193,-0.00712981577614502,-0.0745951485082688
22.5,-0.00773639588048153,-0.076296911373714,0.957169731315333,-0.221565099425475,0.957169731319662,-0.221565099421177,-0.00777213025737192,-0.0762606536649777
23,-0.00839405470935606,-0.0779609499681637,0.955809323789597,-0.226177650936796,0.955809323794083,-0.226177650932603,-0.00843156998188183,-0.0779225846343197
23.5,-0.00906900458139434,-0.0796212669783247,0.954427036530592,-0.230779937665786,0.954427036535225,-0.230779937661701,-0.00910824017290629,-0.0795806519098461
24,-0.00976135127668776,-0.0812775540604216,0.953022807824995,-0.235371917970707,0.953022807829765,-0.235371917966737,-0.009802232787818,-0.0812345544905102
24.5,-0.0104711851696448,-0.082929490932067,0.951596582342347,-0.239953537166886,0.951596582347244,-0.239953537163037,-0.0105136254052728,-0.0828839810187554
25,-0.0111985800453868,-0.0845767467935561,0.950148311410921,-0.244524728819835,0.950148311415936,-0.244524728816112,-0.0112424802422929,-0.0845286110446688
25.5,-0.0119435920887175,-0.0862189818850387,0.948677953201691,-0.249085415942128,0.948677953206816,-0.249085415938533,-0.0119888433176558,-0.0861681163981856
26,-0.0127062590633122,-0.0878558491543555,0.947185472835252,-0.253635512098319,0.947185472840475,-0.253635512094856,-0.0127527437750349,-0.0878021626490026
26.5,-0.013486599694529,-0.0894869960079765,0.945670842424525,-0.25817492242282,0.94567084242984,-0.258174922419492,-0.013534193376108,-0.0894304106320791
27,-0.0142846132646269,-0.0911120661156519,0.944134041064412,-0.262703544555719,0.944134041069806,-0.262703544552529,-0.0143331861702968,-0.0910525180152661
27.5,-0.0151002794244401,-0.0927307012386356,0.94257505477788,-0.26722126950178,0.942575054783347,-0.267221269498729,-0.0151496983441564,-0.092668140885094
28,-0.0159335582206729,-0.0943425430513258,0.940993876426721,-0.271727982417763,0.940993876432251,-0.271727982414852,-0.0159836882497453,-0.094276935326711
28.5,-0.0167843903333386,-0.0959472349270647,0.939390505593918,-0.276223563333183,0.939390505599503,-0.276223563330414,-0.0168350966077249,-0.0958785589746336
29,-0.017652697513443,-0.0975444236604313,0.937764948443604,-0.280707887809353,0.937764948449235,-0.280707887806725,-0.0177038468775302,-0.0974726725121515
29.5,-0.0185383832070932,-0.0991337611008469,0.936117217563598,-0.285180827541499,0.936117217569266,-0.285180827539012,-0.0185898457839498,-0.0990589410990825
30,-0.0194413333487962,-0.100714905675121,0.934447331794795,-0.289642250908354,0.934447331800493,-0.289642250906009,-0.0194929839867314,-0.100637035709656
30.5,-0.0203614173039572,-0.102287523780112,0.93275531605096,-0.294092023473494,0.932755316056681,-0.294092023471288,-0.0204131368776216,-0.102206634364898
31,-0.0212984889385371,-0.103851291030276,0.931041201131917,-0.298530008442332,0.931041201137653,-0.298530008440265,-0.0213501654875983,-0.103767423246748
31.5,-0.0222523877924837,-0.105405893348895,0.929305023532579,-0.302956067078513,0.929305023538322,-0.302956067076584,-0.0223039174858052,-0.105319097684023
32,-0.0232229403329092,-0.106951027895603,0.927546825249912,-0.307370059083082,0.927546825255655,-0.30737005908129,-0.0232742282510979,-0.106861363003404
32.5,-0.0242099612630417,-0.108486403826731,0.925766653589469,-0.311771842939667,0.925766653595206,-0.311771842938009,-0.0242609219969462,-0.108393935241611
33,-0.0252132548636235,-0.110011742888534,0.92396456097289,-0.31616127622855,0.923964560978614,-0.316161276227026,-0.0252638129307571,-0.109916541717703
33.5,-0.0262326163446375,-0.11152677984673,0.922140604747455,-0.320538215912381,0.92214060475316,-0.320538215910988,-0.0262827064294566,-0.111428921467198
34,-0.0272678331868769,-0.113031262758652,0.920294846998565,-0.324902518595988,0.920294847004245,-0.324902518594722,-0.0273174002142629,-0.112930825541973
34.5,-0.0283186864548621,-0.114524953096793,0.918427354365856,-0.329254040762561,0.918427354371505,-0.32925404076142,-0.0283676855089893,-0.114422017182078
35,-0.0293849520648832,-0.116007625734583,0.916538197863447,-0.333592638988327,0.916538197869059,-0.33359263898731,-0.0294333481678628,-0.115902271867296
35.5,-0.0304664019943133,-0.117479068806722,0.914627452704734,-0.337918170137582,0.914627452710304,-0.337918170136686,-0.0305141697606184,-0.117371377257681
36,-0.0315628054208276,-0.118939083457527,0.91269519813201,-0.342230491539857,0.912695198137532,-0.342230491539076,-0.0316099286045189,-0.118829133033398
36.5,-0.0326739297826145,-0.120387483491348,0.910741517251097,-0.34652946115077,0.910741517256567,-0.346529461150104,-0.0327204007348372,-0.120275350644831
37,-0.033799541753038,-0.121824094939408,0.908766496871105,-0.350814937698066,0.908766496876519,-0.350814937697509,-0.0338453608072439,-0.121709852984419
37.5,-0.0349394081254293,-0.123248755557253,0.906770227349368,-0.355086780814106,0.90677022735472,-0.355086780813657,-0.0349845829273214,-0.12313247399171
38,-0.0360932966057501,-0.124661314266631,0.904752802441562,-0.359344851156047,0.904752802446848,-0.359344851155701,-0.036137841404129,-0.124543058203022
38.5,-0.0372609765127014,-0.126061630554933,0.902714319156953,-0.363589010514787,0.902714319162169,-0.363589010514541,-0.0373049114263017,-0.125941460256743
39,-0.0384422193864469,-0.12744957384449,0.900654877618716,-0.367819121913673,0.90065487762386,-0.367819121913524,-0.0384855696605478,-0.127327544364749
39.5,-0.0396367995084982,-0.128825022842987,0.898574580929211,-0.372035049697875,0.898574580934277,-0.372035049697819,-0.0396795947736377,-0.128701183759752
40,-0.0408444943364135,-0.130187864885187,0.896473535040103,-0.376236659615241,0.896473535045088,-0.376236659615274,-0.0408867678800001,-0.130062260127593
40.5,-0.0420650848578752,-0.131537995275004,0.894351848627191,-0.38042381888939,0.894351848632093,-0.380423818889509,-0.042106872917935,-0.13141066303268
41,-0.043298355869363,-0.132875316635764,0.892209632969803,-0.384596396285706,0.892209632974617,-0.384596396285907,-0.0433396969581071,-0.132746289343816
41.5,-0.0445440961851251,-0.134199738275361,0.890047001834586,-0.388754262170858,0.89004700183931,-0.388754262171136,-0.0445850304485321,-0.134069042666828
42,-0.0458020987824382,-0.135511175571917,0.887864071363566,-0.392897288566397,0.887864071368199,-0.392897288566749,-0.045842667400642,-0.135378832789437
42.5,-0.0470721608892866,-0.136809549384444,0.885660959966286,-0.397025349196941,0.885660959970823,-0.397025349197364,-0.0471124055212522,-0.136675575143011
43,-0.048354084020592,-0.13809478549211,0.883437788215872,-0.401138319533414,0.883437788220311,-0.401138319533903,-0.0483940462953772,-0.137959190284969
43.5,-0.0496476739690057,-0.139366814064719,0.881194678748876,-0.40523607683174,0.881194678753216,-0.405236076832292,-0.0496873950248712,-0.139229603404842
44,-0.0509527407560896,-0.140625569166296,0.878931756168725,-0.409318500167391,0.878931756172964,-0.409318500168001,-0.0509922608277803,-0.1404867438563
44.5,-0.0522690985494274,-0.141870988292903,0.876649146952632,-0.413385470466122,0.876649146956767,-0.413385470466786,-0.052308456603176,-0.141730544716808
45,-0.0535965655508944,-0.143103011945207,0.874346979361802,-0.417436870531211,0.874346979365832,-0.417436870531928,-0.0536357989660282,-0.14296094237597
45.5,-0.0549349638609354,-0.144321583235801,0.872025383354816,-0.421472585067493,0.87202538335874,-0.421472585068257,-0.0549741081564391,-0.14417787615316
46,-0.0562841193233419,-0.145526647530807,0.869684490504015,-0.425492500702429,0.86968449050783,-0.425492500703236,-0.0563232079273002,-0.145381287944573
46.5,-0.0576438613545973,-0.146718152124955,0.867324433914778,-0.42949650600448,0.867324433918484,-0.429496506005326,-0.0576829254141076,-0.146571121899449
47,-0.0590140227614798,-0.147896045948997,0.864945348147549,-0.433484491498957,0.864945348151145,-0.43348449149984,-0.0590530909904134,-0.147747324124922
47.5,-0.0603944395502202,-0.149060279308137,0.862547369142491,-0.437456349681586,0.862547369145976,-0.437456349682501,-0.0604335381120347,-0.148909842418711
48,-0.0617849507301226,-0.150210803649913,0.860130634146645,-0.441411975029924,0.860130634150018,-0.441411975030867,-0.0618241031528688,-0.150058626028604
48.5,-0.0631853981142246,-0.151347571359932,0.857695281643482,-0.445351264012822,0.857695281646742,-0.44535126401379,-0.0632246252348482,-0.151193625437603
49,-0.0645956261191931,-0.152470535583701,0.855241451284741,-0.449274115098065,0.855241451287889,-0.449274115099054,-0.0646349460542713,-0.152314792173416
49.5,-0.0660154815663856,-0.153579650072812,0.852769283824447,-0.453180428758323,0.85276928382748,-0.45318042875933,-0.0660549097064944,-0.153422078640949
50,-0.0674448134856727,-0.1546748690537,0.850278921055002,-0.457070107475543,0.850278921057922,-0.457070107476565,-0.067484362510692,-0.154515437976354
50.5,-0.0688834729233868,-0.155756147117228,0.847770505745282,-0.460943055743891,0.847770505748088,-0.460943055744923,-0.0689231528361599,-0.155594823921223
51,-0.0703313127555024,-0.15682343912738,0.845244181580617,-0.464799180071342,0.845244181583309,-0.46479918007238,-0.0703711309314103,-0.15666019071546
51.5,-0.0717881875069393,-0.157876700147386,0.842700093104598,-0.468638388980013,0.842700093107176,-0.468638388981056,-0.0718281487571126,-0.157711493007415
52,-0.0732539531777078,-0.158915885381717,0.840138385662616,-0.47246059300534,0.840138385665081,-0.472460593006383,-0.0732940598237501,-0.158748685779887
52.5,-0.0747284670764166,-0.159940950132389,0.837559205347067,-0.476265704694143,0.837559205349418,-0.476265704695182,-0.0747687190346821,-0.159771724290653
53,-0.076211587661547,-0.160951849768188,0.834962698944144,-0.480053638601687,0.834962698946381,-0.480053638602721,-0.076251982535176,-0.160780564026217
53.5,-0.077703174390739,-0.161948539705414,0.832349013882158,-0.483824311287787,0.832349013884282,-0.483824311288812,-0.0777437075678266,-0.161775160667551
54,-0.0792030875782502,-0.162930975398931,0.82971829818132,-0.487577641312009,0.829718298183333,-0.487577641313023,-0.0792437523346733,-0.162755470066661
54.5,-0.0807111882606409,-0.163899112342321,0.827070700404922,-0.491313549228049,0.827070700406824,-0.491313549229047,-0.0807519758662223,-0.163721448232875
55,-0.0822273380706575,-0.164852906076066,0.82440636961187,-0.495031957577306,0.824406369613661,-0.495031957578286,-0.0822682378974924,-0.164673051327814
55.5,-0.0837513991192291,-0.165792312202768,0.8217254553105,-0.498732790881734,0.821725455312181,-0.498732790882693,-0.0837923987511381,-0.165610235668094
56,-0.0852832338854357,-0.166717286408474,0.81902810741365,-0.502415975635982,0.819028107415223,-0.502415975636918,-0.0853243192276237,-0.166532957734871
56.5,-0.0868227051142488,-0.167627784489295,0.816314476194919,-0.506081440298886,0.816314476196384,-0.506081440299795,-0.0868638605023901,-0.167441174189377
57,-0.0883696757218362,-0.168523762382524,0.813584712246078,-0.509729115284337,0.813584712247436,-0.509729115285217,-0.0884108840298863,-0.168334841893721
57.5,-0.0899240087081683,-0.169405176201599,0.810838966435595,-0.513358932951563,0.810838966436848,-0.513358932952412,-0.0899652514543338,-0.169213917936237
58,-0.091485567076666,-0.170271982274259,0.808077389868233,-0.516970827594861,0.808077389869381,-0.516970827595675,-0.0915268245270285,-0.170078359660745
58.5,-0.0930542137605967,-0.17112413718335,0.805300133845669,-0.520564735432796,0.805300133846714,-0.520564735433574,-0.0930954650299871,-0.170928124699151
59,-0.0946298115559332,-0.171961597809766,0.802507349828127,-0.524140594596915,0.802507349829071,-0.524140594597654,-0.0946710347057212,-0.171763171006858
59.5,-0.0962122230603757,-0.172784321377087,0.799699189396966,-0.527698345119978,0.799699189397811,-0.527698345120676,-0.0962533951929029,-0.172583456900498
60,-0.0978013106182309,-0.173592265497494,0.796875804218208,-0.531237928923746,0.796875804218954,-0.531237928924401,-0.0978424079676828,-0.173388941097581
60.5,-0.099396936270863,-0.174385388218626,0.794037346006965,-0.534759289806345,0.794037346007614,-0.534759289806953,-0.0994379342904185,-0.174179582757645
61,-0.100998961712411,-0.175163648071055,0.791183966492751,-0.53826237342922,0.791183966493304,-0.538262373429782,-0.101039835157569,-0.174955341524593
61.5,-0.10260724825049,-0.175927004116092,0.788315817385641,-0.541747127303712,0.7883158173861,-0.541747127304224,-0.102647971258497,-0.175716177569865
62,-0.104221656771605,-0.1766754159937,0.785433050343255,-0.545213500777256,0.785433050343622,-0.545213500777718,-0.104262202936949,-0.176462051636218
62.5,-0.10584204771099,-0.177408843970281,0.782535816938551,-0.548661445019245,0.782535816938829,-0.548661445019654,-0.105882390156965,-0.177192925081837
63,-0.107468281026622,-0.17812724898617,0.779624268628399,-0.552090913006546,0.779624268628588,-0.5520909130069,-0.107508392472987,-0.17790875992456
