"Freq [GHz]","re(St(P1,P1)) []","im(St(P1,P1)) []","re(St(P1,P2)) []","im(St(P1,P2)) []","re(St(P2,P1)) []","im(St(P2,P1)) []","re(St(P2,P2)) []","im(St(P2,P2)) []"
0,0.00449571596419673,0,0.995520509255584,0,0.995520511365612,0,0.00449571591917675,0
0.5,0.00514930585069351,-0.00187284346089456,0.994811281624216,-0.0067842550738817,0.99481128172733,-0.00678425502588809,0.00514901311616001,-0.00187198367007824
1,0.00571395818255738,-0.00455634510510095,0.994110531504887,-0.0127624540458022,0.994110531499992,-0.0127624541835445,0.00571313025011122,-0.00455433115652681
1.5,0.00604116171798808,-0.00742348803707671,0.993563251917042,-0.0185470902821407,0.993563251876608,-0.0185470903702658,0.00603959280773481,-0.00742021213904565
2,0.00618036928973709,-0.0103293034759027,0.993121819240169,-0.0242803609009528,0.993121819194236,-0.0242803609577216,0.00617800704620564,-0.0103245616531957
2.5,0.00621205962688265,-0.0132233378347841,0.992707815027764,-0.0300139031177267,0.992707814984451,-0.0300139031555382,0.00620886119154385,-0.0132170261909614
3,0.00617682980440648,-0.016101574545182,0.99228136968045,-0.035751215459765,0.99228136964231,-0.0357512154852095,0.00617273249263839,-0.0160936200336437
3.5,0.00609351638333422,-0.0189680970701538,0.991824573135984,-0.0414870965930518,0.991824573104223,-0.0414870966097887,0.00608844728853697,-0.0189584319519405
4,0.00597098614524594,-0.021827057060138,0.991329742477595,-0.0472162760289709,0.991329742453099,-0.0472162760393697,0.00596487096815057,-0.0218156126204754
4.5,0.00581352198854823,-0.024681402467932,0.990793896265834,-0.0529348820307298,0.990793896249319,-0.0529348820365652,0.00580628967030172,-0.0246681087755967
5,0.00562324246416246,-0.0275329780027445,0.990216214243453,-0.0586403773292492,0.990216214235444,-0.0586403773320523,0.00561482698275295,-0.0275177651782101
5.5,0.00540122695024525,-0.0303828276201337,0.989596831363401,-0.0643312325411074,0.989596831364171,-0.0643312325422372,0.00539156753939363,-0.0303656271638282
6,0.00514805684029485,-0.033231459169853,0.988936249433442,-0.0700066159945774,0.988936249442972,-0.070006615995295,0.00513709741778134,-0.0332122049328429
6.5,0.00486408054623988,-0.0360790382590448,0.988235050375086,-0.0756661498627942,0.988235050393051,-0.0756661498641922,0.00485176881070126,-0.0360576669921375
7,0.00454954275032016,-0.0389255215249875,0.987493763479877,-0.0813097305420705,0.987493763505644,-0.0813097305450654,0.00453582920577,-0.038901973062675
7.5,0.00420464543503174,-0.0417707450924922,0.986712813096581,-0.0869374012672868,0.98671281312923,-0.0869374012725626,0.00418948248133022,-0.0417449622613297
8,0.00382957454520927,-0.0446144816069651,0.985892508002486,-0.0925492648330692,0.98589250804085,-0.0925492648410344,0.00381291569934383,-0.0445864099467315
8.5,0.00342450970128416,-0.0474564758513392,0.985033051291778,-0.098145426189987,0.985033051334486,-0.098145426200773,0.00340630897078809,-0.0474260632235026
9,0.00298962600320696,-0.0502964660802618,0.984134559065381,-0.103725956757668,0.984134559110897,-0.103725956771099,0.00296983740849055,-0.0502636622207167
9.5,0.00252509256762146,-0.0531341960285339,0.983197081526649,-0.109290874133565,0.983197081573313,-0.109290874149135,0.00250366979752625,-0.053098952085481
10,0.00203107010311099,-0.0559694209752921,0.982220623156465,-0.114840132409855,0.982220623202539,-0.114840132426763,0.00200796628298083,-0.0559316890593671
10.5,0.00143409834311714,-0.0586582180687589,0.981188370408758,-0.120392547806728,0.981188370454165,-0.120392547824776,0.00144374573778783,-0.058657574915836
11,0.000815141937175135,-0.0613286004163509,0.980117917875273,-0.125924893706307,0.980117917919928,-0.125924893725456,0.000856953355096834,-0.0613737969277341
11.5,0.000176203278656084,-0.0639791516734256,0.979009997326235,-0.131437327591543,0.979009997370062,-0.13143732761174,0.00024850542991528,-0.0640801971960796
12,-0.000480243019135851,-0.066608446559151,0.977865265547458,-0.136930022314706,0.977865265590389,-0.136930022335897,-0.000380595057560607,-0.066776720702995
12.5,-0.00115113239285247,-0.0692151117158248,0.976684309143228,-0.142403157410326,0.976684309185197,-0.142403157432446,-0.00102925807464649,-0.0694634405468193
13,-0.00183266733341603,-0.0717979267459317,0.975467649886912,-0.14785691175413,0.975467649927863,-0.147856911777115,-0.00169630995714476,-0.0721405879722221
13.5,-0.00252014917864629,-0.0743559863003087,0.974215750388618,-0.153291457494412,0.974215750428505,-0.153291457518193,-0.00238050237043264,-0.0748085875252409
14,-0.00320779102029473,-0.076888953219802,0.97292901988803,-0.158706955158487,0.972929019926811,-0.158706955182991,-0.0030805290825241,-0.0774680973391364
14.5,-0.00388853093680602,-0.0793974441252638,0.971607820017492,-0.16410354982257,0.971607820055135,-0.164103549847725,-0.0037950533995999,-0.0801200539957945
15,-0.00455388912800353,-0.0818836007108468,0.9702524704144,-0.169481368226706,0.97025247045088,-0.169481368252439,-0.0045227496916555,-0.0827657205137351
15.5,-0.00519395532927619,-0.0843519065540077,0.96886325409221,-0.174840516715332,0.968863254127506,-0.174840516741568,-0.00526236289425552,-0.0854067346833167
16,-0.00579766182022984,-0.0868102964859538,0.967440422505551,-0.180181079887491,0.967440422539651,-0.18018107991416,-0.00601279001121902,-0.0880451531105138
16.5,-0.00635359478281999,-0.0892715448146681,0.965984200266947,-0.18550311984736,0.965984200299842,-0.185503119874386,-0.00677318715351793,-0.0906834839073953
17,-0.00685170301534732,-0.0917547615237133,0.964494789490774,-0.190806675954168,0.964494789522466,-0.190806675981486,-0.00754310410446479,-0.0933246980774589
17.5,-0.00728630239986122,-0.0942865131580426,0.962972373754622,-0.196091764980291,0.962972373785111,-0.196091765007834,-0.00832264528564286,-0.0959722066261355
18,-0.00766057145948074,-0.0969006042313572,0.96141712167944,-0.201358381596513,0.961417121708738,-0.201358381624215,-0.00911265081788476,-0.0986297879927829
18.5,-0.00799201849499365,-0.0996350814975395,0.959829190138472,-0.20660649911339,0.959829190166588,-0.206606499141191,-0.00991488388452239,-0.10130144973627
19,-0.00831702225563152,-0.102525115264855,0.958208727111012,-0.211836070417553,0.958208727137962,-0.211836070445391,-0.0107322011920158,-0.103991211151324
19.5,-0.00869102266834459,-0.105591937319508,0.956555874201373,-0.217047029050629,0.956555874227176,-0.217047029078455,-0.0115686734523887,-0.106702801441705
20,-0.00918093738653142,-0.108831234731856,0.954870768845991,-0.222239290386994,0.954870768870671,-0.222239290414753,-0.0124296153855608,-0.109439282467275
20.5,-0.00984977154835348,-0.112207399261692,0.953153546233059,-0.227412752873827,0.953153546256637,-0.227412752901468,-0.013321483968511,-0.112202625468424
21,-0.0107392185559551,-0.115658999085946,0.951404340959493,-0.23256729930366,0.951404340981997,-0.23256729933114,-0.0142516140164012,-0.114993294214593
21.5,-0.0118591795555482,-0.119114447841462,0.949623288449774,-0.237702798095353,0.949623288471232,-0.237702798122627,-0.0152277842679525,-0.117809906005046
22,-0.0131893229677876,-0.122510038932181,0.947810526160392,-0.242819104564323,0.947810526180832,-0.242819104591354,-0.0162576430207753,-0.120649048005483
22.5,-0.0146900754827894,-0.125801832890335,0.945966194592444,-0.247916062167205,0.945966194611899,-0.247916062193954,-0.0173480618731154,-0.123505311975142
23,-0.016315944732955,-0.12896827024215,0.944090438133563,-0.252993503709601,0.944090438152061,-0.252993503736037,-0.0185045161726118,-0.126371573935658
23.5,-0.018025455718812,-0.132005995246158,0.942183405748751,-0.258051252508604,0.942183405766327,-0.258051252534696,-0.019730598221524,-0.129239494327127
24,-0.0197859601291652,-0.134923222682755,0.940245251538196,-0.263089123504209,0.94024525155488,-0.263089123529928,-0.0210277477530418,-0.132100164209785
24.5,-0.0215744226073771,-0.137733756968651,0.938276135178405,-0.268106924315794,0.93827613519423,-0.268106924341117,-0.0223952385519942,-0.134944791320044
25,-0.0233760656746096,-0.140452861267548,0.936276222261552,-0.273104456241448,0.936276222276551,-0.273104456266351,-0.0238304052458627,-0.137765316987998
25.5,-0.025182333985203,-0.14309492682553,0.93424568454637,-0.278081515199182,0.934245684560577,-0.278081515223646,-0.025329048303243,-0.140554880185976
26,-0.0269889662151158,-0.145672432123915,0.932184700132522,-0.283037892610155,0.932184700145968,-0.283037892634161,-0.0268859310646427,-0.143308087039551
26.5,-0.0287944675030778,-0.148195671041119,0.930093453569063,-0.287973376224786,0.93009345358178,-0.287973376248317,-0.0284952832018155,-0.14602108765296
27,-0.0305990128809777,-0.150672871906936,0.927972135906433,-0.292887750893204,0.927972135918454,-0.29288775091625,-0.0301512443257296,-0.148691494730118
27.5,-0.0324037090929705,-0.153110476975974,0.925820944700263,-0.29778079928199,0.925820944711619,-0.297780799304538,-0.0318482092091333,-0.151318194770648
28,-0.0342101210355212,-0.155513458827007,0.92364008397431,-0.302652302539372,0.923640083985032,-0.302652302561411,-0.0335810627282829,-0.153901103815873
28.5,-0.0360199806369511,-0.157885615837375,0.921429764148934,-0.307502040911341,0.921429764159051,-0.307502040932863,-0.0353453123796927,-0.156440910874041
29,-0.0378350159800752,-0.160229824935061,0.919190201940691,-0.312329794311186,0.919190201950234,-0.312329794332186,-0.037137137411979,-0.158938839017095
29.5,-0.0396568570719598,-0.162548247759055,0.916921620237941,-0.317135342845077,0.916921620246938,-0.31713534286555,-0.0389533773950801,-0.161396441129979
30,-0.0414869890847904,-0.164842494215407,0.914624247956676,-0.32191846729625,0.914624247965156,-0.32191846731619,-0.0407914818194441,-0.163815436853642
30.5,-0.0433267341363743,-0.167113750104309,0.912298319880261,-0.326678949570372,0.91229831988825,-0.326678949589778,-0.042649438478826,-0.166197590156864
31,-0.0451772496051489,-0.169362875749409,0.909944076486223,-0.331416573104577,0.909944076493748,-0.331416573123448,-0.0445256937550671,-0.168544622914846
31.5,-0.0470395355147334,-0.17159048181425,0.907561763762836,-0.336131123242568,0.907561763769923,-0.336131123260904,-0.0464190735890384,-0.170858158124343
32,-0.0489144464373487,-0.173796987442414,0.905151633017834,-0.340822387578083,0.905151633024508,-0.340822387595886,-0.0483287103967573,-0.173139686145761
32.5,-0.0508027052070562,-0.175982664822248,0.902713940681239,-0.345490156268914,0.902713940687523,-0.345490156286185,-0.0502539785929714,-0.175390547967162
33,-0.0527049168820823,-0.178147673375437,0.900248948104034,-0.350134222323554,0.900248948109952,-0.350134222340297,-0.0521944396270798,-0.177611930462029
33.5,-0.0546215821020363,-0.180292086031035,0.897756921354117,-0.354754381862421,0.897756921359691,-0.354754381878639,-0.0541497963459291,-0.179804869667468
34,-0.056553109413742,-0.182415909463931,0.895238131010767,-0.359350434355477,0.895238131016018,-0.359350434371175,-0.0561198558928634,-0.181970259083118
34.5,-0.0584998263931554,-0.184519099725889,0.892692851958662,-0.363922182837972,0.892692851963612,-0.363922182853155,-0.0581045000750078,-0.184108860813691
35,-0.0604619895367416,-0.186601574352586,0.890121363182315,-0.368469434105887,0.890121363186982,-0.368469434120562,-0.060103662059552,-0.186221318033348
35.5,-0.0624397929754499,-0.188663221768691,0.887523947561653,-0.372991998892589,0.887523947566057,-0.372991998906762,-0.0621173083080114,-0.188308167750145
36,-0.0644333761042496,-0.190703908615248,0.884900891669349,-0.377489692028058,0.884900891673507,-0.377489692041735,-0.0641454247665784,-0.190369853216962
36.5,-0.0664428302363256,-0.192723485474425,0.882252485570395,-0.381962332581959,0.882252485574326,-0.381962332595148,-0.0661880064640834,-0.192406735598255
37,-0.0684682043935683,-0.194721791354139,0.879579022624325,-0.386409743991778,0.879579022628044,-0.386409744004487,-0.0682450498048486,-0.194419104684346
37.5,-0.070509510340096,-0.196698657209813,0.876880799290413,-0.390831754177083,0.876880799293937,-0.390831754189321,-0.0703165469701048,-0.196407188567257
38,-0.0725667269569625,-0.198653908716148,0.874158114936115,-0.395228195640946,0.874158114939458,-0.395228195652721,-0.0724024819532683,-0.198371162271349
38.5,-0.0746398040460674,-0.200587368452829,0.871411271648953,-0.399598905559436,0.87141127165213,-0.399598905570758,-0.0745028278494617,-0.20031115538066
39,-0.0767286656410295,-0.202498857630808,0.868640574051995,-0.403943725860098,0.868640574055019,-0.403943725870974,-0.0766175450988608,-0.202227258732573
39.5,-0.0788332128928544,-0.204388197457379,0.865846329123065,-0.408262503290141,0.865846329125949,-0.408262503300583,-0.0787465804480255,-0.204119530260981
40,-0.0809533265892444,-0.206255210216417,0.863028846017748,-0.412555089475146,0.863028846020503,-0.412555089485164,-0.0808898664455333,-0.20598800007659
40.5,-0.0830888693582843,-0.208099720123423,0.860188435896251,-0.416821340968915,0.860188435898889,-0.416821340978515,-0.0830473213297726,-0.207832674870684
41,-0.0852396876001053,-0.209921554002042,0.857325411754158,-0.421061119295113,0.85732541175669,-0.421061119304308,-0.0852188491995642,-0.209653541723942
41.5,-0.0874056131839374,-0.211720541818729,0.854440088257083,-0.425274290981282,0.854440088259519,-0.425274290990083,-0.0874043403841379,-0.211450571395385
42,-0.0895864649426177,-0.213496517104451,0.851532781579214,-0.429460727585753,0.851532781581564,-0.429460727594168,-0.08960367194909,-0.213223721159272
42.5,-0.0917820499919833,-0.215249317286239,0.848603809245746,-0.433620305717931,0.848603809248018,-0.43362030572597,-0.0918167082905983,-0.214972937250258
43,-0.0939921648986863,-0.216978783946673,0.845653489979146,-0.437752907052446,0.845653489981348,-0.43775290706012,-0.0940433017822772,-0.216698156970058
43.5,-0.096216596716557,-0.21868476302565,0.842682143549248,-0.441858418337553,0.842682143551388,-0.441858418344873,-0.0962832934483504,-0.218399310502107
44,-0.0984551239088109,-0.22036710497587,0.839690090627101,-0.445936731398191,0.839690090629186,-0.445936731405167,-0.0985365136439724,-0.220076322474725
44.5,-0.100707517170923,-0.222025664881143,0.836677652642543,-0.449987743134039,0.83667765264458,-0.44998774314068,-0.100802782728946,-0.221729113307804
45,-0.102973540166919,-0.223660302544827,0.833645151645438,-0.454011355512929,0.833645151647433,-0.454011355519247,-0.103081911725234,-0.22335760037325
45.5,-0.105252950190058,-0.225270882554208,0.830592910170521,-0.458007475559901,0.830592910172478,-0.458007475565905,-0.105373702951767,-0.224961698995256
46,-0.107545498757367,-0.226857274325529,0.827521251105787,-0.461976015342196,0.827521251107713,-0.461976015347897,-0.107677950632403,-0.226541323312734
46.5,-0.109850932146173,-0.228419352133394,0.82443049756438,-0.46591689195045,0.824430497566279,-0.465916891955857,-0.109994441474583,-0.22809638702315
47,-0.112168991879718,-0.229956995127619,0.821320972759902,-0.469830027476333,0.821320972761778,-0.469830027481457,-0.112322955217565,-0.229626804024219
47.5,-0.114499415167942,-0.23147008733991,0.818192999885094,-0.473715348986876,0.81819299988695,-0.473715348991726,-0.11466326514999,-0.231132488967582
48,-0.116841935308753,-0.232958517682376,0.815046901993817,-0.477572788495678,0.815046901995657,-0.477572788500264,-0.117015138597209,-0.232613357736595
48.5,-0.119196282054373,-0.234422179939415,0.811883001886291,-0.481402282931214,0.811883001888118,-0.481402282935546,-0.119378337379263,-0.234069327858563
49,-0.121562181946798,-0.235860972754291,0.808701621997507,-0.485203774102418,0.808701621999322,-0.485203774106504,-0.121752618240706,-0.235500318860374
49.5,-0.123939358625814,-0.237274799611378,0.805503084288777,-0.488977208661717,0.805503084290584,-0.488977208665567,-0.124137733253637,-0.236906252575119
50,-0.126327533112688,-0.238663568814939,0.802287710142346,-0.492722538065691,0.802287710144145,-0.492722538069314,-0.126533430195444,-0.23828705340628
50.5,-0.128726424072135,-0.240027193465084,0.799055820259019,-0.496439718533493,0.799055820260813,-0.496439718536898,-0.128939452902769,-0.23964264855511
51,-0.131135748054943,-0.241365591431436,0.795807734558746,-0.500128711003191,0.795807734560535,-0.500128711006387,-0.131355541603256,-0.240972968216031
51.5,-0.133555219723286,-0.242678685324951,0.792543772084111,-0.503789481086157,0.792543772085896,-0.503789481089151,-0.133781433226547,-0.242277945744219
52,-0.135984552060536,-0.243966402468222,0.78926425090666,-0.507421999019637,0.789264250908441,-0.507421999022439,-0.136216861696007,-0.243557517798983
52.5,-0.138423456567142,-0.245228674864535,0.785969488036041,-0.511026239617618,0.785969488037819,-0.511026239620237,-0.138661558202544,-0.244811624465975
53,-0.140871643444002,-0.246465439165914,0.782659799331878,-0.514602182220113,0.782659799333653,-0.514602182222555,-0.141115251461838,-0.246040209360959
53.5,-0.143328821764527,-0.247676636640294,0.779335499418352,-0.518149810640956,0.779335499420123,-0.51814981064323,-0.143577667956212,-0.247243219717393
54,-0.145794699636515,-0.248862213138003,0.775996901601423,-0.521669113114233,0.77599690160319,-0.521669113116344,-0.146048532162288,-0.248420606459835
54.5,-0.148268984354782,-0.250022119057595,0.772644317788658,-0.52516008223942,0.772644317790419,-0.525160082241379,-0.148527566765509,-0.249572324264903
55,-0.150751382545416,-0.251156309311191,0.769278058411609,-0.52862271492535,0.769278058413364,-0.528622714927162,-0.151014492862511,-0.250698331611264
55.5,-0.153241600302399,-0.252264743289314,0.765898432350714,-0.532057012333054,0.765898432352461,-0.532057012334726,-0.153509030152254,-0.25179859081996
56,-0.155739343317281,-0.253347384825322,0.762505746862651,-0.535462979817611,0.762505746864389,-0.535462979819151,-0.156010897116787,-0.252873068086199
56.5,-0.15824431700251,-0.254404202159444,0.759100307510124,-0.538840626869042,0.759100307511853,-0.538840626870455,-0.158519811192381,-0.253921733503571
57,-0.160756226608939,-0.255435167902455,0.755682418094024,-0.542189967052349,0.755682418095741,-0.542189967053642,-0.161035488931791,-0.254944561081571
57.5,-0.163274777337987,-0.256440258998997,0.752252380587941,-0.545511017946758,0.752252380589643,-0.545511017947937,-0.16355764615827,-0.255941528757144
58,-0.165799674448902,-0.257419456690578,0.748810495074957,-0.548803801084251,0.748810495076643,-0.548803801085321,-0.166085998111951,-0.256912618400916
58.5,-0.168330623361466,-0.258372746478224,0.745357059686723,-0.552068341887429,0.745357059688391,-0.552068341888396,-0.168620259589152,-0.257857815818673
59,-0.170867329754522,-0.259300118084825,0.741892370544737,-0.555304669606798,0.741892370546384,-0.555304669607666,-0.171160145075093,-0.258777110748593
59.5,-0.1734094996606,-0.26020156541714,0.738416721703815,-0.558512817257509,0.738416721705439,-0.558512817258285,-0.173705368870508,-0.25967049685465
60,-0.175956839556929,-0.261077086527491,0.734930405097702,-0.56169282155564,0.734930405099301,-0.561692821556329,-0.176255645212558,-0.260537971716585
60.5,-0.178509056453077,-0.261926683575122,0.731433710486793,-0.564844722854048,0.731433710488364,-0.564844722854654,-0.178810688390434,-0.261379536816778
61,-0.181065857975433,-0.262750362787231,0.727926925407923,-0.567968565077865,0.727926925409464,-0.567968565078393,-0.181370212856021,-0.262195197524318
61.5,-0.183626952448739,-0.263548134419674,0.724410335126193,-0.571064395659679,0.724410335127701,-0.571064395660133,-0.183933933329911,-0.262984963076521
62,-0.186192048974839,-0.264320012717325,0.720884222588799,-0.574132265474455,0.72088422259027,-0.574132265474838,-0.1865015649031,-0.263748846558145
62.5,-0.188760857508824,-0.265066015874111,0.71734886838081,-0.577172228774236,0.717348868382244,-0.577172228774553,-0.189072823134609,-0.264486864878489
63,-0.191333088932688,-0.265786165992694,0.713804550682898,-0.580184343122681,0.713804550684289,-0.580184343122934,-0.191647424145295,-0.265199038746576
