"Freq [GHz]","re(St(P1,P1)) []","im(St(P1,P1)) []","re(St(P1,P2)) []","im(St(P1,P2)) []","re(St(P2,P1)) []","im(St(P2,P1)) []","re(St(P2,P2)) []","im(St(P2,P2)) []"
0,0.00480246482226221,0,0.995212594978511,0,0.995212593188626,0,0.00480246239351345,0
0.5,0.00538043528473509,-0.000635112975199803,0.994593302627273,-0.00595792527546735,0.994593302995739,-0.00595792430415543,0.00538031936869032,-0.000634872717050428
1,0.0058852761471897,-0.00198521398004914,0.993995930207049,-0.0112031914194297,0.99399593090569,-0.0112031912183213,0.00588493291744285,-0.001984643566594
1.5,0.0062154559970331,-0.00344516108911819,0.99349955793085,-0.0164231958672758,0.993499558679346,-0.0164231958541698,0.00621466429688056,-0.00344444578280445
2,0.00639897782257748,-0.0049692746257719,0.993062834141373,-0.0215079380620651,0.99306283479938,-0.021507938182701,0.00639764707560531,-0.00496813768659621
2.5,0.00649112254877693,-0.0064952141110588,0.992680185411347,-0.026538316950294,0.992680185937353,-0.0265383171243272,0.00648928045722386,-0.00649351469667536
3,0.00652853281622789,-0.00800940611073031,0.992326046369067,-0.0315510988455188,0.992326046768191,-0.0315510990188717,0.00652620365087841,-0.00800708393951055
3.5,0.00653115075423383,-0.00951159008791436,0.991978582104922,-0.0365596100751233,0.991978582395748,-0.0365596102194452,0.0065283366992972,-0.00950861735812047
4,0.00650972486918189,-0.0110043924225582,0.991622725550076,-0.0415671956106181,0.991622725752087,-0.0415671957140482,0.00650640993299945,-0.0110007519954305
4.5,0.00647023741202446,-0.0124906192896574,0.99124858699402,-0.046573355052109,0.991248587124174,-0.0465733551121943,0.00646639321239384,-0.0124862958456582
5,0.00641614980828686,-0.0139726637170305,0.990849662943981,-0.0515762632992463,0.990849663016415,-0.0515762633186885,0.00641173982416143,-0.0139676402679196
5.5,0.00634953557129991,-0.0154524632089537,0.990421579591148,-0.0565737620108902,0.99042157961774,-0.0565737619951765,0.00634451790742574,-0.0154467197563992
6,0.00627166967205905,-0.0169315803424865,0.98996130198009,-0.0615637318639077,0.989961301971135,-0.0615637318199855,0.00626599881200507,-0.0169250933950131
6.5,0.00618334745743088,-0.0184112929670999,0.989466649814243,-0.0665442178388513,0.989466649779006,-0.0665442177743554,0.00617697538071349,-0.0184040353952035
7,0.00608506419328592,-0.0198926681904688,0.98893600091377,-0.0715134579059225,0.988936000860916,-0.0715134578287486,0.00607794109873128,-0.0198846092066436
7.5,0.00597711994788663,-0.0213766180331394,0.98836810761627,-0.0764698758562101,0.988368107554149,-0.0764698757742206,0.00596919473149748,-0.0213677232087868
8,0.00585968294305506,-0.0228639401249175,0.987761981451438,-0.0814120626659403,0.987761981388295,-0.0814120625867956,0.00585090352062223,-0.0228541714083326
8.5,0.00573282897200222,-0.0243553472790783,0.98711681961229,-0.0863387559088693,0.987116819556401,-0.0863387558399218,0.00572314250190309,-0.0243446630007336
9,0.00559656657104202,-0.0258514890621608,0.98643195741004,-0.0912488206373379,0.986431957369776,-0.0912488205855153,0.00558591961186039,-0.0258398439228813
9.5,0.00545085345634044,-0.0273529676576079,0.985706837131546,-0.0961412326928874,0.985706837115418,-0.0961412326646709,0.00543919208140364,-0.0273403126990521
10,0.0052956074575452,-0.0288603496582285,0.984940987394222,-0.101015064463916,0.984940987410888,-0.101015064465266,0.00528287734072763,-0.0288466322164496
10.5,0.00512347798878821,-0.0303370370939025,0.984186661102946,-0.105921026215995,0.984186661119746,-0.105921026217931,0.00511011747172041,-0.0303235240396642
11,0.00493960817237737,-0.0318173255214314,0.983405728215687,-0.110811902363646,0.983405728232566,-0.110811902366178,0.00492545180890358,-0.0318040309820598
11.5,0.00474364438933472,-0.0333011159927343,0.982598869994766,-0.115687929241728,0.982598870011667,-0.115687929244867,0.00472852404290924,-0.0332880371435316
12,0.00453523999889482,-0.0347882846126186,0.981766703364996,-0.120549370593205,0.981766703381866,-0.120549370596943,0.00451898694197594,-0.0347754016202408
12.5,0.00431405709784582,-0.036278683607482,0.980909782748045,-0.125396509604253,0.980909782764833,-0.125396509608589,0.00429650405839921,-0.036265959844477
13,0.0040797681368403,-0.0377721425147524,0.980028602626361,-0.130229641780685,0.980028602643019,-0.130229641785602,0.00406075125754851,-0.037759525027977
13.5,0.00383205738696435,-0.0392684694749068,0.979123600662915,-0.135049068677176,0.979123600679397,-0.135049068682663,0.0038114180666744,-0.0392558896866362
14,0.00357062225204302,-0.0407674526082467,0.978195161220281,-0.139855092465798,0.978195161236542,-0.139855092471829,0.00354820884337692,-0.0407548272253271
14.5,0.00329517442421806,-0.0422688614586217,0.97724361914153,-0.144648011310467,0.977243619157533,-0.144648011317026,0.00327084376585726,-0.0422560935627292
15,0.00300544088236177,-0.0437724484868971,0.976269263675044,-0.149428115499642,0.976269263690751,-0.149428115506695,0.00297905964923373,-0.0437594287771939
15.5,0.00270116473461099,-0.0452779505976375,0.975272342444399,-0.15419568427983,0.975272342459781,-0.154195684287355,0.00267261059392149,-0.0452645587563039
16,0.00238210590806531,-0.0467850906832945,0.974253065382735,-0.158950983326514,0.974253065397761,-0.15895098333448,0.00235126847363035,-0.0467711968341833
16.5,0.00204804169004336,-0.0482935791712524,0.973211608567573,-0.163694262786536,0.97321160858222,-0.163694262794912,0.00201482327175015,-0.0482790454024444
17,0.00169876712667863,-0.049803115560159,0.972148117907049,-0.168425755825718,0.972148117921295,-0.168425755834472,0.00166308327585904,-0.049787797482209
17.5,0.00133409528563586,-0.0513133899332057,0.971062712641508,-0.173145677617448,0.971062712655336,-0.173145677626545,0.00129587514079696,-0.0512971382464511
18,0.00095385739071549,-0.0528240844372161,0.969955488635656,-0.177854224710976,0.96995548864905,-0.177854224720387,0.000913043831250876,-0.0528067464834328
18.5,0.000557902836747254,-0.0543348747178012,0.96882652144579,-0.182551574722535,0.968826521458738,-0.182551574732228,0.000514452455016134,-0.0543162959937535
19,0.000146099093790653,-0.0558454313020138,0.9676758691544,-0.187237886296953,0.967675869166895,-0.187237886306894,9.99819982235028E-005,-0.0558254569149659
19.5,-0.000281668490017817,-0.0573554209212972,0.966503574970592,-0.19191329929261,0.966503574982626,-0.191913299302766,-0.000330469026316726,-0.0573338969691695
20,-0.000725496977393866,-0.0588645077687446,0.965309669599661,-0.196577935147584,0.965309669611231,-0.196577935157928,-0.000776985006706254,-0.0588412826303046
20.5,-0.00118546621295224,-0.0603723546858999,0.964094173388852,-0.201231897389916,0.964094173399958,-0.201231897400414,-0.00123963372491598,-0.0603472802091183
21,-0.00166163926676965,-0.0618786242754346,0.962857098259049,-0.205875272259576,0.96285709826969,-0.205875272270202,-0.00171846690498115,-0.0618515568547986
21.5,-0.00215406294103304,-0.063382979937177,0.961598449434004,-0.210508129414307,0.961598449444183,-0.210508129425032,-0.00221352080685708,-0.0633537814733045
22,-0.00266276833058982,-0.0648850868258712,0.960318226979968,-0.215130522695451,0.96031822698969,-0.215130522706249,-0.00272481685692055,-0.0648536255632246
22.5,-0.00318777142857044,-0.0663846127300394,0.959016427169196,-0.219742490933726,0.959016427178466,-0.219742490944571,-0.0032523623067679,-0.0663507639707444
23,-0.00372907376866033,-0.0678812288720723,0.957693043681079,-0.224344058778111,0.957693043689904,-0.224344058788979,-0.00379615091257909,-0.0678448755659273
23.5,-0.00428666309607428,-0.0693746106304265,0.956348068654499,-0.228935237534019,0.956348068662888,-0.228935237544889,-0.00435616362802488,-0.0693356438430035
24,-0.00486051405977661,-0.0708644381854793,0.9549814936047,-0.233516025999481,0.954981493612663,-0.23351602601033,-0.00493236930432145,-0.0708227574478046
24.5,-0.00545058891905859,-0.072350397091085,0.953593310217391,-0.238086411290265,0.953593310224938,-0.238086411301073,-0.00552472539172877,-0.0723059106358042
25,-0.00605683825810016,-0.0738321787743823,0.952183511032155,-0.24264636964683,0.952183511039297,-0.242646369657578,-0.00613317863739749,-0.0737848036644193
25.5,-0.00667920170275715,-0.0753094809668355,0.95075209002647,-0.247195867217648,0.950752090033218,-0.247195867228319,-0.0067576657751231,-0.0752591431234935
26,-0.00731760863432623,-0.0767820080696655,0.949299043110915,-0.251734860814712,0.949299043117284,-0.25173486082529,-0.00739811420308922,-0.0767286422078528
26.5,-0.00797197889565648,-0.078249471457283,0.947824368545236,-0.256263298638409,0.947824368551237,-0.256263298648877,-0.00805444264631311,-0.0781930209360318
27,-0.00864222348546906,-0.0797115897222747,0.946328067284243,-0.260781120969662,0.946328067289889,-0.260781120980008,-0.00872656180093928,-0.0796520063190895
27.5,-0.00932824523731074,-0.0811680888658337,0.944810143261659,-0.265288260828267,0.944810143266964,-0.265288260838477,-0.00941437495807862,-0.0811053324835633
28,-0.0100299394800454,-0.0826187024374172,0.943270603619321,-0.2697846445968,0.9432706036243,-0.269784644606864,-0.0101177786052634,-0.0825527407523659
28.5,-0.0107471946772827,-0.0840631716275588,0.941709458888423,-0.274270192610164,0.941709458893088,-0.274270192620071,-0.0108366630040526,-0.08399397968746
29,-0.0114798930435717,-0.0855012453176416,0.940126723128805,-0.278744819711098,0.940126723133171,-0.27874481972084,-0.0115709127426242,-0.0854288050979028
29.5,-0.0122279111356261,-0.0869326800904742,0.938522414031703,-0.283208435772433,0.938522414035783,-0.283208435781998,-0.0123204072625742,-0.0868569800167776
30,-0.0129911204172063,-0.0883572402053252,0.936896552990764,-0.287660946187011,0.936896552994573,-0.287660946196394,-0.0130850213593885,-0.088278274650321
30.5,-0.0137693877966686,-0.0897746975410523,0.93524916514564,-0.292102252326451,0.935249165149192,-0.292102252335646,-0.0138646256563359,-0.0896924663023833
31,-0.0145625761364782,-0.0911848315107395,0.933580279401972,-0.296532251970005,0.933580279405281,-0.296532251979006,-0.0146590870517576,-0.0910993392771942
31.5,-0.0153705447342923,-0.0925874289511675,0.931889928431149,-0.300950839704879,0.931889928434227,-0.300950839713681,-0.0154682691399054,-0.0924986847632105
32,-0.016193149775491,-0.0939822839902567,0.930178148652826,-0.305357907299435,0.930178148655687,-0.305357907308033,-0.0162920326056793,-0.0938903007006426
32.5,-0.017030244757216,-0.0953691978954301,0.928444980202848,-0.309753344050685,0.928444980205506,-0.309753344059075,-0.0171302355937319,-0.0952739916350471
33,-0.0178816808842292,-0.0967479789056922,0.926690466888879,-0.314137037107523,0.926690466891348,-0.314137037115703,-0.0179827340525466,-0.0966495685592319
33.5,-0.0187473074370472,-0.0981184420500054,0.924914656135782,-0.318508871771101,0.924914656138072,-0.318508871779071,-0.0188493820541893,-0.0980168487455169
34,-0.0196269721129629,-0.0994804089544112,0.9231175989225,-0.322868731773728,0.923117598924625,-0.322868731781485,-0.019730032090514,-0.0993756555702139
34.5,-0.0205205213406961,-0.100833707640097,0.921299349712021,-0.327216499537629,0.921299349713993,-0.327216499545173,-0.0206245353466776,-0.100725818332082
35,-0.0214278005695,-0.102178172314464,0.919459966375749,-0.331552056414847,0.919459966377578,-0.331552056422177,-0.0215327419528422,-0.102067172066251
35.5,-0.0223486545336716,-0.103513643157092,0.917599510113445,-0.335875282909521,0.917599510115145,-0.335875282916637,-0.0224545012150125,-0.103399557355083
36,-0.0232829274934424,-0.104839966102299,0.915718045369772,-0.340186058883737,0.915718045371353,-0.34018605889064,-0.0233896618259652,-0.104722820137221
36.5,-0.0242304634532811,-0.106156992619808,0.913815639748294,-0.344484263748007,0.913815639749767,-0.344484263754699,-0.0243380720572137,-0.106036811515935
37,-0.0251911063587157,-0.107464579494968,0.911892363923683,-0.348769776637498,0.911892363925058,-0.34876977664398,-0.0252995799330172,-0.107341387567825
37.5,-0.0261647002727421,-0.1087625886097,0.90994829155278,-0.353042476574946,0.909948291554066,-0.353042476581221,-0.0262740333873732,-0.108636409152741
38,-0.0271510895329411,-0.11005088672532,0.907983499185044,-0.357302242621224,0.907983499186253,-0.357302242627292,-0.0272612804049703,-0.109921741725727
38.5,-0.0281501188904313,-0.111329345268171,0.905998066172867,-0.361548954014414,0.905998066174007,-0.361548954020281,-0.02826116914704,-0.111197255151695
39,-0.029161633631726,-0.11259784011893,0.903992074582125,-0.365782490298216,0.903992074583205,-0.365782490303883,-0.029273548063033,-0.112462823523389
39.5,-0.0301854796846137,-0.113856251406293,0.901965609103315,-0.370002731440439,0.901965609104344,-0.370002731445909,-0.0302982659890135,-0.113718324983194
40,-0.0312215037091185,-0.115104463305695,0.899918756963528,-0.374209557942314,0.899918756964514,-0.374209557947591,-0.0313351722336626,-0.114963641549221
40.5,-0.0322695531745736,-0.116342363843556,0.897851607839501,-0.378402850939259,0.897851607840451,-0.378402850944348,-0.0323841166527079,-0.116198658946009
41,-0.0333294764238258,-0.117569844707516,0.895764253771915,-0.38258249229374,0.895764253772838,-0.382582492298644,-0.033444949712619,-0.117423266440194
41.5,-0.0344011227255473,-0.118786801062993,0.893656789081098,-0.386748364680779,0.893656789082001,-0.386748364685503,-0.0345175225443269,-0.118637356681352
42,-0.0354843423155804,-0.119993131376356,0.891529310284243,-0.39090035166666,0.891529310285132,-0.390900351671208,-0.0356016869877299,-0.119840825548235
42.5,-0.0365789864282275,-0.121188737244923,0.889381916014231,-0.395038337781309,0.889381916015114,-0.395038337785685,-0.0366972956276881,-0.121033572000532
43,-0.037684907318336,-0.12237352323392,0.887214706940129,-0.399162208584813,0.887214706941011,-0.399162208589022,-0.0378042018221926,-0.122215497936271
43.5,-0.0388019582749974,-0.123547396720531,0.885027785689404,-0.403271850728507,0.885027785690292,-0.403271850732555,-0.0389222597233433,-0.123386508054923
44,-0.0399299936276298,-0.124710267745046,0.882821256771896,-0.407367152010999,0.882821256772793,-0.407367152014889,-0.0400513242917607,-0.124546509726235
44.5,-0.0410688687451892,-0.125862048869153,0.880595226505549,-0.411448001429525,0.880595226506462,-0.411448001433264,-0.0411912513049961,-0.125695412864817
45,-0.0422184400291834,-0.127002655041305,0.878349802943925,-0.415514289226953,0.878349802944858,-0.415514289230545,-0.0423418973604925,-0.12683312981043
45.5,-0.0433785649011483,-0.128132003469128,0.876085095805481,-0.419565906934728,0.87608509580644,-0.419565906938179,-0.0435031198736097,-0.127959575213956
46,-0.0445491017851976,-0.129250013498748,0.873801216404605,-0.42360274741209,0.873801216405593,-0.423602747415404,-0.044674777071189,-0.129074665928957
46.5,-0.045729910086204,-0.130356606500942,0.871498277584388,-0.427624704881779,0.87149827758541,-0.427624704884962,-0.0458567279811213,-0.130178320908778
47,-0.0469208501641642,-0.131451705763959,0.869176393651103,-0.431631674962516,0.869176393652162,-0.431631674965573,-0.0470488324183376,-0.131270461109049
47.5,-0.0481217833052161,-0.132535236392856,0.866835680310375,-0.43562355469845,0.866835680311473,-0.435623554701387,-0.0482509509676151,-0.13235100939551
48,-0.0493325716897967,-0.133607125215177,0.86447625460499,-0.4396002425858,0.864476254606132,-0.439600242588623,-0.0494629449635801,-0.133419890457024
48.5,-0.0505530783583416,-0.134667300692788,0.862098234854326,-0.443561638596889,0.862098234855514,-0.443561638599602,-0.0506846764682427,-0.134477030723652
49,-0.0517831671749404,-0.13571569283969,0.859701740595351,-0.447507644201724,0.859701740596587,-0.447507644204334,-0.0519160082463913,-0.135522358289638
49.5,-0.0530227027892943,-0.136752233145574,0.857286892525165,-0.451438162387316,0.857286892526452,-0.451438162389826,-0.0531568037391451,-0.136555802841186
50,-0.0542715505973235,-0.137776854504957,0.854853812445035,-0.455353097674868,0.854853812446375,-0.455353097677285,-0.054406927035938,-0.137577295588863
50.5,-0.055529576700719,-0.138789491151648,0.852402623205885,-0.459252356134996,0.85240262320728,-0.459252356137325,-0.0556662428451974,-0.138586769204471
51,-0.0567966478657311,-0.139790078598358,0.849933448655201,-0.463135845401089,0.849933448656651,-0.463135845403335,-0.0569346164639483,-0.139584157762265
51.5,-0.0580726314814343,-0.140778553581231,0.847446413585314,-0.467003474680935,0.847446413586822,-0.467003474683104,-0.0582119137465663,-0.140569396684322
52,-0.059357395517724,-0.141754854009091,0.84494164368301,-0.470855154766751,0.844941643684576,-0.470855154768847,-0.0594980010728831,-0.14154242268995
52.5,-0.0606508084832285,-0.142718918917175,0.842419265480443,-0.474690798043669,0.842419265482068,-0.474690798045697,-0.0607927453158201,-0.142503173748939
53,-0.0619527393833509,-0.143670688425178,0.839879406307294,-0.478510318496822,0.83987940630898,-0.478510318498788,-0.0620960138087332,-0.14345158903853
53.5,-0.0632630576786017,-0.14461010369937,0.837322194244156,-0.482313631717096,0.837322194245901,-0.482313631719004,-0.0634076743126217,-0.144387608903953
54,-0.0645816332433776,-0.145537106918612,0.834747758077088,-0.486100654905623,0.834747758078894,-0.486100654907478,-0.0647275949833309,-0.145311174822354
54.5,-0.0659083363253231,-0.146451641244051,0.832156227253327,-0.489871306877113,0.832156227255193,-0.489871306878921,-0.0660556443389021,-0.146222229369991
55,-0.0672430375054082,-0.147353650792324,0.829547731838093,-0.493625508062077,0.829547731840018,-0.493625508063842,-0.067391691227168,-0.147120716192552
55.5,-0.0685856076588163,-0.148243080612071,0.826922402472476,-0.497363180508013,0.826922402474461,-0.497363180509738,-0.0687356047937078,-0.148006579978432
56,-0.069935917916747,-0.149119876663567,0.824280370332371,-0.501084247879611,0.824280370334416,-0.501084247881301,-0.0700872544502638,-0.148879766434854
56.5,-0.0712938396292226,-0.149983985801339,0.82162176708841,-0.504788635458051,0.821621767090514,-0.504788635459712,-0.0714465098437013,-0.149740222266688
57,-0.0726592443289614,-0.150835355759539,0.818946724866881,-0.508476270139421,0.818946724869042,-0.508476270141056,-0.0728132408255925,-0.150587895157833
57.5,-0.0740320036963836,-0.151673935139957,0.816255376211596,-0.512147080432319,0.816255376213813,-0.512147080433932,-0.0741873174224952,-0.151422733755035
58,-0.0754119895258132,-0.152499673402494,0.813547854046682,-0.515800996454686,0.813547854048954,-0.515800996456281,-0.075568609806987,-0.152244687654032
58.5,-0.076799073692907,-0.153312520857952,0.810824291640267,-0.519437949929903,0.810824291642593,-0.519437949931484,-0.0769569882695181,-0.153053707387875
59,-0.0781931281233611,-0.154112428662987,0.808084822569031,-0.5230578741822,0.808084822571409,-0.523057874183771,-0.0783523231911226,-0.153849744417332
59.5,-0.0795940247629151,-0.154899348817097,0.805329580683609,-0.526660704131412,0.805329580686037,-0.526660704132976,-0.0797544850170381,-0.15463275112326
60,-0.0810016355486906,-0.155673234161497,0.802558700074805,-0.530246376287108,0.802558700077283,-0.530246376288668,-0.0811633442312669,-0.155402680800821
60.5,-0.0824158323818633,-0.156434038379766,0.799772315040619,-0.53381482874214,0.799772315043144,-0.533814828743701,-0.0825787713321151,-0.156159487655443
61,-0.0838364871017129,-0.157181716000136,0.796970560054028,-0.537366001165637,0.796970560056598,-0.537366001167202,-0.0840006368087376,-0.156903126800443
61.5,-0.0852634714610196,-0.157916222399303,0.794153569731547,-0.540899834795459,0.79415356973416,-0.54089983479703,-0.0854288111187054,-0.157633554256174
62,-0.0866966571028458,-0.158637513807662,0.791321478802509,-0.544416272430159,0.791321478805163,-0.544416272431738,-0.086863164666623,-0.158350726950639
62.5,-0.0881359155386884,-0.159345547315839,0.788474422079068,-0.54791525842046,0.78847442208176,-0.547915258422052,-0.0883035677838084,-0.159054602721465
