"Freq [GHz]","re(St(P1,P1)) []","im(St(P1,P1)) []","re(St(P1,P2)) []","im(St(P1,P2)) []","re(St(P2,P1)) []","im(St(P2,P1)) []","re(St(P2,P2)) []","im(St(P2,P2)) []"
0,0.00382500346813686,0,0.996184569739853,0,0.996184561547125,0,0.00382499051539753,0
0.5,0.00424061919247265,0.000514332381118976,0.99569559794341,-0.00573929796991735,0.995695600133921,-0.00573929760690461,0.00424044056045148,0.00051512859080205
1,0.00460621855919285,0.000503240476909639,0.995151500904921,-0.0109311871426172,0.995151502369279,-0.0109311881770111,0.00460573057691605,0.000505066684645783
1.5,0.00462017795678271,0.000840462837079059,0.994707672601365,-0.0162170873297818,0.994707673618409,-0.0162170885336472,0.00460748416132439,0.000842030124559301
2,0.00466482311826777,0.00136740247246081,0.994189610412295,-0.021352056138376,0.994189611044339,-0.0213520572928587,0.00461761780725656,0.00136562585293731
2.5,0.0048732797883364,0.00258648020330909,0.993645360962236,-0.0263514293259561,0.993645361332121,-0.0263514303005152,0.00466489651898794,0.00256907778867976
3,0.0137151176065378,0.0120112911214871,0.993101615336445,-0.0312423881558637,0.993101615565749,-0.0312423889008056,0.00546248218455725,0.015396201403103
3.5,0.00471728568725371,-0.00295797412784005,0.992567877483677,-0.0360521865870354,0.992567877663691,-0.0360521871044082,0.00429515361097099,-0.0031194107777921
4,0.00445353088149592,-0.0010727292685111,0.992043162243667,-0.0408030458243296,0.992043162430743,-0.0408030461415976,0.00437480142477176,-0.00109019587185522
4.5,0.00440370862493422,-0.00044116214383827,0.991521423951362,-0.0455112815396781,0.991521424173227,-0.0455112816930274,0.00437808227065251,-0.000438756344408375
5,0.0043713397198557,-9.28628128065156E-005,0.990994938102769,-0.0501882048719224,0.990994938367263,-0.0501882048978111,0.00436264668022979,-8.32331351006133E-005
5.5,0.00434021814768037,0.000145465072630913,0.990456074442439,-0.0548414125771295,0.990456074745121,-0.0548414125087877,0.00433854731086125,0.000159032298544304
6,0.00430751014005137,0.000328811802176254,0.98989807564476,-0.0594759164677399,0.989898075974466,-0.0594759163342236,0.00430902636713348,0.000345037524064118
6.5,0.00427261695151415,0.000480089754304025,0.989315299900438,-0.0640949825873784,0.989315300242998,-0.0640949824137129,0.00427550343613559,0.000498333700699405
7,0.00423547083672449,0.000610545309900346,0.988703205289698,-0.0687007089642382,0.988703205630228,-0.0687007087718952,0.00423874267023483,0.000630422134016762
7.5,0.00419615656477779,0.000726344151307678,0.988058226850589,-0.0732944088983265,0.988058227174826,-0.0732944087057392,0.00419922631607339,0.000747586676110856
8,0.00415480716907946,0.000831148703729134,0.987377622064214,-0.077876861478237,0.987377622359211,-0.0778768613012764,0.00415729952998178,0.000853550905390854
8.5,0.00411157099418541,0.000927271932705587,0.986659319718451,-0.0824484752912049,0.986659319972868,-0.0824484751435524,0.00411323430528449,0.000950662417822379
9,0.00406660022907246,0.00101624789308463,0.985901786250717,-0.0870093965423377,0.985901786454883,-0.0870093964357874,0.00406726041102173,0.00104047656194517
9.5,0.00402004657770205,0.001099136430879,0.985103913532802,-0.0915595817953099,0.985103913678625,-0.0915595817400039,0.00401958138517416,0.0011240673944366
10,0.00397205945046275,0.00117669619285365,0.984264927463378,-0.0960988480962115,0.984264927544205,-0.0960988481008522,0.00397038319220633,0.00120220387220282
10.5,0.00399198844956633,0.00123811484021363,0.983498510762518,-0.100623665181431,0.983498510843378,-0.100623665189042,0.00399144254578104,0.00126408688480684
11,0.00401320721720308,0.00129985681549716,0.98271952911237,-0.105127820987257,0.982719529192958,-0.10512782099777,0.00401378862582888,0.00132618538982587
11.5,0.00403576199050748,0.00136192316590122,0.981928719499352,-0.109612755974269,0.981928719579392,-0.109612755987583,0.00403745921159757,0.00138849822836828
12,0.00405970123171756,0.00142431251629471,0.981126637676129,-0.114079855029267,0.981126637755372,-0.114079855045262,0.00406249392266461,0.00145102233640593
12.5,0.00408507559482112,0.00148702086660446,0.980313680711014,-0.118530434519592,0.980313680789239,-0.118530434538128,0.00408893420130107,0.00151375258816078
13,0.00411193787979241,0.00155004137846904,0.979490108501246,-0.122965733402085,0.979490108578257,-0.122965733423008,0.00411682328665786,0.00157668163079272
13.5,0.00414034297262994,0.0016133641512921,0.978656063860215,-0.127386907721516,0.978656063935844,-0.127386907744661,0.00414620617956311,0.00163979971033035
14,0.00417034776934846,0.00167697598799155,0.977811590941878,-0.131795027877141,0.977811591015982,-0.131795027902345,0.00417712959657768,0.00170309448881145
14.5,0.00420201108190185,0.0017408601509783,0.976956651886373,-0.136191078096083,0.976956651958834,-0.136191078123167,0.00420964191190883,0.0017665508528224
15,0.00423539352395789,0.00180499610907825,0.976091141662413,-0.140575957620344,0.976091141733132,-0.140575957649139,0.00424379308563318,0.00183015071363091
15.5,0.00427055737432598,0.00186935927633414,0.975214901148575,-0.144950483184198,0.975214901217475,-0.144950483214535,0.00427963457662277,0.0018938727993465
16,0.00430756641575317,0.0019339207439768,0.974327728541519,-0.149315392426093,0.974327728608541,-0.149315392457805,0.00431721923845249,0.00195769243965627
16.5,0.00434648574679228,0.00199864700711228,0.973429389208415,-0.153671347941827,0.973429389273518,-0.153671347974753,0.00435660119650402,0.00202158134391528
17,0.00438738156436252,0.00206349968798536,0.972519624117379,-0.158018941741789,0.972519624180534,-0.158018941775773,0.00439783570439525,0.00208550737353264
17.5,0.00443032091466994,0.00212843525816897,0.971598156986514,-0.162358699923982,0.971598157047708,-0.162358699958874,0.00444097897780862,0.0021494343099171
18,0.00447537141019777,0.00219340476229402,0.970664700292078,-0.16669108741658,0.970664700351307,-0.166691087452239,0.0044860880037739,0.0022133216194371
18.5,0.00452260091056472,0.00225835354648574,0.969718960271315,-0.171016512678886,0.969718960328586,-0.17101651271518,0.00453322032341888,0.00227712421720261
19,0.00457207716521904,0.00232322099506632,0.968760641047422,-0.175335332278667,0.968760641102751,-0.175335332315467,0.00458243378624482,0.00234079223176797
19.5,0.00462386741616025,0.00238794027960054,0.967789447994187,-0.179647855287486,0.967789448047596,-0.179647855324676,0.00463378627402297,0.00240427077322147
20,0.00467803795918903,0.00245243812484297,0.96680509044696,-0.18395434745457,0.966805090498479,-0.18395434749204,0.00468733539251479,0.00246749970752225
20.5,0.00473465366255527,0.00251663459663742,0.965807283855543,-0.188255035134696,0.965807283905208,-0.188255035172341,0.00474313812935737,0.00253041344027904
21,0.00479377744238696,0.00258044291733706,0.964795751463765,-0.192550108957108,0.964795751511613,-0.192550108994834,0.00480125047667054,0.00259294071366067
21.5,0.00485546969482928,0.00264376931474697,0.963770225590168,-0.196839727231353,0.963770225636242,-0.196839727269072,0.00486172701720528,0.0026550044204865
22,0.00491978768555817,0.00270651291107304,0.962730448574729,-0.201124019092405,0.962730448619076,-0.201124019130035,0.00492462047320308,0.00271652144002754
22.5,0.00498678489808502,0.00276856565867201,0.961676173447805,-0.205403087392261,0.961676173490473,-0.205403087429728,0.00498998121755173,0.00277740250040726
23,0.0050565103432279,0.00282981232976809,0.96060716436962,-0.209677011348461,0.960607164410658,-0.209677011385699,0.00505785674735187,0.00283755207297842
23.5,0.0051290078331146,0.00289013056742293,0.959523196881676,-0.213945848962218,0.959523196921133,-0.213945848999162,0.00512829112058388,0.00289686830434643
24,0.00520431522423298,0.00294939100520208,0.958424058005275,-0.21820963922008,0.958424058043204,-0.218209639256675,0.00520132435730203,0.00295524299210292
24.5,0.00528246363524959,0.00300745746280118,0.95730954621697,-0.222468404093839,0.957309546253423,-0.222468404130035,0.00527699180754271,0.00301256161054608
25,0.00536347664661568,0.00306418722470658,0.956179471326066,-0.226722150353417,0.956179471361096,-0.226722150389166,0.00535532348905771,0.0030687033928829
25.5,0.00544736949032909,0.00311943140845861,0.955033654275268,-0.230970871207354,0.955033654308926,-0.230970871242617,0.00543634339895827,0.00312354147643212
26,0.00553414823957721,0.00317303542839564,0.953871926882053,-0.235214547785044,0.953871926914391,-0.235214547819782,0.00552006880442729,0.00317694311735206
26.5,0.0056238090093611,0.00322483955981445,0.952694131535436,-0.239453150474187,0.952694131566504,-0.23945315050837,0.00560650951881186,0.0032287699811453
27,0.00571633718045872,0.00327467960721606,0.951500120860174,-0.243686640126289,0.951500120890022,-0.243686640159885,0.00569566717057957,0.00327887851481501
27.5,0.00581170666032038,0.00332238767891702,0.950289757358385,-0.247914969142059,0.950289757387063,-0.247914969175044,0.00578753447387964,0.00332712040601213
28,0.00590987919546826,0.00336779306841883,0.949062913036687,-0.252138082447912,0.949062913064244,-0.252138082480264,0.00588209451064498,0.0033733431336167
28.5,0.00601080375081148,0.003410723240999,0.947819469025443,-0.256355918373783,0.947819469051926,-0.256355918405483,0.00597932003536994,0.00341739061323132
29,0.00611441597178886,0.00345100492165251,0.946559315195409,-0.260568409441727,0.946559315220864,-0.26056840947276,0.00607917281479448,0.00345910393972115
29.5,0.0062206377454565,0.00348846527810487,0.945282349776022,-0.26477548307395,0.945282349800492,-0.264775483104303,0.0061816030157259,0.00349832222744828
30,0.00632937687640928,0.00352293318992136,0.943988478978625,-0.268977062228182,0.943988479002157,-0.268977062257843,0.00628654865498884,0.00353488354699172
30.5,0.00644052689277974,0.00355424059210674,0.942677616627241,-0.273173065967564,0.942677616649874,-0.273173065996524,0.0063939351261087,0.00356862595521679
31,0.00655396699642169,0.00358222387879592,0.941349683798813,-0.277363409971603,0.941349683820588,-0.277363409999857,0.00650367481757302,0.00359938861326814
31.5,0.00666956216974585,0.00360672535007134,0.940004608474402,-0.281548006994082,0.94000460849536,-0.281548007021625,0.0066156668374785,0.003627012984734
32,0.00678716344951941,0.00362759468240648,0.938642325202356,-0.285726767273304,0.938642325222534,-0.285726767300133,0.00672979685890668,0.00365134410368606
32.5,0.00690660837528956,0.00364469040113291,0.937262774774136,-0.289899598899484,0.937262774793571,-0.289899598925598,0.00684593709949882,0.00367223189982635
33,0.00702772161699627,0.00365788133148337,0.935865903913239,-0.294066408143649,0.935865903931966,-0.294066408169049,0.00696394644734194,0.00368953256539539
33.5,0.00715031578281283,0.00366704800350504,0.934451664977396,-0.298227099751982,0.93445166499545,-0.29822709977667,0.00708367074347355,0.00370310994616774
34,0.00727419240445293,0.00367208398540786,0.933020015674078,-0.302381577209124,0.933020015691492,-0.302381577233103,0.00720494322900078,0.00371283693665125
34.5,0.00739914309311873,0.00367289711984298,0.931570918789171,-0.306529742973639,0.931570918805975,-0.306529742996912,0.00732758516207654,0.00371859685774689
35,0.00752495085520011,0.00366941063830217,0.930104341928611,-0.310671498688462,0.930104341944835,-0.310671498711036,0.00745140660682603,0.00372028479370656
35.5,0.00765139155271627,0.00366156413014807,0.928620257272656,-0.314806745368946,0.928620257288329,-0.314806745390827,0.00757620739277404,0.0037178088642138
36,0.00777823548967804,0.00364931434500892,0.927118641342418,-0.318935383570751,0.927118641357569,-0.318935383591947,0.00770177823957741,0.00371109140713966
36.5,0.0079052491020255,0.00363263581001605,0.925599474778248,-0.323057313539696,0.925599474792903,-0.323057313560214,0.00782790203792239,0.00370007004773365
37,0.00803219672576416,0.00361152124690856,0.924062742129501,-0.327172435345397,0.924062742143684,-0.327172435365245,0.00795435527350119,0.00368469863106125
37.5,0.00815884241554554,0.00358598177800085,0.922508431655242,-0.331280649000361,0.922508431668977,-0.33128064901955,0.00808090957712865,0.00366494799617656
38,0.00828495178424327,0.00355604691444045,0.920936535135375,-0.335381854566056,0.920936535148686,-0.335381854584595,0.00820733338046209,0.00364080657292787
38.5,0.00841029383321856,0.00352176432493745,0.919347047691753,-0.339475952247238,0.919347047704661,-0.339475952265137,0.00833339365359664,0.00361228078540332
39,0.0085346427429126,0.00348319938788588,0.917739967618742,-0.343562842475804,0.917739967631267,-0.343562842493076,0.00845885769811106,0.00357939524964368
39.5,0.00865777959425712,0.00344043453461174,0.916115296222809,-0.347642425985196,0.916115296234971,-0.34764242600185,0.00858349496713612,0.00354219275744416
40,0.00877949399303601,0.00339356839598315,0.914473037670633,-0.351714603876341,0.91447303768245,-0.351714603892392,0.00870707888270272,0.00350073404256612
40.5,0.00889958557173703,0.00334271476875836,0.912813198845317,-0.355779277676008,0.912813198856808,-0.355779277691465,0.00882938862017513,0.00345509733040306
41,0.00901786534654214,0.00328800142170338,0.91113578921025,-0.359836349388314,0.91113578922143,-0.359836349403191,0.00895021082993158,0.00340537767693494
41.5,0.00913415691071601,0.00322956876444125,0.909440820680196,-0.363885721540136,0.909440820691081,-0.363885721554444,0.00906934126766773,0.00335168610743586
42,0.00924829744973071,0.00316756840433352,0.907728307499228,-0.367927297220996,0.907728307509834,-0.367927297234749,0.00918658630673153,0.00329414856980592
42.5,0.00936013856771639,0.00310216161811638,0.905998266125108,-0.371960980118022,0.905998266135448,-0.371960980131233,0.00930176430864205,0.00323290472130666
43,0.00946954691926799,0.00303351776578853,0.904250715119744,-0.37598667454646,0.904250715129831,-0.375986674559141,0.00941470683134216,0.0031681065708582
43.5,0.00957640464495357,0.00296181267412066,0.902485675045393,-0.3800042854762,0.902485675055238,-0.380004285488366,0.00952525965863077,0.00309991700173984
44,0.00968060961302419,0.00288722701641442,0.900703168366261,-0.38401371855473,0.900703168375877,-0.384013718566393,0.00963328363847021,0.0030285082014998
44.5,0.00978207547366217,0.00280994471367202,0.898903219355207,-0.38801488012685,0.898903219364604,-0.388014880138023,0.00973865532231621,0.00295406002696774
45,0.00988073153547692,0.0027301513803204,0.897085854005235,-0.392007677251512,0.897085854014422,-0.392007677262208,0.00984126740211766,0.00287675833266254
45.5,0.00997652247690395,0.0026480328352263,0.895251099945513,-0.395992017716041,0.895251099954501,-0.395992017726274,0.00994102894602045,0.00279679329041027
46,0.010069407907481,0.00256377369588012,0.893398986361646,-0.399967810048035,0.893398986370443,-0.399967810057818,0.0100378654379213,0.00271435772682782
46.5,0.0101593617957813,0.00247755607070133,0.891529543919956,-0.403934963525142,0.891529543928569,-0.403934963534487,0.0101317186298064,0.00262964550356481
47,0.0102463717819645,0.0023895583612199,0.889642804695535,-0.407893388182959,0.889642804703971,-0.40789338819188,0.0102225462190604,0.00254284996280063
47.5,0.0103304383935797,0.00229995418285722,0.887738802103859,-0.411842994821226,0.887738802112126,-0.411842994829737,0.0103103213656935,0.00245416245779428
48,0.0104115741833621,0.00220891140997437,0.885817570835744,-0.415783695008485,0.885817570843847,-0.415783695016597,0.0103950320665794,0.00236377098517693
48.5,0.0104898028074677,0.00211659134803499,0.883879146795461,-0.41971540108536,0.883879146803405,-0.419715401093087,0.0104766804053372,0.0022718589324775
49,0.0105651580618319,0.00202314803312742,0.881923567041819,-0.423638026166604,0.881923567049608,-0.423638026173957,0.010555281697439,0.00217860395104119
49.5,0.0106376828933123,0.00192872765679586,0.879950869732045,-0.42755148414202,0.879950869739685,-0.427551484149013,0.010630863550501,0.00208417696128782
50,0.0107074284009447,0.00183346811212126,0.877961094068321,-0.43145568967638,0.877961094075816,-0.431455689683025,0.0107034648595684,0.00198874129412951
50.5,0.0107744528411498,0.00173749865532213,0.87595428024679,-0.435350558208437,0.875954280254142,-0.435350558214745,0.0107731347565884,0.00189245196947785
51,0.010838820649096,0.0016409396758299,0.873930469408922,-0.439236005949118,0.873930469416135,-0.439236005955102,0.0108399315322749,0.00179545511019363
51.5,0.0109006014867672,0.0015439025667775,0.871889703595089,-0.443111949878986,0.871889703602164,-0.443111949884657,0.0109039215472414,0.00169788748752953
52,0.0109598693265688,0.00144648968712835,0.86983202570024,-0.446978307745024,0.86983202570718,-0.446978307750393,0.0109651781477335,0.00159987619219193
52.5,0.011016701577672,0.00134879440624902,0.867757479431543,-0.450834998056837,0.86775747943835,-0.450834998061917,0.0110237805995587,0.0015015384235868
53,0.0110711782607258,0.00125090122155946,0.865666109267895,-0.454681940082298,0.86566610927457,-0.454681940087098,0.0110798130520103,0.00140298138859696
53.5,0.0111233812350838,0.00115288593991747,0.863557960421199,-0.458519053842711,0.863557960427742,-0.458519053847243,0.0111333635417196,0.00130430230036471
54,0.0111733934813656,0.00105481591362899,0.861433078799301,-0.462346260107531,0.861433078805714,-0.462346260111805,0.0111845230445607,0.00120558846701802
54.5,0.0112212984409533,0.000956750322328004,0.859291510970514,-0.466163480388681,0.859291510976797,-0.466163480392707,0.0112333845819599,0.00110691745998481
55,0.0112671794129664,0.00085874049246526,0.857133304129633,-0.469970636934512,0.857133304135785,-0.469970636938301,0.0112800423863167,0.00100835735155869
55.5,0.0113111190083546,0.000760830246701927,0.854958506065354,-0.473767652723429,0.854958506071375,-0.47376765272699,0.0113245911287192,0.000909967011565538
56,0.0113531986599573,0.000663056276144047,0.852767165129054,-0.477554451457221,0.852767165134944,-0.477554451460564,0.0113671252107594,0.000811796453354718
56.5,0.0113934981867754,0.000565448528991985,0.850559330204824,-0.48133095755412,0.850559330210582,-0.481330957557253,0.0114077381210398,0.00071388721987975
57,0.0114320954101702,0.000468030609892089,0.84833505068072,-0.485097096141615,0.848335050686345,-0.485097096144549,0.011446521855922,0.000616272801242546
57.5,0.0114690658193368,0.000370820184899645,0.846094376421156,-0.488852793049044,0.846094376426646,-0.488852793051786,0.0114835664031711,0.000518979075772474
58,0.0115044822831231,0.000273829387673286,0.843837357740386,-0.492597974799972,0.84383735774574,-0.492597974802532,0.0115189592864328,0.000422024767484097
58.5,0.0115384148050647,0.000177065223089801,0.84156404537702,-0.496332568604399,0.841564045382237,-0.496332568606783,0.0115527851678917,0.000325421913483614
59,0.0115709303184315,8.052996512109E-005,0.839274490469531,-0.500056502350776,0.839274490474609,-0.500056502352994,0.0115851255060311,0.000229176335707182
59.5,0.0116020925180155,-1.5778453696047E-005,0.836968744532693,-0.503769704597892,0.83696874453763,-0.50376970459995,0.0116160582650826,0.000133288112075913
60,0.0116319617254513,-0.000111866063308819,0.834646859434921,-0.507472104566587,0.834646859439714,-0.507472104568492,0.0116456576725651,3.77520429210021E-005
60.5,0.0116605947849063,-0.000207742489410245,0.832308887376454,-0.511163632131358,0.832308887381102,-0.511163632133119,0.0116739940211806,-5.74418908356744E-005
61,0.011688044986103,-0.000303420600177517,0.829954880868366,-0.514844217811833,0.829954880872866,-0.514844217813456,0.0117011335113308,-0.000152308080585528
61.5,0.0117143620117769,-0.000398916167387298,0.82758489271234,-0.51851379276413,0.827584892716692,-0.518513792765621,0.0117271381305387,-0.0002468648563142
62,0.0117395919068322,-0.00049424754250893,0.825198975981204,-0.522172288772119,0.825198975985403,-0.522172288773485,0.0117520655661641,-0.000341134068016946
62.5,0.0117637770666287,-0.00058943534807665,0.822797184000158,-0.525819638238585,0.822797184004204,-0.525819638239832,0.0117759691479453,-0.000435140683532009
