"Freq [GHz]","re(St(P1,P1)) []","im(St(P1,P1)) []","re(St(P1,P2)) []","im(St(P1,P2)) []","re(St(P2,P1)) []","im(St(P2,P1)) []","re(St(P2,P2)) []","im(St(P2,P2)) []"
0,0.00376966965546899,0,0.996246498005348,0,0.996246472961502,0,0.00376965266565321,0
0.5,0.00434714434752692,-0.00242813672385012,0.995595090538266,-0.00705492811746211,0.995595089563587,-0.00705492977728284,0.00434681960457084,-0.00242709881734982
1,0.00487301271100904,-0.00560506971924823,0.994879842844821,-0.0133602756825653,0.994879842013273,-0.0133602761996556,0.00487209205354588,-0.00560263173064968
1.5,0.00514230887164047,-0.00898573999385377,0.99425724610655,-0.0196368274515386,0.994257245075435,-0.0196368277228771,0.00514035449940664,-0.00898212545028088
2,0.00521121596291962,-0.0123914031584142,0.993662360291946,-0.0257362356958382,0.993662359305581,-0.0257362357263773,0.0052082611361719,-0.0123860414641861
2.5,0.00516225557889882,-0.0157755794146297,0.993109620276028,-0.031747924651409,0.993109619449049,-0.0317479245403511,0.00515843623476897,-0.0157682611302157
3,0.00503631768338586,-0.0191353089679289,0.99257920342826,-0.0377208881299289,0.992579202787454,-0.0377208879652109,0.00503170441981915,-0.0191259624533444
3.5,0.00485281944140503,-0.0224747592076788,0.992048115451995,-0.0436766106271271,0.992048114986254,-0.0436766104642992,0.00484742547928008,-0.0224633532107035
4,0.0046214777374658,-0.0257980584682471,0.991498284074726,-0.0496226771248161,0.991498283760977,-0.0496226769930317,0.00461528069024375,-0.0257845688845855
4.5,0.00434748811311536,-0.0291082574880139,0.990916881185282,-0.0555604305549284,0.990916880998833,-0.0555604304662332,0.00434044484906426,-0.0290926565409482
5,0.00403380948139986,-0.0324074474125613,0.990295016495093,-0.0614886245721049,0.990295016412875,-0.0614886245283053,0.00402586497989166,-0.0323897003709224
5.5,0.00368222617103697,-0.0356970183091718,0.989626492350188,-0.0674050639516803,0.989626492351351,-0.0674050639488062,0.00367331875756882,-0.0356770827497375
6,0.00329387179183938,-0.0389778711050308,0.988906909769514,-0.0733073177788572,0.988906909835141,-0.0733073178098476,0.00328393631726032,-0.0389556970134688
6.5,0.00286950248573437,-0.0422505672626219,0.988133077769393,-0.0791930168482402,0.988133077882031,-0.079193016904636,0.00285847233467118,-0.0422260973788937
7,0.00240964676417121,-0.045515430579238,0.987302632995711,-0.0850599662937306,0.987302633138959,-0.0850599663666518,0.00239745518160284,-0.0454886007819741
7.5,0.00191469137223921,-0.0487726161495718,0.986413795513641,-0.0909061769549933,0.986413795671858,-0.0909061770357784,0.00190127238167692,-0.0487433558137109
8,0.00138493243421323,-0.0520221574880999,0.985465210799738,-0.0967298619842758,0.98546521095783,-0.0967298620648673,0.00137022150397614,-0.0519903898001708
8.5,0.000820606973573668,-0.0552639991677157,0.984455846087911,-0.102529419648938,0.984455846231238,-0.102529419722107,0.000804541523184099,-0.0552296414004374
9,0.000221912930971513,-0.0584980197758238,0.983384921113372,-0.108303411734539,0.983384921227693,-0.10830341179401,0.000204432733122761,-0.0584609835286845
9.5,-0.000410977779297328,-0.0617240483143142,0.982251860774025,-0.114050541686671,0.982251860845503,-0.114050541727174,-0.000429930266815148,-0.0616842397274908
10,-0.00107791054882544,-0.0649418760963716,0.981056261868774,-0.119769634219349,0.981056261884004,-0.119769634236642,-0.00109838989950539,-0.0648991960443865
10.5,-0.00186574019752794,-0.0681143018182375,0.979881819989148,-0.125497766384558,0.979881820003457,-0.125497766402613,-0.00187067223309212,-0.0680674589368717
11,-0.00269291316106113,-0.0712760741100498,0.978668372931817,-0.131201674803498,0.978668372945159,-0.131201674822241,-0.00268073250163647,-0.071224412851822
11.5,-0.00355967389889222,-0.0744267969427739,0.977416633074484,-0.136881897368673,0.97741663308682,-0.136881897388021,-0.00352866512058214,-0.0743695024034361
12,-0.00446630921239388,-0.0775661111952486,0.976127195731813,-0.142538941667877,0.976127195743117,-0.142538941687751,-0.0044145934583909,-0.077502172454726
12.5,-0.00541315332767989,-0.0806937045449692,0.974800554021935,-0.14817327582757,0.974800554032184,-0.14817327584789,-0.00533867564840484,-0.0806218696224352
13,-0.00640059291527673,-0.0838093239177597,0.973437113144946,-0.153785322111703,0.97343711315413,-0.15378532213239,-0.0063011114470769,-0.0837280444558752
13.5,-0.00742907167130591,-0.0869127911078884,0.97203720379152,-0.159375452843337,0.972037203799635,-0.159375452864314,-0.00730215032773063,-0.0868201545380227
14,-0.00849909387361714,-0.0900040222891763,0.970601094503132,-0.164943988240036,0.970601094510182,-0.164943988261228,-0.00834210102593147,-0.0898976688461959
14.5,-0.00961122602320452,-0.093083052238792,0.969129002888088,-0.170491195789679,0.96912900289408,-0.170491195811012,-0.00942134277686379,-0.0929600738307528
15,-0.0107660952548486,-0.0961500641626118,0.967621105661037,-0.176017290835698,0.967621105665987,-0.176017290857102,-0.0105403385012337,-0.0960068818354927
15.5,-0.0119643826130154,-0.099205425998071,0.966077547520887,-0.181522438084797,0.966077547524815,-0.181522438106211,-0.0116996501935577,-0.0990376427069881
16,-0.0132068085013594,-0.102249733901125,0.964498448915031,-0.187006753794185,0.964498448917961,-0.187006753815544,-0.0128999567280121,-0.102051959743649
16.5,-0.0144941065967148,-0.105283863173253,0.962883912759919,-0.192470308435993,0.962883912761876,-0.192470308457241,-0.014142074191934,-0.105049511542497
17,-0.0158269812757359,-0.10830902596522,0.961234030201013,-0.197913129673809,0.961234030202029,-0.197913129694894,-0.0154269786367759,-0.108030081843818
17.5,-0.0172060422152814,-0.111326833436308,0.959548885501584,-0.203335205519116,0.959548885501693,-0.203335205539984,-0.0167558307201086,-0.110993600183203
18,-0.0186317085305712,-0.11433935729804,0.957828560151245,-0.20873648756354,0.957828560150482,-0.208736487584152,-0.0181300009714498,-0.113940197063141
18.5,-0.0201040741120151,-0.1173491814329,0.956073136282997,-0.214116894207041,0.956073136281398,-0.214116894227353,-0.0195510931475224,-0.116870278455365
19,-0.0216227266379063,-0.120359428236875,0.954282699483172,-0.219476313821983,0.954282699480775,-0.219476313841961,-0.0210209610401096,-0.11978462567736
19.5,-0.0231865165699736,-0.123373736554089,0.95245734107271,-0.224814607809513,0.952457341069553,-0.224814607829123,-0.0225417107102667,-0.12268452784572
20,-0.0247932813538562,-0.12639615953195,0.950597159931532,-0.230131613517925,0.950597159927655,-0.230131613537135,-0.0241156748254041,-0.125571954696131
20.5,-0.0264395463040427,-0.129430944119125,0.948702263930728,-0.235427147003171,0.94870226392617,-0.235427147021956,-0.0257453378182218,-0.12844977652118
21,-0.0281202484849716,-0.132482154483773,0.94677277103031,-0.240701005620039,0.94677277102511,-0.240701005638376,-0.0274331792940988,-0.131322033288068
21.5,-0.0298285611207852,-0.135553117204699,0.944808810093566,-0.245952970438794,0.944808810087764,-0.245952970456663,-0.029181388511593,-0.13419424309126
22,-0.0315559247749219,-0.138645705112103,0.942810521462741,-0.251182808486952,0.942810521456376,-0.251182808504336,-0.0309913870293281,-0.137073715334217
22.5,-0.0332923998809462,-0.141759542324355,0.940778057334975,-0.25639027481937,0.940778057328086,-0.256390274836256,-0.0328630869496436,-0.139969788982001
23,-0.0350274194365796,-0.144891294045549,0.938711581972187,-0.261575114422413,0.938711581964811,-0.261575114438786,-0.0347938253458622,-0.142893844581812
23.5,-0.0367509241362242,-0.148034267901929,0.936611271773845,-0.266737063959619,0.936611271766018,-0.26673706397547,-0.0367769823019685,-0.145858844536024
24,-0.0384547166482698,-0.151178549709646,0.934477315237412,-0.271875853367501,0.934477315229171,-0.271875853382824,-0.0388004529706198,-0.148878073049869
24.5,-0.040133731991976,-0.154311787871172,0.932309912827576,-0.27699120731068,0.932309912818956,-0.276991207325468,-0.0408454310177241,-0.151962765012852
25,-0.0417868695299224,-0.157420540738125,0.930109276772139,-0.282082846505793,0.930109276763175,-0.282082846520043,-0.0428863152605194,-0.155118582430347
25.5,-0.0434171265795125,-0.160491891907308,0.927875630799675,-0.287150488923729,0.927875630790399,-0.287150488937441,-0.0448927352310936,-0.158341544244233
26,-0.0450309918217402,-0.16351493047591,0.925609209831611,-0.292193850879423,0.925609209822056,-0.292193850892593,-0.0468342876278562,-0.161614911044206
26.5,-0.0466372952586502,-0.166481749801943,0.923310259639402,-0.297212648018134,0.9233102596296,-0.297212648030765,-0.0486873095352673,-0.164909051148201
27,-0.0482458532539198,-0.169387805320441,0.920979036475574,-0.302206596206766,0.920979036465554,-0.302206596218861,-0.0504413568895188,-0.168185595070622
27.5,-0.0498662405521514,-0.172231685590636,0.918615806686014,-0.307175412338215,0.918615806675805,-0.307175412349776,-0.0521023588033879,-0.171405069194236
28,-0.0515069023188574,-0.175014493417751,0.916220846309526,-0.312118815056243,0.916220846299156,-0.312118815067275,-0.0536907586216138,-0.174535029855989
28.5,-0.0531746689963736,-0.177739069823714,0.913794440669619,-0.31703652540786,0.913794440659115,-0.31703652541837,-0.0552356238864595,-0.17755537199939
29,-0.0548746219461527,-0.180409247784955,0.911336883962562,-0.321928267429656,0.91133688395195,-0.32192826743965,-0.0567676041970168,-0.180459294389866
29.5,-0.0566102032971139,-0.183029244024021,0.908848478844993,-0.326793768673984,0.908848478834297,-0.326793768683471,-0.0583134530148366,-0.183250747697136
30,-0.0583834594650391,-0.185603225222122,0.90632953602367,-0.331632760680474,0.906329536012914,-0.33163276068946,-0.0598932731783284,-0.185940369297357
30.5,-0.0601953314641782,-0.188135037591352,0.9037803738495,-0.336444979397796,0.903780373838706,-0.336444979406291,-0.0615201556659124,-0.188541654103317
31,-0.062045936217786,-0.190628066329013,0.90120131791742,-0.341230165560255,0.90120131790661,-0.341230165568268,-0.0632012308147052,-0.19106822006139
31.5,-0.063934810016998,-0.193085186711008,0.89859270067345,-0.345988065023283,0.898592700662645,-0.345988065030826,-0.0649392184297772,-0.193532264122055
32,-0.0658611040776796,-0.19550877322459,0.895954861029834,-0.350718429061633,0.895954861019053,-0.350718429068714,-0.0667339123843108,-0.195943930211065
32.5,-0.0678237331751759,-0.197900741156883,0.893288143988983,-0.355421014633612,0.893288143978245,-0.355421014640244,-0.0685833605994406,-0.198311240078481
33,-0.0698214836273363,-0.200262603042522,0.89059290027672,-0.360095584614489,0.890592900266042,-0.360095584620683,-0.0704847019573551,-0.200640308250815
33.5,-0.0718530885923981,-0.202595528888446,0.887869485985145,-0.364741908001812,0.887869485974543,-0.364741908007582,-0.0724347118819068,-0.202935662116112
34,-0.073917278408199,-0.204900403828217,0.885118262225306,-0.369359760095197,0.885118262214797,-0.36935976010055,-0.074430132110772,-0.205200569580254
34.5,-0.0760128126037499,-0.207177880024032,0.882339594789781,-0.373948922652821,0.882339594779379,-0.373948922657775,-0.0764678536558703,-0.207437329905126
35,-0.0781384988817357,-0.209428421604943,0.879533853825127,-0.378509184026747,0.879533853814846,-0.378509184031311,-0.0785450059663256,-0.209647513375411
35.5,-0.0802932031095334,-0.211652342567028,0.876701413514152,-0.383040339278864,0.876701413504006,-0.38304033928305,-0.0806589893730294,-0.211832150294936
36,-0.0824758532911378,-0.21384983815588,0.873842651767877,-0.387542190279182,0.873842651757877,-0.387542190283006,-0.0828074752102923,-0.213991875943556
36.5,-0.0846854396498135,-0.216021010512536,0.870957949927,-0.392014545787998,0.870957949917158,-0.392014545791469,-0.0849883889448393,-0.216127039756031
37,-0.0869210123127464,-0.218165889431777,0.868047692472694,-0.396457221523267,0.868047692463022,-0.396457221526402,-0.0871998855641714,-0.218237786559961
37.5,-0.0891816776195906,-0.220284449046392,0.865112266746505,-0.400870040214492,0.865112266737011,-0.400870040217302,-0.0894403225739983,-0.2203241165219
38,-0.0914665937396254,-0.222376621166831,0.862152062679105,-0.405252831644186,0.8621520626698,-0.405252831646685,-0.0917082335315653,-0.222385929120648
38.5,-0.0937749660445505,-0.224442305904556,0.859167472527687,-0.409605432677995,0.859167472518578,-0.409605432680196,-0.0940023035818193,-0.224423055258431
39,-0.0961060425191075,-0.226481380106275,0.856158890621727,-0.413927687284356,0.856158890612823,-0.413927687286272,-0.0963213476111212,-0.226435280619676
39.5,-0.0984591093792896,-0.228493704033508,0.853126713116888,-0.418219446544566,0.853126713108196,-0.418219446546208,-0.0986642911553579,-0.228422362598393
40,-0.100833486992384,-0.230479126641221,0.85007133775679,-0.422480568654012,0.850071337748316,-0.422480568655396,-0.101030153946688,-0.230384042511944
40.5,-0.103228526143456,-0.232437489740873,0.84699316364245,-0.426710918915251,0.846993163634201,-0.426710918916388,-0.103418035863123,-0.232320054365796
41,-0.105643604661057,-0.234368631276825,0.843892591009098,-0.430910369723586,0.843892591001078,-0.430910369724489,-0.105827105000705,-0.23423013109768
41.5,-0.108078124395151,-0.236272387898824,0.840770021010189,-0.435078800545711,0.840770021002405,-0.435078800546393,-0.108256587584854,-0.236114008981489
42,-0.110531508528722,-0.238148596976099,0.837625855508372,-0.439216097891948,0.837625855500826,-0.43921609789242,-0.110705759455436,-0.237971430689358
42.5,-0.113003199198326,-0.239997098168687,0.834460496873173,-0.443322155282558,0.83446049686587,-0.443322155282833,-0.113173938887332,-0.239802147377026
43,-0.115492655396148,-0.241817734647751,0.83127434778524,-0.447396873208584,0.831274347778182,-0.447396873208676,-0.115660480538329,-0.241605920059998
43.5,-0.117999351125696,-0.243610354037681,0.828067811046904,-0.45144015908761,0.828067811040094,-0.451440159087531,-0.118164770345507,-0.243382520476656
44,-0.120522773784126,-0.245374809137696,0.824841289398896,-0.455451927214829,0.824841289392337,-0.455451927214589,-0.120686221218187,-0.245131731582109
44.5,-0.123062422745834,-0.247110958468708,0.821595185343031,-0.459432098709738,0.821595185336723,-0.459432098709349,-0.123224269399342,-0.24685334777824
45,-0.12561780812403,-0.248818666681788,0.818329900970674,-0.463380601458816,0.81832990096462,-0.46338060145829,-0.125778371388008,-0.248547174957227
45.5,-0.128188449689148,-0.250497804857029,0.815045837796857,-0.467297370054446,0.815045837791056,-0.467297370053794,-0.128348001332744,-0.250213030415143
46,-0.130773875925168,-0.252148250715664,0.811743396599844,-0.471182345730361,0.811743396594298,-0.471182345729595,-0.130932648821058,-0.251850742676928
46.5,-0.133373623206993,-0.253769888763678,0.80842297726604,-0.475035476293885,0.808422977260749,-0.475035476293014,-0.133531817002126,-0.253460151262885
47,-0.135987235083962,-0.255362610381259,0.805084978640076,-0.478856716055173,0.805084978635038,-0.47885671605421,-0.136145020990465,-0.255041106418475
47.5,-0.138614261656371,-0.256926313869664,0.801729798379931,-0.482646025753704,0.801729798375146,-0.482646025752656,-0.138771786506892,-0.256593468823174
48,-0.141254259033437,-0.258460904464537,0.798357832816986,-0.486403372482203,0.798357832812452,-0.486403372481082,-0.141411648720232,-0.258117109289574
48.5,-0.143906788862603,-0.259966294323003,0.794969476820857,-0.4901287296082,0.794969476816574,-0.490128729607014,-0.144064151259186,-0.259611908460624
49,-0.146571417921314,-0.261442402490268,0.791565123668915,-0.493822076693409,0.79156512366488,-0.493822076692171,-0.146728845368751,-0.261077756510492
49.5,-0.149247717763495,-0.262889154850301,0.78814516492036,-0.497483399411083,0.788145164916571,-0.497483399409799,-0.149405289189614,-0.262514552852674
50,-0.151935264413996,-0.264306484064273,0.784709990294752,-0.501112689461516,0.784709990291206,-0.501112689460196,-0.152093047142436,-0.263922205857758
50.5,-0.154633638105033,-0.2656943294996,0.781259987554891,-0.504709944485838,0.781259987551586,-0.504709944484492,-0.154791689401723,-0.265300632582207
51,-0.157342423049477,-0.267052637151887,0.777795542393956,-0.508275167978249,0.777795542390888,-0.508275167976884,-0.157500791446372,-0.26664975850894
51.5,-0.160061207246469,-0.268381359561594,0.774317038326778,-0.511808369196823,0.774317038323945,-0.511808369195447,-0.160219933675973,-0.267969517299921
52,-0.162789582315356,-0.269680455726814,0.770824856585206,-0.515309563073012,0.770824856582604,-0.515309563071635,-0.162948701083558,-0.269259850560682
52.5,-0.165527143354524,-0.270949891013314,0.76731937601742,-0.518778770119974,0.767319376015044,-0.518778770118602,-0.165686682976943,-0.270520707616447
53,-0.168273488822073,-0.272189637062684,0.763800972991144,-0.522216016339833,0.763800972988992,-0.522216016338473,-0.168433472741907,-0.271752045299396
53.5,-0.171028220435646,-0.273399671699302,0.760270021300667,-0.525621333129995,0.760270021298733,-0.525621333128654,-0.171188667641476,-0.272953827746472
54,-0.173790943089114,-0.274579978836614,0.756726892077572,-0.528994757188606,0.756726892075851,-0.528994757187292,-0.173951868646402,-0.274126026207125
54.5,-0.176561264784002,-0.275730548383141,0.753171953705132,-0.532336330419275,0.753171953703621,-0.532336330417992,-0.176722680292596,-0.275268618860344
55,-0.179338796573915,-0.276851376148537,0.749605571736259,-0.535646099835133,0.749605571734952,-0.53564609983389,-0.179500710561922,-0.276381590640323
55.5,-0.182123152520303,-0.27794246374989,0.746028108814951,-0.538924117462351,0.746028108813843,-0.538924117461153,-0.182285570783199,-0.277464933070125
56,-0.184913949658209,-0.27900381851846,0.742439924601166,-0.542170440243165,0.742439924600252,-0.542170440242016,-0.185076875550729,-0.278518644102746
56.5,-0.187710807970732,-0.280035453406969,0.738841375699047,-0.54538512993853,0.738841375698322,-0.545385129937436,-0.187874242658032,-0.27954272796897
57,-0.190513350371128,-0.281037386897515,0.73523281558842,-0.548568253030463,0.735232815587878,-0.54856825302943,-0.19067729304474,-0.280537195031498
57.5,-0.193321202691556,-0.282009642910174,0.731614594559525,-0.551719880624155,0.731614594559161,-0.551719880623187,-0.193485650754918,-0.281502061644812
58,-0.196133993677636,-0.282952250712316,0.727987059650874,-0.55484008834993,0.727987059650682,-0.554840088349032,-0.196298942905289,-0.282437350020315
58.5,-0.198951354988042,-0.283865244828649,0.724350554590207,-0.557928956265123,0.72435055459018,-0.557928956264297,-0.199116799662018,-0.283343088096296
59,-0.201772921198463,-0.284748664951994,0.720705419738458,-0.560986568755935,0.720705419738591,-0.560986568755186,-0.201938854224909,-0.28421930941231
59.5,-0.20459832980932,-0.285602555854782,0.717051992036683,-0.564013014439347,0.717051992036969,-0.564013014438679,-0.204764742817991,-0.285066052987616
60,-0.20742722125673,-0.286426967301268,0.71339060495587,-0.567008386065149,0.713390604956305,-0.567008386064564,-0.207594104685627,-0.285883363203308
60.5,-0.210259238926203,-0.287221953960421,0.709721588449596,-0.569972780418128,0.709721588450172,-0.56997278041763,-0.210426582093328,-0.286671289687846
61,-0.213094029168702,-0.287987575319492,0.706045268909438,-0.572906298220508,0.706045268910149,-0.572906298220098,-0.213261820332637,-0.287429887205694
61.5,-0.215931241318638,-0.28872389559823,0.702361969123104,-0.575809044034662,0.702361969123944,-0.575809044034345,-0.216099467729439,-0.288159215548799
62,-0.218770527713495,-0.289430983663715,0.698672008235218,-0.578681126166177,0.698672008236181,-0.578681126165952,-0.218939175655195,-0.288859339430691
62.5,-0.221611543714779,-0.290108912945792,0.694975701710692,-0.581522656567298,0.694975701711771,-0.581522656567168,-0.221780598540622,-0.289530328382974
63,-0.224453947730016,-0.29075776135308,0.691273361300633,-0.584333750740828,0.691273361301821,-0.584333750740796,-0.224623393891405,-0.290172256654027
63.5,-0.22729740123557,-0.291377611189548,0.687565295010737,-0.587114527644508,0.687565295012029,-0.587114527644573,-0.227467222305588,-0.290785203109735
