"Freq [GHz]","re(St(P1,P1)) []","im(St(P1,P1)) []","re(St(P1,P2)) []","im(St(P1,P2)) []","re(St(P2,P1)) []","im(St(P2,P1)) []","re(St(P2,P2)) []","im(St(P2,P2)) []"
0,0.00438290974204847,0,0.995631536163273,0,0.995631552970735,0,0.00438291174856431,0
0.5,0.00489220474833729,-0.000177676834720586,0.995076521947183,-0.00573679716395858,0.995076522224899,-0.0057368012219321,0.00489173593071257,-0.000175940836502519
1,0.00536185306940595,-0.000996708486109554,0.994501679322092,-0.0108294158762092,0.994501678288763,-0.0108294135970297,0.00536068665408962,-0.000992659908181537
1.5,0.00564496097221578,-0.00196684522430601,0.994020744900702,-0.0159385515193975,0.994020744945463,-0.0159385495281441,0.00564268413208424,-0.00196074286060011
2,0.00578767962286797,-0.00296158434780835,0.993557708964088,-0.0208935852472543,0.993557709525533,-0.0208935838281441,0.00578439570390543,-0.00295276641472952
2.5,0.00585664033528666,-0.00394133566768318,0.993136611414435,-0.025762688839297,0.993136612105447,-0.0257626879324135,0.00585256946431301,-0.00392956138199807
3,0.00588551321239983,-0.0049032264865474,0.992748605253648,-0.0305892410939048,0.992748605883959,-0.030589240553816,0.00588079666682706,-0.00488841860452816
3.5,0.00589042645113658,-0.0058507481793697,0.992377322257682,-0.0353952520758725,0.992377322755513,-0.0353952517735898,0.00588513584380745,-0.0058328784588948
4,0.00587947620756513,-0.00678755167269252,0.992007963717267,-0.0401902973848305,0.992007964068413,-0.0401902972282482,0.00587363931806717,-0.00676660140242191
4.5,0.00585698508168386,-0.00771647236759776,0.991629133002586,-0.0449776990533604,0.991629133217558,-0.0449776989822048,0.00585060356604306,-0.00769241943739019
5,0.00582539802666693,-0.00863958270956289,0.99123245914627,-0.0497578743647438,0.991232459244817,-0.0497578743413385,0.00581845796108382,-0.00861239765297483
5.5,0.00578616852593772,-0.00955838804754272,0.990811828872322,-0.0545299968483164,0.990811828876689,-0.0545299968498902,0.00577864660428595,-0.00952803311384898
6,0.00574019729563835,-0.0104739944195078,0.990362724611418,-0.0592927875788618,0.990362724543604,-0.0592927875921063,0.00573206455178976,-0.0104404236373856
6.5,0.00568806169214175,-0.0113872290574424,0.989881745262734,-0.0640448802757998,0.989881745143515,-0.0640448802932774,0.00567928581050525,-0.0113503885794213
7,0.00563014173868304,-0.0122987230793576,0.989366279372237,-0.0687849810409098,0.989366279220919,-0.0687849810587036,0.00562068854258402,-0.0122585515616418
7.5,0.00556669244420971,-0.0132089678103213,0.988814286479846,-0.0735119298550186,0.988814286314282,-0.0735119298711897,0.00555652689273911,-0.0131653967499794
8,0.0054978869261606,-0.0141183533998497,0.988224150857162,-0.0782247156140512,0.988224150693875,-0.0782247156277158,0.00548697380917407,-0.0140713074113705
8.5,0.00542384300824439,-0.0150271956289041,0.987594582603316,-0.0829224698593789,0.987594582457601,-0.0829224698700486,0.00541214745121976,-0.014976592662741
9,0.00534464012337466,-0.0159357547884511,0.986924549509499,-0.0876044514969392,0.986924549395532,-0.0876044515041583,0.00533212796975346,-0.0158815063001239
9.5,0.00526033034413598,-0.0168442491736203,0.986213228938265,-0.0922700285224582,0.986213228869176,-0.0922700285255837,0.00524696845710604,-0.016786260252549
10,0.00517094575301813,-0.0177528648706984,0.985459972805076,-0.0969186596664615,0.985459972793012,-0.0969186596645297,0.00515670226342668,-0.017691034336794
10.5,0.00506578850680117,-0.018645853792262,0.984748380360565,-0.101604852123559,0.984748380348568,-0.101604852121547,0.00505109044821817,-0.0185808044255475
11,0.00495511778933666,-0.019539583948986,0.984014087641036,-0.10627484984541,0.984014087629107,-0.106274849843318,0.00493994314744828,-0.019471295607449
11.5,0.00483887836005387,-0.0204340803885925,0.983257904388281,-0.110929018327419,0.983257904376422,-0.110929018325248,0.00482320529668256,-0.0203625316445688
12,0.00471701235514427,-0.0213293665793737,0.982480563306287,-0.115567758421893,0.9824805632945,-0.115567758419648,0.00470081925051613,-0.0212545346849469
12.5,0.00458945929305432,-0.022225464306536,0.981682721791015,-0.120191496804564,0.981682721779304,-0.120191496802248,0.0045727247921738,-0.0221473251598558
13,0.00445615608309685,-0.0231223935649441,0.980864964566868,-0.12480067737566,0.980864964555234,-0.124800677373273,0.00443885914626788,-0.0230409216777998
13.5,0.00431703703751518,-0.0240201724483153,0.980027807030226,-0.129395753621952,0.98002780701867,-0.129395753619497,0.00429915699504813,-0.0239353409153349
14,0.00417203388741402,-0.024918817034898,0.979171699118107,-0.133977181935737,0.979171699106631,-0.133977181933217,0.00415355049851091,-0.0248305975046721
14.5,0.00402107580292212,-0.025818341269674,0.978297029540003,-0.138545415862789,0.978297029528609,-0.138545415860206,0.00400196931871931,-0.0257267039182274
15,0.00386408941800026,-0.0267187568431799,0.977404130232148,-0.143100901232984,0.977404130220837,-0.143100901230342,0.00384434064872756,-0.0266236703501201
15.5,0.00370099886028755,-0.0276200730671081,0.976493280914623,-0.147644072114576,0.976493280903397,-0.147644072111875,0.0036805892464626,-0.0275215045948589
16,0.00353172578643145,-0.0285222967467744,0.975564713652134,-0.152175347524528,0.975564713640993,-0.152175347521773,0.00351063747398384,-0.0284202119232519
16.5,0.0033561894232734,-0.0294254320506977,0.974618617338235,-0.156695128822923,0.97461861732718,-0.156695128820115,0.00333440534246841,-0.0293197949558404
17,0.00317430661535821,-0.0303294803774929,0.973655142040111,-0.161203797717814,0.973655142029144,-0.161203797714954,0.00315181056334787,-0.0302202535340173
17.5,0.00298599187915265,-0.0312344402203184,0.972674403156298,-0.16570171480788,0.972674403145418,-0.165701714804974,0.00296276860595464,-0.0311215845891044
18,0.00279115746440838,-0.0321403070292199,0.971676485353043,-0.170189218592923,0.971676485342253,-0.170189218589971,0.0027671927620848,-0.0320237820096874
18.5,0.00258971342308023,-0.0330470730716703,0.970661446256377,-0.174666624886233,0.970661446245677,-0.174666624883239,0.00256499421783152,-0.0329268365075488
19,0.00238156768618746,-0.033954727291718,0.969629319886365,-0.179134226567696,0.969629319875755,-0.17913422656466,0.00235608213307344,-0.0338307354825571
19.5,0.00216662614903829,-0.0348632551681161,0.968580119827811,-0.183592293621803,0.968580119817292,-0.183592293618729,0.002140363728967,-0.0347354628869141
20,0.00194479276515439,-0.0357726385719839,0.967513842137825,-0.188041073410387,0.967513842127397,-0.188041073407278,0.00191774438377162,-0.0356409990892499
20.5,0.00171596964928178,-0.0366828556244081,0.966430467995491,-0.192480791135242,0.966430467985155,-0.192480791132094,0.00168812773733593,-0.0365473207390012
21,0.00148005718980776,-0.0375938805546063,0.965329966102564,-0.196911650451334,0.96532996609232,-0.196911650448154,0.00145141580453856,-0.0374544006316415
21.5,0.00123695417087438,-0.0385056835592317,0.964212294846691,-0.201333834196316,0.964212294836539,-0.201333834193104,0.00120750909794295,-0.0383622075753149
22,0.000986557904484098,-0.0394182306634279,0.963077404240541,-0.205747505206765,0.963077404230482,-0.205747505203524,0.000956306759905157,-0.0392707062594821
22.5,0.000728764372812218,-0.040331483584366,0.961925237651313,-0.21015280719598,0.961925237641347,-0.210152807192712,0.000697706704339746,-0.0401798571262288
23,0.000463468380913989,-0.0412453995979258,0.96075573333569,-0.214549865672025,0.960755733325817,-0.21454986566873,0.00043160576829071,-0.0410896162449159
23.5,0.000190563720000259,-0.0421599314093175,0.959568825795453,-0.218938788878246,0.959568825785672,-0.218938788874928,0.000157899873435896,-0.0419999351908689
24,-9.00566586712892E-005,-0.0430750270284403,0.958364446968786,-0.223319668741619,0.958364446959099,-0.223319668738278,-0.000123515802420149,-0.042910760928903
24.5,-0.000378500459200126,-0.0439906296507737,0.957142527271859,-0.22769258181693,0.957142527262265,-0.227692581813566,-0.000412746643846051,-0.0438220357023926
25,-0.000674875845809442,-0.0449066775446867,0.955902996504668,-0.232057590217222,0.955902996495169,-0.232057590213838,-0.000709898406315801,-0.0447336969287515
25.5,-0.000979291237035662,-0.0458231039460468,0.954645784634367,-0.236414742522959,0.954645784624962,-0.236414742519557,-0.00101507701489295,-0.045645677102117
26,-0.00129185508951551,-0.0467398369610077,0.95337082246849,-0.240764074664049,0.953370822459179,-0.240764074660631,-0.00132838835322147,-0.0465579037040667
26.5,-0.00161267567159407,-0.0476567994779313,0.952078042229627,-0.245105610770419,0.952078042220409,-0.245105610766985,-0.00164993804307223,-0.0474702991232765
27,-0.00194186082707265,-0.048573909089348,0.950767378042208,-0.249439363987995,0.950767378033084,-0.249439363984547,-0.00197983121475587,-0.0483827805849324
27.5,-0.00227951772947932,-0.0494910780248943,0.949438766341201,-0.253765337258008,0.949438766332172,-0.253765337254547,-0.0023181722687875,-0.0492952600907697
28,-0.00262575262734949,-0.0504082130961709,0.948092146211669,-0.258083524058405,0.948092146202735,-0.258083524054933,-0.00266506462926908,-0.0502076443706438
28.5,-0.00298067058106849,-0.0513252156544306,0.94672745966732,-0.262393909106807,0.94672745965848,-0.262393909103325,-0.0030206104895385,-0.0511198348464248
29,-0.00334437519193781,-0.0522419815619868,0.945344651875408,-0.266696469025011,0.945344651866663,-0.266696469021519,-0.00338491055070006,-0.0520317276090672
29.5,-0.00371696832419749,-0.0531584011782509,0.943943671334635,-0.270991172965534,0.943943671325985,-0.270991172962034,-0.00375806375376342,-0.0529432134096908
30,-0.00409854982083763,-0.0540743593612003,0.942524470012012,-0.275277983200975,0.942524470003457,-0.275277983197467,-0.0041401670061626,-0.0538541776653894
30.5,-0.00448921721412388,-0.0549897354851012,0.94108700344401,-0.279556855677268,0.941087003435549,-0.279556855673756,-0.0045313149035397,-0.0547645004805322
31,-0.00488906543182976,-0.055904403475199,0.939631230806788,-0.283827740532113,0.939631230798421,-0.283827740528596,-0.00493159944773747,-0.0556740566842109
31.5,-0.00529818650029068,-0.0568182318600856,0.938157114959718,-0.288090582579972,0.938157114951446,-0.288090582576451,-0.00534110976203744,-0.0565827158844836
32,-0.00571666924542186,-0.0577310838423166,0.936664622466002,-0.292345321765151,0.936664622457825,-0.292345321761628,-0.00575993180473722,-0.057490342539908
32.5,-0.00614459899298092,-0.0586428173878248,0.935153723593685,-0.296591893584528,0.935153723585604,-0.296591893581003,-0.00618814808224977,-0.0583967960488929
33,-0.00658205726937133,-0.0595532853345415,0.933624392300037,-0.300830229481494,0.933624392292051,-0.300830229477969,-0.00662583736295408,-0.0593019308572182
33.5,-0.00702912150438922,-0.0604623355205693,0.932076606201876,-0.305060257212721,0.932076606193985,-0.305060257209198,-0.00707307439309257,-0.0602055965840234
34,-0.00748586473734708,-0.0613698109321392,0.930510346534127,-0.309281901189321,0.930510346526331,-0.309281901185798,-0.00752992961607607,-0.0611076381664815
34.5,-0.00795235532805588,-0.0622755498714176,0.928925598098606,-0.31349508279389,0.928925598090905,-0.31349508279037,-0.00799646889655953,-0.0620078960232104
35,-0.0084286566742135,-0.0631793861441976,0.927322349204778,-0.317699720675,0.927322349197173,-0.317699720671484,-0.00847275325073754,-0.0629062062364172
35.5,-0.0089148269367274,-0.0640811492672992,0.925700591604014,-0.321895731020514,0.925700591596505,-0.321895731017003,-0.00895883858428942,-0.0638024007526277
36,-0.00941091877456002,-0.0649806646953996,0.924060320418659,-0.326083027811126,0.924060320411245,-0.326083027807621,-0.00945477543944251,-0.0646963076017284
36.5,-0.00991697909065686,-0.0658777540668967,0.92240153406707,-0.330261523055446,0.922401534059751,-0.330261523051948,-0.00996060875260996,-0.0655877511339269
37,-0.0104330487905108,-0.0667722354682143,0.92072423418562,-0.334431127007857,0.920724234178397,-0.334431127004366,-0.0104763776240556,-0.0664765522741013
37.5,-0.0109591625549211,-0.067663923715888,0.919028425548497,-0.338591748370358,0.91902842554137,-0.338591748366876,-0.0110021151010236,-0.0673625287928963
38,-0.0114953486284132,-0.0685526306555657,0.917314115986057,-0.342743294479476,0.917314115979026,-0.342743294476004,-0.0115378479757079,-0.0682454955937655
38.5,-0.0120416286247881,-0.0694381654769356,0.915581316302341,-0.346885671479322,0.915581316295406,-0.346885671475861,-0.0120835965994242,-0.0691252650150567
39,-0.0125980173511601,-0.0703203350435018,0.913830040192286,-0.351018784481764,0.913830040185447,-0.351018784478313,-0.0126393747142608,-0.070001647146096
39.5,-0.0131645226517936,-0.0711989442359029,0.912060304159096,-0.35514253771464,0.912060304152353,-0.355142537711203,-0.0132051893034141,-0.0708744501561116
40,-0.0137411452729171,-0.0720737963074498,0.910272127432123,-0.359256834658895,0.910272127425476,-0.35925683465547,-0.013781040461339,-0.071743480634711
40.5,-0.0143278787496338,-0.0729446932503548,0.908465531885605,-0.363361578175414,0.908465531879054,-0.363361578172004,-0.0143669212847304,-0.0726085439425475
41,-0.0149247093158753,-0.0738114361710756,0.906640541958482,-0.367456670622346,0.906640541952028,-0.367456670618951,-0.0149628177852569,-0.0734694445706623
41.5,-0.0155316158382439,-0.0746738256730592,0.904797184575547,-0.371542013963581,0.904797184569189,-0.371542013960203,-0.0155687088248298,-0.0743259865069545
42,-0.0161485697744444,-0.0755316622451119,0.902935489070065,-0.37561750986906,0.902935489063803,-0.375617509865697,-0.0161845660740738,-0.0751779736080955
42.5,-0.0167755351568403,-0.0763847466535503,0.901055487108009,-0.379683059807503,0.901055487101843,-0.379683059804159,-0.0168103539945269,-0.0760252099751937
43,-0.0174124686015152,-0.0772328803362101,0.899157212614032,-0.383738565132142,0.899157212607963,-0.383738565128818,-0.0174460298449297,-0.0768675003314168
43.5,-0.0180593193430636,-0.0780758657963798,0.897240701699229,-0.387783927159953,0.897240701693255,-0.387783927156649,-0.0180915437118456,-0.0777046503997556
44,-0.0187160292951494,-0.0789135069946667,0.895305992590753,-0.391819047244891,0.895305992584876,-0.391819047241605,-0.0187468385646635,-0.0785364672791056
44.5,-0.0193825331367015,-0.0797456097368379,0.893353125563338,-0.395843826845563,0.893353125557558,-0.3958438268423,-0.0194118503349004,-0.0793627598168007
45,-0.0200587584234563,-0.0805719820556476,0.891382142872723,-0.399858167587775,0.891382142867039,-0.399858167584534,-0.0200865080195403,-0.080183338975756
45.5,-0.0207446257243547,-0.081392434584719,0.889393088690991,-0.403861971322307,0.889393088685403,-0.40386197131909,-0.0207707338080063,-0.0809980181944212
46,-0.0214400487821571,-0.0822067809225655,0.887386009043835,-0.407855140178292,0.887386009038343,-0.407855140175098,-0.0214644432321834,-0.0818066137377189
46.5,-0.0221449346974645,-0.0830148379849383,0.885360951749705,-0.411837576612525,0.885360951744309,-0.411837576609357,-0.0221675453387745,-0.0826089450372791
47,-0.0228591841351705,-0.0838164263437156,0.883317966360836,-0.415809183455006,0.883317966355537,-0.415809183451864,-0.0228799428831105,-0.0834048350192822
47.5,-0.0235826915522204,-0.0846113705506775,0.881257104106121,-0.419769863950984,0.881257104100917,-0.419769863947868,-0.0236015325433994,-0.0841941104183215
48,-0.0243153454454278,-0.0853994994446015,0.879178417835776,-0.423719521799785,0.879178417830669,-0.423719521796697,-0.0243322051542739,-0.0849766020758331
48.5,-0.0250570286179378,-0.0861806464402368,0.877081961967791,-0.427658061190646,0.877081961962779,-0.427658061187587,-0.0250718459583533,-0.0857521452216601
49,-0.0258076184628508,-0.0869546497978477,0.874967792436085,-0.431585386835781,0.874967792431169,-0.431585386832751,-0.0258203348744571,-0.0865205797375495
49.5,-0.0265669872623722,-0.0877213528721581,0.87283596664035,-0.435501404000884,0.87283596663553,-0.435501403997885,-0.0265775467809707,-0.0872817504013943
50,-0.0273350025008133,-0.0884806043396797,0.87068654339752,-0.439406018533262,0.870686543392796,-0.439406018530294,-0.0273433518128168,-0.0880355071112626
50.5,-0.028111527189662,-0.0892322584035659,0.868519582894814,-0.443299136887769,0.868519582890185,-0.443299136884832,-0.0281176156703847,-0.0887817050883515
51,-0.0288964202028998,-0.0899761749752865,0.866335146644312,-0.447180666150689,0.866335146639778,-0.447180666147786,-0.0289001999387257,-0.0895202050581423
51.5,-0.0296895366206979,-0.0907122198326038,0.864133297439015,-0.45105051406175,0.864133297434576,-0.45105051405888,-0.0296909624152862,-0.090250873409234
52,-0.0304907280796177,-0.0914402647534764,0.861914099310322,-0.45490858903437,0.861914099305979,-0.454908589031535,-0.0304897574444134,-0.0909735823294457
52.5,-0.0312998431274064,-0.092160187625691,0.859677617486898,-0.45875480017428,0.859677617482649,-0.45875480017148,-0.0312964362568583,-0.0916882099189311
53,-0.0321167275805243,-0.0928718725322064,0.857423918354854,-0.462589057296641,0.857423918350699,-0.462589057293878,-0.0321108473125201,-0.0923946402802462
53.5,-0.032941224882528,-0.093575209812315,0.855153069419226,-0.466411270941766,0.855153069415167,-0.46641127093904,-0.03293283664466,-0.0930927635854022
54,-0.0337731764615117,-0.0942700960989227,0.852865139266675,-0.470221352389523,0.852865139262709,-0.470221352386834,-0.0337622482038903,-0.0937824761201247
54.5,-0.0346124220848345,-0.0949564343323752,0.850560197529372,-0.474019213672549,0.850560197525501,-0.474019213669899,-0.0345989242002471,-0.0944636803056718
55,-0.0354588002094459,-0.0956341337514026,0.84823831485003,-0.477804767588332,0.848238314846253,-0.477804767585721,-0.0354427054417399,-0.0951362846986787
55.5,-0.0363121483261937,-0.0963031098618878,0.845899562848022,-0.481577927710245,0.845899562844339,-0.481577927707675,-0.036293431667826,-0.0958002039696471
56,-0.0371723032965944,-0.096963284384284,0.843544014086563,-0.485338608397614,0.843544014082972,-0.485338608395085,-0.0371509418763459,-0.0964553588607973
56.5,-0.0380391016806384,-0.0976145851806183,0.841171742040892,-0.489086724804878,0.841171742037394,-0.48908672480239,-0.0380150746425352,-0.0971016761241192
57,-0.0389123800543172,-0.0982569461621131,0.838782821067435,-0.492822192889901,0.83878282106403,-0.492822192887456,-0.0388856684288312,-0.0977390884405398
57.5,-0.0397919753156685,-0.0988903071785464,0.836377326373894,-0.49654492942151,0.836377326370581,-0.496544929419108,-0.0397625618842963,-0.0983675343212284
58,-0.040677724978254,-0.0995146138905367,0.833955333990227,-0.500254851986286,0.833955333987006,-0.500254851983929,-0.0406455941325715,-0.0989869579921182
58.5,-0.0415694674511088,-0.100129817626014,0.831516920740502,-0.503951878994684,0.831516920737373,-0.503951878992372,-0.0415346050474105,-0.0995973092627954
59,-0.0424670423043258,-0.100735875222168,0.829062164215557,-0.507635929686501,0.829062164212519,-0.507635929684236,-0.0424294355149403,-0.100198543380952
59.5,-0.0433702905195602,-0.101332748854214,0.826591142746462,-0.511306924135761,0.826591142743515,-0.511306924133542,-0.0433299276819132,-0.100790620873644
60,-0.0442790547248683,-0.101920405852332,0.824103935378738,-0.514964783255029,0.824103935375882,-0.514964783252856,-0.0442359251893381,-0.101373507376607
60.5,-0.0451931794134135,-0.10249881850814,0.821600621847304,-0.518609428799211,0.821600621844538,-0.518609428797087,-0.0451472733909882,-0.101947173452931
61,-0.0461125111456977,-0.103067963872092,0.819081282552122,-0.522240783368864,0.819081282549446,-0.522240783366788,-0.0460638195563903,-0.102511594402358
61.5,-0.0470368987350851,-0.103627823543125,0.816545998534517,-0.525858770413045,0.81654599853193,-0.525858770411018,-0.0469854130580271,-0.103066750062506
62,-0.0479661934165084,-0.104178383451923,0.813994851454135,-0.529463314231726,0.813994851451637,-0.529463314229749,-0.0479119055425742,-0.103612624603269
