"Freq [GHz]","re(St(P1,P1)) []","im(St(P1,P1)) []","re(St(P1,P2)) []","im(St(P1,P2)) []","re(St(P2,P1)) []","im(St(P2,P1)) []","re(St(P2,P2)) []","im(St(P2,P2)) []"
0,0.00437437153152587,0,0.995638552602031,0,0.995638550986769,0,0.00437437602931823,0
0.5,0.00482944414243747,0.000123343544629506,0.995097638887302,-0.0069746816346381,0.995097638836477,-0.00697468136112533,0.00482958241784814,0.000122960964503704
1,0.00520956413761198,-0.000319683379647273,0.994496628989712,-0.0133597643660366,0.99449662899849,-0.0133597642880794,0.00520996002226681,-0.000320579736687421
1.5,0.00521700270815906,-0.000968067437341347,0.993954758911968,-0.0198264636700429,0.993954758952301,-0.019826463585165,0.00521665699133322,-0.000969692107243958
2,0.00519519115069045,-0.0015151364862156,0.993327171158697,-0.0261237890249717,0.993327171219735,-0.0261237889498922,0.00519493202959254,-0.00151734777799817
2.5,0.00515865339793553,-0.0020171075080313,0.992668790654424,-0.0322770440195796,0.992668790722052,-0.0322770439613311,0.00515881187068068,-0.0020199012596791
3,0.00511129104559149,-0.00249219156468605,0.992006773438018,-0.03832106902051,0.992006773500701,-0.0383210689790818,0.00511206586645319,-0.00249558905215785
3.5,0.00505474350077417,-0.00294757250390454,0.991348415518519,-0.0442867039276837,0.991348415569092,-0.0442867038998216,0.00505628120101154,-0.00295160328681554
4,0.00498999745004891,-0.00338631922078214,0.990690242836699,-0.0501965156473254,0.99069024287191,-0.0501965156290662,0.00499241624267244,-0.00339101678921772
4.5,0.00491782116634809,-0.00380972003752156,0.990024301261669,-0.0560652791893048,0.990024301281082,-0.0560652791772291,0.00492121950825242,-0.00381511999913009
5,0.00483890627283734,-0.00421822560245921,0.989341589109455,-0.061901913254454,0.989341589114421,-0.0619019132460519,0.00484336633476556,-0.0042243645020541
5.5,0.004753918222975,-0.0046118810258946,0.988633624527055,-0.0677113882825653,0.988633624519988,-0.0677113882761988,0.00475950747942822,-0.00461879536168208
6,0.00466351353014605,-0.00499054311412905,0.98789301399673,-0.0734961782484946,0.987893013980627,-0.0734961782431984,0.00467028563986094,-0.00499826844732709
6.5,0.00456834356277347,-0.00535399711805074,0.987113553219952,-0.0792572498775082,0.9871135531981,-0.0792572498727937,0.00457633901179599,-0.00536256725950945
7,0.00446905262204045,-0.00570202228713157,0.986290138245355,-0.0849946981647154,0.986290138221142,-0.0849946981603766,0.00447829932974397,-0.00571146856772931
7.5,0.00436627364881353,-0.00603442939246523,0.985418617730879,-0.090708139718175,0.985418617707689,-0.0907081397141534,0.00437678762033272,-0.00604478002836473
8,0.00426062314541564,-0.00635108193341249,0.984495642013831,-0.0963969490536112,0.984495641994965,-0.0963969490498844,0.00427240919952909,-0.00636236149553859
8.5,0.00415269611584285,-0.00665190734928345,0.983518529198631,-0.102060396107883,0.983518529187265,-0.102060396104409,0.00416574869064101,-0.00666413634269514
9,0.00404306144727451,-0.00693690185647089,0.982485152991085,-0.107697722879113,0.982485152990239,-0.10769772287578,0.00405736547264746,-0.00695009641125388
9.5,0.00393225795301347,-0.00720613110397039,0.981393850948176,-0.113308183231463,0.981393850960692,-0.113308183228073,0.00394778977272559,-0.00722030277547514
10,0.0038207911798428,-0.00745972804678985,0.980243349938269,-0.118891060895739,0.980243349966799,-0.118891060892,0.00383751950360636,-0.00747488371976779
10.5,0.00375903515695589,-0.00782963114022373,0.979175812979963,-0.124497405201185,0.979175813008872,-0.124497405199113,0.00377489251190591,-0.00784455850878896
11,0.00369430183575624,-0.00819907588879154,0.978085101749327,-0.130077185200354,0.978085101778428,-0.130077185199931,0.00370929142079359,-0.0082136271933746
11.5,0.00362659744926758,-0.00856803888174706,0.976972192511264,-0.135631958874438,0.976972192540385,-0.135631958875628,0.00364073018717571,-0.00858205866896533
12,0.00355592882158044,-0.00893649652979711,0.975837849696191,-0.141163235038118,0.975837849725174,-0.141163235040868,0.003569224021083,-0.00894982162499902
12.5,0.00348230341573955,-0.00930442506932661,0.974682650150105,-0.146672456595859,0.974682650178806,-0.146672456600102,0.0034947894825348,-0.00931688456731861
13,0.00340572938536053,-0.0096718005692269,0.973507006673229,-0.152160988418384,0.973507006701523,-0.152160988424045,0.00341744458592076,-0.00968321584751175
13.5,0.00332621563019167,-0.0100385989407035,0.972311190338917,-0.157630109159225,0.972311190366691,-0.157630109166219,0.0033372089122766,-0.0100487837002228
14,0.00324377185586167,-0.0104047959504738,0.971095351255541,-0.163081006357471,0.971095351282699,-0.163081006365709,0.00325410372982621,-0.0104135562896155
14.5,0.00315840863804601,-0.0107703672378543,0.969859537573173,-0.168514774221438,0.969859537599632,-0.168514774230827,0.0031681521231183,-0.0107775017663219
15,0.00307013749130766,-0.011135288336281,0.96860371264596,-0.173932413549309,0.968603712671648,-0.173932413559753,0.00307937913106426,-0.0111405883364366
15.5,0.00297897094285571,-0.0114995346998974,0.967327770343657,-0.179334833309994,0.967327770368518,-0.1793348333214,0.00298781189411201,-0.0115027843442803
16,0.00288492261147455,-0.0118630817358989,0.966031548565658,-0.184722853475126,0.966031548589647,-0.184722853487399,0.00289347981072247,-0.0118640583708767
16.5,0.00278800729185807,-0.0122259048434796,0.964714841051961,-0.190097208758103,0.964714841075041,-0.190097208771151,0.0027964147031897,-0.0122243793504184
17,0.00268824104458024,-0.0125879794602581,0.963377407611702,-0.195458552975812,0.963377407633847,-0.195458552989544,0.00269665099270977,-0.0125837167071907
17.5,0.00258564129190547,-0.0129492811172378,0.96201898290439,-0.200807463802263,0.962018982925583,-0.200807463816593,0.00259422588340619,-0.0129420405157785
18,0.00248022691960867,-0.0133097855035009,0.960639283914768,-0.206144447730312,0.960639283934998,-0.206144447745157,0.00248917955478234,-0.0132993216877493
18.5,0.00237201838492745,-0.0136694685419152,0.959238016261606,-0.211469945097716,0.959238016280869,-0.211469945112997,0.00238155536175316,-0.0136555321882903
19,0.00226103783070936,-0.0140283064774027,0.957814879475738,-0.216784335067751,0.957814879494036,-0.216784335083392,0.00227140004102561,-0.0140106452867856
19.5,0.00214730920572537,-0.0143862759794446,0.956369571374715,-0.222087940482709,0.956369571392055,-0.222087940498639,0.00215876392211345,-0.0143646358456433
20,0.00203085839101408,-0.0147433542607289,0.954901791651761,-0.227381032531544,0.954901791668155,-0.227381032547698,0.00204370114068064,-0.0147174806521777
20.5,0.00191171333197027,-0.0150995192140977,0.953411244786205,-0.232663835191522,0.953411244801668,-0.232663835207835,0.0019262698511614,-0.0150691587987741
21,0.00178990417572111,-0.0154547495701922,0.951897642371759,-0.237936529418362,0.95189764238631,-0.237936529434778,0.00180653243474971,-0.0154196521170245
21.5,0.00166546341308982,-0.0158090250784686,0.95036070494845,-0.243199257070936,0.950360704962109,-0.243199257087401,0.00168455569774967,-0.0157689456718866
22,0.00153842602416104,-0.0161623267146145,0.948800163413929,-0.248452124565387,0.948800163426721,-0.24845212458185,0.00156041105401306,-0.0161170283223657
22.5,0.00140882962611849,-0.0165146369176332,0.9472157600805,-0.253695206260156,0.94721576009245,-0.253695206276572,0.00143417468366397,-0.0164638933553991
23,0.00127671462155526,-0.0168659398603284,0.945607249435564,-0.25892854757838,0.945607249446698,-0.258928547594706,0.0013059276585049,-0.0168095391998551
23.5,0.00114212434494221,-0.0172162217571628,0.943974398655421,-0.264152167877485,0.943974398665767,-0.264152167893682,0.00117575602239312,-0.0171539702274235
24,0.00100510520426733,-0.0175654712139124,0.942316987915373,-0.269366063078219,0.94231698792496,-0.26936606309425,0.00104375081244412,-0.0174971976469185
24.5,0.000865706814054346,-0.0179136796238726,0.940634810532885,-0.274570208066838,0.940634810541742,-0.274570208082672,0.00091000800411184,-0.0178392404977639
25,0.000723982115014121,-0.0182608416156886,0.938927672975132,-0.279764558884909,0.938927672983289,-0.279764558900519,0.000774628360051655,-0.0181801267472781
25.5,0.000579987474414345,-0.0186069555582018,0.93719539475751,-0.284949054721559,0.937195394764997,-0.284949054736917,0.000637717159154061,-0.0185198944945291
26,0.000433782759889312,-0.0189520241278867,0.935437808255522,-0.290123619722824,0.935437808262367,-0.290123619737906,0.000499383778313711,-0.0188585932809247
26.5,0.000285431377767098,-0.0192960549445633,0.933654758448916,-0.29528816463248,0.93365475845515,-0.295288164647267,0.000359741095433241,-0.0191962855040158
27,0.000135000265101715,-0.0196390612809736,0.931846102613851,-0.300442588278099,0.931846102619505,-0.300442588292572,0.000218904677991794,-0.01953304792614
27.5,-1.74401776356081E-005,-0.0199810628514612,0.930011709976238,-0.305586778915433,0.930011709981338,-0.305586778929574,7.69917174316959E-005,-0.0198689732631359
28,-0.000171816228802801,-0.020322086684377,0.928151461337132,-0.310720615443457,0.928151461341708,-0.310720615457253,-6.58803340607417E-005,-0.0202041718302373
28.5,-0.000328051081261771,-0.0206621680816415,0.926265248679178,-0.315843968501591,0.92626524868326,-0.315843968515031,-0.000209595470690827,-0.02053877321214
29,-0.000486065193231966,-0.02100135166726,0.924352974761442,-0.320956701459803,0.924352974765055,-0.320956701472876,-0.000354041231919178,-0.020872927911898
29.5,-0.000645776779647333,-0.0213396925240794,0.922414552708595,-0.326058671311474,0.922414552711767,-0.32605867132417,-0.000499111240359063,-0.0212068089186839
30,-0.000807102473164123,-0.0216772574146935,0.920449905599297,-0.331149729478153,0.920449905602055,-0.331149729490466,-0.000644708222499624,-0.0215406131174842
30.5,-0.000969958187974518,-0.0220141260777973,0.918458966057598,-0.336229722534525,0.918458966059967,-0.33622972254645,-0.000790747548603754,-0.0218745624448151
31,-0.00113426022351321,-0.0223503925852335,0.916441675850404,-0.341298492861238,0.916441675852409,-0.34129849287277,-0.000937161315455404,-0.0222089046740104
31.5,-0.00129992664884776,-0.0226861667372573,0.914397985493362,-0.346355879232535,0.914397985495027,-0.346355879243671,-0.00108390297654232,-0.0225439136926819
32,-0.00146687901146769,-0.0230215754637428,0.912327853866951,-0.351401717345034,0.9123278538683,-0.351401717355772,-0.00123095249742355,-0.0228798891148883
32.5,-0.0016350444160107,-0.0233567641870593,0.910231247844107,-0.356435840293387,0.910231247845161,-0.356435840303728,-0.00137832197847293,-0.0232171550537619
33,-0.00180435801825857,-0.0236918980878629,0.908108141930318,-0.361458078998056,0.908108141931099,-0.361458079007998,-0.00152606164224561,-0.0235560578695657
33.5,-0.00197476597677509,-0.0240271631980575,0.905958517916829,-0.366468262589883,0.905958517917359,-0.366468262599427,-0.00167426602857873,-0.0238969627069485
34,-0.00214622889765392,-0.024362767225792,0.903782364547317,-0.371466218755766,0.903782364547615,-0.371466218764916,-0.00182308017849975,-0.0242402486477231
34.5,-0.0023187257956393,-0.024698939996054,0.901579677198198,-0.37645177404926,0.901579677198284,-0.376451774058018,-0.00197270552092682,-0.0245863023361452
35,-0.00249225857602742,-0.0250359333680938,0.899350457572583,-0.381424754169588,0.899350457572476,-0.381424754177957,-0.00212340510875769,-0.0249355099865345
35.5,-0.00266685701458436,-0.0253740204690001,0.897094713407729,-0.386384984212226,0.897094713407445,-0.386384984220211,-0.00227550779013291,-0.0252882477612784
36,-0.00284258417590322,-0.0257134940635353,0.894812458195762,-0.391332288893843,0.894812458195319,-0.391332288901448,-0.00242941085536691,-0.0256448706118977
36.5,-0.00301954216308747,-0.026054663866971,0.892503710917357,-0.396266492754187,0.892503710916772,-0.396266492761418,-0.00258558068075548,-0.0260056998050717
37,-0.0031978780330868,-0.0263978526040047,0.890168495788003,-0.40118742033719,0.890168495787292,-0.401187420344053,-0.00274455090824322,-0.0263710095030976
37.5,-0.00337778964341928,-0.026743390627977,0.887806842016422,-0.406094896353356,0.887806842015598,-0.406094896359857,-0.00290691776471658,-0.0267410129235295
38,-0.00355953112002005,-0.0270916089459146,0.885418783574711,-0.410988745825304,0.885418783573789,-0.410988745831449,-0.0030733322432816,-0.0271158487499059
38.5,-0.00374341755773167,-0.0274428305519159,0.883004358979735,-0.415868794218128,0.883004358978729,-0.415868794223924,-0.00324448904241742,-0.0274955685847733
39,-0.00392982849231099,-0.0277973600588384,0.880563611085289,-0.420734867556085,0.880563611084211,-0.420734867561541,-0.00342111238096715,-0.0278801263063719
39.5,-0.0041192096266241,-0.0281554717386008,0.87809658688455,-0.425586792526966,0.878096586883412,-0.425586792532088,-0.00360393906201889,-0.0282693701909897
40,-0.00431207226730024,-0.0285173962336689,0.875603337322339,-0.430424396575357,0.875603337321152,-0.430424396580153,-0.00379369942270774,-0.0286630385795663
40.5,-0.00450898994643972,-0.0288833063800522,0.873083917116727,-0.435247507985905,0.873083917115502,-0.435247507990383,-0.00399109704899525,-0.0290607596942809
41,-0.00471059178016481,-0.0292533027724327,0.870538384589504,-0.440055955957558,0.870538384588252,-0.440055955961727,-0.00419678832125164,-0.029462055955723
41.5,-0.00491755226254131,-0.0296273998846883,0.867966801505087,-0.444849570669674,0.867966801503816,-0.444849570673543,-0.00441136295764294,-0.0298663528346084
42,-0.00513057741316708,-0.0300055137075583,0.865369232917398,-0.449628183340796,0.865369232916117,-0.449628183344372,-0.00463532671669697,-0.0302729919264777
42.5,-0.0053503874822185,-0.0303874519493625,0.862745747024315,-0.454391626280802,0.862745747023033,-0.454391626284095,-0.00486908730050883,-0.0306812476036268
43,-0.00557769674751485,-0.0307729078361604,0.860096415029291,-0.459139732937099,0.860096415028015,-0.459139732940117,-0.0051129442750476,-0.0310903463168386
43.5,-0.0058131912801393,-0.0311614584225557,0.857421311009734,-0.463872337935404,0.857421311008471,-0.463872337938155,-0.0053670835188192,-0.0314994874253554
44,-0.00605750586352216,-0.0315525680751618,0.854720511791797,-0.468589277115679,0.854720511790554,-0.468589277118174,-0.0056315763626022,-0.0319078643495821
44.5,-0.00631120147637054,-0.0319455974284001,0.851994096831224,-0.473290387563654,0.851994096830006,-0.473290387565901,-0.00590638323324377,-0.0323146848734295
45,-0.00657474484764664,-0.0323398176691808,0.849242148099905,-0.477975507638383,0.849242148098719,-0.477975507640391,-0.00619136130403836,-0.0327191895617641
45.5,-0.00684849153174205,-0.0327344295341742,0.846464749977836,-0.482644476996204,0.846464749976685,-0.482644476997981,-0.00648627541482627,-0.0331206674787745
46,-0.00713267372687643,-0.0331285859635061,0.843661989150174,-0.487297136611452,0.843661989149065,-0.487297136613008,-0.00679081137575349,-0.0335184686623589
46.5,-0.00742739368938999,-0.0335214170105763,0.840833954509112,-0.491933328794236,0.840833954508048,-0.491933328795579,-0.00710459071443409,-0.0339120130927359
47,-0.00773262312623479,-0.0339120554096277,0.837980737060287,-0.496552897205547,0.837980737059271,-0.496552897206686,-0.00742718595888359,-0.0343007961584924
47.5,-0.00804820844024617,-0.0342996611782429,0.835102429833484,-0.501155686869962,0.83510242983252,-0.501155686870906,-0.00775813565043537,-0.0346843908460528
48,-0.00837388122583688,-0.0346834437802791,0.832199127797401,-0.505741544186162,0.83219912779649,-0.50574154418692,-0.00809695842919694,-0.0350624470446746
48.5,-0.0087092730269781,-0.0350626806675457,0.829270927778215,-0.510310316935471,0.82927092777736,-0.510310316936051,-0.00844316570585046,-0.03543468846359
49,-0.00905393311663649,-0.0354367314071053,0.826317928381782,-0.514861854288595,0.826317928380985,-0.514861854289004,-0.00879627260687688,-0.0358009077042534
49.5,-0.00940734795466519,-0.0358050470270165,0.823340229919234,-0.519396006810732,0.823340229918497,-0.51939600681098,-0.00915580703941005,-0.0361609600277479
50,-0.00976896102242164,-0.0361671746201443,0.820337934335813,-0.523912626465201,0.820337934335137,-0.523912626465295,-0.00952131685629004,-0.036514756317207
50.5,-0.0101381918904394,-0.0365227575882358,0.817311145142735,-0.528411566615721,0.81731114514212,-0.52841156661567,-0.00989237520630604,-0.0368622556704142
51,-0.0105144536119102,-0.0368715321586547,0.814259967351944,-0.532892682027466,0.814259967351391,-0.532892682027278,-0.0102685842282493,-0.0372034579800836
51.5,-0.0108971678082501,-0.0372133209540062,0.811184507413593,-0.537355828866999,0.811184507413102,-0.53735582886668,-0.0106495772927076,-0.0375383967784214
52,-0.0112857770863328,-0.0375480244459658,0.808084873156087,-0.541800864701193,0.808084873155657,-0.541800864700753,-0.0110350200168124,-0.0378671325453963
52.5,-0.0116797546716971,-0.0378756110955359,0.80496117372858,-0.546227648495223,0.804961173728211,-0.546227648494668,-0.0114246102796278,-0.0381897466113853
53,-0.012078611340491,-0.0381961068950392,0.801813519545774,-0.550636040609703,0.801813519545465,-0.550636040609039,-0.0118180774547658,-0.0385063357269599
53.5,-0.0124818998776375,-0.0385095849054337,0.798642022234905,-0.555025902797052,0.798642022234655,-0.555025902796287,-0.0122151810568652,-0.0388170073263073
54,-0.0128892173803928,-0.0388161552467337,0.795446794584807,-0.55939709819715,0.795446794584614,-0.559397098196291,-0.0126157089736866,-0.0391218754757701
54.5,-0.0133002057715833,-0.0391159558654788,0.792227950496937,-0.563749491332345,0.792227950496799,-0.563749491331398,-0.0130194754288585,-0.0394210574740586
55,-0.0137145508946745,-0.0394091442824166,0.788985604938275,-0.56808294810185,0.78898560493819,-0.568082948100822,-0.0134263187938979,-0.0397146710543507
55.5,-0.014131980543712,-0.039695890422084,0.785719873895988,-0.572397335775607,0.785719873895953,-0.572397335774503,-0.0138360993435429,-0.0400028321290692
56,-0.014552261744698,-0.0399763705461083,0.782430874333781,-0.576692522987634,0.782430874333795,-0.576692522986461,-0.0142486970264519,-0.0402856530140435
56.5,-0.0149751975592531,-0.040250762253458,0.779118724149856,-0.58096837972891,0.779118724149915,-0.580968379727674,-0.0146640093044099,-0.0405632410686033
57,-0.0154006236327073,-0.0405192404712066,0.775783542136382,-0.585224777339829,0.775783542136485,-0.585224777338535,-0.0150819490973476,-0.0408356976907271
57.5,-0.0158284046614954,-0.0407819743355938,0.772425447940427,-0.589461588502258,0.772425447940569,-0.58946158850091,-0.0155024428586002,-0.0411031176106942
58,-0.0162584309116783,-0.0410391248518237,0.769044562026266,-0.59367868723122,0.769044562026444,-0.593678687229824,-0.0159254287946214,-0.0413655884319943
58.5,-0.0166906148830623,-0.0412908432189339,0.765641005639011,-0.59787594886624,0.765641005639222,-0.5978759488648,-0.0163508552355137,-0.0416231903740383
59,-0.0171248881823107,-0.0415372697103608,0.762214900769499,-0.602053250062376,0.762214900769739,-0.602053250060897,-0.0167786791568301,-0.0418759961770259
59.5,-0.0175611986434479,-0.0417785330091383,0.758766370120378,-0.606210468780946,0.758766370120642,-0.606210468779433,-0.0172088648488454,-0.0421240711348678
60,-0.0179995077148106,-0.0420147499073291,0.755295537073346,-0.610347484279985,0.755295537073632,-0.610347484278439,-0.0176413827265616,-0.0423674732273093
60.5,-0.0184397881170312,-0.0422460252907972,0.751802525657493,-0.614464177104438,0.751802525657794,-0.614464177102865,-0.0180762082717931,-0.0426062533270515
61,-0.0188820217662473,-0.0424724523419978,0.748287460518683,-0.61856042907612,0.748287460518997,-0.618560429074523,-0.0185133210975843,-0.0428404554618542
61.5,-0.0193261979496843,-0.0426941129043955,0.744750466889961,-0.622636123283441,0.744750466890283,-0.622636123281823,-0.0189527041247007,-0.0430701171152688
62,-0.0197723117362701,-0.0429110779621308,0.741191670562917,-0.626691144070923,0.741191670563243,-0.626691144069287,-0.0193943428598828,-0.0432952695527431
