"Freq [GHz]","re(St(P1,P1)) []","im(St(P1,P1)) []","re(St(P1,P2)) []","im(St(P1,P2)) []","re(St(P2,P1)) []","im(St(P2,P1)) []","re(St(P2,P2)) []","im(St(P2,P2)) []"
0,0.00438925448270311,0,0.995625504467171,0,0.995625494368142,0,0.00438924984666755,0
0.5,0.00488052961205909,-0.000287836984348644,0.995053927599372,-0.00702807941121364,0.995053928900447,-0.00702808102934682,0.0048807616003117,-0.000288747640706077
1,0.00529532453847281,-0.0011911301838694,0.994432494245682,-0.0134256341208108,0.994432494155419,-0.0134256339163699,0.00529593185259003,-0.00119324453006442
1.5,0.00539773988395353,-0.00230717082844123,0.993877011841779,-0.0198957956052865,0.993877011849719,-0.0198957953939605,0.00539885309378185,-0.00231066591931395
2,0.00540638481836631,-0.00334165830302879,0.993255847245504,-0.0261900014896774,0.993255847319827,-0.0261900013141059,0.00540784868350386,-0.00334660581786395
2.5,0.0053763134409559,-0.00433257424858802,0.992622320141201,-0.0323471287712724,0.992622320244814,-0.0323471286450445,0.00537809756970198,-0.00433897432621144
3,0.00532334427681125,-0.00529699182051679,0.991996147864699,-0.0384089314272558,0.991996147969755,-0.0384089313463356,0.0053254620110339,-0.00530484402412057
3.5,0.00525339350935283,-0.00624282163397361,0.991377378382758,-0.044407251441374,0.991377378472811,-0.044407251395171,0.00525587438409447,-0.00625213222704879
4,0.00516917250164983,-0.0071739123142418,0.990757683912052,-0.0503626359746363,0.990757683979334,-0.0503626359520961,0.00517205207655369,-0.00718469380136888
4.5,0.00507216465273697,-0.00809215330568058,0.990126579807355,-0.0562869613496275,0.990126579849568,-0.0562869613416321,0.00507548018653736,-0.00810442323970406
5,0.00496332612946859,-0.00899841504840815,0.989474123170773,-0.0621864056232813,0.989474123188699,-0.0621864056230752,0.00496711448215104,-0.00901219502314099
5.5,0.00484336968163279,-0.00989300656500625,0.988791797585912,-0.0680636970478981,0.988791797581922,-0.0680636970508068,0.00484766617321974,-0.00990832143560105
6,0.0047128915216601,-0.0107759152809175,0.98807261713936,-0.0739195877622887,0.988072617116564,-0.0739195877652481,0.00471772924884806,-0.010792792545689
6.5,0.00457243228207249,-0.0116469408575393,0.987310953425529,-0.0797537562434547,0.987310953387304,-0.0797537562445605,0.00457784167787034,-0.0116654101439657
7,0.00442250774930697,-0.0125057739577796,0.986502300052841,-0.0855653391487534,0.986502300002598,-0.0855653391468989,0.00442851628561436,-0.0125258665750856
7.5,0.00426362471611519,-0.0133520447412421,0.98564305389199,-0.091353235978759,0.98564305383305,-0.0913532359733606,0.00427025669934578,-0.0133737932767968
8,0.00409628906277881,-0.0141853538804266,0.984730335117135,-0.097116278265255,0.984730335052667,-0.0971162782560588,0.00410356549604829,-0.0142087918265741
8.5,0.00392100957953956,-0.0150052930325328,0.983761846380271,-0.10285331917962,0.983761846313274,-0.102853319166559,0.00392894807640043,-0.0150304544363609
9,0.00373829936406395,-0.0158114586933067,0.982735764692495,-0.108563276940293,0.982735764625783,-0.108563276923391,0.00374691410463518,-0.0158383778254034
9.5,0.00354867579966328,-0.0166034617425872,0.981650658617174,-0.114245151804118,0.981650658553383,-0.114245151783435,0.00355797752309989,-0.0166321727829697
10,0.00335265969106613,-0.0173809340882665,0.980505424359842,-0.119898028349901,0.980505424301425,-0.119898028325486,0.00336265571993016,-0.0174114708289519
10.5,0.0031816623157721,-0.0182396165960874,0.979434890394633,-0.125577099977656,0.979434890337194,-0.12557709994937,0.00319071442720242,-0.0182710351007795
11,0.00300240677081667,-0.0190967724742066,0.978338591135554,-0.131230661149072,0.97833859107946,-0.131230661117061,0.00301048935223458,-0.0191289723902397
11.5,0.00281490631228214,-0.0199523267434136,0.977217465054391,-0.136860076290213,0.977217464999976,-0.136860076254663,0.00282199742244756,-0.0199852014758282
12,0.00261917516026972,-0.0208062041368837,0.976072257387266,-0.142466670205415,0.976072257334824,-0.142466670166541,0.00262525690476213,-0.020839640632019
12.5,0.00241522855577012,-0.0216583290965042,0.974903541598429,-0.148051712279316,0.974903541548219,-0.148051712237352,0.00242028750098677,-0.0216922076145116
13,0.00220308282245155,-0.0225086257714331,0.973711740351977,-0.153616404855726,0.973711740304219,-0.153616404810924,0.00220711045268517,-0.0225428196482196
13.5,0.00198275543379009,-0.0233570180191145,0.972497145512183,-0.159161875203587,0.97249714546706,-0.159161875156209,0.00198574865647785,-0.0233913934184633
14,0.00175426508596686,-0.0242034294093076,0.971259936846327,-0.164689170496859,0.97125993680399,-0.164689170447169,0.00175622679081733,-0.0242378450662364
14.5,0.00151763177702362,-0.0250477832315101,0.970000199229853,-0.170199255272523,0.970000199190419,-0.17019925522079,0.0015185714553928,-0.0250820901883539
15,0.00127287689280592,-0.0258900025064421,0.96871793825359,-0.175693010881333,0.968717938217146,-0.175693010827822,0.00127281132444468,-0.0259240438436104
15.5,0.00102002330025774,-0.0267300100022143,0.967413094209427,-0.181171236502409,0.967413094176032,-0.181171236447381,0.00101897731539941,-0.0267636205661992
16,0.000759095448696123,-0.0275677282559719,0.966085554487248,-0.186634651351055,0.966085554456936,-0.186634651294766,0.000757102774365359,-0.0276007343879479
16.5,0.00049011947972244,-0.028403079601977,0.964735164455548,-0.192083897765678,0.96473516442833,-0.192083897708366,0.00048722368018167,-0.02843529887123
17,0.000213123346491095,-0.0292359862071332,0.963361736924181,-0.197519544912264,0.963361736900048,-0.197519544854167,0.000209378868869264,-0.0292672271547625
17.5,-7.186305690704E-005,-0.030066370115307,0.961965060302943,-0.202942092892645,0.961965060281869,-0.202942092833984,-7.63897195363572E-005,-0.0300964320149428
18,-0.000364807755143248,-0.0308941533018343,0.960544905576897,-0.208351977084605,0.960544905558839,-0.208351977025591,-0.000370036769609478,-0.030922825945908
18.5,-0.000665676539586768,-0.0317192577399936,0.959101032220437,-0.213749572578339,0.95910103220534,-0.21374957251917,-0.000671513292351045,-0.0317463212621338
19,-0.000974432803609038,-0.0325416054814376,0.95763319316897,-0.219135198604521,0.957633193156765,-0.21913519854538,-0.000980766297779323,-0.0325668302280988
19.5,-0.00129103736437597,-0.0333611187529672,0.956141138961057,-0.224509122875042,0.956141138951668,-0.224509122816102,-0.00129773843583125,-0.0333842652204983
20,-0.00161544827025367,-0.0341777200724009,0.954624621156043,-0.229871565778707,0.954624621149383,-0.229871565720125,-0.00162236760304091,-0.0341985389294743
20.5,-0.00194762059297748,-0.0349913323867739,0.953083395123379,-0.235222704391368,0.953083395119356,-0.235222704333292,-0.00195458651254699,-0.0350095646066504
21,-0.00228750620383006,-0.0358018792366677,0.951517222290659,-0.240562676273852,0.951517222289174,-0.240562676216418,-0.00229432222512993,-0.0358172563692194
21.5,-0.00263505353318533,-0.036609284951072,0.949925871928219,-0.245891583041821,0.949925871929171,-0.245891582985151,-0.00264149563931693,-0.0366215295711281
22,-0.00299020731298705,-0.0374134748779582,0.948309122539343,-0.251209493700229,0.948309122542627,-0.251209493644435,-0.00299602093915974,-0.0374223012544617
22.5,-0.00335290830202728,-0.0382143756565987,0.946666762916801,-0.256516447741445,0.946666762922308,-0.256516447686628,-0.00335780499916483,-0.0382194906966111
23,-0.00372309299430712,-0.0390119155386213,0.944998592918798,-0.261812458010875,0.944998592926418,-0.261812457957124,-0.00372674674714379,-0.0390130200716192
23.5,-0.00410069331136942,-0.0398060247659919,0.943304424010417,-0.267097513347444,0.943304424020041,-0.267097513294841,-0.00410273648765258,-0.0398028152474841
24,-0.00448563628027771,-0.0405966360153702,0.941584079610366,-0.272371581008652,0.941584079621882,-0.272371580957268,-0.00448565519128741,-0.0405888067448996
24.5,-0.00487784370002337,-0.041383684919797,0.93983739527722,-0.277634608891563,0.939837395290518,-0.277634608841461,-0.00487537375876873,-0.0413709308873156
25,-0.00527723180057021,-0.0421671106803023,0.938064218764444,-0.282886527561965,0.938064218779415,-0.282886527513199,-0.00527175227367821,-0.0421491311769326
25.5,-0.00568371090066616,-0.0429468567818934,0.936264409969072,-0.288127252104413,0.936264409985608,-0.288127252057031,-0.00567463926437828,-0.0429233599364969
26,-0.00609718507303453,-0.0437228718303861,0.93443784079518,-0.293356683805964,0.934437840813174,-0.293356683760005,-0.00608387100449903,-0.0436935802622596
26.5,-0.00651755182878333,-0.044495110528656,0.93258439494997,-0.298574711686136,0.932584394969317,-0.298574711641635,-0.00649927089302427,-0.04445976833898
27,-0.00694470183704715,-0.0452635348131338,0.930703967687439,-0.303781213885308,0.930703967708036,-0.303781213842288,-0.00692064897018252,-0.0452219161728908
27.5,-0.00737851870117484,-0.0460281151734832,0.92879646551217,-0.308976058923174,0.928796465533916,-0.308976058881659,-0.00734780164487331,-0.0459800348024282
28,-0.00781887881953164,-0.0467888321803474,0.926861805853673,-0.314159106838297,0.926861805876472,-0.314159106798302,-0.00778051173418265,-0.04673415804807
28.5,-0.00826565136745555,-0.047545678247461,0.924899916719922,-0.31933021021908,0.924899916743676,-0.319330210180614,-0.00821854894663276,-0.0474843468602653
29,-0.00871869844749323,-0.0482986596549482,0.922910736337191,-0.324489215135821,0.922910736361808,-0.324489215098891,-0.00866167097907011,-0.0482306943157564
29.5,-0.009177875468042,-0.0490477988596716,0.920894212782031,-0.329635961982814,0.920894212807421,-0.32963596194742,-0.00910962544315863,-0.0489733312943446
30,-0.00964303182639442,-0.0497931371152232,0.918850303610107,-0.334770286238715,0.918850303636182,-0.334770286204854,-0.00956215289123946,-0.0497124328358982
30.5,-0.01011401199113,-0.0505347374175369,0.916778975485688,-0.339892019152825,0.916778975512364,-0.33989201912049,-0.0100189912717123,-0.0504482251253648
31,-0.0105906571010134,-0.0512726877805094,0.91468020381486,-0.345000988364206,0.914680203842055,-0.34500098833339,-0.010479882207823,-0.0511809929744207
31.5,-0.0110728072229216,-0.0520071048276756,0.912553972384809,-0.350097018460042,0.912553972412444,-0.350097018430728,-0.0109445795545274,-0.0519110875537245
32,-0.0115603044390655,-0.0527381376581999,0.91040027301104,-0.355179931479003,0.910400273039039,-0.355179931451178,-0.011412860734869,-0.05263893397019
32.5,-0.012052996962535,-0.0534659719053552,0.908219105193918,-0.36024954736494,0.908219105222209,-0.360249547338584,-0.0118845413726492,-0.0533650380708688
33,-0.0125507445071212,-0.0541908338495269,0.906010475785567,-0.365305684375667,0.906010475814079,-0.365305684350759,-0.0123594936961282,-0.0540899915840589
33.5,-0.0130534251580239,-0.0549129943719371,0.903774398667815,-0.370348159451224,0.903774398696481,-0.37034815942774,-0.0128376690526067,-0.0548144743823049
34,-0.0135609439972497,-0.0556327724358505,0.901510894441686,-0.375376788545525,0.901510894470442,-0.37537678852344,-0.0133191246008542,-0.0555392522891391
34.5,-0.014073243721093,-0.0563505376567439,0.899219990128679,-0.380391386924991,0.899219990157462,-0.380391386904277,-0.0138040537868808,-0.0562651684940203
35,-0.0145903174328578,-0.0570667113716781,0.896901718883931,-0.385391769437372,0.896901718912682,-0.385391769418,-0.0142928195116248,-0.0569931263641041
35.5,-0.0151122236836293,-0.057781765446117,0.894556119721239,-0.390377750753683,0.894556119749903,-0.390377750735625,-0.0147859879423681,-0.0577240613660546
36,-0.0156391036458908,-0.0584962178769282,0.892183237249795,-0.395349145585885,0.892183237278317,-0.395349145569105,-0.0152843597294892,-0.0584589000974898
36.5,-0.0161712000162715,-0.059210624088613,0.889783121422411,-0.40030576888267,0.889783121450741,-0.400305768867137,-0.0157889940810641,-0.0591985052631465
37,-0.0167088768362399,-0.0599255627176336,0.88735582729495,-0.405247436005515,0.887355827323039,-0.405247435991194,-0.0163012199587218,-0.0599436069845829
37.5,-0.0172526388871544,-0.0606416146977007,0.884901414796643,-0.410173962886911,0.884901414824445,-0.410173962873766,-0.0168226279691234,-0.0606947231764858
38,-0.0178031486788715,-0.0613593346759485,0.882419948510898,-0.41508516617252,0.88241994853837,-0.415085166160517,-0.0173550368247938,-0.0614520747268354
38.5,-0.0183612383706551,-0.0620792142946842,0.879911497466253,-0.419980863348826,0.879911497493353,-0.419980863337926,-0.0179004300209135,-0.0622155044467632
39,-0.0189279133587955,-0.0628016377443206,0.877376134937029,-0.424860872857679,0.877376134963718,-0.424860872847845,-0.0184608619031733,-0.0629844114308515
39.5,-0.019504343920902,-0.0635268312643311,0.874813938253301,-0.429725014199023,0.874813938279542,-0.429725014190217,-0.0190383374174422,-0.0637577135715885
40,-0.0200918414589129,-0.0642548098839595,0.872224988619755,-0.434573108022937,0.872224988645516,-0.434573108015121,-0.0196346757281936,-0.0645338495350205
40.5,-0.0206918167756579,-0.0649853264582778,0.869609370943042,-0.439404976212031,0.869609370968289,-0.439404976205165,-0.0202513731451143,-0.0653108270441565
41,-0.0213057196224374,-0.0657178296089438,0.866967173667187,-0.444220441955118,0.866967173691891,-0.444220441949163,-0.0208894837058513,-0.0660863172437711
41.5,-0.0219349614493921,-0.066451438028079,0.864298488616705,-0.449019329813001,0.864298488640837,-0.449019329807917,-0.0215495349683436,-0.0668577866756603
42,-0.0225808265682114,-0.0671849382226763,0.861603410846994,-0.453801465777131,0.861603410870529,-0.453801465772879,-0.0222314917077001,-0.0676226511249429
42.5,-0.0232443801644531,-0.0679168107974268,0.858882038501666,-0.458566677321821,0.85888203852458,-0.458566677318361,-0.0229347722584405,-0.0683784314156719
43,-0.0239263839102612,-0.0686452867962277,0.856134472676438,-0.463314793450599,0.856134472698709,-0.463314793447893,-0.0236583132528385,-0.0691228913680151
43.5,-0.0246272304760338,-0.0693684309611868,0.853360817289237,-0.468045644737304,0.853360817310846,-0.468045644735311,-0.0244006708754347,-0.0698541424226351
44,-0.0253469065127703,-0.0700842440163638,0.85056117895621,-0.472759063362352,0.850561178977136,-0.472759063361032,-0.0251601423089465,-0.0705707064505325
44.5,-0.0260849897867251,-0.0707907724567818,0.847735666873292,-0.477454883144683,0.84773566689352,-0.477454883143997,-0.0259348904454697,-0.0712715359161411
45,-0.0268406808920145,-0.0714862128423249,0.844884392703059,-0.482132939569758,0.844884392722575,-0.482132939569667,-0.0267230576226121,-0.0719559969386792
45.5,-0.0276128646092792,-0.0721689986963989,0.842007470466572,-0.486793069813976,0.842007470485363,-0.48679306981444,-0.0275228587822791,-0.0726238247572125
46,-0.0284001918183912,-0.0728378614638803,0.83910501643993,-0.491435112765837,0.839105016457983,-0.491435112766818,-0.0283326495429934,-0.0732750624316494
46.5,-0.0292011707967242,-0.0734918616364435,0.836177149055291,-0.496058909044156,0.836177149072596,-0.496058909045616,-0.0291509690590055,-0.0739099928053115
47,-0.0300142569565167,-0.0741303908934013,0.833223988806107,-0.500664301013588,0.833223988822658,-0.500664301015488,-0.0299765605951107,-0.0745290716525754
47.5,-0.0308379321650494,-0.0747531498864377,0.830245658156361,-0.505251132797693,0.830245658172149,-0.505251132799997,-0.0308083743738661,-0.0751328673657113
48,-0.0316707679294476,-0.0753601085257728,0.827242281453553,-0.50981925028979,0.827242281468574,-0.50981925029246,-0.031645557690083,-0.075722010111732
48.5,-0.0325114700354689,-0.0759514562323242,0.824213984845279,-0.514368501161758,0.824213984859528,-0.514368501164758,-0.0324874369166224,-0.0762971514525747
49,-0.0333589050312962,-0.0765275489311845,0.821160896199166,-0.51889873487099,0.821160896212641,-0.518898734874284,-0.0333334952212313,-0.0768589340779723
49.5,-0.0342121108871173,-0.0770888580889429,0.818083145026014,-0.523409802665642,0.818083145038715,-0.523409802669194,-0.0341833488688708,-0.077407970505845
50,-0.0350702951833006,-0.0776359253474153,0.814980862405951,-0.527901557588337,0.814980862417877,-0.527901557592112,-0.0350367240860378,-0.0779448292426884
50.5,-0.0359328244317343,-0.0781693246601473,0.811854180917454,-0.532373854478432,0.811854180928606,-0.532373854482397,-0.0358934357100336,-0.0784700268323381
51,-0.0367992078542659,-0.0786896325136285,0.808703234569082,-0.536826549972996,0.808703234579462,-0.536826549977117,-0.0367533682685995,-0.0789840243373732
51.5,-0.0376690783692147,-0.0791974058868455,0.805528158733777,-0.54125950250658,0.80552815874339,-0.541259502510823,-0.0376164597259658,-0.0794872270029674
52,-0.0385421728638761,-0.0796931670475459,0.802329090085599,-0.545672572309883,0.802329090094449,-0.545672572314218,-0.0384826878633173,-0.0799799860872994
52.5,-0.0394183131861095,-0.0801773940276538,0.799106166538772,-0.550065621407413,0.799106166546866,-0.550065621411807,-0.0393520591023816,-0.0804626020689424
53,-0.0402973887406596,-0.0806505155756552,0.795859527188921,-0.554438513614204,0.795859527196265,-0.554438513618627,-0.0402245994995705,-0.0809353286409934
53.5,-0.0411793411512031,-0.0811129094698816,0.792589312256393,-0.558791114531673,0.792589312262994,-0.558791114536094,-0.0411003476091255,-0.0813983770669513
54,-0.0420641511444692,-0.0815649032302336,0.789295663031551,-0.563123291542679,0.78929566303742,-0.56312329154707,-0.0419793489175366,-0.0818519206042687
54.5,-0.0429518276111568,-0.0820067764427986,0.785978721821959,-0.567434913805838,0.785978721827104,-0.567434913810171,-0.0428616515739073,-0.0822960988014941
55,-0.0438423986774784,-0.0824387640845183,0.782638631901339,-0.57172585224916,0.782638631905772,-0.571725852253407,-0.043747303172382,-0.0827310215489443
55.5,-0.0447359045591748,-0.082861060388782,0.77927553746025,-0.575995979563036,0.779275537463983,-0.575995979567169,-0.0446363483770954,-0.083156772815979
56,-0.0456323919481038,-0.0832738229214014,0.775889583558379,-0.580245170192643,0.775889583561423,-0.580245170196638,-0.0455288272136753,-0.0835734140449772
56.5,-0.0465319096852581,-0.083677176639075,0.772480916078379,-0.58447330032979,0.772480916080747,-0.584473300333621,-0.0464247738820847,-0.083980987196942
57,-0.0474345054926304,-0.0840712177814175,0.769049681681191,-0.588680247904242,0.769049681682898,-0.588680247907885,-0.0473242159726913,-0.084379517459663
57.5,-0.0483402235621607,-0.0844560175063241,0.765596027762771,-0.592865892574573,0.765596027763831,-0.592865892578006,-0.0482271739906044,-0.0847690156389502
58,-0.049249102828278,-0.0848316252207239,0.762120102412168,-0.597030115718554,0.762120102412596,-0.597030115721753,-0.0491336611127128,-0.0851494802586112
58.5,-0.0501611757782467,-0.0851980715882185,0.758622054370887,-0.601172800423118,0.7586220543707,-0.601172800426062,-0.0500436831178175,-0.0855208993970303
59,-0.0510764676800452,-0.0855553712148248,0.755102032993496,-0.605293831473927,0.755102032992709,-0.605293831476597,-0.050957238443253,-0.0858832522883437
59.5,-0.05199499613,-0.0859035250265531,0.751560188209408,-0.609393095344558,0.751560188208039,-0.609393095346934,-0.0518743183318288,-0.0862365107151727
60,-0.0529167708417331,-0.0862425223599874,0.747996670485802,-0.613470480185339,0.74799667048387,-0.613470480187403,-0.0527949070412764,-0.0865806402181002
60.5,-0.0538417936141525,-0.0865723427907659,0.744411630791638,-0.61752587581184,0.744411630789159,-0.617525875813574,-0.0537189820949665,-0.0869156011448904
61,-0.0547700584295832,-0.0868929577262436,0.74080522056271,-0.62155917369305,0.740805220559703,-0.621559173694437,-0.0546465145578877,-0.0872413495602032
61.5,-0.0557015516440147,-0.0872043317883462,0.737177591667718,-0.625570266939252,0.737177591664203,-0.625570266940277,-0.0555774693259028,-0.087557838034257
62,-0.0566362522401692,-0.0875064240113875,0.733528896375305,-0.62955905028961,0.7335288963713,-0.629559050290259,-0.0565118054194909,-0.0878650163267231
62.5,-0.0575741321210692,-0.0877991888778052,0.729859287322027,-0.633525420099482,0.729859287317553,-0.63352542009974,-0.0574494762755912,-0.0881628319801443
