"Freq [GHz]","re(St(P1,P1)) []","im(St(P1,P1)) []","re(St(P1,P2)) []","im(St(P1,P2)) []","re(St(P2,P1)) []","im(St(P2,P1)) []","re(St(P2,P2)) []","im(St(P2,P2)) []"
0,0.00449737572733966,0,0.99551563768182,0,0.995515636022901,0,0.00449737542174944,0
0.5,0.00491242468640607,0.00126417753900299,0.994984861645577,-0.00727105755496993,0.994984861673043,-0.0072710576673245,0.0049124999300787,0.00126400983626951
1,0.00523726012411352,0.00201047648744179,0.994353796380102,-0.0139851588937177,0.994353796383674,-0.0139851589698132,0.005237497460719,0.00201006150774674
1.5,0.00505594118997266,0.00288253114240078,0.993753826142126,-0.0207823604996484,0.993753826117404,-0.0207823605903776,0.00505591444541054,0.0028812633430455
2,0.00489896567102655,0.00368908583296523,0.993020140579597,-0.0274019628402193,0.993020140531191,-0.0274019629292361,0.00489902344843607,0.00368695188562818
2.5,0.00477997499549554,0.00446421332584634,0.992212273368833,-0.033848681086214,0.992212273306644,-0.0338486811626133,0.00478030311777378,0.00446136982159651
3,0.00469654619418103,0.0052318114022647,0.991371407190613,-0.0401451554681493,0.991371407125418,-0.0401451555270036,0.00469718653114137,0.00522841942834873
3.5,0.00464193275250713,0.00600605845633773,0.990520104261479,-0.0463197434502636,0.990520104202126,-0.0463197434911127,0.00464285279907051,0.00600222953313789
4,0.00460970599791688,0.00679519205376611,0.98966675657124,-0.0523989988889531,0.989666756523629,-0.0523989989138487,0.00461084565328518,0.00679098728333294
4.5,0.00459489104866417,0.00760438745434833,0.988810804797557,-0.0584045101535597,0.988810804764717,-0.0584045101655573,0.00459618491021541,0.00759982975455831
5,0.00459391901512418,0.00843741474161774,0.987946904798067,-0.0643524166988092,0.987946904780728,-0.0643524167010829,0.00459530485610493,0.00843250025627373
5.5,0.00460431211001755,0.00929751225479336,0.98706768885175,-0.0702541351981791,0.987067688848984,-0.0702541351935828,0.00460573302906619,0.00929221820180004
6,0.00462438208983001,0.0101878406998512,0.986165379980286,-0.0761174218646694,0.986165379990074,-0.076117421855602,0.00462578611360448,0.0101821300897216
6.5,0.004653001309113,0.0111117287272036,0.985232634431637,-0.0819473694468806,0.985232634451303,-0.0819473694353094,0.00465434011797156,0.0111055528632553
7,0.00468944213458955,0.0120728198421691,0.98426291937241,-0.0877472057337529,0.984262919398938,-0.0877472057212829,0.00469066958035347,0.012066119327363
7.5,0.00473326786263562,0.013075176419691,0.983250632519197,-0.0935188835856495,0.983250632549445,-0.0935188835736191,0.00473433850968591,0.013067881137502
8,0.00478425971016747,0.0141233696031788,0.982191089280118,-0.0992634968282244,0.982191089310969,-0.099263496817775,0.00478512744911017,0.0141153979400634
8.5,0.00484236848067884,0.0152225708835281,0.981080448745876,-0.104981564765839,0.981080448774328,-0.104981564757989,0.00484298519156895,0.0152138283231573
9,0.00490768309570497,0.0163786552050889,0.97991561694954,-0.110673222982348,0.979915616972767,-0.110673222978024,0.0049079973101618,0.0163690323298979
9.5,0.00498041080344836,0.0175983230900547,0.978694146966504,-0.116338349586405,0.978694146981892,-0.116338349586479,0.0049803663035603,0.0175876929551269
10,0.0050608656617928,0.018889248884816,0.977414145077458,-0.121976648029272,0.977414145082619,-0.121976648034573,0.00506039994615221,0.0188774636687543
10.5,0.00530950825289857,0.0198111644520469,0.97622524902517,-0.127632223460527,0.976225249030084,-0.127632223466786,0.00530952723308885,0.0197987866994085
11,0.00557002785941768,0.0207297968292215,0.975017290665418,-0.133256306161761,0.975017290669995,-0.133256306168931,0.00557055551859305,0.0207168278990868
11.5,0.00584238937292052,0.0216449936817451,0.973791194135723,-0.138851152962863,0.973791194139884,-0.138851152970885,0.00584344974397066,0.021631435459279
12,0.00612655626720929,0.0225566032751265,0.972547609949405,-0.144418899068757,0.972547609953084,-0.144418899077574,0.00612817343323931,0.0225424582439664
12.5,0.00642249063134875,0.0234644745131734,0.971286954288429,-0.149961542526388,0.971286954291566,-0.149961542535931,0.00642468872512909,0.0234497458330636
13,0.00673015320495873,0.0243684569782046,0.970009445459933,-0.155480935059227,0.970009445462482,-0.155480935069428,0.00673295640709864,0.0243531485681592
13.5,0.00704950341591509,0.0252684009735327,0.968715137081661,-0.160978778028316,0.968715137083585,-0.160978778039111,0.00705293595144907,0.0252525176008445
14,0.00738049942053243,0.0261641575684686,0.967403947805959,-0.166456622411209,0.967403947807226,-0.166456622422526,0.00738458555357568,0.0261477049439054
14.5,0.00772309814634936,0.0270555786461451,0.966075687573302,-0.171915871836791,0.966075687573893,-0.171915871848565,0.00772786217241378,0.0270385635256627
15,0.00807725533760895,0.0279425169544991,0.964730080514292,-0.177357787861981,0.964730080514191,-0.177357787874145,0.00808272157311804,0.0279249472478598
15.5,0.0084429256035346,0.0288248261607782,0.963366784703724,-0.18278349681677,0.963366784702927,-0.18278349682926,0.00844911837200521,0.0288067110474386
16,0.00882006246950012,0.029702360909976,0.961985409021222,-0.18819399767204,0.961985409019724,-0.188193997684798,0.00882700608376918,0.0296837109626527
16.5,0.00920861843115467,0.0305749768876704,0.960585527398184,-0.193590170497282,0.96058552739599,-0.19359017051025,0.00921633717096645,0.0305558042039853
17,0.00960854501159936,0.0314425308877673,0.959166690737534,-0.198972785172232,0.95916669073465,-0.198972785185354,0.00961706309574062,0.0314228492303861
17.5,0.0100197928216333,0.0323048808857389,0.957728436786396,-0.204342510097789,0.957728436782833,-0.204342510111016,0.0100291343737162,0.0322847058314046
18,0.0104423116231203,0.033161886117973,0.956270298227053,-0.209699920718663,0.956270298222829,-0.209699920731947,0.0104525006299769,0.0331412352158647
18.5,0.0108760503954527,0.0340134071679719,0.954791809231532,-0.215045507724485,0.954791809226661,-0.215045507737781,0.010887110656966,0.0339923001077569
19,0.0113209574050691,0.0348593060601661,0.953292510702424,-0.2203796848394,0.953292510696928,-0.220379684852667,0.0113329124741214,0.0348377648501359
19.5,0.0117769802779313,0.0356994463622426,0.95177195439909,-0.22570279614397,0.951771954392989,-0.225702796157171,0.0117898533889631,0.0356774955178425
20,0.0122440660747989,0.0365336932969555,0.950229706125018,-0.231015122899263,0.950229706118334,-0.231015122912363,0.0122578800592937,0.0365113600399953
20.5,0.012722161369062,0.0373619138644958,0.948665348130069,-0.236316889862616,0.948665348122827,-0.236316889875584,0.0127369385560482,0.0373392283332297
21,0.0132112123268013,0.0381839769766241,0.947078480860788,-0.241608271099005,0.947078480853012,-0.241608271111811,0.0132269744262444,0.038160972446794
21.5,0.0137111647886281,0.0389997536038622,0.945468724173279,-0.246889395302262,0.945468724164994,-0.246889395314881,0.0137279327553136,0.0389764667206689
22,0.0142219643527102,0.039809116937213,0.943835718106454,-0.252160350647471,0.943835718097687,-0.25216035065988,0.0142397582279551,0.0397855879580034
22.5,0.0147435564582283,0.0406119425659739,0.942179123298643,-0.257421189200455,0.942179123289418,-0.257421189212632,0.0147623951864487,0.0405882156132125
23,0.0152758864683025,0.0414081086733702,0.940498621117604,-0.262671930912907,0.940498621107949,-0.262671930924835,0.0152957876851371,0.0413842319972075
23.5,0.0158188997511701,0.0421974962518952,0.938793913562728,-0.267912567233003,0.938793913552668,-0.267912567244663,0.0158398795395256,0.0421735225012945
24,0.0163725417581282,0.0429799893403635,0.937064722988511,-0.273143064361426,0.937064722978071,-0.273143064372805,0.0163946143681407,0.0429559758413447
24.5,0.016936758096383,0.0437554752848481,0.935310791690078,-0.27836336618226,0.935310791679285,-0.278363366193344,0.0169599356249199,0.0437314843239109
25,0.0175114945945627,0.0445238450258065,0.933531881384443,-0.283573396897008,0.933531881373322,-0.283573396907788,0.0175357866195007,0.0444999441359779
25.5,0.0180966973581467,0.04528499341382,0.931727772615188,-0.288773063388623,0.931727772603762,-0.288773063399088,0.0181221105222977,0.0452612556600522
26,0.0186923128115168,0.0460388195564372,0.92989826410319,-0.293962257340753,0.929898264091485,-0.293962257350895,0.0187188503507093,0.0460153238162095
26.5,0.0192982877226738,0.0467852271987113,0.928043172061755,-0.299140857135634,0.928043172049794,-0.299140857145449,0.0193259489321768,0.046762058432652
27,0.0199145692058902,0.0475241251399474,0.926162329490947,-0.304308729552318,0.926162329478753,-0.304308729561798,0.0199433488391269,0.0475013746460855
27.5,0.0205411046967192,0.0482554276891694,0.924255585462955,-0.30946573128506,0.92425558545055,-0.309465731294202,0.0205709922900446,0.0482331933329978
28,0.0211778418927455,0.0489790551615119,0.922322804407836,-0.314611710300091,0.922322804395243,-0.314611710308892,0.0212088210100544,0.048957441572397
28.5,0.0218247286523565,0.0496949344175284,0.92036386540696,-0.319746507047237,0.9203638653942,-0.319746507055696,0.0218567760434592,0.0496740531401045
29,0.0224817128425139,0.0504029994467734,0.918378661499785,-0.324869955541428,0.918378661486878,-0.324869955549543,0.0225147975096497,0.0503829690337956
29.5,0.0231487421251199,0.0511031919963396,0.916367099008203,-0.329981884327586,0.916367098995169,-0.329981884335357,0.0231828242927387,0.0510841380270408
30,0.0238257636699923,0.0517954622439347,0.914329096881585,-0.335082117341161,0.914329096868444,-0.335082117348589,0.0238607936541453,0.0517775172492321
30.5,0.0245127237808436,0.0524797695136958,0.912264586064731,-0.340170474675286,0.912264586051501,-0.340170474682372,0.0245486407562625,0.052463072786632
31,0.0252095674188879,0.0531560830310664,0.910173508890175,-0.345246773264445,0.910173508876875,-0.345246773271192,0.0252462980842668,0.0531407802977055
31.5,0.0259162376069675,0.0538243827106599,0.908055818495721,-0.35031082749352,0.908055818482368,-0.35031082749993,0.0259536947522112,0.0538106256333653
32,0.0266326746953524,0.0544846599679982,0.905911478267609,-0.355362449740175,0.905911478254218,-0.355362449746252,0.0266707556788245,0.0544726054496789
32.5,0.0273588154688643,0.0551369185422308,0.903740461309315,-0.360401450857677,0.903740461295904,-0.360401450863424,0.0273974006180812,0.0551267277969625
33,0.0280945920737341,0.055781175312285,0.901542749935743,-0.365427640604537,0.901542749922327,-0.365427640609959,0.0281335430297435,0.0557730126648905
33.5,0.0288399307419472,0.0564174610833181,0.89931833519228,-0.370440828026657,0.899318335178874,-0.370440828031757,0.0288790887759365,0.0564114924583687
34,0.0295947502909729,0.0570458213137153,0.897067216398093,-0.375440821797052,0.897067216384712,-0.375440821801837,0.0296339346315971,0.0570422123733618
34.5,0.0303589603780489,0.0576663167451985,0.894789400712851,-0.380427430517715,0.894789400699509,-0.38042743052219,0.0303979665996657,0.0576652306358267
35,0.0311324594910654,0.0582790238899088,0.892484902726021,-0.385400462987657,0.892484902712729,-0.385400462991828,0.0311710580264248,0.058280618560386
35.5,0.0319151326629986,0.0588840353187179,0.890153744067798,-0.390359728440744,0.890153744054571,-0.390359728444615,0.031953067518856,0.0588884603787811
36,0.0327068489044091,0.059481459684825,0.887795953040734,-0.395305036756554,0.887795953027582,-0.395305036760134,0.0327438366745242,0.0594888527817268
36.5,0.0335074583592418,0.0600714214063058,0.885411564271044,-0.40023619864715,0.885411564257981,-0.400236198650444,0.0335431876457459,0.0600819041121041
37,0.0343167892038106,0.0606540599214831,0.883000618378666,-0.405153025822315,0.8830006183657,-0.405153025825329,0.0343509205738199,0.0606677331432058
37.5,0.035134644327744,0.0612295284227149,0.880563161665059,-0.410055331135543,0.880563161652204,-0.410055331138287,0.0351668109460725,0.0612464673738413
38,0.0359607978594093,0.0617979919687763,0.878099245817843,-0.414942928712856,0.878099245805106,-0.414942928715334,0.0359906069482486,0.0618182407735752
38.5,0.0367949916267875,0.0623596248751973,0.875608927631311,-0.419815634066218,0.875608927618703,-0.419815634068439,0.036822026907038,0.0623831909175007
39,0.0376369316777246,0.0629146072875758,0.87309226874197,-0.424673264193227,0.8730922687295,-0.424673264195198,0.0376607569413571,0.0629414554619769
39.5,0.0384862850197338,0.0634631208573903,0.870549335378227,-0.429515637664491,0.870549335365904,-0.429515637666218,0.0385064489651598,0.0634931679320918
40,0.0393426767772802,0.0640053434653659,0.867980198123415,-0.434342574700011,0.867980198111247,-0.434342574701503,0.0393587192070664,0.0640384528192117
40.5,0.0402056880007086,0.0645414429761759,0.865384931691378,-0.43915389723571,0.865384931679371,-0.439153897236974,0.0402171474304328,0.0645774200237076
41,0.04107485439163,0.0650715700615218,0.862763614713871,-0.443949428981135,0.862763614702034,-0.44394942898218,0.0410812770485127,0.0651101587235863
41.5,0.0419496662294793,0.065595850196856,0.860116329539079,-0.448728995469276,0.860116329527418,-0.448728995470108,0.0419506163295508,0.0656367308034322
42,0.0428295697870751,0.066114375018628,0.85744316204058,-0.453492424099284,0.857443162029102,-0.453492424099912,0.042824640872331,0.0661571640373425
42.5,0.0437139705030541,0.0666271933203236,0.854744201436136,-0.458239544172854,0.854744201424847,-0.458239544173285,0.0437027975006122,0.0666714452805988
43,0.044602238130251,0.067134302060241,0.852019540115706,-0.462970186924919,0.852019540104611,-0.462970186925161,0.044584509672674,0.0671795139822533
43.5,0.0454937139974889,0.0676356378426083,0.849269273478139,-0.467684185549219,0.849269273467244,-0.46768418554928,0.0454691844292473,0.0676812563778761
44,0.0463877204067748,0.0681310694046623,0.846493499776012,-0.472381375219303,0.846493499765322,-0.472381375219191,0.0463562208111155,0.0681765007507922
44.5,0.0472835720420985,0.0686203916824969,0.843692319968126,-0.477061593105395,0.843692319957645,-0.477061593105117,0.0472450195712257,0.068665014153742
45,0.0481805890984807,0.0691033220251579,0.840865837579201,-0.481724678387563,0.840865837568933,-0.481724678387128,0.0481349938929764,0.0691465009546279
45.5,0.0490781116649812,0.069579499069393,0.838014158566324,-0.486370472265562,0.838014158556274,-0.486370472264977,0.0490255807167952,0.0696206035060934
46,0.0499755147319311,0.0700484846716588,0.835137391191772,-0.490998817965665,0.835137391181944,-0.490998817964938,0.0499162521836062,0.0700869051389925
46.5,0.0508722230622637,0.0705097691217843,0.832235645901797,-0.495609560744806,0.832235645892192,-0.495609560743944,0.0508065266388616,0.0705449355489773
47,0.0517677250906822,0.0709627796450436,0.829309035211041,-0.500202547892284,0.829309035201663,-0.500202547891295,0.0516959786157043,0.0709941784928725
47.5,0.0526615850091689,0.07140689195589,0.826357673592249,-0.504777628729265,0.826357673583101,-0.504777628728157,0.0525842472380305,0.0714340815509151
48,0.0535534522719466,0.0718414443831793,0.823381677370954,-0.509334654606314,0.823381677362036,-0.509334654605093,0.0534710425560379,0.0718640675587011
48.5,0.0544430679056354,0.0722657538724554,0.820381164624854,-0.513873478899116,0.82038116461617,-0.513873478897791,0.0543561494443473,0.07228354718569
49,0.0553302672277964,0.0726791330127901,0.81735625508762,-0.51839395700259,0.817356255079172,-0.518393957001167,0.0552394288457291,0.0726919320501048
49.5,0.0562149788361277,0.0730809071544073,0.814307070056859,-0.522895946323524,0.814307070048647,-0.522895946322011,0.0561208163168082,0.0730886477232322
50,0.0570972200016389,0.073470430688936,0.811233732306012,-0.527379306271877,0.811233732298038,-0.527379306270281,0.05700031800776,0.0734731459935547
50.5,0.057977088850902,0.0738471016546838,0.808136365999965,-0.531843898250879,0.808136365992228,-0.531843898249206,0.057878004367892,0.0738449158298823
51,0.0588547539274067,0.0742103739909841,0.805015096614156,-0.536289585646011,0.805015096606659,-0.536289585644269,0.0587540019975394,0.0742034925936491
51.5,0.0597304418604342,0.0745597669760506,0.801870050857008,-0.540716233813004,0.80187005084975,-0.5407162338112,0.0596284841530593,0.0745484651899905
52,0.0606044239325729,0.0748948716146761,0.798701356595472,-0.545123710064906,0.798701356588453,-0.545123710063045,0.0605016604509466,0.0748794809991126
52.5,0.0614770023256002,0.0752153539685468,0.795509142783553,-0.549511883658314,0.795509142776773,-0.549511883656405,0.0613737663103721,0.0751962485778808
53,0.0623484967497777,0.0755209556201921,0.792293539393636,-0.553880625778854,0.792293539387095,-0.553880625776901,0.0622450526269618,0.0754985382530144
53.5,0.063219232040676,0.0758114916157142,0.789054677350469,-0.55822980952594,0.789054677344166,-0.55822980952395,0.0631157760942716,0.0757861808320678
54,0.0640895271600418,0.0760868463336839,0.785792688467676,-0.5625593098969,0.78579268846161,-0.56255930989488,0.0639861904946187,0.0760590647312732
54.5,0.0649596858820299,0.0763469677777114,0.782507705386662,-0.566869003770505,0.782507705380831,-0.566869003768459,0.0648565391792048,0.0763171318594846
55,0.0658299892992332,0.076591860793861,0.779199861517801,-0.571158769889947,0.779199861512205,-0.571158769887883,0.0657270488586492,0.0765603726075124
55.5,0.0667006901558551,0.0768215796808954,0.775869290983786,-0.575428488845316,0.775869290978423,-0.575428488843239,0.0665979247367781,0.0767888202772862
56,0.0675720089146838,0.0770362206025015,0.772516128565044,-0.579678043055603,0.772516128559912,-0.579678043053519,0.0674693469475972,0.0770025452519374
56.5,0.0684441313925085,0.0772359141371967,0.769140509647112,-0.583907316750267,0.769140509642209,-0.583907316748179,0.0683414682000612,0.0772016491627765
57,0.0693172077540191,0.0774208182232216,0.765742570169898,-0.588116195950397,0.765742570165222,-0.588116195948313,0.0692144124976561,0.0773862592583303
57.5,0.0701913526335823,0.0775911116797856,0.762322446578718,-0.592304568449505,0.762322446574268,-0.592304568447429,0.0700882747783735,0.0775565231292439
58,0.071066646152777,0.0777469884177444,0.758880275777061,-0.596472323793947,0.758880275772831,-0.596472323791884,0.0709631213128939,0.0777126038946415
58.5,0.0719431356140809,0.0778886523950305,0.75541619508097,-0.600619353263032,0.75541619507696,-0.600619353260987,0.071838990701734,0.0778546759129904
59,0.0728208376729453,0.0780163133262088,0.751930342175015,-0.604745549848807,0.751930342171222,-0.604745549846784,0.0727158953227506,0.077982921044971
59.5,0.0736997408173581,0.0781301831210371,0.748422855069749,-0.608850808235559,0.748422855066169,-0.608850808233563,0.0735938230959927,0.0780975254676661
60,0.0745798080128184,0.0782304730030041,0.744893872060618,-0.612935024779037,0.744893872057249,-0.612935024777071,0.0744727394511396,0.0781986770183498
60.5,0.0754609793989119,0.0783173912438248,0.741343531688254,-0.616998097485413,0.741343531685092,-0.616998097483483,0.075352589401836,0.0782865630314755
61,0.0763431749498455,0.0783911414420927,0.737771972700103,-0.621039925990006,0.737771972697143,-0.621039925988114,0.0762332996498008,0.0783613686232921
61.5,0.0772262970344501,0.0784519212720958,0.734179334013331,-0.625060411535759,0.734179334010571,-0.62506041153391,0.0771147806587598,0.0784232753737176
62,0.0781102328308862,0.0784999216305519,0.730565754678978,-0.629059456951515,0.730565754676414,-0.629059456949711,0.0779969286535074,0.0784724603537648
62.5,0.0789948565674855,0.0785353261135059,0.726931373847297,-0.63303696663006,0.726931373844925,-0.633036966628305,0.0788796275124784,0.0785090954479529
63,0.0798800315740986,0.0785583107617252,0.723276330734251,-0.636992846505989,0.723276330732067,-0.636992846504286,0.0797627505331195,0.0785333469240261
63.5,0.0807656121382958,0.0785690440198798,0.719600764589123,-0.640927004033369,0.719600764587122,-0.640927004031721,0.0806461620581446,0.0785453752062608
64,0.0816514451681661,0.0785676868619627,0.715904814663208,-0.644839348163224,0.715904814661386,-0.644839348161634,0.0815297189576621,0.0785453348131981
