"Freq [GHz]","re(St(P1,P1)) []","im(St(P1,P1)) []","re(St(P1,P2)) []","im(St(P1,P2)) []","re(St(P2,P1)) []","im(St(P2,P1)) []","re(St(P2,P2)) []","im(St(P2,P2)) []"
0,0.00432288555907689,0,0.995687582122628,0,0.995687580303638,0,0.00432288549006898,0
0.5,0.00472888132332372,0.000743330284766586,0.995181008320237,-0.00704673169035885,0.995181009288807,-0.00704673016478452,0.00472891826107613,0.000743414348622906
1,0.00506127417482816,0.000984730185766836,0.994589725887396,-0.0135586791306075,0.994589726377628,-0.0135586783060653,0.00506140741209649,0.000984872805858572
1.5,0.00486254129349106,0.00126316649355829,0.994035316422146,-0.0201485986235852,0.994035317185251,-0.0201485976665907,0.00486264357492772,0.00126283028860996
2,0.00472742508154056,0.00148778639259461,0.99336629489727,-0.0265720357695827,0.993366295848458,-0.0265720348591625,0.00472773081101874,0.00148714553928464
2.5,0.00464268145801938,0.00170200280751409,0.992638564391968,-0.0328388989965873,0.9926385653966,-0.0328388982377845,0.00464322211028501,0.00170122132996831
3,0.00459139661102226,0.00192299770257165,0.991887893047354,-0.038974431972882,0.991887893976362,-0.0389744314000868,0.00459213660982893,0.00192216766953024
3.5,0.00456172637552843,0.00215701248686173,0.991131550330215,-0.0450068297262707,0.991131551089278,-0.0450068293284218,0.00456262103657634,0.00215617601707763
4,0.00454620323470367,0.00240652079179959,0.990373908733004,-0.0509606197766583,0.990373909268933,-0.0509606195222876,0.00454721467892383,0.00240569241132071
4.5,0.0045400902713959,0.002672939626291,0.989611927643738,-0.0568545493531802,0.989611927939003,-0.0568545492069674,0.00454118961029049,0.00267211914083987
5,0.00454021299966145,0.00295760131280343,0.988839075809901,-0.0627018449625805,0.988839075873566,-0.0627018448934979,0.00454137910089736,0.00295678026935864
5.5,0.0045442454273199,0.0032621028542037,0.988047695803171,-0.068511325697834,0.988047695662351,-0.0685113256817811,0.00454546331012795,0.00326126754650957
6,0.00455027376334349,0.00358844169878747,0.987230257047207,-0.0742886025446108,0.987230256740326,-0.0742886025641223,0.00455153338044001,0.00358757437891644
6.5,0.00455651018345327,0.00393908529365206,0.986379932572934,-0.0800370764519132,0.986379932144861,-0.0800370764947003,0.00455780570763187,0.00393816441980199
7,0.00456107928161903,0.00431702810408652,0.985490804440406,-0.0857586799329173,0.985490803939068,-0.0857586799901604,0.00456240887766834,0.00431602802053899
7.5,0.00456182962929841,0.00472585592206265,0.98455788243881,-0.0914543947929483,0.984557881912885,-0.0914543948577959,0.00456319569963293,0.00472474615086682
8,0.00455613749793574,0.00516982462713678,0.983577038482744,-0.0971245997130312,0.983577037980108,-0.0971245997794297,0.00455754744114922,0.00516856884410011
8.5,0.00454067492694651,0.00565395509443878,0.982544909901219,-0.102769297250048,0.982544909467912,-0.102769297311958,0.00454214251897828,0.00565250981178878
9,0.00451111306226544,0.00618414210163909,0.981458797490515,-0.108388258821972,0.981458797170067,-0.108388258872864,0.00451266066183983,0.00618245506541282
9.5,0.00446172524422354,0.00676726990013155,0.98031656982221,-0.113981115423579,0.980316569655224,-0.113981115456192,0.00446338714970258,0.00676527823071327
10,0.00438484268364976,0.00741131780357129,0.979116578082744,-0.119547413187803,0.979116578106665,-0.119547413194078,0.00438667014582057,0.00740894597973751
10.5,0.00450760840789303,0.00776917367267993,0.978004312229918,-0.125134546988051,0.978004312253561,-0.125134546995319,0.004509576724149,0.00776665735427251
11,0.00463616379699284,0.00812519835820469,0.976871836351329,-0.130692729334072,0.976871836374602,-0.13069272934229,0.00463827802105649,0.00812253413885511
11.5,0.0047704807295338,0.00847931162222171,0.975720118462523,-0.136223893525824,0.975720118485343,-0.13622389353494,0.00477274565309938,0.00847649602254208
12,0.00491052983360354,0.00883143423050115,0.974549880681714,-0.141729889485769,0.974549880704008,-0.141729889495725,0.00491294997334261,0.00882846370969803
12.5,0.00505628049089046,0.00918148800538843,0.973361630984245,-0.147212466984755,0.973361631005952,-0.147212466995492,0.00505886007528694,0.00917835897317643
13,0.00520770084004085,0.00952939587960966,0.972155693287338,-0.152673264439218,0.972155693308405,-0.152673264450669,0.00521044379601265,0.00952610470841009
13.5,0.00536475777909251,0.00987508195101228,0.970932235364197,-0.158113802325281,0.97093223538458,-0.15811380233738,0.00536766771839339,0.00987162498835881
14,0.00552741696682926,0.0102184715382099,0.969691294298416,-0.163535480328239,0.969691294318081,-0.163535480340917,0.00553049717219731,0.0102148451193362
14.5,0.00569564282287263,0.0105594912371916,0.96843279935426,-0.168939577438998,0.968432799373179,-0.168939577452191,0.00569889623390415,0.0105556916977343
15,0.00586939852631077,0.0108980689788107,0.967156592261347,-0.174327254311168,0.967156592279501,-0.17432725432481,0.00587282772503114,0.0108940926675842
15.5,0.00604864601263938,0.0112341340871871,0.965862444999946,-0.179699557294775,0.965862445017322,-0.179699557308803,0.00605225320875322,0.0112299773789375
16,0.00623334596880715,0.0115676173389283,0.964550075231921,-0.185057423660121,0.964550075248514,-0.185057423674472,0.00623713298459136,0.0115632766470277
16.5,0.00642345782609449,0.0118984510231575,0.963219159558521,-0.1904016876142,0.963219159574327,-0.190401687628817,0.00642742608092237,0.0118939228121251
17,0.00661893975057876,0.0122265690022139,0.961869344804859,-0.195733086791234,0.961869344819883,-0.19573308680606,0.0066230902450434,0.0122218498000084
17.5,0.00681974863089635,0.012551906772964,0.960500257536944,-0.201052268967074,0.960500257551192,-0.201052268982056,0.00682408193052048,0.012546993182935
18,0.00702584006300622,0.0128744015285727,0.959111512013783,-0.206359798805282,0.959111512027265,-0.206359798820371,0.00703035628151846,0.0128692902409635
18.5,0.0072371683316462,0.0131939922205531,0.957702716767824,-0.211656164490921,0.957702716780554,-0.211656164506069,0.00724186711381258,0.0131886800234673
19,0.00745368638814836,0.0135106196209454,0.956273479993731,-0.216941784147518,0.956273480005724,-0.216941784162684,0.00745856689215046,0.0135051034106248
19.5,0.00767534582426965,0.013824226384316,0.954823413910117,-0.22221701196463,0.954823413921393,-0.222217011979773,0.00768040670363229,0.0138185031746296
20,0.00790209684169485,0.0141347571093648,0.953352138242671,-0.227482143988548,0.953352138253248,-0.227482144003632,0.00790733622676842,0.0141288240403425
20.5,0.00813388821683253,0.0144421583997563,0.951859282960773,-0.232737423548529,0.951859282970673,-0.23273742356352,0.00813930369585214,0.0144360127450358
21,0.00837066726055102,0.0147463789238151,0.95034449038413,-0.237983046305959,0.950344490393375,-0.237983046320825,0.00837625586029755,0.0147400180968296
21.5,0.00861237977247475,0.0150473694726239,0.948807416761188,-0.243219164925281,0.948807416769801,-0.243219164939994,0.00861813793858357,0.0150407910313688
22,0.00885896998947749,0.0153450830160147,0.947247733407617,-0.248445893373812,0.947247733415621,-0.248445893388347,0.00886489356645392,0.0153382846662136
22.5,0.00911038052801733,0.0156394747558763,0.94566512748094,-0.253663310863481,0.94566512748836,-0.253663310877814,0.00911646473904087,0.0156324543523485
23,0.00936655231997641,0.0159305021760912,0.94405930245641,-0.25887146545155,0.94405930246327,-0.258871465465661,0.00937279174658462,0.0159232577221444
23.5,0.00962742454169063,0.0162181250883653,0.942429978359622,-0.264070377319891,0.942429978365944,-0.264070377333762,0.00963381310347239,0.0162106547330005
24,0.00989293453590473,0.0165023056731282,0.940776891802849,-0.269260041753778,0.940776891808659,-0.269260041767392,0.00989946547035281,0.016494607705857
24.5,0.0101630177264262,0.0167830085145462,0.939099795864721,-0.274440431841738,0.939099795870043,-0.274440431855081,0.0101696835691214,0.0167750813576111
25,0.0104376075253227,0.0170602006286287,0.937398459846491,-0.279611500917909,0.937398459851347,-0.279611500930967,0.0104444000906689,0.017052042826434
25.5,0.0107166352325906,0.0173338514833099,0.935672668932633,-0.284773184767822,0.935672668937048,-0.284773184780585,0.0107235455953449,0.0173254616888523
26,0.0110000299283211,0.0176039330092703,0.933922223778859,-0.289925403617705,0.933922223782855,-0.289925403630163,0.0110070484062003,0.0175953099673971
26.5,0.0112877183575041,0.0178704196001647,0.932146940046586,-0.295068063926362,0.932146940050187,-0.295068063938507,0.011294834495203,0.0178615621274751
27,0.01157962480777,0.0181332881008454,0.93034664789956,-0.300201059997507,0.930346647902786,-0.300201060009332,0.0115868273627449,0.0181241950620941
27.5,0.0118756709805104,0.0183925177820699,0.928521191475409,-0.305324275429216,0.928521191478282,-0.305324275440717,0.0118829479109586,0.0183831880629488
28,0.0121757758560427,0.0186480903000987,0.926670428342539,-0.310437584415938,0.926670428345079,-0.31043758442711,0.0121831143115098,0.0186385227763093
28.5,0.0124798555536703,0.0188999896395454,0.924794228950728,-0.315540852917213,0.924794228952955,-0.315540852928053,0.0124872418688129,0.0188901831421446
29,0.0127878231877656,0.0191482020378049,0.922892476082088,-0.320633939706159,0.922892476084023,-0.320633939716666,0.0127952428797913,0.0191381553148109
29.5,0.0130995887212632,0.0193927158893403,0.920965064307662,-0.325716697309569,0.920965064309323,-0.32571669731974,0.013107026491632,0.0193824275637062
30,0.0134150588182448,0.0196335216281729,0.919011899453738,-0.330788972850429,0.919011899455143,-0.330788972860266,0.0134224985592554,0.0196229901522822
30.5,0.0137341366976451,0.0198706115869558,0.917032898081012,-0.33585060880268,0.917032898082178,-0.335850608812182,0.0137415615045363,0.0198598351938881
31,0.0140567219904248,0.0201039798311244,0.91502798697891,-0.340901443667089,0.915027986979854,-0.340901443676257,0.0140641141796584,0.0200929564830374
31.5,0.0143827106029529,0.0203336219668,0.912997102676761,-0.345941312576271,0.9129971026775,-0.345941312585108,0.014390051737332,0.0203223493008879
32,0.0147119945896674,0.0205595349213143,0.910940190972946,-0.350970047836096,0.910940190973495,-0.350970047844604,0.0147192655109489,0.0205480101939266
32.5,0.0150444620385033,0.0207817166955795,0.908857206482739,-0.355987479410014,0.908857206483113,-0.355987479418195,0.0150516429081211,0.0207699367251963
33,0.0153799969728854,0.021000166087848,0.906748112205203,-0.360993435352168,0.906748112205416,-0.360993435360027,0.0153870673213628,0.0209881271977623
33.5,0.0157184792744621,0.0212148823889107,0.904612879109228,-0.365987742194585,0.904612879109294,-0.365987742202124,0.0157254180600095,0.0212025803505886
34,0.0160597846310129,0.0214258650492989,0.902451485738577,-0.370970225293179,0.90245148573851,-0.370970225300403,0.0160665703077131,0.0214132950275434
34.5,0.016403784514226,0.0216331133197187,0.900263917835651,-0.375940709136831,0.900263917835463,-0.375940709143746,0.0164103951100764,0.0216202698208758
35,0.0167503461921738,0.0218366258666247,0.898050167983519,-0.380899017623382,0.898050167983221,-0.380899017629992,0.016756759397097,0.0218235026912155
35.5,0.0170993327813948,0.0220364003656863,0.895810235265711,-0.385844974305933,0.895810235265316,-0.385844974312244,0.0171055260451437,0.0220229905669265
36,0.0174506033434112,0.0222324330767145,0.893544124943158,-0.390778402612568,0.893544124942676,-0.390778402618585,0.0174565539830656,0.0222187289264908
36.5,0.0178040130303126,0.0224247184045649,0.891251848147635,-0.39569912604221,0.891251848147076,-0.395699126047939,0.0178096983468283,0.0224107113684788
37,0.0181594132836714,0.0226132484514638,0.888933421591026,-0.400606968339118,0.8889334215904,-0.400606968344566,0.0181648106866577,0.0225989291745576
37.5,0.0185166520905022,0.0227980125671499,0.886588867289721,-0.405501753648207,0.886588867289039,-0.405501753653379,0.0185217392301249,0.0227833708719196
38,0.0188755742992471,0.022978996904139,0.884218212303437,-0.410383306653181,0.884218212302704,-0.410383306658085,0.0188803292038358,0.0229640218023286
38.5,0.0192360219978272,0.0231561839862772,0.881821488487748,-0.415251452699253,0.881821488486975,-0.415251452703895,0.0192404232154709,0.0231408637058346
39,0.0195978349546558,0.0233295522994467,0.87939873225967,-0.420106017902042,0.879398732258864,-0.420106017906428,0.0196018616967702,0.0233138743278
39.5,0.0199608511222016,0.0234990759139252,0.876949984375583,-0.424946829244062,0.876949984374751,-0.424946829248199,0.0199644834067692,0.0234830270584702
40,0.0203249072011709,0.0236647241481949,0.874475289720869,-0.429773714660084,0.874475289720017,-0.429773714663979,0.0203281259931184,0.0236482906145767
40.5,0.0206898392617589,0.0238264612841996,0.871974697110603,-0.434586503112511,0.871974697109738,-0.434586503116171,0.0206926266077416,0.0238096287725585
41,0.0210554834166857,0.023984246343838,0.869448259100715,-0.439385024657781,0.869448259099845,-0.439385024661213,0.0210578225714171,0.0239670001627633
41.5,0.0214216765389443,0.0241380329360054,0.866896031809014,-0.444169110504729,0.866896031808142,-0.444169110507939,0.0214235520801601,0.0241203581334587
42,0.0217882570154519,0.0242877691826995,0.864318074745524,-0.448938593065707,0.864318074744657,-0.448938593068704,0.0217896549446311,0.0242696506926583
42.5,0.0221550655261256,0.0244333977314869,0.861714450651617,-0.453693306001223,0.861714450650758,-0.453693306004012,0.022155973352218,0.0244148205345519
43,0.0225219458363877,0.0245748558601383,0.859085225347398,-0.458433084258724,0.859085225346552,-0.458433084261313,0.0225223526400435,0.0245558051558292
43.5,0.0228887455898883,0.0247120756773771,0.856430467586916,-0.463157764106153,0.856430467586087,-0.463157764108549,0.0228886420660089,0.0246925370653835
44,0.0232553170872637,0.0248449844215699,0.853750248920696,-0.467867183160775,0.853750248919888,-0.467867183162986,0.0232546955641298,0.0248249440887918
44.5,0.0236215180362077,0.0249735048568401,0.851044643565203,-0.472561180413766,0.85104464356442,-0.472561180415798,0.0236203724699706,0.0249529497667315
45,0.0239872122580287,0.0250975557636061,0.84831372827881,-0.477239596250981,0.848313728278053,-0.47723959625284,0.0239855382019213,0.0250764738440709
45.5,0.024352270336186,0.0252170525180163,0.845557582243899,-0.481902272470286,0.845557582243173,-0.481902272471981,0.0243500648844828,0.0251954328439837
46,0.0247165701931744,0.025331907752241,0.842776286954741,-0.486549052295801,0.842776286954046,-0.486549052297337,0.0247138319005781,0.0253097407190493
46.5,0.0250799975834125,0.0254420320852763,0.839969926110799,-0.491179780389349,0.839969926110139,-0.491179780390733,0.0250767263612349,0.025419309569101
47,0.0254424464915767,0.0255473349118116,0.837138585515168,-0.495794302859388,0.837138585514542,-0.495794302860627,0.0254386434827192,0.0255240504136395
47.5,0.0258038194279541,0.0256477252349626,0.834282352977813,-0.500392467267697,0.834282352977225,-0.500392467268797,0.0257994868632941,0.0256238740049937
48,0.0261640276148755,0.0257431125273913,0.831401318223376,-0.504974122633992,0.831401318222826,-0.50497412263496,0.0261591686541693,0.0257186916672251
48.5,0.0265229910609565,0.025833407604463,0.828495572803238,-0.509539119438718,0.828495572802728,-0.50953911943956,0.0265176096217877,0.0258084161450231
49,0.0268806385226885,0.0259185234928142,0.82556521001163,-0.514087309624159,0.825565210011159,-0.514087309624881,0.0268747391012747,0.0258929624465948
49.5,0.0272369073557085,0.0259983762779221,0.822610324805542,-0.518618546594053,0.822610324805113,-0.518618546594662,0.0272304948435447,0.0259722486648367
50,0.0275917432607787,0.0260728859150002,0.819631013728223,-0.523132685211835,0.819631013727834,-0.523132685212336,0.027584822761119,0.0260461967618125
50.5,0.0279450999319728,0.0261419769888049,0.81662737483606,-0.527629581797651,0.816627374835711,-0.527629581798051,0.0279376765800435,0.0261147333027886
51,0.0282969386167399,0.026205579409542,0.813599507628659,-0.532109094124254,0.81359950762835,-0.532109094124556,0.0282890174073465,0.026177790127678
51.5,0.0286472275993085,0.0262636290341008,0.810547512981946,-0.536571081411881,0.810547512981677,-0.536571081412093,0.0286388132251506,0.0262353049496614
52,0.0289959416202282,0.0263160682040262,0.807471493084113,-0.541015404322219,0.807471493083883,-0.541015404322347,0.0289870383238253,0.0262872218729004
52.5,0.0293430612457843,0.0263628461940875,0.804371551374267,-0.545441924951523,0.804371551374076,-0.545441924951571,0.0293336726873795,0.026333491823568
53,0.0296885722013934,0.0264039195676782,0.801247792483631,-0.549850506822985,0.801247792483478,-0.549850506822958,0.0296787013446918,0.0263740728907064
53.5,0.030032464683098,0.026439252437724,0.798100322179158,-0.554241014878396,0.79810032217904,-0.554241014878299,0.0300221137001097,0.026408930575755
54,0.0303747326608236,0.0264688166340172,0.794929247309432,-0.558613315469193,0.794929247309349,-0.558613315469031,0.0303639028565214,0.0264380379516977
54.5,0.0307153731862372,0.0264925917799519,0.791734675752742,-0.56296727634691,0.791734675752691,-0.562967276346688,0.0307040649432103,0.0264613757347794
55,0.031054385716942,0.0265105652834511,0.788516716367209,-0.567302766653116,0.78851671636719,-0.567302766652838,0.0310425984597187,0.0264789322734149
55.5,0.0313917714673932,0.0265227322483697,0.78527547894287,-0.57161965690886,0.785275478942881,-0.571619656908531,0.0313795036456695,0.0264907034603716
56,0.0317275327953888,0.0265290953138403,0.782011074155613,-0.575917819003675,0.782011074155651,-0.575917819003298,0.0317147818850224,0.0264966925754124
56.5,0.0320616726313835,0.0265296644298852,0.778723613522874,-0.580197126184174,0.778723613522938,-0.580197126183755,0.0320484351517208,0.0264969100663967
57,0.0323941939562601,0.0265244565781507,0.775413209361022,-0.584457453042272,0.775413209361109,-0.584457453041813,0.0323804655021125,0.026491373277352
57.5,0.0327250993315486,0.0265134954468641,0.772079974744327,-0.588698675503053,0.772079974744435,-0.588698675502559,0.0327108746180009,0.0264801061322553
58,0.0330543904845927,0.0264968110690674,0.768724023465461,-0.592920670812329,0.768724023465588,-0.592920670811802,0.0330396634027247,0.0264631387832237
58.5,0.0333820679497379,0.0264744394329397,0.76534546999745,-0.59712331752389,0.765345469997593,-0.597123317523335,0.0333668316313229,0.0264405072315715
59,0.0337081307653748,0.0264464220725364,0.761944429457011,-0.60130649548649,0.761944429457167,-0.60130649548591,0.0336923776546422,0.0264122529297633
59.5,0.034032576225562,0.0264128056466966,0.758521017569209,-0.605470085830564,0.758521017569376,-0.605470085829961,0.0340162981561974,0.0263784223716984
60,0.0343553996840709,0.0263736415131223,0.755075350633394,-0.609613970954717,0.755075350633569,-0.609613970954094,0.0343385879597251,0.0263390666780987
60.5,0.0346765944079307,0.0263289853038713,0.751607545490342,-0.613738034511987,0.751607545490522,-0.613738034511347,0.0346592398846614,0.0262942411830063
61,0.0349961514770072,0.0262788965076589,0.748117719490558,-0.617842161395897,0.748117719490741,-0.617842161395242,0.0349782446462363,0.0262440050266196
61.5,0.0353140597257579,0.0262234380635398,0.744605990463704,-0.621926237726312,0.744605990463887,-0.621926237725646,0.0352955907964879,0.0261884207588928
62,0.0356303057230333,0.0261626759697237,0.741072476689087,-0.62599015083512,0.741072476689266,-0.625990150834443,0.0356112647022489,0.0261275539575507
62.5,0.0359448737856916,0.02609667891051,0.737517296867186,-0.630033789251724,0.737517296867358,-0.630033789251039,0.0359252505560534,0.0260614728634218
63,0.0362577460217797,0.0260255179035751,0.733940570092164,-0.634057042688392,0.733940570092327,-0.634057042687701,0.0362375304158683,0.0259902480352959
63.5,0.0365689023991216,0.0259492659692243,0.730342415825337,-0.638059802025436,0.730342415825487,-0.638059802024739,0.0365480842696629,0.0259139520258925
