"Freq [GHz]","re(St(P1,P1)) []","im(St(P1,P1)) []","re(St(P1,P2)) []","im(St(P1,P2)) []","re(St(P2,P1)) []","im(St(P2,P1)) []","re(St(P2,P2)) []","im(St(P2,P2)) []"
0,0.005681333217467,0,0.994335392882931,0,0.994335395342205,0,0.00568133758832801,0
0.5,0.00634883439128231,-0.000905093651002886,0.993611940415033,-0.00727450838381216,0.993611940253604,-0.00727450822186171,0.00634891660467218,-0.000905310766132317
1,0.00688713317623524,-0.00261725261333012,0.992935519817003,-0.0137436002995841,0.992935519711192,-0.0137436004653537,0.00688731696615008,-0.00261779231425052
1.5,0.00719685681159277,-0.00447798440631075,0.992402213104127,-0.0200525591724983,0.992402212984027,-0.0200525592304679,0.00719715169676327,-0.00447890455750155
2,0.00734122028310402,-0.00636436322025702,0.991955304967409,-0.0263168328345795,0.991955304873157,-0.0263168328438699,0.00734157868846808,-0.00636573155163767
2.5,0.00739721552637995,-0.00823671431140127,0.991520640736107,-0.032579261711593,0.991520640667545,-0.0325792617025726,0.00739758946460434,-0.00823856776542087
3,0.00740120227166319,-0.0100940662349096,0.991062637454369,-0.0388405295439611,0.991062637405518,-0.0388405295300771,0.00740154817254357,-0.0100964326940129
3.5,0.00736950447384821,-0.01194094587939,0.990566305720498,-0.0450946910766579,0.990566305685952,-0.0450946910639143,0.00736977937984751,-0.0119438504551965
4,0.00730971981643957,-0.0137812645543125,0.99002595937914,-0.051336419561073,0.990025959354713,-0.0513364195520936,0.00730987910766778,-0.0137847304627723
4.5,0.00722558126395256,-0.015617647777443,0.989440063141053,-0.0575620511864621,0.989440063123566,-0.0575620511821846,0.00722557799097201,-0.0156216959484023
5,0.0071190499984346,-0.0174517149208562,0.988808892774057,-0.063769382455634,0.988808892761087,-0.0637693824560532,0.00711883505319344,-0.0174563635576082
5.5,0.00699124813708618,-0.0192844211397674,0.988133432032064,-0.069957287244101,0.98813343202177,-0.0699572872486218,0.00699077074993948,-0.0192896855075428
6,0.00684288665511845,-0.0211163124911309,0.987414841099779,-0.0761253748027571,0.987414841090807,-0.0761253748104149,0.00684209494814669,-0.0211222049352546
6.5,0.00667446497685731,-0.0229476941117754,0.986654205940591,-0.0822737230644774,0.986654205932008,-0.0822737230740538,0.00667330645005815,-0.0229542242365532
7,0.00648636459720775,-0.0247787350608251,0.985852432263275,-0.0884026813584571,0.985852432254513,-0.0884026813685939,0.00648478650422435,-0.024785909997795
7.5,0.00627889302517382,-0.0266095312752066,0.985010215236847,-0.0945127296441504,0.985010215227658,-0.094512729653399,0.00627684263554928,-0.0266173559856284
8,0.00605230455452865,-0.0284401420807008,0.984128047967953,-0.100604381750733,0.984128047958374,-0.100604381757631,0.00604972931724923,-0.0284486196558111
8.5,0.00580681043375675,-0.0302706105169817,0.983206248140984,-0.106678121927379,0.983206248131296,-0.106678121930477,0.00580365806247696,-0.030279742454745
9,0.00554258435062505,-0.0321009740182667,0.982244991262983,-0.112734365958659,0.98224499125367,-0.112734365956555,0.0055388028506328,-0.0321107604662947
9.5,0.0052597659462631,-0.0339312695090683,0.981244344192314,-0.118773439891918,0.981244344184032,-0.118773439883284,0.0052553036003733,-0.0339417094704295
10,0.00495846354726703,-0.0357615353782359,0.980204295731137,-0.124795570989837,0.980204295724682,-0.12479557097342,0.00495326887425451,-0.0357726268809939
10.5,0.00460927227372698,-0.0375273672510961,0.979106950082132,-0.13083063798458,0.979106950077129,-0.130830637969729,0.0046070638503809,-0.0375428713017643
11,0.00424408456445735,-0.0392903344916622,0.977969826489306,-0.136844049930768,0.977969826485559,-0.136844049917562,0.00424469389493909,-0.0393107942951163
11.5,0.00386303855949938,-0.0410504052330944,0.976793827645954,-0.142836052085589,0.976793827643268,-0.142836052074086,0.00386624188233237,-0.0410763792746494
12,0.00346627452626985,-0.0428075659001088,0.975579770520083,-0.148806921906482,0.975579770518267,-0.14880692189672,0.00347178810987939,-0.0428396244249818
12.5,0.00305393353463962,-0.0445618228189497,0.974328389539966,-0.154756958514429,0.974328389538836,-0.154756958506413,0.00306140884084011,-0.0446005435909749
13,0.00262615586321027,-0.0463132038854228,0.973040340685714,-0.160686473387816,0.973040340685093,-0.16068647338154,0.00263517464032606,-0.0463591671266288
13.5,0.00218307909654708,-0.0480617602709725,0.971716206244023,-0.166595782281062,0.971716206243746,-0.1665957822765,0.00219314848434021,-0.0481155426785445
14,0.00172483586988201,-0.049807568138966,0.970356500011346,-0.172485198328721,0.97035650001126,-0.172485198325836,0.00173538362271361,-0.0498697358730889
14.5,0.00125155121500936,-0.0515507303338447,0.968961672760252,-0.178355026271284,0.96896167276021,-0.178355026270022,0.00126192117802795,-0.0516218308700878
15,0.000763339459308482,-0.0532913779943476,0.967532117813222,-0.184205557721561,0.967532117813096,-0.184205557721858,0.000772787465090824,-0.0533719307386673
15.5,0.000260300629477905,-0.05502967202841,0.966068176596294,-0.190037067379922,0.966068176595965,-0.190037067381704,0.000267991019381159,-0.0551201576031666
16,-0.000257483686758583,-0.0567658043714694,0.964570144070948,-0.195849810101194,0.96457014407031,-0.195849810104382,-0.000252480671490279,-0.0568666524986416
16.5,-0.000789955063090791,-0.0584999989316812,0.96303827396608,-0.201644018714912,0.963038273965041,-0.201644018719422,-0.000788664731546082,-0.0586115748668896
17,-0.00133708357494697,-0.0602325121051206,0.96147278375243,-0.207419902502664,0.961472783750909,-0.207419902508405,-0.00134062674336868,-0.0603551016152499
17.5,-0.0018988737780524,-0.0619636327217759,0.959873859319449,-0.21317764624074,0.959873859317377,-0.213177646247619,-0.00190846485298007,-0.0620974256523268
18,-0.00247537132597012,-0.0636936812596804,0.958241659329366,-0.218917409722437,0.958241659326687,-0.218917409730362,-0.00249231409097253,-0.0638387538077718
18.5,-0.00306667020017318,-0.0654230081408631,0.956576319235385,-0.224639327681345,0.956576319232051,-0.224639327690224,-0.00309235084810816,-0.0655793040381902
19,-0.00367292048997847,-0.067151990900808,0.954877954960636,-0.230343510044711,0.95487795495661,-0.230343510054448,-0.00370879741984434,-0.067319301819226
19.5,-0.00429433661319878,-0.0688810300048153,0.95314666624218,-0.236030042453561,0.953146666237435,-0.236030042464065,-0.00434192650672513,-0.069058975626092
20,-0.00493120581082274,-0.0706105430732999,0.951382539650097,-0.241698986994034,0.951382539644612,-0.241698987005215,-0.00499206552683212,-0.0707985514127087
20.5,-0.00558389667994602,-0.0723409572774565,0.949585651295919,-0.247350383091514,0.949585651289685,-0.247350383103286,-0.00565960056318571,-0.0725382460148505
21,-0.00625286742958203,-0.07407269968154,0.947756069247619,-0.252984248526043,0.947756069240633,-0.252984248538321,-0.00634497973452525,-0.0742782594268729
21.5,-0.00693867345582577,-0.0758061853435512,0.945893855670171,-0.258600580533618,0.945893855662434,-0.258600580546321,-0.00704871574420379,-0.0760187659361655
22,-0.00764197374053976,-0.0775418030480726,0.943999068711719,-0.264199356963729,0.943999068703239,-0.264199356976779,-0.00777138733171434,-0.0777599041459345
22.5,-0.0083635354876998,-0.0792798986384593,0.942071764155753,-0.26978053746838,0.942071764146545,-0.269780537481706,-0.00851363932801075,-0.0795017659757002
23,-0.00910423633324681,-0.0810207560450023,0.940111996859451,-0.275344064702426,0.940111996849535,-0.275344064715954,-0.0092761810034524,-0.0812443848000086
23.5,-0.00986506340983012,-0.0827645762723757,0.938119821997822,-0.280889865518744,0.938119821987218,-0.280889865532413,-0.0100597824004418,-0.0829877229678142
24,-0.0106471085318555,-0.0845114548121044,0.936095296132422,-0.286417852145271,0.93609529612116,-0.286417852159019,-0.0108652683665085,-0.0847316590348495
24.5,-0.0114515588047229,-0.0862613581763005,0.934038478122416,-0.291927923333661,0.934038478110523,-0.29192792334743,-0.0116935100521295,-0.0864759751342903
25,-0.0122796820707629,-0.088014100493929,0.931949429894555,-0.297419965471835,0.931949429882066,-0.297419965485574,-0.0125454137145008,-0.0882203450003445
25.5,-0.0131328067957389,-0.0897693213491313,0.929828217087509,-0.302893853654701,0.929828217074459,-0.30289385366836,-0.0134219067755234,-0.0899643232365315
26,-0.0140122962802658,-0.0915264662444044,0.927674909584703,-0.308349452708992,0.927674909571128,-0.308349452722527,-0.0143239212184592,-0.0917073364752565
26.5,-0.0149195174466214,-0.0932847712064531,0.925489581948623,-0.313786618169658,0.92548958193456,-0.313786618183028,-0.0152523745688613,-0.0934486770973839
27,-0.0158558048866717,-0.0950432530837877,0.92327231376838,-0.319205197206303,0.923272313753871,-0.319205197219473,-0.0162081488831796,-0.09518750015968
27.5,-0.0168224213296727,-0.0968007069814241,0.921023189931202,-0.324605029499123,0.921023189916287,-0.324605029512059,-0.0171920683507537,-0.0969228241064377
28,-0.0178205161538457,-0.0985557120176268,0.918742300827423,-0.32998594806457,0.918742300812142,-0.329985948077241,-0.0182048762860865,-0.0986535357151115
28.5,-0.0188510839662508,-0.100306646166163,0.916429742497619,-0.335347780031467,0.916429742482015,-0.335347780043849,-0.0192472124302929,-0.100378399545212
29,-0.019914925551376,-0.102051710382938,0.914085616729552,-0.340690347368836,0.914085616713667,-0.340690347380904,-0.0203195915754377,-0.102096071932838
29.5,-0.0210126135851113,-0.103788961550247,0.911710031111786,-0.346013467566944,0.911710031095662,-0.346013467578682,-0.0214223845567091,-0.103805119313566
30,-0.0221444653894481,-0.105516353070211,0.909303099050057,-0.351316954273394,0.909303099033736,-0.351316954284783,-0.0225558026138016,-0.105504040384383
30.5,-0.0233105246522387,-0.107231781280541,0.906864939751769,-0.35660061788618,0.906864939735292,-0.356600617897209,-0.0237198859999997,-0.107191291354824
31,-0.0245105534757912,-0.108933135333477,0.904395678183368,-0.361864266105799,0.904395678166778,-0.361864266116455,-0.0249144975194936,-0.108865313314073
31.5,-0.0257440354003085,-0.11061834784427,0.901895445004777,-0.367107704448492,0.901895444988112,-0.367107704458767,-0.0261393214136566,-0.11052456057809
32,-0.0270101892512409,-0.112285443526569,0.899364376484545,-0.372330736722788,0.899364376467847,-0.372330736732677,-0.0273938677164285,-0.112167528797105
32.5,-0.0283079928753306,-0.113932583202579,0.896802614398939,-0.377533165471417,0.896802614382246,-0.377533165480917,-0.028677481884318,-0.11379278160902
33,-0.0296362151486552,-0.115558100983415,0.894210305917768,-0.382714792380687,0.894210305901119,-0.382714792389797,-0.029989359206598,-0.115398974718928
33.5,-0.0309934541349824,-0.117160533005032,0.891587603479382,-0.387875418659336,0.891587603462814,-0.387875418668057,-0.0313285632432141,-0.116984876459156
34,-0.0323781789899317,-0.118738636800556,0.888934664656971,-0.393014845388789,0.88893466464052,-0.393014845397122,-0.0326940473435707,-0.118549384120049
34.5,-0.0337887731582579,-0.120291401106195,0.886251652017996,-0.398132873846688,0.886251652001697,-0.398132873854639,-0.0340846781827577,-0.120091535614944
35,-0.035223576578554,-0.121818046556041,0.883538732978339,-0.403229305805469,0.883538732962227,-0.403229305813045,-0.0354992602176959,-0.121610516327145
35.5,-0.0366809249471473,-0.123318018259637,0.880796079652537,-0.408303943807659,0.880796079636645,-0.408303943814867,-0.0369365600098409,-0.123105661256697
36,-0.038159184541802,-0.124790971637642,0.878023868701274,-0.413356591419491,0.878023868685633,-0.413356591426341,-0.0383953294716449,-0.124576452819293
36.5,-0.0396567816031709,-0.126236753103066,0.875222281177122,-0.41838705346434,0.875222281161762,-0.418387053470842,-0.0398743272538125,-0.126022514833566
37,-0.0411722257609694,-0.127655377228518,0.872391502369405,-0.423395136237364,0.872391502354356,-0.423395136243529,-0.0413723376799238,-0.127443603358416
37.5,-0.0427041274284359,-0.129047001960032,0.869531721648886,-0.428380647702704,0.869531721634175,-0.428380647708548,-0.0428881868348678,-0.128839595107798
38,-0.0442512094440161,-0.130411903260448,0.866643132312901,-0.433343397674444,0.866643132298556,-0.433343397679978,-0.0444207556066074,-0.130210474181172
38.5,-0.0458123135003317,-0.131750450327593,0.863725931431451,-0.438283197982491,0.863725931417496,-0.438283197987733,-0.0459689896539149,-0.131556317812593
39,-0.0473864020672407,-0.133063082269082,0.860780319694664,-0.443199862624471,0.860780319681124,-0.443199862629434,-0.0475319064168415,-0.132877281771314
39.5,-0.0489725565975717,-0.134350286854338,0.857806501262007,-0.44809320790459,0.857806501248905,-0.448093207909293,-0.0491085993974588,-0.134173585953708
40,-0.0505699728162347,-0.1356125817259,0.854804683613504,-0.452963052560433,0.854804683600861,-0.452963052564893,-0.0506982400150527,-0.135445500601515
40.5,-0.0521779538531985,-0.136850498248385,0.851775077403214,-0.45780921787854,0.851775077391051,-0.457809217882775,-0.0523000773847659,-0.136693333474504
41,-0.0537959019055084,-0.138064568010482,0.848717896315148,-0.462631527799557,0.848717896303484,-0.462631527803585,-0.0539134363859114,-0.137917418203942
41.5,-0.055423309018278,-0.139255311873339,0.845633356921771,-0.467429809013704,0.845633356910622,-0.467429809017545,-0.055537714381178,-0.139118103962133
42,-0.0570597474716115,-0.140423231374573,0.842521678545188,-0.472203891047252,0.842521678534573,-0.472203891050925,-0.0571723769263314,-0.140295746505689
42.5,-0.0587048601588203,-0.141568802245547,0.839383083121125,-0.476953606340631,0.839383083111058,-0.476953606344156,-0.0588169527771297,-0.141450700587459
43,-0.0603583512472403,-0.142692469774321,0.836217795065715,-0.481678790318765,0.83621779505621,-0.481678790322163,-0.0604710284607922,-0.142583313684052
43.5,-0.0620199773300116,-0.143794645741672,0.833026041145161,-0.486379281454173,0.833026041136232,-0.486379281457465,-0.0621342426372543,-0.14369392095156
44,-0.0636895392070348,-0.144875706666902,0.829808050348281,-0.491054921323342,0.829808050339937,-0.491054921326547,-0.0638062804337136,-0.144782841299748
44.5,-0.0653668743761422,-0.1459359931191,0.826564053761915,-0.495705554656826,0.826564053754169,-0.495705554659965,-0.065486867896567,-0.145850374462591
45,-0.0670518502706118,-0.146975809874099,0.823294284449226,-0.500331029383516,0.823294284442087,-0.500331029386612,-0.0671757666692585,-0.146896798938704
45.5,-0.0687443582451657,-0.147995426724534,0.819998977330825,-0.504931196669469,0.819998977324299,-0.504931196672541,-0.068872768973486,-0.147922370676823
46,-0.0704443082880103,-0.148995079777913,0.816678369068727,-0.509505910951653,0.816678369062824,-0.509505910954724,-0.0705776929448326,-0.148927322387539
46.5,-0.0721516244196186,-0.149974973104182,0.813332697953084,-0.514055029966974,0.813332697947808,-0.514055029970063,-0.0722903783523097,-0.149911863371339
47,-0.0738662407283257,-0.150935280618595,0.809962203791654,-0.518578414776872,0.809962203787011,-0.518578414780001,-0.0740106827139558,-0.150876179763595
47.5,-0.0755880979869792,-0.151876148107663,0.806567127801969,-0.523075929787797,0.806567127797961,-0.523075929790986,-0.0757384778073261,-0.151820435108473
48,-0.0773171407926929,-0.152797695325008,0.803147712506136,-0.527547442767813,0.803147712502768,-0.527547442771083,-0.0774736465637073,-0.152744771185213
48.5,-0.0790533151721403,-0.153700018100398,0.799704201628245,-0.531992824859608,0.799704201625518,-0.531992824862979,-0.0792160803278249,-0.153649309021229
49,-0.0807965665970755,-0.154583190418895,0.796236839994296,-0.536411950590113,0.796236839992211,-0.536411950593605,-0.0809656764600565,-0.154534150036823
49.5,-0.0825468383581459,-0.155447266438522,0.792745873434635,-0.540804697876957,0.792745873433191,-0.54080469788059,-0.0827223362553143,-0.15539937727569
50,-0.0843040702491823,-0.156292282424048,0.789231548688792,-0.545170948031964,0.78923154868799,-0.545170948035756,-0.0844859631514042,-0.156245056683807
50.5,-0.08606819751855,-0.157118258581949,0.785694113312728,-0.54951058576185,0.785694113312564,-0.549510585765822,-0.0862564611993946,-0.157071238406622
51,-0.087839150048698,-0.157925200787471,0.782133815588372,-0.553823499166334,0.782133815588845,-0.553823499170505,-0.0880337337691044,-0.157877958080854
51.5,-0.0896168517293718,-0.158713102199227,0.77855090443545,-0.558109579733771,0.778550904436554,-0.558109579738158,-0.0898176824639784,-0.158665238102598
52,-0.0914012199941918,-0.159481944760269,0.774945629325517,-0.562368722334499,0.77494562932725,-0.562368722339121,-0.0916082062211304,-0.159433088857975
52.5,-0.0931921654941242,-0.160231700587137,0.77131824019816,-0.566600825212012,0.771318240200516,-0.566600825216886,-0.0934052005741253,-0.160181509906352
53,-0.0949895918849318,-0.160962333250229,0.767668987379312,-0.570805789972097,0.767668987382285,-0.57080578997724,-0.0952085570579243,-0.160910491109241
53.5,-0.096793395708866,-0.161673798950164,0.763998121501631,-0.574983521570051,0.763998121505214,-0.57498352157548,-0.0970181627373661,-0.161620013700488
54,-0.0986034663537056,-0.162366047595639,0.760305893426895,-0.579133928296096,0.76030589343108,-0.579133928301826,-0.0988338998423947,-0.162310051295353
54.5,-0.100419686074747,-0.163039023788788,0.756592554170376,-0.583256921759084,0.756592554175155,-0.583256921765132,-0.100655645495073,-0.162980570837652
55,-0.102241930067561,-0.163692667724286,0.752858354827123,-0.587352416868613,0.752858354832488,-0.587352416874993,-0.102483271515114,-0.163631533485351
55.5,-0.104070066581223,-0.164326916008492,0.749103546500148,-0.591420331815608,0.749103546506089,-0.591420331822335,-0.104316644292206,-0.164262895435886
56,-0.105903957063394,-0.164941702404811,0.745328380230437,-0.595460588051497,0.745328380236944,-0.595460588058584,-0.106155624714889,-0.164874608693196
56.5,-0.107743456330044,-0.165536958511269,0.741533106928764,-0.599473110266028,0.741533106935826,-0.599473110273488,-0.108000068147024,-0.165466621778888
57,-0.109588412753831,-0.166112614375971,0.737717977309275,-0.603457826363819,0.737717977316881,-0.603457826371665,-0.109849824444052,-0.166038880390286
57.5,-0.111438668466194,-0.166668599055863,0.733883241824781,-0.607414667439707,0.733883241832919,-0.607414667447951,-0.111704738002347,-0.166591328008317
58,-0.113294059569087,-0.167204841123809,0.730029150603752,-0.61134356775297,0.730029150612409,-0.611343567761623,-0.113564647835848,-0.167123906458254
58.5,-0.115154416353046,-0.167721269128667,0.726155953388946,-0.615244464700472,0.72615595339811,-0.615244464709545,-0.115429387674987,-0.167636556426363
59,-0.117019563518897,-0.168217812012694,0.722263899477676,-0.619117298788806,0.722263899487333,-0.619117298798309,-0.117298786083693,-0.168129217935475
59.5,-0.11888932040096,-0.168694399490234,0.718353237663646,-0.622962013605479,0.718353237673784,-0.622962013615421,-0.119172666590821,-0.168601830782382
60,-0.120763501190009,-0.169150962391353,0.714424216180351,-0.626778555789202,0.714424216190953,-0.626778555799591,-0.12105084783297,-0.169054334939893
60.5,-0.122641915154679,-0.169587432973712,0.710477082645991,-0.630566874999327,0.710477082657044,-0.630566875010171,-0.122933143706077,-0.1694866709262
61,-0.12452436686025,-0.170003745205703,0.706512084009897,-0.634326923884486,0.706512084021386,-0.634326923895794,-0.124819363523642,-0.169898780144099
61.5,-0.126410656384031,-0.170399835023587,0.702529466500404,-0.63805865805048,0.702529466512314,-0.638058658062256,-0.126709312179738,-0.170290605192424
62,-0.12830057952678,-0.170775640565113,0.698529475574178,-0.641762036027447,0.698529475586492,-0.641762036039697,-0.12860279031532,-0.170662090151928
62.5,-0.13019392801973,-0.171131102381829,0.694512355866946,-0.645437019236363,0.69451235587965,-0.645437019249093,-0.130499594486575,-0.171013180847647
63,-0.13209048972697,-0.171466163632141,0.690478351145631,-0.649083571954925,0.690478351158707,-0.649083571968138,-0.13239951733428,-0.171343825089673
