"Freq [GHz]","re(St(P1,P1)) []","im(St(P1,P1)) []","re(St(P1,P2)) []","im(St(P1,P2)) []","re(St(P2,P1)) []","im(St(P2,P1)) []","re(St(P2,P2)) []","im(St(P2,P2)) []"
0,0.00456157531550616,0,0.99545290133392,0,0.99545290505921,0,0.00456158478277757,0
0.5,0.00503543406465923,-0.00011546995688505,0.994908355835001,-0.00691053052010204,0.994908354617415,-0.00691053186190871,0.00503567259615778,-0.000116642468757533
1,0.00543832474919626,-0.000812349083560093,0.994326863272878,-0.0132267645418551,0.994326862582501,-0.013226764977162,0.00543895184471666,-0.000815012683990091
1.5,0.00560678411760129,-0.00169518671716418,0.993798990192344,-0.0196006998527061,0.993798989309967,-0.019600700235209,0.0056080117012467,-0.00169946606996518
2,0.00566198920032868,-0.00253395389958655,0.993217425472844,-0.0258093771270786,0.993217424525517,-0.0258093773674801,0.00566356549531655,-0.00254007699111014
2.5,0.0056699253465391,-0.00333824029544161,0.992629895055075,-0.0318951703782808,0.992629894159898,-0.0318951704763979,0.00567171203804495,-0.00334623683871449
3,0.00565299508427408,-0.0041194457915612,0.992050851194447,-0.0378993053180192,0.992050850423321,-0.0378993053147685,0.00565492425290071,-0.00412931047780063
3.5,0.00562009868883884,-0.00488445059038867,0.991477224880432,-0.0438511178745475,0.991477224264237,-0.0438511178165903,0.00562213582927784,-0.00489617587715152
4,0.00557531068458683,-0.00563717253634977,0.990899540387635,-0.0497683803386142,0.990899539930642,-0.0497683802632078,0.00557743744512296,-0.00565075477220489
4.5,0.00552073534818254,-0.00637984575788231,0.990307381524614,-0.0556606652756084,0.990307381216557,-0.0556606652074088,0.00552294150838684,-0.00639528570867753
5,0.00545758311879707,-0.0071137414671103,0.989691458791266,-0.0615324537865263,0.989691458614852,-0.0615324537391491,0.00545986262869747,-0.00713104373651419
5.5,0.00538662472903439,-0.00783956249206152,0.989044109897737,-0.0673852861378892,0.989044109832724,-0.0673852861167097,0.0053889736171111,-0.00785873483852395
6,0.00530840101512076,-0.00855766487755094,0.988359206063638,-0.0732190919656581,0.988359206088844,-0.0732190919703859,0.00531081621146412,-0.00857871763040574
6.5,0.00522332720997587,-0.00926818711069899,0.98763189080242,-0.0790329703763017,0.987631890896628,-0.0790329704030475,0.00522580584616728,-0.00929113270109827
7,0.00513174793185212,-0.00997112841458492,0.98685831304642,-0.0848256340012421,0.986858313188748,-0.0848256340440194,0.00513428690406414,-0.00999598099866716
7.5,0.00503396756799035,-0.0106663979135924,0.986035404098878,-0.0905956559508523,0.986035404268907,-0.090595656002658,0.00503656325370017,-0.0106931730632391
8,0.00493026767676819,-0.0113538465301657,0.985160705181863,-0.0963416032187157,0.985160705359662,-0.0963416032722817,0.00493291574601623,-0.0113825609719393
8.5,0.00482091720719635,-0.0120332882929501,0.984232238546659,-0.102062105199225,0.9842322387128,-0.10206210524752,0.0048236124952305,-0.0120639596814272
9,0.0047061785781129,-0.0127045149467975,0.983248412351786,-0.107755885339008,0.98324841248736,-0.107755885375594,0.00470891499999232,-0.0127371616627912
9.5,0.00458631128491549,-0.013367306201963,0.982207950471625,-0.113421772036468,0.982207950558263,-0.113421772055696,0.00458908178029588,-0.0134019471691813
10,0.00446157398438779,-0.0140214370670684,0.981109840263713,-0.119058698089934,0.981109840283631,-0.119058698087059,0.00446437048508311,-0.0140580915829345
10.5,0.00435376172299015,-0.0147224989623975,0.980071910105152,-0.124730006150453,0.980071910127728,-0.124730006167921,0.00435635252108657,-0.0147608582678096
11,0.00424059983860978,-0.0154236053868173,0.979006346896265,-0.130376976223734,0.979006346919237,-0.130376976261299,0.00424298959903917,-0.0154636562436163
11.5,0.00412206923362571,-0.01612476829178,0.977914152964294,-0.136000694519127,0.977914152985552,-0.136000694576294,0.00412426438355731,-0.0161664981377587
12,0.00399814847461417,-0.0168260006001875,0.976796162264533,-0.14160223935593,0.976796162282127,-0.141602239431995,0.00400015719632314,-0.0168693977269254
12.5,0.0038688135963283,-0.0175273161453626,0.975653055374451,-0.147182665099353,0.975653055386614,-0.147182665193431,0.0038706458049986,-0.0175723698812296
13,0.00373403789952265,-0.0182287295919408,0.974485374821052,-0.152742989428729,0.974485374826203,-0.152742989539799,0.00373570520486015,-0.0182754304892638
13.5,0.00359379174364827,-0.0189302563372231,0.973293540272067,-0.158284183588907,0.973293540268811,-0.158284183715831,0.00359530739420183,-0.0189785963624489
14,0.00344804233567089,-0.0196319123914916,0.972077863234664,-0.163807165255837,0.972077863221792,-0.1638071653974,0.00344942114480395,-0.0196818851170342
14.5,0.00329675351648065,-0.0203337142357736,0.970838561004382,-0.169312793648058,0.970838560980867,-0.169312793802985,0.0032980117689804,-0.0203853150319846
15,0.00313988554660122,-0.0210356786556192,0.96957576969082,-0.174801866531232,0.969575769655808,-0.174801866698212,0.00314104088500483,-0.0210889048811822
15.5,0.00297739489315479,-0.0217378225494556,0.968289556215516,-0.180275118788113,0.968289556168315,-0.180275118965825,0.00297846618299097,-0.0217926737382586
16,0.00280923402031436,-0.0224401627102369,0.966979929232342,-0.185733222257439,0.966979929172414,-0.185733222444563,0.00281024119359979,-0.0224966407525806
16.5,0.00263535118574976,-0.0231427155791253,0.96564684896317,-0.191176786579033,0.965646848890119,-0.191176786774268,0.0026363150622622,-0.0232008248949676
17,0.00245569024585895,-0.0238454969702637,0.964290235973125,-0.196606360816727,0.964290235886686,-0.196606361018795,0.00245663233193949,-0.0239052446719192
17.5,0.00227019047286936,-0.0245485217657464,0.962909978932248,-0.202022435663869,0.962909978832274,-0.202022435871534,0.00227113273775062,-0.0246099178073806
18,0.00207878638716646,-0.0252518035802822,0.961505941425482,-0.207425446067176,0.961505941311931,-0.207425446279248,0.00207975101714525,-0.025314860891303
18.5,0.00188140760850597,-0.0259553543952782,0.960077967882051,-0.212815774132812,0.960077967754979,-0.21281577434815,0.00188241673960021,-0.0260200889946205
19,0.0016779787299801,-0.0266591841625137,0.95862588869989,-0.218193752203746,0.958625888559437,-0.218193752421265,0.00167905416011538,-0.02672561525074
19.5,0.00146841921888802,-0.027363300377925,0.957149524641908,-0.22355966601924,0.957149524488289,-0.223559666237913,0.00146958210105924,-0.0274314504039737
20,0.00125264334880765,-0.028067707626581,0.955648690579459,-0.228913757886278,0.955648690412955,-0.228913758105141,0.00125391386713286,-0.0281376023260136
20.5,0.00103056016732633,-0.0287724071004427,0.954123198655251,-0.234256229808678,0.954123198476201,-0.234256230026825,0.00103195719838789,-0.0288440755020987
21,0.000802073503978873,-0.0294773960910644,0.952572860933595,-0.239587246532972,0.952572860742384,-0.23958724674956,0.000803614266350505,-0.0295508704891763
21.5,0.000567082022918775,-0.0301826674601351,0.950997491600861,-0.244906938481313,0.950997491397916,-0.24490693869556,0.000568781718304379,-0.0302579833491459
22,0.000325479324802813,-0.0308882090913518,0.949396908773699,-0.250215404550573,0.949396908559482,-0.250215404761756,0.00032735077472712,-0.0309654050609951
22.5,7.7154102180732E-005,-0.0315940033279047,0.947770935967087,-0.255512714764116,0.947770935742087,-0.25551271497157,7.92073846761499E-005,-0.0316731209164733
23,-0.000178009647612665,-0.0323000264005722,0.946119403268968,-0.260798912768561,0.946119403033698,-0.260798912971679,-0.000175767556397144,-0.0323811099048141
23.5,-0.000440132348448641,-0.033006247852178,0.94444214826314,-0.266074018172279,0.944442148018131,-0.26607401837051,-0.000437697922353875,-0.033089344092806
24,-0.000709338507214219,-0.0337126299649109,0.942739016737245,-0.271338028725967,0.94273901648304,-0.27133802891881,-0.000706712002172039,-0.0337977880074094
24.5,-0.000985756309033303,-0.0344191271976722,0.941009863208295,-0.276590922348164,0.941009862945449,-0.27659092253517,-0.000982942073138537,-0.0345063980288436
25,-0.00126951714428675,-0.035125685641312,0.939254551294134,-0.281832659000602,0.939254551023205,-0.281832659181372,-0.00126652389965504,-0.0352151218028376
25.5,-0.001560755066768,-0.0358322425001263,0.937472953955545,-0.287063182419578,0.937472953677096,-0.287063182593756,-0.00155759615690942,-0.0359238976813401
26,-0.00185960618335568,-0.0365387256084559,0.935664953630475,-0.292282421710468,0.935664953345066,-0.292282421877743,-0.00185629977988805,-0.0366326542014883
26.5,-0.00216620797677736,-0.0372450529915587,0.933830442278863,-0.297490292813081,0.933830441987054,-0.297490292973183,-0.00216277723952962,-0.0373413096129818
27,-0.00248069856431404,-0.0379511324800537,0.93196932135404,-0.302686699845817,0.931969321056387,-0.302686699998514,-0.00247717174926293,-0.0380497714641728
27.5,-0.00280321589662819,-0.0386568613872005,0.93008150171433,-0.307871536336634,0.930081501411382,-0.307871536481733,-0.00279962640669618,-0.0387579362570696
28,-0.0031338969023495,-0.0393621262580692,0.928166903486516,-0.313044686348818,0.928166903178813,-0.313044686486158,-0.0031302832768163,-0.0394656891812362
28.5,-0.00347287658540968,-0.0400668026991318,0.926225455891078,-0.318206025509221,0.926225455579153,-0.318206025638674,-0.00346928242463129,-0.0401729039359175
29,-0.00382028708357007,-0.0407707552961758,0.924257097037611,-0.323355421946475,0.924257096721985,-0.323355422067944,-0.00381676090675803,-0.0408794426489663
29.5,-0.00417625669787275,-0.0414738376274097,0.922261773697484,-0.328492737146216,0.922261773378668,-0.328492737259632,-0.00417285173291587,-0.0415851558999822
30,-0.00454090890400194,-0.0421758923775402,0.920239441059712,-0.333617826730057,0.920239440738204,-0.333617826835378,-0.00453768280963796,-0.0422898828537532
30.5,-0.00491436135758072,-0.0428767515571156,0.918190062475001,-0.33873054116459,0.918190062151286,-0.338730541261799,-0.0049113758796564,-0.0429934515084291
31,-0.00529672490632183,-0.0435762368298744,0.916113609192098,-0.343830726406316,0.916113608866648,-0.343830726495419,-0.00529404547133389,-0.0436956790610321
31.5,-0.00568810262257302,-0.0442741599490299,0.914010060089873,-0.348918224487963,0.914010059763147,-0.348918224568986,-0.00568579787315437,-0.0443963723908614
32,-0.00608858887014413,-0.0449703233014949,0.911879401407935,-0.353992874051277,0.911879401080378,-0.353992874124269,-0.00608673014858024,-0.0450953286591864
32.5,-0.00649826841937717,-0.0456645205570725,0.909721626478064,-0.359054510830975,0.909721626150104,-0.359054510896,-0.00649692920657102,-0.045792336021361
33,-0.00691721562413317,-0.0463565374175823,0.907536735458298,-0.364102968094165,0.90753673513035,-0.364102968151306,-0.00691647094262432,-0.0464871744452287
33.5,-0.00734549367376314,-0.0470461524588446,0.905324735071157,-0.369138077039207,0.905324734743623,-0.369138077088562,-0.00734541946440737,-0.0471796166274376
34,-0.00778315393220436,-0.0477331380565853,0.903085638347147,-0.374159667157657,0.903085638020412,-0.37415966719934,-0.00778382641491598,-0.0478694289972095
34.5,-0.00823023537508227,-0.0484172613854552,0.900819464374429,-0.379167566562615,0.900819464048864,-0.379167566596753,-0.00823173040454317,-0.0485563727951595
35,-0.00868676413413977,-0.0490982854788218,0.898526238055327,-0.384161602286516,0.898526237731288,-0.384161602313249,-0.00868915656164004,-0.0492402052131073
35.5,-0.00915275315653108,-0.0497759703356522,0.896205989870152,-0.389141600551165,0.89620598954798,-0.389141600570641,-0.009156116209043,-0.049920680579475
36,-0.00962820198448078,-0.0504500740597513,0.89385875564867,-0.394107387012508,0.893858755328693,-0.394107387024888,-0.00963260667172566,-0.050597551573814
36.5,-0.0101130966586696,-0.0511203540159548,0.891484576349418,-0.399058786982485,0.891484576031947,-0.399058786987941,-0.0101186112182921,-0.0512705704534602
37,-0.0106074097464246,-0.0517865679875225,0.889083497846949,-0.403995625630043,0.889083497532282,-0.403995625628753,-0.0106140991364989,-0.0519394902750459
37.5,-0.0111111004935446,-0.0524484753190004,0.886655570727045,-0.408917728163207,0.886655570415465,-0.408917728155357,-0.0111190259404829,-0.0526040660938638
38,-0.0116241150963187,-0.0531058380292453,0.884200850089811,-0.413824919993971,0.884200849781589,-0.413824919979754,-0.0116333337049268,-0.0532640561246598
38.5,-0.0121463870881984,-0.0537584218800229,0.881719395360567,-0.418717026887553,0.881719395055958,-0.41871702686717,-0.012156951519135,-0.053919222848462
39,-0.0126778378336004,-0.0544059973867035,0.879211270108355,-0.423593875097476,0.879211269807601,-0.423593875071131,-0.0126897960519058,-0.0545693340513895
39.5,-0.0132183771195722,-0.0550483407588926,0.876676541871903,-0.428455291487734,0.876676541575231,-0.428455291455638,-0.0132317722163114,-0.0552141637830228
40,-0.0137679038345874,-0.0556852347604804,0.874115281992805,-0.433301103643256,0.874115281700432,-0.433301103605624,-0.0137827739220195,-0.0558534932238013
40.5,-0.0143263067225376,-0.0563164694803548,0.87152756545571,-0.438131139969719,0.871527565167838,-0.438131139926767,-0.0143426849016646,-0.0564871114529772
41,-0.0148934651991221,-0.0569418430069126,0.868913470735262,-0.442945229783667,0.86891347045208,-0.442945229735617,-0.0149113795970058,-0.0571148161107833
41.5,-0.0154692502173017,-0.057561162001539,0.866273079649534,-0.447743203393848,0.86627307937122,-0.447743203340924,-0.0154887240902217,-0.0577364139506986
42,-0.0160535251682556,-0.0581742421681384,0.863606477219725,-0.452524892174521,0.863606476946443,-0.452524892116948,-0.0160745770656365,-0.0583517212798337
42.5,-0.0166461468043867,-0.0587809086178057,0.86091375153583,-0.457290128631496,0.860913751267732,-0.457290128569503,-0.0166687907874761,-0.058960564287573
43,-0.017246966171292,-0.0593809961295269,0.858194993628048,-0.462038746461533,0.858194993365276,-0.462038746395348,-0.0172712120798431,-0.0595627792645126
43.5,-0.0178558295362558,-0.0599743493095162,0.85545029734367,-0.466770580605708,0.855450297086354,-0.46677058053556,-0.017881683295951,-0.060158212715528
44,-0.018472579301698,-0.0605608226533204,0.852679759229203,-0.47148546729727,0.85267975897746,-0.471485467223389,-0.0185000432647463,-0.0607467213723336
44.5,-0.0190970548930419,-0.0611402805161669,0.84988347841747,-0.4761832441045,0.849883478171407,-0.476183244027115,-0.0191261282043015,-0.06132817211221
45,-0.0197290936116521,-0.0617125969980986,0.847061556519479,-0.480863749968986,0.847061556279192,-0.480863749888327,-0.0197597725927072,-0.0619024417906187
45.5,-0.0203685314447705,-0.0622776557513756,0.844214097520809,-0.485526825239738,0.844214097286383,-0.485526825156034,-0.0204008099886786,-0.0624694169962429
46,-0.021015203825716,-0.0628353497182047,0.841341207682311,-0.490172311703492,0.841341207453822,-0.49017231161697,-0.0210490737955272,-0.0630289937375146
46.5,-0.0216689463389513,-0.0633855808073595,0.838442995444906,-0.494800052611543,0.838442995222419,-0.494800052522429,-0.0217043979636442,-0.0635810770700201
47,-0.0223295953659478,-0.063928259518408,0.835519571338275,-0.499409892703399,0.835519571121846,-0.499409892611917,-0.0223666176280458,-0.0641255806742422
47.5,-0.0229969886690684,-0.0644633045223237,0.832571047893261,-0.504001678227528,0.832571047682935,-0.504001678133901,-0.0230355696788665,-0.0646624263930039
48,-0.0236709659118705,-0.0649906422070977,0.829597539557781,-0.508575256959455,0.829597539353594,-0.508575256863904,-0.023711093263941,-0.0651915437376822
48.5,-0.0243513691153432,-0.0655102061966666,0.826599162616092,-0.513130478217418,0.826599162418071,-0.513130478120159,-0.0243930302237149,-0.06571286937183
49,-0.0250380430505902,-0.0660219368510526,0.823576035111224,-0.517667192875796,0.823576034919389,-0.517667192777046,-0.0250812254597296,-0.0662263465803142
49.5,-0.0257308355693319,-0.0665257807550863,0.820528276770447,-0.52218525337649,0.820528276584806,-0.52218525327646,-0.0257755272387596,-0.0667319247314127
50,-0.0264295978743622,-0.0670216902024913,0.817456008933587,-0.526684513738432,0.817456008754141,-0.526684513637329,-0.0264757874354067,-0.0672295587386551
50.5,-0.0271341847326987,-0.0675096226814479,0.81435935448408,-0.53116482956535,0.814359354310824,-0.531164829463382,-0.0271818617165092,-0.0677192085284112
51,-0.027844454634681,-0.067989540367088,0.811238437782623,-0.535626058051973,0.81123843761554,-0.53562605794934,-0.0278936096711832,-0.0682008385185126
51.5,-0.0285602699026449,-0.0684614096256725,0.808093384603267,-0.540068057988749,0.808093384442336,-0.540068057885649,-0.0286108948906159,-0.0686744171124267
52,-0.0292814967530645,-0.0689252005345066,0.804924322071871,-0.544490689765234,0.804924321917061,-0.544490689661862,-0.0293335850019451,-0.0691399162127696
52.5,-0.0300080053162367,-0.0693808864210042,0.801731378606775,-0.54889381537223,0.801731378458048,-0.548893815268774,-0.0300615516606503,-0.0695973107572437
53,-0.0307396696176601,-0.0698284434236467,0.79851468386159,-0.553277298402776,0.798514683718901,-0.553277298299422,-0.0307946705059159,-0.0700465782794317
53.5,-0.0314763675252493,-0.0702678500769931,0.795274368670013,-0.557641004052083,0.795274368533312,-0.557641003949011,-0.0315328210833445,-0.0704876984962565
54,-0.0322179806664889,-0.0706990869223545,0.792010564992561,-0.561984799116484,0.79201056486179,-0.56198479901387,-0.0322758867393002,-0.0709206529233778
54.5,-0.0329643943194854,-0.0711221361452177,0.788723405865127,-0.566308551991473,0.788723405740222,-0.566308551889488,-0.0330237544909597,-0.0713454245192749
55,-0.0337154972817175,-0.071536981240059,0.785413025349298,-0.570612132668899,0.785413025230187,-0.57061213256771,-0.0337763148759583,-0.0717619973583383
55.5,-0.0344711817200965,-0.0719436067028025,0.782079558484318,-0.574895412733382,0.782079558370925,-0.574895412633149,-0.0345334617852732,-0.0721703563329056
56,-0.035231343005703,-0.0723419977508026,0.778723141240657,-0.579158265357988,0.7787231411329,-0.579158265258867,-0.0352950922827009,-0.0725704868838507
56.5,-0.0359958795363424,-0.072732140069948,0.775343910475086,-0.583400565299233,0.775343910372876,-0.583400565201373,-0.0360611064140469,-0.0729623747590468
57,-0.0367646925497843,-0.0731140195882339,0.771942003887204,-0.587622188891446,0.77194200379045,-0.587622188794993,-0.0368314070088276,-0.073346005798823
57.5,-0.0375376859303126,-0.073487622274938,0.768517559977357,-0.591823014040545,0.768517559885959,-0.591823013945636,-0.0376058994770384,-0.0737213657473271
58,-0.0383147660109439,-0.073852933964377,0.765070718005872,-0.596002920217253,0.765070717919728,-0.596002920124022,-0.0383844916032445,-0.0740884400885911
58.5,-0.0390958413734226,-0.0742099402030876,0.761601617953575,-0.600161788449797,0.761601617872576,-0.600161788358372,-0.0391670933399945,-0.0744472139059792
59,-0.039880822647848,-0.0745586261191963,0.758110400483512,-0.604299501316121,0.758110400407546,-0.604299501226623,-0.0399536166023155,-0.0747976717636351
59.5,-0.0406696223135748,-0.0748989763126602,0.754597206903849,-0.608415942935637,0.7545972068328,-0.60841594284818,-0.0407439750647846,-0.0751397976085163
60,-0.0414621545027855,-0.0752309747650487,0.751062179131889,-0.61251099896055,0.751062179065635,-0.612510998875245,-0.0415380839624828,-0.0754735746915568
60.5,-0.0422583348079464,-0.0755546047674972,0.747505459659156,-0.616584556566774,0.747505459597575,-0.616584556483722,-0.042335859896904,-0.0757989855065446
61,-0.0430580800941553,-0.0758698488654879,0.743927191517536,-0.620636504444465,0.743927191460497,-0.620636504363763,-0.0431372206477239,-0.0761160117452916
61.5,-0.0438613083172317,-0.0761766888191252,0.740327518246383,-0.624666732788198,0.740327518193755,-0.624666732709935,-0.0439420849911565,-0.0764246342677227
62,-0.0446679383482171,-0.0764751055775995,0.736706583860613,-0.628675133286791,0.736706583812263,-0.628675133211053,-0.0447503725254659,-0.0767248330855524
62.5,-0.0454778898048456,-0.076765079266601,0.733064532819705,-0.632661599112822,0.733064532775495,-0.632661599039684,-0.0455620035040866,-0.077016587358288
