"Freq [GHz]","re(St(P1,P1)) []","im(St(P1,P1)) []","re(St(P1,P2)) []","im(St(P1,P2)) []","re(St(P2,P1)) []","im(St(P2,P1)) []","re(St(P2,P2)) []","im(St(P2,P2)) []"
0,0.00545159588756405,0,0.994561494982918,0,0.994561493018409,0,0.00545159062198763,0
0.5,0.00588866613724193,0.00114185637051634,0.994062199095659,-0.00677423129712906,0.994062199491719,-0.00677423196908933,0.00588879801160758,0.00114139505558342
1,0.00626916764391083,0.00176266368950451,0.993530480921175,-0.0130128022254112,0.993530481033488,-0.0130128023500582,0.00626956800488898,0.00176158249665903
1.5,0.00646204844100318,0.00222164338750375,0.993036972618436,-0.0193101952812391,0.993036972670287,-0.0193101954140751,0.00646287243002064,0.00221987720855665
2,0.00656563678268007,0.00271480982673644,0.992481044195037,-0.0254557205266206,0.992481044202355,-0.0254557206421939,0.00656676284267288,0.00271220985039378
2.5,0.00663954730351879,0.00323708284665614,0.991909061766005,-0.0314827366823174,0.991909061748578,-0.0314827367711583,0.00664091429454317,0.00323362892727985
3,0.00670460753364965,0.00377899153666128,0.99133846358283,-0.037427235606442,0.991338463556066,-0.0374272356691634,0.00670619750205637,0.00377468916328638
3.5,0.00676920860209407,0.00433444527229376,0.990769661975347,-0.0433167277433046,0.990769661948749,-0.0433167277846422,0.00677102537897945,0.00432930328358161
4,0.00683722642851214,0.00489984063665183,0.990195765822345,-0.0491689650527363,0.990195765800736,-0.0491689650781186,0.00683928518128063,0.00489386661663538
4.5,0.00691067944269852,0.0054730438658277,0.989607962514188,-0.0549941625754951,0.989607962499364,-0.0549941625896055,0.00691300179362231,0.00546624346546221
5,0.00699074174221059,0.00605278144767585,0.988997864325851,-0.0607975527158322,0.98899786431783,-0.06079755272226,0.0069933534101656,0.00604515855357679
5.5,0.00707817403725408,0.00663829802143479,0.988358281884763,-0.0665813303213492,0.988358281882593,-0.0665813303226512,0.00708110365935444,0.00662985504545865
6,0.00717352434458562,0.00722916174882737,0.987683317313427,-0.0723459349004862,0.987683317315663,-0.0723459348983999,0.00717680288156686,0.00721989987380489
6.5,0.00727722880680881,0.00782515008340035,0.986968214780969,-0.078090841136552,0.986968214785939,-0.0780908411322025,0.00728088925491432,0.00781506944008736
7,0.00738966574235012,0.00842618039581833,0.986209155981427,-0.0838150291445707,0.986209155987372,-0.0838150291386581,0.00739374301587847,0.00841528017864235
7.5,0.00751118635541137,0.00903226643111399,0.985403070315237,-0.0895172576874819,0.985403070320391,-0.0895172576804022,0.00751571727004841,0.00902054496511351
8,0.00764213316463558,0.00964349013189469,0.984547479454832,-0.0951962193190843,0.984547479457458,-0.095196219311048,0.00764715648409159,0.00963094490142513
8.5,0.00778285168028447,0.0102599828837135,0.983640376784296,-0.100850625635603,0.983640376782709,-0.100850625626704,0.00778840820542465,0.0102466105305634
9,0.0079336982366332,0.0108819126986113,0.982680136110946,-0.106479251423544,0.982680136103519,-0.106479251413808,0.00793983092526426,0.0108677089947653
9.5,0.00809504557590451,0.0115094752318048,0.981665443084351,-0.112080954785095,0.981665443069524,-0.112080954774526,0.00810179968639609,0.0114944350301331
10,0.00826728709554753,0.0121428873232827,0.980595243552986,-0.117654683379238,0.980595243529268,-0.117654683367836,0.0082747103503564,0.0121270044880673
10.5,0.00847875135957166,0.012715712888312,0.979578085496641,-0.123278085199431,0.97957808547352,-0.123278085187884,0.00848686605839274,0.0126989544775347
11,0.00869941012744942,0.0132837275200686,0.978531718644442,-0.128876944729726,0.978531718621909,-0.128876944718066,0.0087082487559819,0.013266081710245
11.5,0.00892911472067066,0.013846750141024,0.977457303576135,-0.134452065662698,0.977457303554179,-0.134452065650956,0.0089387095897501,0.0138282045675706
12,0.00916771203780255,0.0144046056588354,0.976355858044437,-0.140004282972559,0.976355858023043,-0.140004282960759,0.00917809527589351,0.0143851474190155
12.5,0.00941504484413985,0.0149571250896172,0.975228264518097,-0.14553444679168,0.975228264497252,-0.145534446779847,0.0094262483899068,0.0149367407455783
13,0.00967095206429128,0.0155041456653349,0.974075278869178,-0.151043408556693,0.974075278848868,-0.151043408544851,0.00968300765925056,0.0154828212472564
13.5,0.00993526907672246,0.0160455109252737,0.972897539797587,-0.156532009334305,0.972897539777796,-0.156532009322474,0.00994820825798001,0.0160232319346143
14,0.0102078280093311,0.0165810707917564,0.97169557864715,-0.162001070190146,0.971695578627862,-0.162001070178343,0.010221682102405,0.0165578222045926
14.5,0.0104884580351164,0.0171106816302427,0.970469829327618,-0.167451384433231,0.970469829308819,-0.167451384421472,0.0105032581468485,0.0170864479007009
15,0.0107769856670558,0.0176342062940371,0.969220638113615,-0.172883711550794,0.969220638095292,-0.172883711539094,0.0107927626786111,0.0176089713578076
15.5,0.0110732350513169,0.0181515141538666,0.967948273143012,-0.178298772641142,0.967948273125147,-0.178298772629513,0.0110900196112735,0.0181252614318073
16,0.0113770282579719,0.0186624811126772,0.966652933482691,-0.183697247153225,0.96665293346527,-0.183697247141679,0.011394850775503,0.0186351935144908
16.5,0.0116881855684231,0.0191669896060178,0.965334757668862,-0.189079770748793,0.965334757651872,-0.189079770737341,0.0117070762065709,0.0191386495340073
17,0.0120065257587692,0.0196649285884005,0.963993831661901,-0.194446934114319,0.963993831645327,-0.194446934102969,0.0120265144278089,0.0196355179412917
17.5,0.0123318663784069,0.0201561935061418,0.962630196182721,-0.199799282563865,0.96263019616655,-0.199799282552625,0.0123529827293073,0.0201256936829726
18,0.0126640240231848,0.0206406862571438,0.961243853419192,-0.205137316289611,0.961243853403411,-0.205137316278486,0.012686297441159,0.0206090781612187
18.5,0.0130028146024837,0.0211183151381458,0.959834773107923,-0.210461491132715,0.95983477309252,-0.210461491121712,0.0130262742006307,0.0210855791810438
19,0.0133480535996367,0.0215889947800294,0.958402898009362,-0.215772219762946,0.958402897994326,-0.215772219752069,0.0133727282126784,0.0215551108856675
19.5,0.0136995563251526,0.0220526460717165,0.956948148803295,-0.221069873170746,0.956948148788614,-0.221069873159999,0.0137254745032604,0.0220175936804643
20,0.0140571381622559,0.0225091960732899,0.955470428438097,-0.226354782389387,0.955470428423761,-0.226354782378776,0.0140843281649649,0.0224729541461268
20.5,0.0144206148042921,0.0229585779189563,0.953969625970976,-0.231627240377853,0.953969625956974,-0.231627240367378,0.0144491045945066,0.0229211249416765
21,0.014789802483614,0.0234007307104536,0.952445619938503,-0.236887504006676,0.952445619924826,-0.236887503996341,0.0148196197217,0.0233620446979019
21.5,0.0151645181915948,0.02383559940159,0.950898281297333,-0.242135796099207,0.950898281283973,-0.242135796089014,0.0151956902295559,0.0237956579019356
22,0.0155445798894666,0.0242631346745108,0.949327475974512,-0.247372307489867,0.949327475961459,-0.247372307479817,0.0155771337652059,0.0242219147735556
22.5,0.0159298067097365,0.0246832928083898,0.947733067065504,-0.252597199068624,0.94773306705275,-0.252597199058718,0.0159637691413964,0.0246407711338983
23,0.01632001914796,0.0250960355411707,0.946114916716224,-0.257810603787684,0.946114916703762,-0.257810603777924,0.0163554165283443,0.0250521882672297
23.5,0.016715039244715,0.0255013299250058,0.944472887723159,-0.26301262861198,0.944472887710982,-0.263012628602366,0.0167518976357838,0.0254561327764036
24,0.0171146907576438,0.0258991481760504,0.942806844883244,-0.268203356399787,0.942806844871345,-0.26820335639032,0.017153035885086,0.0258525764326767
24.5,0.0175187993234888,0.0262894675192229,0.941116656122627,-0.273382847703733,0.941116656111,-0.273382847694413,0.0175586565713599,0.0262414960204824
25,0.0179271926100646,0.0266722700285746,0.939402193430976,-0.278551142485675,0.939402193419615,-0.278551142476502,0.0179685870154981,0.0266228731778211
25.5,0.0183397004581763,0.0270475424638641,0.937663333625439,-0.283708261741582,0.937663333614337,-0.283708261732557,0.0183826567061521,0.0269966942328406
26,0.0187561550134878,0.0274152761039315,0.935899958966059,-0.288854209034615,0.935899958955213,-0.288854209025735,0.0188006974316703,0.0273629500372248
26.5,0.0191763908484279,0.0277754665774563,0.934111957642171,-0.293988971936314,0.934111957631575,-0.293988971927582,0.0192225434020537,0.0277216357969594
27,0.019600245074201,0.0281281136916458,0.9322992241472,-0.299112523377081,0.932299224136849,-0.299112523368495,0.0196480313610261,0.0280727509010303
27.5,0.0200275574430401,0.0284732212594021,0.930461659557377,-0.304224822908127,0.930461659547266,-0.304224822899688,0.0200770006883338,0.0284162987485952
28,0.0204581704408371,0.0288107969254812,0.928599171728077,-0.309325817877808,0.928599171718205,-0.309325817869515,0.0205092934924284,0.0287522865751515
28.5,0.0208919293703334,0.0291408519921323,0.926711675419892,-0.31441544452581,0.926711675410252,-0.314415444517663,0.0209447546936936,0.0290807252781771
29,0.0213286824250494,0.0294634012446973,0.924799092365063,-0.319493628998972,0.924799092355653,-0.31949362899097,0.0213832320984223,0.0294016292427437
29.5,0.021768280754186,0.0297784627776179,0.922861351283607,-0.324560288292783,0.922861351274424,-0.324560288284925,0.0218245764637481,0.0297150161675219
30,0.0222105785187123,0.0300860578212694,0.920898387857273,-0.329615331122696,0.920898387848311,-0.329615331114983,0.0222686415537694,0.0300209068916237
30.5,0.0226554329388992,0.0303862105700123,0.918910144668407,-0.334658658729429,0.918910144659666,-0.33465865872186,0.0227152841871108,0.0303193252226655
31,0.0231027043335574,0.0306789480118703,0.916896571109908,-0.339690165622371,0.916896571101384,-0.339690165614946,0.0231643642761884,0.030610297766446
31.5,0.0235522561512537,0.0309642997601345,0.914857623271566,-0.344709740265147,0.914857623263256,-0.344709740257865,0.0236157448584474,0.0308938537585668
32,0.0240039549937935,0.0312422978872633,0.912793263807405,-0.349717265707246,0.912793263799307,-0.349717265700106,0.0240692921198632,0.0311700248983386
32.5,0.0244576706322569,0.0315129767613549,0.91070346178797,-0.354712620165466,0.910703461780082,-0.354712620158469,0.0245248754109943,0.0314388451852667
33,0.0249132760158946,0.0317763728854774,0.908588192540957,-0.359695677558772,0.908588192533276,-0.359695677551917,0.0249823672558926,0.0317003507583975
33.5,0.0253706472741849,0.0320325247401112,0.906447437483061,-0.364666307999958,0.906447437475585,-0.364666307993244,0.0254416433541684,0.0319545797387724
34,0.0258296637123606,0.0322814726289304,0.904281183945528,-0.369624378247326,0.904281183938255,-0.369624378240754,0.0259025825765278,0.0322015720752331
34.5,0.0262902078007236,0.0325232585281368,0.902089424995473,-0.374569752119407,0.902089424988401,-0.374569752112976,0.0263650669540879,0.0324413693937731
35,0.026752165158042,0.0327579259395305,0.899872159254737,-0.379502290875547,0.899872159247865,-0.379502290869256,0.0268289816617814,0.032674014850633
35.5,0.0272154245293624,0.0329855197474793,0.89762939071775,-0.384421853564999,0.897629390711075,-0.384421853558849,0.0272942149961662,0.0328995529892988
36,0.0276798777585309,0.0332060860799457,0.895361128569629,-0.389328297346989,0.895361128563149,-0.38932829734098,0.0277606583479465,0.0331180296015563
36.5,0.0281454197557396,0.0334196721736786,0.893067387005524,-0.394221477784041,0.89306738699924,-0.394221477778172,0.0282282061695151,0.0333294915927167
37,0.0286119484603925,0.0336263262436924,0.890748185052054,-0.399101249110679,0.890748185045962,-0.39910124910495,0.0286967559378162,0.0335339868511353
37.5,0.0290793647996007,0.0338260973571195,0.888403546391486,-0.403967464479486,0.888403546385584,-0.403967464473897,0.0291662081128333,0.0337315641220989
38,0.0295475726425933,0.0340190353115106,0.886033499189228,-0.408819976186314,0.886033499183516,-0.408819976180865,0.0296364660919954,0.0339222728861738
38.5,0.0300164787513347,0.0342051905176322,0.883638075925036,-0.413658635876351,0.883638075919513,-0.413658635871043,0.0301074361607835,0.0341061632420514
39,0.0304859927276271,0.0343846138868185,0.881217313228273,-0.418483294732571,0.881217313222937,-0.418483294727402,0.0305790274398282,0.0342832857939502
39.5,0.0309560269569779,0.0345573567228942,0.878771251717459,-0.423293803648003,0.878771251712308,-0.423293803642974,0.0310511518287661,0.0344536915435933
40,0.031426496549489,0.034723470618691,0.87629993584429,-0.428090013383132,0.876299935839323,-0.428090013378243,0.0315237239471234,0.0346174317867857
40.5,0.0318973192780379,0.0348830073571553,0.87380341374224,-0.432871774709637,0.873803413737456,-0.432871774704887,0.031996661072487,0.0347745580145855
41,0.0323684155139937,0.0350360188170464,0.871281737079798,-0.437638938541574,0.871281737075195,-0.437638938536965,0.032469883076215,0.0349251218190691
41.5,0.0328397081607129,0.0351825568831998,0.868734960918382,-0.442391356055038,0.868734960913959,-0.442391356050569,0.0329433123569221,0.035069174803667
42,0.0333111225850445,0.0353226733613331,0.866163143574898,-0.447128878797212,0.866163143570654,-0.447128878792883,0.0334168737719845,0.0352067684980431
42.5,0.0337825865470749,0.0354564198973553,0.863566346488923,-0.451851358785693,0.863566346484856,-0.451851358781504,0.033890494567277,0.0353379542774857
43,0.0342540301283249,0.0355838479011334,0.860944634094427,-0.456558648598868,0.860944634090537,-0.45655864859482,0.0343641043053678,0.035462783286756
43.5,0.0347253856586038,0.0357050084746663,0.858298073695978,-0.461250601458063,0.858298073692263,-0.461250601454156,0.0348376347923727,0.0355813063683538
44,0.0351965876417193,0.0358199523446081,0.855626735349312,-0.465927071302131,0.85562673534577,-0.465927071298364,0.0353110200036684,0.0356935739951257
44.5,0.035667572680237,0.0359287297990759,0.85293069174617,-0.470587912855087,0.852930691742801,-0.470587912851461,0.035784196008652,0.0357996362071716
45,0.0361382793994605,0.0360313906286692,0.850210018103292,-0.475232981687351,0.850210018100095,-0.475232981683866,0.0362571008947318,0.0358995425529637
45.5,0.0366086483708144,0.0361279840716321,0.847464792055433,-0.479862134271101,0.847464792052405,-0.479862134267758,0.0367296746907156,0.0359933420346088
46,0.037078622034778,0.0362185587630756,0.844695093552279,-0.484475228030216,0.844695093549419,-0.484475228027013,0.0372018592897626,0.0360810830571782
46.5,0.037548144623542,0.0363031626881833,0.841901004759149,-0.489072121385218,0.841901004756456,-0.489072121382158,0.037673598372052,0.0361628133820219
47,0.0380171620835237,0.0363818431393114,0.839082609961324,-0.493652673793643,0.839082609958796,-0.493652673790724,0.0381448373273194,0.0362385800839795
47.5,0.0384856219978799,0.0364546466769016,0.836239995471906,-0.498216745786152,0.836239995469543,-0.498216745783375,0.0386155231773938,0.0363084295124113
48,0.0389534735091488,0.0365216190941101,0.833373249543049,-0.502764198998761,0.833373249540849,-0.502764198996126,0.039085604498869,0.0363724072559408
48.5,0.0394206672421543,0.0365828053850721,0.830482462280454,-0.507294896201459,0.830482462278415,-0.507294896198966,0.0395550313460338,0.0364305581108444
49,0.0398871552272673,0.0366382497167066,0.827567725560997,-0.511808701323502,0.827567725559118,-0.511808701321152,0.0400237551741805,0.0364829260529765
49.5,0.0403528908241609,0.0366879954039678,0.824629132953364,-0.516305479475652,0.824629132951642,-0.516305479473444,0.0404917287633904,0.0365295542131459
50,0.0408178286461379,0.0367320848884504,0.821666779641582,-0.520785096969563,0.821666779640016,-0.520785096967497,0.0409589061429139,0.0365704848558496
50.5,0.0412819244851423,0.0367705597202633,0.81868076235132,-0.525247421334565,0.81868076234991,-0.525247421332642,0.0414252425162318,0.0366057593612739
51,0.0417451352375403,0.0368034605430717,0.815671179278867,-0.52969232133201,0.815671179277611,-0.52969232133023,0.0418906941868927,0.0366354182104662
51.5,0.0422074188307566,0.0368308270822156,0.812638130022652,-0.534119666967386,0.812638130021547,-0.534119666965749,0.0423552184852095,0.0366595009735878
52,0.0426687341508441,0.0368526981358243,0.809581715517228,-0.538529329500341,0.809581715516273,-0.538529329498847,0.0428187736958994,0.0366780463011573
52.5,0.0431290409710647,0.0368691115688183,0.806502037969607,-0.542921181452796,0.806502037968799,-0.542921181451445,0.0432813189867323,0.0366910919181889
53,0.0435882998815446,0.0368801043097287,0.803399200797849,-0.547295096615256,0.803399200797188,-0.547295096614048,0.0437428143382687,0.0366986746211395
53.5,0.0440464722200773,0.0368857123502295,0.800273308571826,-0.551650950051476,0.800273308571308,-0.55165095005041,0.0442032204747456,0.0367008302775814
54,0.044503520004129,0.0368859707473044,0.79712446695605,-0.555988618101578,0.797124466955676,-0.555988618100655,0.0446624987961697,0.0366975938284974
54.5,0.0449594058641039,0.0368809136279609,0.793952782654515,-0.560307978383743,0.793952782654281,-0.560307978382963,0.0451206113116795,0.03668899929313
55,0.0454140929779234,0.0368705741964052,0.790758363357433,-0.564608909794566,0.790758363357337,-0.564608909793928,0.0455775205742271,0.0366750797762875
55.5,0.0458675450069709,0.0368549847435968,0.787541317689823,-0.568891292508174,0.787541317689863,-0.568891292507677,0.0460331896166283,0.0366558674780275
56,0.0463197260334437,0.0368341766590978,0.78430175516186,-0.573155007974184,0.784301755162034,-0.57315500797383,0.046487581889027,0.0366313937056401
56.5,0.0467706004991563,0.0368081804451419,0.781039786120917,-0.577399938914594,0.781039786121224,-0.577399938914382,0.0469406611978199,0.03660168888784
57,0.0472201331458401,0.0367770257328421,0.777755521705247,-0.581625969319652,0.777755521705684,-0.581625969319581,0.0473923916460794,0.0365667825911009
57.5,0.0476682889569716,0.0367407413004562,0.774449073799218,-0.585832984442799,0.774449073799783,-0.585832984442869,0.0478427375755122,0.0365267035380453
58,0.0481150331011669,0.036699355093642,0.771120554990073,-0.590020870794727,0.771120554990762,-0.590020870794937,0.0482916635099913,0.0364814796278201
58.5,0.0485603308771768,0.0366528942476209,0.767770078526125,-0.594189516136614,0.767770078526938,-0.594189516136965,0.048739134100691,0.0364311379583757
59,0.0490041476605129,0.0366013851111823,0.764397758276366,-0.598338809472596,0.764397758277299,-0.598338809473086,0.0491851140728617,0.0363757048505873
59.5,0.049446448851733,0.0365448532724566,0.76100370869141,-0.602468641041506,0.761003708692461,-0.602468641042135,0.0496295681742677,0.0363152058741348
60,0.049887199826417,0.0364833235863821,0.757588044765742,-0.606578902307947,0.757588044766909,-0.606578902308714,0.050072461125321,0.0362496658750804
60.5,0.0503263658868546,0.0364168202038034,0.754150882001222,-0.61066948595272,0.754150882002502,-0.610669485953624,0.050513757570932,0.0361791090050653
61,0.0507639122154779,0.0363453666021299,0.750692336371789,-0.614740285862665,0.75069233637318,-0.614740285863706,0.0509534220341091,0.0361035587520682
61.5,0.0511998038300514,0.0362689856174888,0.747212524289349,-0.618791197119927,0.747212524290847,-0.618791197121104,0.0513914188713244,0.0360230379726516
62,0.0516340055406563,0.0361876994783078,0.743711562570776,-0.622822115990707,0.74371156257238,-0.622822115992019,0.05182771222967,0.03593756892563
62.5,0.0520664819084755,0.0361015298402603,0.740189568406024,-0.626832939913507,0.74018956840773,-0.626832939914953,0.0522622660058283,0.0358471733071002
63,0.0524971972064137,0.036010497822513,0.736646659327279,-0.630823567486905,0.736646659329085,-0.630823567488484,0.0526950438068765,0.0357518722867649
63.5,0.0529261153815641,0.0359146240452098,0.733082953179155,-0.634793898456897,0.733082953181057,-0.634793898458606,0.0531260089129399,0.0356516865454869
64,0.0533532000195402,0.0358139286681319,0.729498568089864,-0.638743833703806,0.72949856809186,-0.638743833705645,0.0535551242417219,0.0355466363140132
