"Freq [GHz]","re(St(P1,P1)) []","im(St(P1,P1)) []","re(St(P1,P2)) []","im(St(P1,P2)) []","re(St(P2,P1)) []","im(St(P2,P1)) []","re(St(P2,P2)) []","im(St(P2,P2)) []"
0,0.00441111187234355,0,0.995607054937864,0,0.995607053773711,0,0.00441111309157805,0
0.5,0.00508846291056386,-0.00307334445485452,0.994826129395371,-0.00861556050267964,0.994826129368597,-0.00861556059159341,0.0050886926803102,-0.0030737322267349
1,0.00565093596645738,-0.00701696197026536,0.993983662093644,-0.0163575159639713,0.99398366207161,-0.016357515947405,0.00565155400295581,-0.00701798612521287
1.5,0.00590581083063313,-0.0111657407224612,0.993274131475584,-0.0238671357548164,0.993274131462279,-0.0238671357430036,0.00590697498521919,-0.011167460647723
2,0.00591812352228338,-0.015342024024676,0.992641750425321,-0.031311679967903,0.992641750416176,-0.0313116799616679,0.00591983738392976,-0.0153446299445541
2.5,0.00577964537327169,-0.0194913644355132,0.992000984165751,-0.0387452454157113,0.992000984158325,-0.0387452454137787,0.00578189873735191,-0.0194949450714006
3,0.00553678413164072,-0.0236089605146219,0.9913096386187,-0.0461692863606054,0.991309638612069,-0.0461692863613692,0.00553958571442692,-0.0236135710293439
3.5,0.00521208932815043,-0.0276985557371461,0.990550063777113,-0.0535761930660517,0.990550063771237,-0.0535761930681264,0.0052154587215858,-0.0277042431068875
4,0.00481724838738096,-0.0317641459639919,0.989716015018702,-0.0609587639707083,0.989716015013991,-0.0609587639731028,0.0048212080705099,-0.0317709554726964
4.5,0.00435885582344664,-0.0358087075241862,0.988806441688777,-0.0683117789376944,0.988806441685773,-0.0683117789398455,0.0043634269922066,-0.0358166832948097
5,0.00384096171930715,-0.0398342818777309,0.987822598182752,-0.0756318776328424,0.987822598181883,-0.0756318776345406,0.00384616277562078,-0.0398434658759896
5.5,0.00326625215974152,-0.0438422378578984,0.986766648298891,-0.0829171401421256,0.986766648300326,-0.0829171401434436,0.0032720987105237,-0.0438526688130576
6,0.00263662765270078,-0.0478334881357725,0.985640971582911,-0.0901666799852556,0.985640971586426,-0.0901666799864351,0.0026431332789123,-0.0478452008228825
6.5,0.00195350289942686,-0.0518086382057792,0.984447822027385,-0.0973803094466703,0.984447822032305,-0.0973803094479511,0.00196068024386209,-0.0518216631808066
7,0.00121797107804955,-0.0557680831165275,0.983189173786921,-0.104558279585133,0.983189173792094,-0.104558279586648,0.00122583297915169,-0.0557824468637325
7.5,0.000430899270150942,-0.0597120688901622,0.981866669244069,-0.111701085061565,0.981866669247893,-0.11170108506321,0.000439459782701324,-0.0597277942931527
8,-0.000407012543313101,-0.0636407312414562,0.980481622837356,-0.118809322302813,0.980481622837803,-0.118809322304147,-0.000397737324571157,-0.0636578382779351
8.5,-0.0012951925349034,-0.067554120059488,0.979035053674653,-0.125883590295881,0.979035053669345,-0.125883590296048,-0.00128518388205134,-0.0675726266260899
9,-0.0022331696008171,-0.0714522151117949,0.9775277309401,-0.1329244246109,0.977527730926366,-0.132924424608568,-0.00222240579019539,-0.0714721378996286
9.5,-0.00322055289142575,-0.0753349364232143,0.975960222670924,-0.139932256658477,0.975960222645878,-0.139932256651792,-0.00320900905145216,-0.0753562917823318
10,-0.00425701581038995,-0.079202151478472,0.974332942563739,-0.146907391572986,0.974332942524355,-0.146907391559557,-0.00424466394847678,-0.0792249562268728
10.5,-0.00536447788575267,-0.0830421713226155,0.972626473763176,-0.153869088461016,0.972626473724436,-0.153869088445581,-0.00535179162796362,-0.0830661695973625
11,-0.00652366738320798,-0.0868648355905535,0.970862273495042,-0.160793501797408,0.970862273457134,-0.160793501780063,-0.00651062971602878,-0.0868900356492324
11.5,-0.00773426215370243,-0.0906693692642708,0.969041415295938,-0.167681142137152,0.96904141525903,-0.167681142118011,-0.00772085598261396,-0.0906957798643937
12,-0.00899592637770685,-0.0944550043344758,0.967164824042369,-0.174532479678588,0.967164824006607,-0.174532479657772,-0.0089821345276706,-0.0944826347475383
12.5,-0.0103083107385826,-0.0982209800815177,0.965233296198496,-0.181347932898408,0.965233296164005,-0.181347932876053,-0.010294115955038,-0.0982498401075249
13,-0.0116710526023971,-0.101966543351554,0.963247519100079,-0.188127860868776,0.963247519066964,-0.188127860845023,-0.0116564375527786,-0.101996643333983
13.5,-0.0130837762040424,-0.105690948827688,0.961208088921172,-0.194872558648669,0.961208088889518,-0.194872558623659,-0.0130687234798247,-0.105722299668882
14,-0.0145460928395105,-0.10939345929605,0.959115527109782,-0.201582255182123,0.959115527079655,-0.201582255156001,-0.0145305849587795,-0.109426072473
14.5,-0.0160576010641439,-0.113073345906545,0.956970295188632,-0.208257113191141,0.956970295160082,-0.208257113164052,-0.0160416204747056,-0.113107233487066
15,-0.0176178868967065,-0.116729888428225,0.954772807900517,-0.214897230613437,0.954772807873579,-0.214897230585519,-0.0176014159797188,-0.116765063087475
15.5,-0.0192265240290894,-0.120362375499059,0.95252344473821,-0.221502643199075,0.952523444712903,-0.221502643170464,-0.0192095451032284,-0.120398850536419
16,-0.0208830740414776,-0.123970104870021,0.95022255994051,-0.228073327941778,0.950222559916842,-0.228073327912604,-0.0208655693676244,-0.124007894226287
16.5,-0.0225870866228142,-0.127552383643383,0.947870491062546,-0.23460920707784,0.947870491040514,-0.234609207048228,-0.0225690384092598,-0.127591501918247
17,-0.0243380997963394,-0.131108528505,0.94546756624337,-0.24111015243654,0.945467566222961,-0.241110152406607,-0.0243194902044899,-0.131148990974835
17.5,-0.0261356401500522,-0.134637865950597,0.943014110299866,-0.247575989970927,0.943014110281057,-0.247575989940786,-0.0261164513006346,-0.134679688586492
18,-0.0279792230718807,-0.138139732505842,0.940510449775875,-0.254006504335794,0.940510449758638,-0.254006504305547,-0.0279594370516181,-0.138182931991881
18.5,-0.0298683529893739,-0.141613474940171,0.93795691707078,-0.260401443411955,0.93795691705508,-0.2604014433817,-0.0298479518581248,-0.141658068691952
19,-0.031802523613707,-0.145058450474244,0.935353853764369,-0.266760522702294,0.935353853750166,-0.266760522672119,-0.0317814894120404,-0.145104456657598
19.5,-0.0337812181878099,-0.148474026980928,0.932701613245655,-0.273083429546628,0.932701613232902,-0.273083429516617,-0.0337595329449918,-0.148521464530841
20,-0.0358039097384114,-0.151859583179784,0.930000562743391,-0.279369827119723,0.930000562732042,-0.279369827089951,-0.0357815554807746,-0.151908471819502
20.5,-0.0378700613317753,-0.155214508824896,0.927251084845922,-0.285619358190239,0.927251084835928,-0.285619358160777,-0.0378470200914459,-0.155264869085197
21,-0.0399791263329409,-0.158538204886066,0.924453578588031,-0.291831648629081,0.924453578579337,-0.291831648599991,-0.0399553801568788,-0.158590058124684
21.5,-0.0421305486682516,-0.161830083723255,0.921608460173095,-0.298006310663525,0.921608460165648,-0.298006310634863,-0.0421060796275683,-0.161883452144458
22,-0.0443237630909317,-0.165089569254233,0.918716163390141,-0.304142945879496,0.918716163383886,-0.304142945851313,-0.0442985532904479,-0.165144475928528
22.5,-0.0465581954495362,-0.16831609711541,0.915777139777397,-0.310241147978715,0.915777139772278,-0.310241147951058,-0.0465322270375212,-0.16837256599938
23,-0.048833262959014,-0.171509114815784,0.912791858576824,-0.316300505300401,0.912791858572785,-0.316300505273307,-0.048806518137063,-0.17156717077204
23.5,-0.051148374474195,-0.174668081883997,0.909760806517701,-0.322320603119258,0.909760806514686,-0.322320603092764,-0.0511208355071855,-0.174727750701247
24,-0.0535029307654648,-0.177792470008473,0.906684487461752,-0.328301025732643,0.906684487459707,-0.328301025706779,-0.0534745799915243,-0.177853778421695
24.5,-0.0558963247963938,-0.180881763170599,0.903563421937374,-0.334241358350422,0.903563421936243,-0.334241358325214,-0.0558671446368211,-0.180944738881326
25,-0.0583279420031201,-0.183935457770983,0.900398146586232,-0.340141188801177,0.900398146585963,-0.340141188776649,-0.0582979149721737,-0.18400012946768
25.5,-0.0607971605752293,-0.186953062748752,0.89718921354185,-0.346000109068264,0.89718921354239,-0.346000109044434,-0.0607662692897175,-0.187019460127305
26,-0.0633033517379321,-0.189934099693918,0.893937189756572,-0.351817716668777,0.893937189757869,-0.351817716645662,-0.0632715789265038,-0.190002253478222
26.5,-0.0658458800352794,-0.192878102952818,0.890642656290632,-0.357593615887928,0.890642656292637,-0.357593615865539,-0.0658132085473311,-0.192948044915461
27,-0.0684241036142004,-0.195784619726647,0.887306207574693,-0.363327418880682,0.887306207577356,-0.363327418859027,-0.0683905164282929,-0.195856382709721
27.5,-0.0710373745091316,-0.198653210163131,0.883928450655272,-0.369018746651763,0.883928450658547,-0.369018746630849,-0.0710028547408069,-0.198726828099129
28,-0.0736850389269806,-0.201483447441358,0.880510004430801,-0.374667229924354,0.880510004434641,-0.374667229904186,-0.0736495698358604,-0.201558955374196
28.5,-0.0763664375322117,-0.204274917849817,0.877051498884666,-0.380272509907122,0.877051498889028,-0.380272509887701,-0.0763300025282435,-0.204352351955974
29,-0.0790809057317871,-0.207027220857704,0.873553574320373,-0.385834238968379,0.873553574325213,-0.385834238949705,-0.0790434883805057,-0.207106618467469
29.5,-0.0818277739597387,-0.209739969179541,0.870016880603019,-0.391352081225564,0.870016880608297,-0.391352081207636,-0.0817893579863818,-0.209821368798401
30,-0.0846063679611168,-0.212412788833194,0.866442076410392,-0.396825713057478,0.866442076416069,-0.396825713040291,-0.0845669372534367,-0.212496230163326
30.5,-0.0874160090750586,-0.215045319191335,0.86282982849636,-0.402254823546094,0.862829828502397,-0.402254823529641,-0.0873755476846474,-0.215130843153234
31,-0.0902560145167324,-0.217637213026458,0.859180810968604,-0.407639114854203,0.859180810974966,-0.407639114838477,-0.0902145066586711,-0.217724861780682
31.5,-0.0931256976578909,-0.220188136549508,0.855495704582304,-0.412978302544532,0.855495704588955,-0.412978302529528,-0.0930831277085096,-0.22027795351853
32,-0.0960243683057788,-0.222697769442251,0.851775196050966,-0.418272115845543,0.851775196057875,-0.418272115831249,-0.0959807207982991,-0.222789799332408
32.5,-0.0989513329801037,-0.225165804883432,0.848019977375293,-0.423520297868585,0.848019977382427,-0.423520297854989,-0.0989065925979262,-0.225260093706965
33,-0.101905895187825,-0.22759194956888,0.844230745190685,-0.428722605780686,0.844230745198014,-0.428722605767779,-0.101860046755181,-0.22768854466602
33.5,-0.104887355695437,-0.229975923725645,0.840408200133794,-0.433878810936896,0.840408200141291,-0.433878810924666,-0.104840384165122,-0.230074873786714
34,-0.10789501279849,-0.232317461120275,0.836553046228349,-0.438988698975681,0.836553046235985,-0.438988698964114,-0.107846903236364,-0.232418816207761
34.5,-0.110928162588012,-0.234616309061373,0.832665990290327,-0.444052069880606,0.832665990298078,-0.444052069869687,-0.110878900153924,-0.234720120631898
35,-0.113986099213533,-0.236872228396531,0.828747741352468,-0.449068738011226,0.828747741360308,-0.449068738000942,-0.113935669138297,-0.236978549322657
35.5,-0.117068115142382,-0.239084993503811,0.824799010107981,-0.454038532105863,0.824799010115888,-0.4540385320962,-0.117016502700399,-0.239193878095546
36,-0.120173501414889,-0.24125439227784,0.820820508373282,-0.458961295258665,0.820820508381234,-0.458961295249607,-0.12012069189199,-0.241365896303752
36.5,-0.123301547895162,-0.243380226110707,0.81681294856951,-0.463836884873204,0.816812948577487,-0.463836884864734,-0.123247526551179,-0.243494406818449
37,-0.126451543517019,-0.245462309867748,0.81277704322254,-0.468665172594585,0.812777043230523,-0.468665172586688,-0.126396295542592,-0.245579226003829
37.5,-0.129622776524689,-0.24750047185836,0.80871350448117,-0.473446044221966,0.808713504489141,-0.473446044214626,-0.129566286991742,-0.247620183686904
38,-0.132814534707854,-0.249494553801967,0.80462304365315,-0.478179399603142,0.804623043661093,-0.478179399596342,-0.132756788513135,-0.24961712312217
38.5,-0.136026105630537,-0.251444410789237,0.800506370758715,-0.482865152512747,0.800506370766612,-0.482865152506472,-0.135967087431583,-0.251569900951182
39,-0.139256776853381,-0.25334991123866,0.796364194101209,-0.487503230515528,0.796364194109047,-0.487503230509761,-0.139196470996206,-0.253478387157046
39.5,-0.142505836148752,-0.255210936848566,0.792197219854502,-0.492093574815957,0.792197219862269,-0.492093574810681,-0.142444226586498,-0.255342465013873
40,-0.145772571708114,-0.257027382544655,0.788006151666753,-0.496636140095415,0.788006151674435,-0.496636140090613,-0.145709641909878,-0.257162031031125
40.5,-0.149056272341032,-0.258799156423076,0.783791690280199,-0.50113089433805,0.783791690287784,-0.501130894333706,-0.148992005189974,-0.258936994892784
41,-0.152356227665148,-0.260526179689052,0.779554533166572,-0.50557781864633,0.779554533174049,-0.505577818642428,-0.152290605344995,-0.260667279391251
41.5,-0.155671728286385,-0.262208386591057,0.775295374177786,-0.509976907047256,0.775295374185147,-0.509976907043779,-0.155604732155337,-0.262352820355748
42,-0.159002065968583,-0.263845724350402,0.771014903211536,-0.514328166290093,0.771014903218771,-0.514328166287024,-0.158933676419594,-0.263993566574985
42.5,-0.162346533791701,-0.265438153086152,0.766713805891425,-0.518631615636464,0.766713805898527,-0.518631615633787,-0.162276730098079,-0.26558947971374
43,-0.165704426297626,-0.266985645735105,0.762392763261315,-0.522887286643536,0.762392763268276,-0.522887286641236,-0.16563318644282,-0.267140534222878
43.5,-0.169075039622579,-0.268488187966558,0.758052451493507,-0.52709522294104,0.758052451500321,-0.5270952229391,-0.169002340113031,-0.268646717242231
44,-0.172457671614967,-0.269945778091406,0.753693541610441,-0.531255480002755,0.753693541617102,-0.53125548000116,-0.172383487274864,-0.270108028495596
44.5,-0.175851621937464,-0.271358426965047,0.749316699219587,-0.535368124913091,0.74931669922609,-0.535368124911826,-0.175775925684281,-0.271524480176903
45,-0.179256192152002,-0.272726157883351,0.744922584261168,-0.539433236129345,0.744922584267509,-0.539433236128393,-0.179178954751727,-0.272896096826447
45.5,-0.182670685786208,-0.274049006470776,0.740511850768446,-0.543450903240161,0.740511850774622,-0.543450903239509,-0.182591875587263,-0.274222915195727
46,-0.186094408379747,-0.275327020559484,0.736085146640211,-0.547421226720722,0.736085146646218,-0.547421226720355,-0.186013991024755,-0.275504984099233
46.5,-0.189526667508902,-0.276560260058011,0.731643113425195,-0.551344317685122,0.73164311343103,-0.551344317685025,-0.189444605623641,-0.276742364251097
47,-0.192966772787593,-0.277748796807725,0.727186386118096,-0.555220297636385,0.727186386123759,-0.555220297636545,-0.192883025646828,-0.277935128084129
47.5,-0.196414035842975,-0.278892714424871,0.722715592966929,-0.559049298214554,0.722715592972418,-0.559049298214956,-0.196328559013238,-0.279083359548281
48,-0.199867770263635,-0.279992108125576,0.718231355291398,-0.562831460943216,0.718231355296711,-0.562831460943848,-0.199780515223601,-0.280187153885004
48.5,-0.203327291518382,-0.281047084530563,0.713734287312009,-0.566566936974886,0.713734287317146,-0.566566936975732,-0.203238205258244,-0.281246617373341
49,-0.206791916843572,-0.282057761445707,0.709224995989657,-0.570255886835542,0.70922499599462,-0.570255886836592,-0.206700941445774,-0.282261867042806
49.5,-0.210260965097024,-0.283024267613761,0.704704080875391,-0.573898480168699,0.704704080880178,-0.573898480169941,-0.210168037301939,-0.283233030347312
50,-0.213733756576634,-0.283946742431664,0.700172133970093,-0.577494895479288,0.700172133974706,-0.577494895480707,-0.213638807338374,-0.284160244793394
50.5,-0.217209612802115,-0.284825335626808,0.695629739593812,-0.581045319877658,0.695629739598252,-0.581045319879245,-0.217112566841612,-0.285043657514969
51,-0.220687856258657,-0.285660206884412,0.69107747426448,-0.584549948823984,0.69107747426875,-0.584549948825727,-0.220588631623623,-0.285883424785618
51.5,-0.224167810101954,-0.286451525416764,0.686515906585749,-0.588008985873316,0.68651590658985,-0.588008985875203,-0.224066317746343,-0.286679711458192
52,-0.227648797824877,-0.287199469463517,0.681945597143709,-0.59142264242154,0.681945597147642,-0.591422642423561,-0.227544941224181,-0.287432690320118
52.5,-0.231130142887406,-0.287904225710509,0.677367098412209,-0.59479113745248,0.677367098415979,-0.594791137454623,-0.23102381771055,-0.288142541351436
53,-0.234611168313029,-0.288565988612622,0.672780954666572,-0.598114697286341,0.67278095467018,-0.598114697288598,-0.234502262176981,-0.288809450871232
53.5,-0.238091196257169,-0.289184959604195,0.668187701905407,-0.601393555329728,0.668187701908857,-0.601393555332089,-0.237979588596606,-0.289433610556885
54,-0.241569547556104,-0.28976134617835,0.663587867780334,-0.604627951827402,0.66358786778363,-0.604627951829858,-0.241455109647806,-0.290015216319549
54.5,-0.245045541268736,-0.290295360814519,0.658981971533338,-0.607818133615989,0.658981971536483,-0.60781813361853,-0.244928136458619,-0.290554467018758
55,-0.248518494228451,-0.290787219731527,0.654370523941541,-0.610964353879778,0.654370523944539,-0.610964353882396,-0.248397978418414,-0.291051562999116
55.5,-0.251987720628429,-0.291237141442073,0.64975402726916,-0.614066871908799,0.649754027272014,-0.614066871911484,-0.251863943090208,-0.291506704433188
56,-0.255452531671427,-0.291645345083615,0.645132975226412,-0.617125952859301,0.645132975229127,-0.617125952862049,-0.255325336265,-0.291920089457214
56.5,-0.258912235324208,-0.292012048501004,0.640507852935157,-0.620141867516803,0.640507852937738,-0.620141867519604,-0.258781462208521,-0.292291912090736
57,-0.262366136227851,-0.29233746605824,0.635879136901042,-0.62311489206181,0.635879136903494,-0.623114892064656,-0.262231624160653,-0.292622359938188
57.5,-0.265813535827907,-0.292621806161202,0.63124729499194,-0.626045307838341,0.631247294994265,-0.626045307841227,-0.265675125158046,-0.292911611680771
58,-0.269253732802859,-0.292865268481105,0.626612786422459,-0.628933401125384,0.626612786424664,-0.628933401128302,-0.269111269260597,-0.293159834381107
58.5,-0.27268602388501,-0.293068040880781,0.621976061744323,-0.631779462911351,0.621976061746412,-0.631779462914295,-0.272539363271305,-0.293367180642246
59,-0.276109705184092,-0.293230296064087,0.61733756284241,-0.634583788671669,0.617337562844387,-0.634583788674633,-0.275958719045345,-0.293533785687018
59.5,-0.279524074139245,-0.29335218799408,0.612697722936227,-0.637346678149557,0.612697722938098,-0.637346678152537,-0.279368656485861,-0.293659764454066
60,-0.282928432237319,-0.293433848159454,0.608056966586651,-0.640068435140103,0.608056966588421,-0.640068435143093,-0.282768507318748,-0.293745208843023
60.5,-0.28632208864209,-0.293475381812172,0.603415709707718,-0.642749367277683,0.603415709709391,-0.642749367280677,-0.286157619723273,-0.293790185282339
61,-0.289704364875778,-0.293476864352552,0.598774359583261,-0.645389785826809,0.598774359584844,-0.645389785829803,-0.289535363866841,-0.293794732837336
61.5,-0.29307460067633,-0.293438338100563,0.594133314888227,-0.647990005476458,0.594133314889723,-0.647990005479448,-0.292901138346792,-0.293758862119612
62,-0.29643216111564,-0.293359809761077,0.589492965714455,-0.650550344137938,0.589492965715871,-0.650550344140919,-0.296254377477379,-0.293682555296685
62.5,-0.299776444998863,-0.293241248961031,0.584853693600769,-0.653071122746326,0.584853693602107,-0.653071122749295,-0.29959455927426,-0.293565767525473
63,-0.303106894468023,-0.293082588299397,0.580215871567158,-0.655552665065536,0.580215871568426,-0.65555266506849,-0.3029212138832,-0.293408430135677
63.5,-0.306423005600665,-0.292883725394118,0.575579864152918,-0.657995297497043,0.575579864154119,-0.657995297499978,-0.306233932078576,-0.293210455859202
