"Freq [GHz]","re(St(P1,P1)) []","im(St(P1,P1)) []","re(St(P1,P2)) []","im(St(P1,P2)) []","re(St(P2,P1)) []","im(St(P2,P1)) []","re(St(P2,P2)) []","im(St(P2,P2)) []"
0,0.0045830847666366,0,0.995433878822951,0,0.995433817690355,0,0.00458305485034316,0
0.5,0.0052046853034895,-0.00155017444439665,0.994732603241175,-0.00758545605454586,0.994732613329369,-0.00758545570896274,0.0052048788821466,-0.00155060466464008
1,0.00572603286475726,-0.00388354336324781,0.994004277044226,-0.0143830214847718,0.994004277865933,-0.0143830231499429,0.00572642234926946,-0.00388462014986501
1.5,0.00596189295671046,-0.00642002020460097,0.993362008057563,-0.0212059731121741,0.993362008081194,-0.0212059745770254,0.00596288023520053,-0.00642153881487317
2,0.00601318361822756,-0.00894270914862716,0.992715921523049,-0.0278381053647259,0.992715921153318,-0.0278381064122009,0.00601459235120139,-0.00894509248254494
2.5,0.0059681373829612,-0.0114313720577179,0.992097997411383,-0.034360636492881,0.992097996934429,-0.0343606371611997,0.00596978100718459,-0.0114347362740297
3,0.00586296993158086,-0.0138922202804324,0.991499486119032,-0.0408263185840099,0.991499485678404,-0.0408263189793061,0.00586472851745778,-0.0138965902504395
3.5,0.0057133912835603,-0.0163321185621683,0.990901540812437,-0.0472621891506169,0.990901540463609,-0.0472621893694676,0.00571518846814634,-0.0163374959568685
4,0.00552689974088949,-0.0187558210623724,0.990286708475909,-0.0536799124975254,0.99028670823088,-0.0536799126100185,0.00552868351783786,-0.0187622038714821
4.5,0.00530741639717647,-0.021166355736467,0.989641477433302,-0.0600832384959897,0.98964147728523,-0.0600832385484917,0.00530914828603946,-0.0211737437352983
5,0.00505716826545077,-0.0235656003616231,0.988955966229214,-0.066472142197922,0.988955966164205,-0.0664721422195633,0.00505881742103886,-0.0235739964254762
5.5,0.0047775208144909,-0.0259546910752899,0.988223039694393,-0.0728449174670764,0.988223039696689,-0.0728449174753685,0.00477906073814172,-0.0259641012582232
6,0.00446937518565971,-0.0283342824750186,0.987437512258507,-0.0791991952080462,0.987437512312588,-0.0791991952128939,0.00447078181100036,-0.028344715750638
6.5,0.00413337056848406,-0.030704710829264,0.986595558899956,-0.0855324269209792,0.986595558991253,-0.0855324269273687,0.00413462109578622,-0.030716178773508
7,0.00376999323809302,-0.0330660977184083,0.985694308328662,-0.0918421074059372,0.985694308443703,-0.0918421074157223,0.00377106539176464,-0.0330786142165858
7.5,0.00337963816876097,-0.0354184172064604,0.984731568958986,-0.0981258709783592,0.98473156908532,-0.098125870991443,0.00338050970312231,-0.0354319982024665
8,0.00296264529271673,-0.0377615403789093,0.983705645520857,-0.104381526659505,0.983705645646906,-0.104381526674603,0.00296329364880377,-0.0377762036646638
8.5,0.00251932158915646,-0.0400952655537061,0.982615216009076,-0.110607064306071,0.982615216123995,-0.110607064321234,0.00251972364661279,-0.0401110305917003
9,0.00204995494104676,-0.0424193392270524,0.981459248474301,-0.116800647349684,0.981459248567862,-0.116800647362647,0.00205008683187846,-0.0424362269986194
9.5,0.00155482304263288,-0.0447334708987528,0.980236944103868,-0.122960599841991,0.980236944166358,-0.122960599850392,0.00155466000654714,-0.0447515037718498
10,0.00103419923940218,-0.0470373437711418,0.978947697690977,-0.129085391567727,0.978947697713144,-0.129085391569286,0.00103371550802955,-0.0470565453827243
10.5,0.000478697268808781,-0.0493441862122079,0.977699675910394,-0.13523760947349,0.97769967593237,-0.135237609473554,0.000477996915359546,-0.0493643643617272
11,-0.000103371980379963,-0.0516444565795222,0.976413609700345,-0.141362802148029,0.976413609722298,-0.141362802146638,-0.000104299832796306,-0.0516656138303446
11.5,-0.000711932619586853,-0.0539378459361162,0.975090417403098,-0.147461857663012,0.975090417425186,-0.147461857660225,-0.00071309888496196,-0.0539599850154406
12,-0.00134690520431074,-0.0562240459017085,0.973730859473049,-0.153535637995813,0.973730859495408,-0.153535637991703,-0.00134832083368558,-0.0562471697080982
12.5,-0.00200820673109692,-0.0585027486764638,0.972335555722668,-0.159584965393181,0.972335555745424,-0.159584965387833,-0.00200988271223157,-0.0585268602881452
13,-0.00269575063448341,-0.0607736470643143,0.970905002307351,-0.165610612184577,0.970905002330609,-0.165610612178085,-0.00269769799121983,-0.06079874974834
13.5,-0.00340944678395516,-0.0630364344958094,0.969439588034343,-0.17161329358261,0.969439588058195,-0.171613293575073,-0.00341167657525249,-0.063062531718157
14,-0.00414920148090053,-0.06529080505035,0.967939609706095,-0.17759366301442,0.967939609730613,-0.177593663005945,-0.00415172479951653,-0.0653179004870488
14.5,-0.0049149174556043,-0.0675364534777927,0.966405286312357,-0.183552309552861,0.966405286337603,-0.183552309543552,-0.00491774542638207,-0.0675645510271785
15,-0.0057064938642776,-0.06977307521923,0.964836771969132,-0.189489757052641,0.96483677199515,-0.189489757042605,-0.00570963764201626,-0.0698021790154639
15.5,-0.0065238262861502,-0.0720003664269053,0.963234167567644,-0.195406464639522,0.963234167594466,-0.195406464628867,-0.00652729705301938,-0.0720304808548429
16,-0.00736680672064585,-0.0742180239830481,0.961597531145376,-0.201302828245606,0.961597531173024,-0.201302828234437,-0.0073706156830923,-0.0742491536946392
16.5,-0.00823532358464424,-0.0764257455175379,0.959926887026241,-0.207179182928318,0.959926887054726,-0.207179182916732,-0.00823948196976124,-0.0764578954498796
17,-0.00912926170986852,-0.0786232294241809,0.958222233800707,-0.213035805752786,0.958222233830029,-0.213035805740882,-0.00913378076116084,-0.0786564048194287
17.5,-0.0100485023403935,-0.0808101748753884,0.956483551231476,-0.218872919055753,0.956483551261627,-0.218872919043622,-0.010053393312888,-0.0808443813026885
18,-0.0109929231303193,-0.0829862818350691,0.95471080617808,-0.224690693943522,0.954710806209043,-0.224690693931253,-0.010998197284953,-0.0830215252147526
18.5,-0.0119623981416217,-0.0851512510694423,0.952903957636368,-0.230489253906353,0.952903957668121,-0.230489253894025,-0.0119680667388324,-0.0851875376997042
19,-0.0129567978421934,-0.0873047841554642,0.951062960987646,-0.236268678457306,0.951062961020161,-0.236268678444997,-0.0129628721346298,-0.0873421207418188
19.5,-0.0139759891041258,-0.0894465834865783,0.94918777154837,-0.242029006725282,0.949187771581616,-0.242029006713064,-0.0139824803283781,-0.0894849771743771
20,-0.0150198352022306,-0.0915763522753568,0.947278347505798,-0.247770240949829,0.947278347539736,-0.247770240937769,-0.0150267545694788,-0.0916158106857181
20.5,-0.0160881958128608,-0.0936937945526051,0.945334652318404,-0.253492349840078,0.945334652352994,-0.253492349828234,-0.0160955544983032,-0.093734325822155
21,-0.0171809270130475,-0.0957986151624692,0.943356656652843,-0.259195271772057,0.943356656688042,-0.259195271760485,-0.0171887361439775,-0.0958402279873027
21.5,-0.0182978812799954,-0.0978905197528941,0.941344339922113,-0.264878917808047,0.941344339957875,-0.264878917796797,-0.018306151922355,-0.0979332234372841
22,-0.019438907490994,-0.0999692147608551,0.939297691482537,-0.270543174529134,0.939297691518814,-0.270543174518249,-0.0194476506342091,-0.100013019271243
22.5,-0.0206038509237895,-0.10203440739155,0.937216711540554,-0.276187906677811,0.937216711577297,-0.276187906667332,-0.020613077463672,-0.102079323416477
23,-0.0217925532574832,-0.104085805590705,0.935101411814122,-0.281812959611839,0.935101411851283,-0.281812959601802,-0.021802273976935,-0.104131844607394
23.5,-0.0230048525740389,-0.106123118008991,0.932951815987797,-0.287418161573758,0.932951816025325,-0.287418161564192,-0.0230150781212611,-0.106170292357423
24,-0.0242405833604841,-0.108146053957364,0.93076795999543,-0.293003325782749,0.930767960033273,-0.293003325773681,-0.0242513242243387,-0.108194376922795
24.5,-0.0254995765119343,-0.110154323352015,0.928549892159752,-0.29856825235712,0.928549892197862,-0.298568252348574,-0.0255108429940408,-0.110203809257025
25,-0.0267816593355565,-0.11214763664732,0.926297673214065,-0.304112730076645,0.926297673252392,-0.304112730068637,-0.0267934615186466,-0.112198300954663
25.5,-0.0280866555556745,-0.114125704755006,0.924011376227518,-0.309636537994595,0.924011376266012,-0.309636537987142,-0.0280990032676214,-0.114177564182703
26,-0.0294143853202019,-0.116088238947349,0.921691086452375,-0.315139446909452,0.921691086490986,-0.315139446902567,-0.0294272880930493,-0.116141311597702
26.5,-0.0307646652086927,-0.118034950741936,0.919336901108806,-0.320621220706325,0.919336901147486,-0.320621220700015,-0.0307781322318775,-0.118089256246434
27,-0.0321373082423404,-0.119965551764999,0.916948929120375,-0.326081617577806,0.916948929159078,-0.326081617572077,-0.0321513483091334,-0.120021111447381
27.5,-0.0335321238963441,-0.121879753589878,0.914527290811298,-0.331520391133703,0.914527290849978,-0.331520391128558,-0.0335467453423651,-0.121936590650002
28,-0.0349489181151946,-0.123777267546445,0.91207211757472,-0.336937291408599,0.91207211761333,-0.336937291404039,-0.034964128747599,-0.123835407268107
28.5,-0.0363874933315511,-0.125657804496628,0.909583551519774,-0.342332065775732,0.909583551558271,-0.342332065771756,-0.0364033003472172,-0.125717274482964
29,-0.0378476484896012,-0.127521074570146,0.907061745103817,-0.347704459775124,0.90706174514216,-0.347704459771728,-0.0378640583802711,-0.127581905010976
29.5,-0.0393291790740098,-0.129366786853467,0.904506860755153,-0.353054217863376,0.904506860793301,-0.353054217860553,-0.0393461975159022,-0.12942901082969
30,-0.0408318771458964,-0.131194649023541,0.901919070490584,-0.358381084091962,0.901919070528497,-0.358381084089706,-0.0408495088707562,-0.131258302854698
30.5,-0.0423555313877259,-0.13300436691617,0.899298555531313,-0.363684802720419,0.899298555568952,-0.363684802718719,-0.0423737800315582,-0.133069490558444
31,-0.0438999271594965,-0.134795644016605,0.896645505920079,-0.368965118770194,0.896645505957406,-0.36896511876904,-0.0439187950843639,-0.134862281520024
31.5,-0.0454648465693914,-0.136568180857394,0.893960120141789,-0.374221778524552,0.893960120178771,-0.374221778523931,-0.0454843346525249,-0.136636380892736
32,-0.0470500685629904,-0.138321674304992,0.89124260474947,-0.379454529979403,0.891242604786072,-0.3794545299793,-0.0470701759460221,-0.138391490773151
32.5,-0.0486553690364586,-0.140055816712499,0.888493173996928,-0.384663123249528,0.888493174033118,-0.38466312324993,-0.0486760928257256,-0.140127309451795
33,-0.0502805209808525,-0.141770294910439,0.885712049479196,-0.389847310934273,0.885712049514942,-0.389847310935162,-0.0503018558873437,-0.141843530520796
33.5,-0.0519252946670501,-0.143464789000701,0.882899459781555,-0.39500684844642,0.882899459816829,-0.395006848447781,-0.0519472325714061,-0.143539841807931
34,-0.0535894578839879,-0.145138970909911,0.880055640137713,-0.400141494307575,0.880055640172486,-0.400141494309388,-0.0536119873078671,-0.145215924098814
34.5,-0.0552727762473172,-0.14679250264725,0.877180832097489,-0.405251010413161,0.877180832131734,-0.405251010415408,-0.0552958817069698,-0.146871449599172
35,-0.0569750136016142,-0.148425034196992,0.874275283204259,-0.410335162269751,0.874275283237952,-0.410335162272413,-0.0569986748122145,-0.148506080076369
35.5,-0.0586959325477878,-0.150036200956808,0.871339246682236,-0.415393719207286,0.871339246715352,-0.415393719210343,-0.0587201234372252,-0.150119464602662
36,-0.060435295139144,-0.151625620607526,0.868372981133614,-0.420426454568409,0.868372981166131,-0.42042645457184,-0.0604599826166035,-0.151711236800738
36.5,-0.0621928638065166,-0.1531928892664,0.865376750245474,-0.425433145877009,0.865376750277371,-0.425433145880793,-0.0622180062127378,-0.153281011462915
37,-0.0639684025969888,-0.154737576730761,0.862350822506326,-0.430413574987808,0.862350822537584,-0.430413574991923,-0.0639939477375389,-0.154828380376415
37.5,-0.0657616788458327,-0.156259220558081,0.8592954709321,-0.435367528218696,0.8592954709627,-0.435367528223119,-0.0657875614727625,-0.156352907134421
38,-0.0675724654526693,-0.157757318645305,0.856210972801348,-0.440294796467323,0.856210972831274,-0.440294796472035,-0.0675986040088008,-0.157854120640866
38.5,-0.0694005440091934,-0.159231319856034,0.853097609399433,-0.445195175313338,0.853097609428668,-0.445195175318314,-0.0694268363756236,-0.159331506917993
39,-0.0712457091407075,-0.160680612085213,0.849955665771405,-0.450068465107501,0.849955665799935,-0.450068465112719,-0.0712720270204916,-0.160784498688326
39.5,-0.0731077745991356,-0.162104506928053,0.84678543048331,-0.454914471048822,0.846785430511121,-0.454914471054259,-0.0731339560105678,-0.162212462009305
40,-0.0749865819174357,-0.163502219803801,0.843587195391629,-0.459733003250729,0.843587195418711,-0.459733003256362,-0.07501242102996,-0.163614678964095
40.5,-0.07688201286484,-0.164872843932523,0.840361255420565,-0.464523876797202,0.840361255446904,-0.46452387680301,-0.0769072460422348,-0.164990325016773
41,-0.0787940076327555,-0.166215315909291,0.837107908346879,-0.4692869117897,0.837107908372467,-0.469286911795657,-0.0788182939730887,-0.166338439065093
41.5,-0.080722591813162,-0.167528369667727,0.833827454592006,-0.474021933385637,0.833827454616836,-0.474021933391723,-0.0807454855590284,-0.167657883377532
42,-0.0826679171279999,-0.168810474229632,0.83052019702116,-0.478728771829118,0.830520197045223,-0.478728771835309,-0.0826888278299946,-0.168947289341957
42.5,-0.0846303241212388,-0.170059748591034,0.827186440749149,-0.483407262474529,0.827186440772438,-0.483407262480804,-0.084648457955302,-0.170204983061793
43,-0.0866104407487907,-0.171273844117281,0.823826492952658,-0.488057245803567,0.823826492975168,-0.488057245809903,-0.0866247121501594,-0.171428881977972
43.5,-0.0886093411504348,-0.172449780600175,0.820440662688722,-0.492678567436223,0.820440662710448,-0.492678567442596,-0.088618236498049,-0.172616349380136
44,-0.0906288081566133,-0.173583716558692,0.817029260719162,-0.497271078136172,0.817029260740102,-0.497271078142563,-0.0906301698534712,-0.173763987249056
44.5,-0.0926717800803135,-0.174670628409308,0.813592599340739,-0.501834633811023,0.81359259936089,-0.501834633817408,-0.0926624545586581,-0.174867338745999
45,-0.0947431356323724,-0.175703871849797,0.810130992220805,-0.506369095507788,0.810130992240166,-0.506369095514146,-0.0947183815730437,-0.175920460345294
45.5,-0.0968511202484169,-0.176674621455826,0.806644754238241,-0.510874329403944,0.806644754256811,-0.510874329410255,-0.0968035815177829,-0.176915315893914
46,-0.0990100282121736,-0.177571298778194,0.803134201329474,-0.51535020679441,0.803134201347254,-0.515350206800653,-0.0989278971207135,-0.177840967425027
46.5,-0.101245399750658,-0.178379539159556,0.799599650339381,-0.519796604074722,0.799599650356372,-0.519796604080876,-0.101109063671529,-0.178682695572154
47,-0.103604222984008,-0.179084822414691,0.796041418876897,-0.524213402720689,0.796041418893101,-0.524213402726735,-0.103380200986682,-0.179421877566333
47.5,-0.106174113876783,-0.179685332209944,0.79245982517516,-0.528600489264783,0.79245982519058,-0.528600489270702,-0.105805277939794,-0.180040209894563
48,-0.109110879380597,-0.180239721282228,0.788855187956012,-0.532957755269471,0.788855187970651,-0.532957755275242,-0.10850908480576,-0.18054228665783
48.5,-0.112622491678391,-0.181008758752988,0.785227826298717,-0.537285097297717,0.78522782631258,-0.537285097303323,-0.111714707848781,-0.181044785550881
49,-0.116647681288284,-0.182658120762417,0.781578059512749,-0.541582416880846,0.781578059525842,-0.541582416886268,-0.115649067654509,-0.18202857550137
49.5,-0.120116404736567,-0.185697942777355,0.777906207014488,-0.545849620483933,0.777906207026816,-0.545849620489154,-0.119809327986437,-0.184439382727553
50,-0.121913732285797,-0.188982224018516,0.774212588207722,-0.550086619468908,0.774212588219292,-0.550086619473911,-0.122473329753493,-0.188053588955363
50.5,-0.122803223427555,-0.191212760812542,0.77049752236782,-0.554293330055492,0.77049752237864,-0.554293330060259,-0.123488097108828,-0.190912506688072
51,-0.123781217663803,-0.192541159682321,0.766761328529442,-0.558469673280151,0.76676132853952,-0.558469673284668,-0.124273677132438,-0.192542336028065
51.5,-0.125091587514858,-0.193446061502211,0.763004325377704,-0.562615574953164,0.763004325387048,-0.562615574957414,-0.125415071239974,-0.193534519310726
52,-0.126678039460103,-0.194187182482268,0.759226831142672,-0.566730965613936,0.759226831151291,-0.566730965617903,-0.126897994119987,-0.194287804621844
52.5,-0.12845440630065,-0.194868251811459,0.755429163497088,-0.570815780484682,0.755429163504993,-0.570815780488354,-0.12861493273454,-0.194960590722063
53,-0.130358140180338,-0.195526387310939,0.751611639457254,-0.574869959422581,0.751611639464454,-0.574869959425944,-0.130484435901963,-0.195607031224448
53.5,-0.132349048448564,-0.196173311513994,0.747774575286944,-0.578893446870491,0.747774575293451,-0.578893446873531,-0.132455253043706,-0.19624349260364
54,-0.134401670516234,-0.196811390008001,0.743918286404313,-0.582886191806335,0.743918286410138,-0.582886191809039,-0.134495886106588,-0.196873228319642
54.5,-0.136499590538939,-0.197439701557228,0.740043087291671,-0.586848147691234,0.740043087296827,-0.586848147693592,-0.136586607877843,-0.197495156047393
55,-0.138631923572826,-0.198056335936755,0.73614929140809,-0.590779272416479,0.736149291412588,-0.590779272418478,-0.13871466947943,-0.198106981325263
55.5,-0.140791225738009,-0.198659251912587,0.732237211104736,-0.594679528249411,0.732237211108589,-0.594679528251041,-0.140871544194196,-0.198706293198964
56,-0.142972246172863,-0.199246576842269,0.728307157542885,-0.598548881778292,0.728307157546107,-0.598548881779543,-0.143051331876538,-0.19929091877982
56.5,-0.145171167694211,-0.199816689103179,0.724359440614541,-0.602387303856231,0.724359440617146,-0.602387303857094,-0.145249814280192,-0.199859006438249
57,-0.147385133844628,-0.200368218512209,0.720394368865602,-0.606194769544233,0.720394368867604,-0.606194769544699,-0.14746388038139,-0.200409013583279
57.5,-0.149611947050962,-0.200900018909471,0.716412249421509,-0.609971258053441,0.716412249422922,-0.609971258053503,-0.14969116699918,-0.200939665646311
58,-0.151849871374734,-0.20141113439583,0.712413387915326,-0.613716752686616,0.712413387916165,-0.613716752686266,-0.15192982803927,-0.201449911014324
58.5,-0.154097500705667,-0.201900767306788,0.708398088418195,-0.617431240778929,0.708398088418475,-0.61743124077816,-0.154178382635469,-0.201938880372402
59,-0.156353668843336,-0.20236825050254,0.704366653372113,-0.621114713638112,0.704366653371851,-0.62111471363692,-0.156435612924456,-0.20240585262361
59.5,-0.158617386973172,-0.20281302435501,0.700319383524985,-0.624767166484018,0.700319383524195,-0.624767166482396,-0.158700493791533,-0.202850227235891
60,-0.160887799422405,-0.203234618003916,0.696256577867894,-0.628388598387646,0.696256577866593,-0.628388598385591,-0.160972143666998,-0.203271502128781
60.5,-0.163164151844449,-0.203632634223372,0.692178533574557,-0.631979012209677,0.692178533572761,-0.631979012207184,-0.163249789466303,-0.203669256088475
61,-0.165445768001284,-0.204006737239741,0.688085545942917,-0.635538414538561,0.688085545940643,-0.635538414535628,-0.16553274121232,-0.204043134793476
61.5,-0.167732032590273,-0.204356642921574,0.683977908338813,-0.639066815628218,0.683977908336076,-0.639066815624842,-0.167820373400346,-0.204392839686172
62,-0.170022378384028,-0.204682110861108,0.679855912141716,-0.642564229335367,0.679855912138535,-0.642564229331548,-0.170112111133875,-0.204718119077827
62.5,-0.172316276490644,-0.204982937959936,0.675719846692463,-0.646030673056553,0.675719846688855,-0.64603067305229,-0.17240741968568,-0.205018761005718
63,-0.174613228900571,-0.205258953210932,0.671569999242964,-0.649466167664892,0.671569999238945,-0.649466167660184,-0.17470579655168,-0.205294587467625
