"Freq [GHz]","re(St(P1,P1)) []","im(St(P1,P1)) []","re(St(P1,P2)) []","im(St(P1,P2)) []","re(St(P2,P1)) []","im(St(P2,P1)) []","re(St(P2,P2)) []","im(St(P2,P2)) []"
0,0.00456484161406934,0,0.995450776928919,0,0.995450789210736,0,0.00456485111538996,0
0.5,0.00510656901900575,-0.000723602354344877,0.994836124000265,-0.00713954761667779,0.994836122308953,-0.00713954271492412,0.0051068007813484,-0.000724787064388721
1,0.00556651214479231,-0.00212533147943361,0.994190447595194,-0.0135931116423258,0.994190447847345,-0.0135931118514456,0.00556706632463033,-0.0021280372324739
1.5,0.00576797643637406,-0.00371870122388884,0.993617371362372,-0.0200963602057129,0.993617371507673,-0.0200963604155895,0.00576887195321873,-0.00372293001660395
2,0.00582402476454469,-0.00528077857860154,0.993013651753925,-0.0264212332675626,0.993013651825327,-0.0264212334409173,0.0058251624336112,-0.00528665247685467
2.5,0.00581195158619341,-0.00680812905668482,0.992422285460248,-0.0326279579920179,0.992422285489743,-0.0326279581201732,0.00581327427531342,-0.00681567109598191
3,0.00576048799625184,-0.00831025828023968,0.991847767686911,-0.0387644167439891,0.991847767695825,-0.0387644168317394,0.00576197280832336,-0.00831947142545353
3.5,0.00568152748040252,-0.00979423777483923,0.991279366879281,-0.0448597915540088,0.991279366879603,-0.0448597916098556,0.00568316905538158,-0.0098051235457266
4,0.00558061560363665,-0.0112644542740075,0.99070333164092,-0.0509293300762312,0.990703331638739,-0.0509293301084011,0.00558241729100128,-0.0112770167463569
4.5,0.00546062569543437,-0.0127235511556449,0.99010736395051,-0.0569798815918006,0.990107363948676,-0.0569798816070985,0.0054625952017564,-0.0127377975365039
5,0.0053231936236493,-0.0141731086202181,0.989481626647919,-0.0630137043974166,0.989481626647656,-0.0630137044012216,0.00532534077828872,-0.0141890490478467
5.5,0.00516933656023699,-0.0156140535516425,0.988818554011728,-0.0690306967111098,0.988818554013518,-0.0690306967076211,0.00517167209476721,-0.0156317007688909
6,0.00499974330985831,-0.0170469017494295,0.988112380411681,-0.0750296193663074,0.988112380415728,-0.0750296193588298,0.00500227814576837,-0.0170662708028768
6.5,0.0048149204379877,-0.0184719036049703,0.987358691377385,-0.0810087444674439,0.987358691383843,-0.0810087444586038,0.00481766524305849,-0.0184930115949591
7,0.00461527024282338,-0.0198891341393788,0.986554070855976,-0.0869661918145743,0.98655407086506,-0.086966191806499,0.00461823513712156,-0.0199120000151627
7.5,0.00440113443339507,-0.021298550302852,0.985695843350105,-0.0929000984384354,0.985695843362136,-0.0929000984328701,0.00440432878291852,-0.0213231946920125
8,0.00417281960438143,-0.0227000284881393,0.984781890974563,-0.0988086994647288,0.984781890989979,-0.098808699463107,0.00417625186867165,-0.0227264735505575
8.5,0.00393061259225491,-0.0240933897523874,0.983810524998414,-0.104690362029333,0.983810525017766,-0.104690362032843,0.00393429020696778,-0.0241216590514926
9,0.00367478997601911,-0.0254784171975793,0.982780395586585,-0.110543594527378,0.982780395610518,-0.110543594536997,0.00367871925934216,-0.0255085355836062
9.5,0.00340562406758421,-0.0268548682225322,0.981690427867874,-0.116367043165674,0.981690427897116,-0.116367043182199,0.00340981014381048,-0.0268868617241056
10,0.00312338673063572,-0.0282224833418905,0.980539776008149,-0.122159482291658,0.980539776043491,-0.122159482315732,0.003127833466746,-0.0282563790634116
10.5,0.00282811369054031,-0.0296122100297458,0.979444015136504,-0.127983528936879,0.97944401517053,-0.127983528961139,0.00283132851604162,-0.0296470560306608
11,0.0025187630258823,-0.0309988005924584,0.978317464389353,-0.133782924455987,0.978317464422095,-0.133782924480366,0.00252070537818325,-0.031034476676072
11.5,0.00219538634873431,-0.0323821051994679,0.97716106393091,-0.139558692853699,0.977161063962403,-0.139558692878129,0.0021960196409864,-0.0324184825599918
12,0.00185803898102901,-0.0337619742055466,0.975975590277091,-0.145311841519598,0.97597559030737,-0.145311841544025,0.00185733113276995,-0.033798914959414
12.5,0.00150678017955608,-0.03513825823718,0.97476167226858,-0.151043346287866,0.974761672297683,-0.151043346312232,0.00150470422081542,-0.0351756149195008
13,0.00114167338265442,-0.036510808297102,0.9735198071134,-0.156754139876007,0.973519807141367,-0.156754139900266,0.00113820814249374,-0.0365484233224769
13.5,0.000762786480512867,-0.037879475890259,0.972250376053491,-0.162445103303886,0.972250376080359,-0.162445103327993,0.000757917372625955,-0.0379171809774577
14,0.000370192111104964,-0.039244113174886,0.970953659328277,-0.168117059885751,0.970953659354087,-0.168117059909668,0.00036391203107658,-0.0392817287356579
14.5,-3.60320160461419E-005,-0.0406045731432241,0.96962985020962,-0.173770771399185,0.969629850234411,-0.17377077142288,-4.37216650133743E-005,-0.0406419076362194
15,-0.000455802766030716,-0.0419607098370496,0.968279067966475,-0.179406936059553,0.968279067990285,-0.179406936082994,-0.000464890899489867,-0.0419975590890664
15.5,-0.000889031192291362,-0.0433123786043037,0.966901369684926,-0.185026187961512,0.966901369707794,-0.185026187984674,-0.000899495700632164,-0.0433485251025445
16,-0.00133562211558308,-0.0446594364041406,0.965496760921598,-0.190629097686482,0.965496760943561,-0.190629097709337,-0.00134742832400186,-0.0446946485652031
16.5,-0.00179547366585692,-0.0460017421690573,0.964065205207643,-0.196216173813506,0.964065205228736,-0.19621617383604,-0.00180857256845657,-0.0460357735930512
17,-0.00226847678492884,-0.0473391572344837,0.962606632448617,-0.201787865108925,0.962606632468876,-0.201787865131116,-0.00228280301874642,-0.0473717459560978
17.5,-0.00275451468811155,-0.0486715458479177,0.961120946284681,-0.207344563205656,0.96112094630414,-0.207344563227491,-0.00276998420778582,-0.0487024136008181
18,-0.00325346228353046,-0.0499987757721008,0.959608030487296,-0.212886605615612,0.959608030505987,-0.212886605637077,-0.00326996969162816,-0.0500276272888294
18.5,-0.00376518554860944,-0.0513207189992011,0.958067754474895,-0.218414278947599,0.95806775449285,-0.218414278968685,-0.00378260103028702,-0.0513472413762854
19,-0.0042895408644601,-0.052637252596182,0.956499978031867,-0.223927822228545,0.956499978049115,-0.223927822249241,-0.00430770666815927,-0.0526611147638216
19.5,-0.00482637431060062,-0.0539482597050962,0.954904555314119,-0.229427430247632,0.95490455533069,-0.229427430267933,-0.00484510070894939,-0.0539691120531485
20,-0.00537552092483901,-0.0552536307262192,0.953281338221206,-0.234913256861366,0.953281338237127,-0.234913256881265,-0.00539458158202299,-0.0552711049540244
20.5,-0.00593680393652196,-0.0565532647169107,0.951630179210207,-0.240385418213093,0.951630179225503,-0.240385418232586,-0.00595593060040495,-0.0565669739945807
21,-0.00651003398589622,-0.0578470710445975,0.949950933621061,-0.245843995833129,0.949950933635758,-0.24584399585221,-0.00652891041561332,-0.0578566105989089
21.5,-0.00709500834852211,-0.0591349713386129,0.948243461576991,-0.251289039595973,0.948243461591114,-0.251289039614644,-0.00711326338192986,-0.0591399196088775
22,-0.00769151019196823,-0.0604169017927521,0.946507629517558,-0.256720570519476,0.946507629531129,-0.256720570537732,-0.00770870985346817,-0.060416822342559
22.5,-0.00829930790304406,-0.0616928158780019,0.944743311415877,-0.262138583397234,0.944743311428917,-0.262138583415077,-0.00831494645270964,-0.0616872602994678
23,-0.00891815453842898,-0.0629626875331231,0.942950389725773,-0.267543049260793,0.942950389738303,-0.267543049278222,-0.00893164437074673,-0.0629511996432615
23.5,-0.00954778747065249,-0.0642265149087708,0.9411287560993,-0.272933917671943,0.941128756111339,-0.272933917688959,-0.00955844778945475,-0.0642086366152306
24,-0.0101879283263193,-0.0654843247483723,0.939278311910039,-0.278311118848505,0.939278311921607,-0.278311118865109,-0.0101949725570703,-0.0654596040562461
24.5,-0.0108382833455976,-0.066736177494485,0.9373989686131,-0.283674565629011,0.937398968624214,-0.283674565645206,-0.0108408053048736,-0.0667041792393093
25,-0.0114985443331003,-0.0679821732114281,0.935490647968649,-0.289024155283224,0.935490647979325,-0.289024155299011,-0.0114955032684189,-0.0679424932367088
25.5,-0.0121683904222251,-0.0692224584106791,0.933553282152149,-0.294359771176418,0.933553282162402,-0.2943597711918,-0.0121585951776793,-0.0691747420605324
26,-0.0128474909397381,-0.070457233851158,0.931586813771246,-0.299681284295922,0.931586813781093,-0.299681284310903,-0.0128295837130274,-0.0704011998152132
26.5,-0.013535509736484,-0.0716867633563441,0.929591195806401,-0.304988554648697,0.929591195815855,-0.30498855466328,-0.0135079501951789,-0.071622234074219
27,-0.014232111444547,-0.0729113836364328,0.927566391489816,-0.31028143253877,0.927566391498891,-0.310281432552958,-0.0141931623934434,-0.0728383236219685
27.5,-0.0149369702299921,-0.0741315150157824,0.92551237413508,-0.315559759733209,0.925512374143789,-0.315559759747005,-0.0148846866016876,-0.0740500785602638
28,-0.0156497817296343,-0.0753476728297302,0.923429126927989,-0.320823370525076,0.923429126936345,-0.320823370538485,-0.0155820054426017,-0.0752582625288343
28.5,-0.016370278980595,-0.0765604790528875,0.92131664268741,-0.326072092701422,0.921316642695424,-0.326072092714447,-0.0162846432026351,-0.0764638163815818
29,-0.017098253254903,-0.0777706734326131,0.919174923603589,-0.331305748424011,0.919174923611271,-0.331305748436658,-0.0169922008336506,-0.0776678820297023
29.5,-0.0178335807671096,-0.0789791230043977,0.917003980960114,-0.336524155030005,0.917003980967475,-0.336524155042276,-0.0177044030059133,-0.0788718242355695
30,-0.0185762561819144,-0.0801868283417011,0.91480383484469,-0.341727125759367,0.914803834851741,-0.341727125771267,-0.0184211596249185,-0.0800772468446942
30.5,-0.019326433638276,-0.0813949242339824,0.912574513852971,-0.346914470415314,0.912574513859721,-0.346914470426847,-0.0191426438141478,-0.0812859982341529
31,-0.0200844755260914,-0.0826046717120907,0.910316054788967,-0.352085995963644,0.910316054795425,-0.352085995974816,-0.0198693871984317,-0.0825001586739054
31.5,-0.0208510083751221,-0.0838174375169283,0.908028502364862,-0.357241507076361,0.908028502371034,-0.357241507087177,-0.0206023909813077,-0.0837220000498782
32,-0.021626983805371,-0.0850346563800455,0.905711908902541,-0.362380806624569,0.905711908908438,-0.362380806635031,-0.0213432473355559,-0.0849539064810803
32.5,-0.0224137404295855,-0.0862577711096393,0.903366334038699,-0.367503696125181,0.903366334044328,-0.367503696135295,-0.0220942596758463,-0.0861982436965818
33,-0.0232130598702203,-0.0874881458435677,0.900991844434937,-0.372609976145683,0.900991844440305,-0.372609976155452,-0.0228585425387471,-0.0874571670387494
33.5,-0.0240272068323076,-0.0887269494590286,0.898588513494001,-0.377699446670712,0.898588513499115,-0.377699446680142,-0.0236400730412352,-0.0887323644167257
34,-0.0248589399716291,-0.0899750095760599,0.896156421083015,-0.382771907434004,0.896156421087881,-0.382771907443098,-0.0244436586388296,-0.0900247430829999
34.5,-0.0257114780771439,-0.0912326432613633,0.89369565326431,-0.387827158218855,0.893695653268935,-0.387827158227619,-0.0252747842557223,-0.0913340881188667
35,-0.0265884062687543,-0.0924994783396218,0.891206302034315,-0.392864999130007,0.891206302038706,-0.392864999138444,-0.0261393109769383,-0.0926587435327242
35.5,-0.0274935111324406,-0.0937742881508177,0.888688465070772,-0.3978852308396,0.888688465074933,-0.397885230847715,-0.0270430225240916,-0.0939953872865031
36,-0.0284305432196671,-0.0950548704342411,0.886142245488431,-0.402887654809573,0.886142245492368,-0.402887654817371,-0.0279910543040615,-0.0953389789697705
36.5,-0.0294029200445342,-0.0963380044586184,0.883567751603295,-0.407872073492684,0.883567751607013,-0.407872073500169,-0.0289872846253733,-0.0966829425861506
37,-0.0304134002862152,-0.0976195160295441,0.880965096705356,-0.41283829051414,0.880965096708861,-0.412838290521316,-0.0300338022988229,-0.09801960269356
37.5,-0.0314637755100524,-0.0988944655311996,0.878334398839752,-0.417786110835593,0.878334398843048,-0.417786110842465,-0.0311305704630544,-0.099340828342195
38,-0.0325546331313636,-0.100157450971523,0.875675780596172,-0.422715340903147,0.875675780599264,-0.422715340909719,-0.0322753725429175,-0.100638777480298
38.5,-0.0336852384998855,-0.101402991567288,0.872989368906341,-0.427625788780824,0.872989368909233,-0.427625788787099,-0.033464059608126,-0.101906600760991
39,-0.0348535639608272,-0.102625936127331,0.870275294849338,-0.432517264270828,0.870275294852034,-0.43251726427681,-0.0346910429731796,-0.103138974011091
39.5,-0.0360564633097397,-0.103821832295888,0.867533693464533,-0.437389579021799,0.867533693467037,-0.437389579027494,-0.0359499208296904,-0.104332378959466
40,-0.0372899602830086,-0.104987201152986,0.86476470357186,-0.442242546626158,0.864764703574176,-0.442242546631569,-0.0372341116430097,-0.105485120258408
40.5,-0.0385495990997996,-0.106119683917398,0.861968467599171,-0.447075982707508,0.861968467601302,-0.447075982712639,-0.0385373894800916,-0.106597126553889
41,-0.0398307992210501,-0.107218055699488,0.859145131416389,-0.451889704999003,0.85914513141834,-0.451889705003857,-0.0398542614010279,-0.107669616539866
41.5,-0.0411291650993155,-0.108282126320496,0.856294844176197,-0.456683533413473,0.85629484417797,-0.456683533418056,-0.0411801742770234,-0.108704714614099
42,-0.0424407195638496,-0.109312563754632,0.853417758160955,-0.461457290106053,0.853417758162554,-0.461457290110367,-0.0425115733560038,-0.109705083470287
42.5,-0.0437620496367569,-0.110310679949142,0.850514028635623,-0.466210799529956,0.850514028637051,-0.466210799534006,-0.0438458525103589,-0.110673615106958
43,-0.0450903703021314,-0.111278213813828,0.847583813706372,-0.470943888486006,0.847583813707633,-0.470943888489795,-0.0451812387806288,-0.111613197332153
43.5,-0.046423522190395,-0.112217136169075,0.844627274184663,-0.475656386166459,0.84462727418576,-0.475656386169992,-0.0465166472838815,-0.112526555099882
44,-0.0477599231813952,-0.113129490410876,0.841644573456515,-0.480348124193621,0.841644573457449,-0.4803481241969,-0.0478515323592113,-0.113416155909578
44.5,-0.0490984931465334,-0.114017273299722,0.838635877356729,-0.485018936653672,0.838635877357504,-0.485018936656702,-0.049185750782074,-0.114284164600394
45,-0.0504385675267489,-0.114882353783315,0.835601354047844,-0.489668660126144,0.835601354048463,-0.489668660128928,-0.0505194448666697,-0.115132432988855
45.5,-0.0517798109767224,-0.115726424136233,0.832541173903572,-0.494297133709379,0.832541173904038,-0.494297133711921,-0.051852947761228,-0.115962511969088
46,-0.0531221380812821,-0.116550976339467,0.829455509396529,-0.498904199042318,0.829455509396844,-0.498904199044621,-0.0531867099353542,-0.116775676547991
46.5,-0.0544656447531499,-0.117357296752419,0.826344534990029,-0.503489700322917,0.826344534990195,-0.503489700324985,-0.054521244196663,-0.117572957036229
47,-0.0558105515036159,-0.118146473061135,0.823208427033763,-0.508053484323456,0.823208427033784,-0.508053484325292,-0.0558570859900825,-0.118355171904957
47.5,-0.0571571582449516,-0.118919408720516,0.820047363663175,-0.512595400402996,0.820047363663051,-0.512595400404605,-0.057194765776607,-0.119122959557051
48,-0.0585058094394181,-0.119676841338589,0.816861524702341,-0.517115300517205,0.816861524702076,-0.517115300518589,-0.0585347906450026,-0.119876807494784
48.5,-0.059856868046731,-0.1204193625215,0.813651091570209,-0.521613039225754,0.813651091569806,-0.521613039226916,-0.0598776327833433,-0.120617078189944
49,-0.0612106966627626,-0.121147437552876,0.810416247190018,-0.526088473697468,0.810416247189479,-0.526088473698413,-0.0612237229164792,-0.121344031481099
49.5,-0.0625676443545971,-0.121861423921999,0.807157175901766,-0.530541463713415,0.807157175901092,-0.530541463714146,-0.0625734472460173,-0.122057843626768
50,-0.0639280378905298,-0.122561588170709,0.803874063377564,-0.534971871668057,0.803874063376759,-0.534971871668577,-0.0639271467905258,-0.122758623303707
50.5,-0.0652921762817891,-0.123248120836996,0.800567096539758,-0.539379562568633,0.800567096538825,-0.539379562568945,-0.0652851183133212,-0.123446424908378
51,-0.0666603277636068,-0.12392114947054,0.79723646348169,-0.543764404032881,0.797236463480629,-0.54376440403299,-0.0666476162502995,-0.124121259533207
51.5,-0.0680327285309193,-0.124580749813616,0.793882353390969,-0.54812626628523,0.793882353389783,-0.548126266285138,-0.068014855221013,-0.124783103971602
52,-0.0694095827025436,-0.125226955304523,0.790504956475147,-0.552465022151548,0.790504956473839,-0.552465022151258,-0.0693870128333017,-0.125431908072346
52.5,-0.0707910631168971,-0.12585976508854,0.787104463889696,-0.55678054705257,0.787104463888268,-0.556780547052086,-0.0707642325848256,-0.126067600724547
53,-0.0721773126649473,-0.126479150726897,0.783681067668185,-0.561072718996064,0.783681067666639,-0.56107271899539,-0.0721466267320208,-0.126690094714268
53.5,-0.073568445945823,-0.127085061786241,0.78023496065455,-0.565341418567847,0.780234960652889,-0.565341418566986,-0.0735342790447781,-0.1272992906564
54,-0.0749645510915021,-0.127677430476062,0.776766336437395,-0.569586528921697,0.77676633643562,-0.569586528920652,-0.0749272473986228,-0.127895080171647
54.5,-0.0763656916529213,-0.128256175483264,0.77327538928621,-0.573807935768255,0.773275389284323,-0.573807935767029,-0.0763255661792784,-0.128477348449164
55,-0.0777719084740074,-0.128821205134118,0.769762314089455,-0.57800552736295,0.76976231408746,-0.578005527361548,-0.0777292484900495,-0.129045976310415
55.5,-0.0791832215052042,-0.129372419995594,0.766227306294418,-0.582179194493044,0.766227306292317,-0.582179194491469,-0.0791382881627368,-0.129600841868815
56,-0.0805996315262286,-0.129909715011272,0.762670561848789,-0.586328830463806,0.762670561846584,-0.586328830462061,-0.0805526615792314,-0.130141821862263
56.5,-0.0820211217607658,-0.130432981252143,0.759092277143868,-0.5904543310839,0.759092277141562,-0.590454331081988,-0.081972329314815,-0.130668792721291
57,-0.0834476593749082,-0.130942107349538,0.75549264895938,-0.594555594650012,0.755492648956974,-0.594555594647937,-0.0833972376162228,-0.131181631423722
57.5,-0.0848791968574263,-0.131436980666241,0.75187187440979,-0.598632521930767,0.751871874407288,-0.598632521928532,-0.0848273197283804,-0.131680216177123
58,-0.0863156732841182,-0.131917488252322,0.748230150892117,-0.602685016149966,0.748230150889521,-0.602685016147576,-0.0862624970837561,-0.132164426962451
58.5,-0.0877570154711923,-0.132383517624211,0.74456767603515,-0.606712982969197,0.744567676032461,-0.606712982966654,-0.0877026803678351,-0.132634145965958
59,-0.0892031390242249,-0.132834957398813,0.740884647650049,-0.610716330469823,0.740884647647271,-0.610716330467131,-0.0891477704734299,-0.133089257921206
59.5,-0.0906539492901253,-0.133271697808896,0.737181263682275,-0.614694969134417,0.737181263679411,-0.61469496913158,-0.0905976593556531,-0.133529650378893
60,-0.0921093422198426,-0.1336936311213,0.7334577221648,-0.618648811827636,0.733457722161852,-0.618648811824658,-0.0920522307983577,-0.133955213918762
60.5,-0.0935692051495755,-0.134100651975751,0.72971422117257,-0.62257777377659,0.729714221169541,-0.622577773773473,-0.0935113611018804,-0.13436584231517
61,-0.0950334175079651,-0.134492657658801,0.725950958778176,-0.62648177255071,0.725950958775068,-0.62648177254746,-0.0949749197009096,-0.134761432665608
61.5,-0.0965018514563926,-0.134869548324899,0.722168133008696,-0.630360728041159,0.722168133005512,-0.63036072803778,-0.0964427697204417,-0.135141885489724
62,-0.0979743724690197,-0.13523122717436,0.71836594180368,-0.634214562439794,0.718365941800423,-0.634214562436288,-0.0979147684768791,-0.135507104804915
62.5,-0.0994508398587083,-0.1355776005963,0.714544582974241,-0.638043200217699,0.714544582970914,-0.638043200214071,-0.0993907679305835,-0.135856998183381
