"Freq [GHz]","re(St(P1,P1)) []","im(St(P1,P1)) []","re(St(P1,P2)) []","im(St(P1,P2)) []","re(St(P2,P1)) []","im(St(P2,P1)) []","re(St(P2,P2)) []","im(St(P2,P2)) []"
0,0.00593922371257349,0,0.994075810798677,0,0.99407581644482,0,0.00593922869245489,0
0.5,0.00652443837774896,-1.68302542462584E-005,0.993441935871491,-0.00688485363090052,0.993441936245819,-0.0068848523829157,0.00652464564983646,-1.74160745523011E-005
1,0.00701658212902601,-0.000738806115002433,0.992833955986576,-0.0130615696240568,0.99283395607997,-0.013061569587137,0.0070171556020604,-0.000740239453307368
1.5,0.0073406623927923,-0.00156715482598457,0.992301378487314,-0.0192453769451149,0.992301378595329,-0.0192453769366772,0.0073417845421897,-0.00156922354694089
2,0.0075257338157666,-0.00245029943151032,0.991794136957246,-0.0252785105787812,0.99179413705585,-0.0252785105954754,0.00752745927328924,-0.00245333488265231
2.5,0.00762882368475459,-0.00333151552111488,0.991324030336628,-0.0312380180895264,0.991324030415602,-0.0312380181195717,0.00763108971003579,-0.00333567287623104
3,0.00768545676092725,-0.00419986729249544,0.990873870184516,-0.0371657917038561,0.990873870242426,-0.0371657917374701,0.00768821606599435,-0.00420520847814032
3.5,0.0077144302799077,-0.00505602490645884,0.99042406551545,-0.0430800632693629,0.990424065554371,-0.0430800633005077,0.00771766566931209,-0.00506257677171895
4,0.00772572102930846,-0.00590287087416996,0.989959393364764,-0.0489871726157673,0.989959393387632,-0.0489871726413025,0.00772943805174764,-0.00591064983143497
4.5,0.00772483474385277,-0.00674322554945661,0.989469177663606,-0.0548881221579833,0.989469177673259,-0.0548881221766191,0.00772905398933643,-0.0067522470966459
5,0.00771494525075145,-0.0075794164258447,0.988946124532287,-0.0607816830902941,0.988946124531187,-0.0607816831018564,0.00771969708859865,-0.0075896987288111
5.5,0.00769795488016278,-0.00841329504802868,0.988385233983276,-0.0666657839579914,0.988385233973503,-0.0666657839629687,0.00770327615749067,-0.00842486023728561
6,0.00767503987277762,-0.00924633865350177,0.98778302226311,-0.0725381132606531,0.987783022246429,-0.0725381132599114,0.00768097187096184,-0.00925921324760548
6.5,0.00764694319079817,-0.0100797471927265,0.987137008000677,-0.078396372024792,0.98713700797862,-0.0783963720194301,0.00765353034993144,-0.0100939622001173
7,0.00761413841542447,-0.0109145189030082,0.986445380478344,-0.0842383721112512,0.986445380452284,-0.0842383721024893,0.00762142752621497,-0.0109301098207366
7.5,0.00757692506670116,-0.0117515057346891,0.985706785890594,-0.0900620674167145,0.985706785861795,-0.0900620674058468,0.00758496475060877,-0.0117685125303408
8,0.00753548596996934,-0.0125914533027389,0.984920188657329,-0.0958655567966122,0.984920188626995,-0.0958655567849673,0.00754432634040469,-0.0126099204124017
8.5,0.00748992283562921,-0.0134350296808163,0.984084780490435,-0.101647075971445,0.984084780459738,-0.101647075960359,0.00749961527513177,-0.01345500603425
9,0.00744027890803656,-0.0142828463164655,0.983199920097435,-0.107404985984077,0.983199920067535,-0.107404985974879,0.00745087592114224,-0.0143043853920135
9.5,0.00738655370234048,-0.0151354734038307,0.982265092772774,-0.113137761396538,0.982265092744839,-0.113137761390536,0.00739810881860792,-0.0151586333123772
10,0.00732871276296232,-0.0159934513418261,0.981279883063235,-0.118843979443812,0.981279883038451,-0.118843979442283,0.00734128047364335,-0.0160182949382355
10.5,0.00726504428404035,-0.0168348676698118,0.980307775173729,-0.124600019683604,0.980307775148748,-0.124600019681207,0.00727802397069544,-0.016860384937857
11,0.00719484243386148,-0.0176810823641107,0.979301267798638,-0.130336422383297,0.979301267773545,-0.13033642238001,0.00720833523470221,-0.0177072495246264
11.5,0.0071177398287075,-0.018532058086727,0.978261267459621,-0.136053467091734,0.978261267434501,-0.13605346708755,0.00713185060091212,-0.0185588601064763
12,0.00703337470365739,-0.0193877331962611,0.97718860048106,-0.1417514736253,0.977188600455996,-0.141751473620217,0.00704821102032269,-0.0194151640974756
12.5,0.00694139253669188,-0.0202480227734165,0.976084014497604,-0.147430791931943,0.976084014472677,-0.147430791925969,0.00695706367342538,-0.0202760858184021
13,0.00684144753112399,-0.0211128197475774,0.974948180950004,-0.153091792901554,0.974948180925291,-0.153091792894704,0.0068580634579038,-0.0211415275014599
13.5,0.00673320395255736,-0.0219819961065628,0.973781698362414,-0.158734860159031,0.973781698337988,-0.158734860151329,0.00675087434541959,-0.0220113703831735
14,0.00661633731871931,-0.0228554041722759,0.972585096211008,-0.164360382844099,0.972585096186936,-0.164360382835573,0.0066351706045402,-0.0228854758697743
14.5,0.00649053544241805,-0.0237328779255104,0.971358839213335,-0.169968749355951,0.971358839189681,-0.169968749346635,0.00651063788865002,-0.0237636867597484
15,0.00635549932965038,-0.0246142343641869,0.970103331888861,-0.175560342020906,0.970103331865683,-0.17556034201084,0.00637697418931364,-0.0246458285089006
15.5,0.00621094393641194,-0.0254992748802692,0.968818923262502,-0.181135532626708,0.968818923239852,-0.181135532615934,0.00623389065704426,-0.0255317105240618
16,0.00605659878906234,-0.0263877866417364,0.967505911603742,-0.186694678757276,0.967505911581666,-0.186694678745839,0.0060811122927274,-0.0264211274723944
16.5,0.00589220847425803,-0.0272795439673073,0.966164549113484,-0.192238120855956,0.966164549092023,-0.192238120843905,0.00591837851407101,-0.0273138605943242
17,0.00571753300531222,-0.0281743096827962,0.964795046488811,-0.197766179942811,0.964795046468002,-0.197766179930193,0.0057454436024173,-0.0282096790091515
17.5,0.00553234807260466,-0.0290718364493348,0.963397577311849,-0.203279155911586,0.963397577291721,-0.203279155898453,0.00556207703601821,-0.0291083410034547
18,0.0053364451861303,-0.0299718680549605,0.961972282223072,-0.208777326334114,0.961972282203651,-0.208777326320517,0.00536806371649745,-0.0300095952935484
18.5,0.00512963171865491,-0.0308741406624033,0.960519272851514,-0.214260945703511,0.96051927283282,-0.2142609456895,0.00516320409567572,-0.0309131822544169
19,0.00491173085812935,-0.0317783840069592,0.959038635484552,-0.219730245051989,0.959038635466602,-0.219730245037617,0.00494731421026207,-0.0318188351084761
19.5,0.00468258147803896,-0.0326843225397382,0.957530434468376,-0.225185431884446,0.957530434451181,-0.225185431869761,0.00472022563206645,-0.0327262810687734
20,0.00444203793433601,-0.0335916765123936,0.955994715337113,-0.230626690374324,0.955994715320681,-0.230626690359376,0.0044817853415009,-0.0336352424320521
20.5,0.00418996979737252,-0.0345001630006654,0.954431507673951,-0.236054181773954,0.954431507658287,-0.23605418175879,0.0042318555320443,-0.0345454376181902
21,0.00392626152702336,-0.0354094968648488,0.952840827711774,-0.241468044996973,0.952840827696878,-0.24146804498164,0.00397031335324777,-0.0354565821533086
21.5,0.00365081209883678,-0.0363193916461872,0.95122268068392,-0.246868397335711,0.951222680669788,-0.246868397320254,0.00369705059964143,-0.0363683895947218
22,0.00336353458865418,-0.0372295603988895,0.949577062937827,-0.25225533528129,0.949577062924454,-0.252255335265752,0.00341197335262988,-0.0372805723965617
22.5,0.00306435572270591,-0.0381397164581556,0.94790396382583,-0.257628935418826,0.947903963813209,-0.257628935403249,0.00311500158214056,-0.0381928427156581
23,0.00275321539971851,-0.039049574145158,0.946203367388143,-0.262989255374186,0.946203367376262,-0.262989255358608,0.00280606871442446,-0.039104913157789
23.5,0.00243006619109543,-0.039958849410314,0.944475253843471,-0.268336334792473,0.94447525383232,-0.26833633477693,0.00248512117203614,-0.0400164974648893
24,0.0020948728247232,-0.0408672604167557,0.942719600902638,-0.273670196331823,0.9427196008922,-0.273670196316352,0.00215211789156772,-0.0409273111443813
24.5,0.00174761165746185,-0.0417745280660307,0.940936384920305,-0.278990846658906,0.940936384910567,-0.27899084664354,0.00180702982434644,-0.0418370720419934
25,0.00138827014091375,-0.0426803764685026,0.939125581899352,-0.284298277435173,0.939125581890295,-0.284298277419941,0.00144983942482285,-0.0427455008599154
25.5,0.00101684628454624,-0.0435845333609963,0.937287168361746,-0.289592466285045,0.937287168353351,-0.289592466269978,0.00108054013099296,-0.0436523216222533
26,0.000633348119832622,-0.0444867304744434,0.935421122099028,-0.294873377739205,0.935421122091278,-0.294873377724329,0.00069913584076442,-0.0445572620900576
26.5,0.000237793168601119,-0.0453867038543552,0.933527422814618,-0.300140964147702,0.933527422807491,-0.300140964133041,0.000305640387774031,-0.0454600541282761
27,-0.000169792081604836,-0.0462841941370031,0.93160605266931,-0.305395166559029,0.931606052662785,-0.305395166544607,-9.99229802215451E-005,-0.0463604340271355
27.5,-0.000589372692754442,-0.0471789467842125,0.929656996740438,-0.31063591556244,0.929656996734494,-0.310635915548277,-0.000517522117621794,-0.0472581427805119
28,-0.00102090578010006,-0.0480707122796393,0.927680243404322,-0.315863132091731,0.927680243398936,-0.315863132077846,-0.000947116489543653,-0.0481529263238887
28.5,-0.00146434100276843,-0.0489592462893702,0.925675784650766,-0.321076728189521,0.925675784645917,-0.321076728175933,-0.00138865767056606,-0.0490445357344995
29,-0.00191962103977594,-0.0498443097896411,0.923643616337583,-0.326276607731709,0.923643616333248,-0.326276607718433,-0.00184208983191608,-0.0499327273962542
29.5,-0.00238668205032133,-0.0507256691643123,0.921583738392355,-0.331462667112257,0.921583738388512,-0.331462667099307,-0.00230735021559086,-0.0508172631319828
30,-0.00286545411748429,-0.05160309627474,0.919496154967941,-0.336634795888936,0.919496154964567,-0.336634795876324,-0.00278436959419964,-0.0516979103054858
30.5,-0.00335586167466645,-0.0524763685044856,0.917380874557571,-0.341792877390914,0.917380874554644,-0.34179287737865,-0.00327307271553051,-0.0525744418958136
31,-0.0038578239143201,-0.0533452687812417,0.915237910074762,-0.346936789289363,0.915237910072258,-0.346936789277458,-0.00377337873107209,-0.0534466365460819
31.5,-0.00437125517868742,-0.0542095855782128,0.913067278902736,-0.352066404132414,0.913067278900634,-0.352066404120876,-0.00428520160790391,-0.0543142785890831
32,-0.00489606533241777,-0.0550691128970355,0.910869002917511,-0.357181589845917,0.91086900291579,-0.357181589834752,-0.0048084505235505,-0.0551771580517944
32.5,-0.00543216011708342,-0.0559236502342575,0.908643108488355,-0.362282210201568,0.908643108486993,-0.362282210190782,-0.00534303024354998,-0.0560350706408352
33,-0.00597944148772167,-0.0567730025331972,0.906389626458886,-0.367368125253973,0.906389626457862,-0.36736812524357,-0.00588884148161112,-0.0568878177107743
33.5,-0.00653780793162406,-0.0576169801229256,0.904108592111725,-0.372439191748282,0.904108592111018,-0.372439191738266,-0.00644578124237144,-0.0577352062170966
34,-0.00710715476969376,-0.0584553986459748,0.901800045119248,-0.377495263499994,0.901800045118838,-0.377495263490366,-0.0070137431468576,-0.0585770486555233
34.5,-0.00768737444075296,-0.0592880789762473,0.899464029482696,-0.382536191748497,0.899464029482562,-0.382536191739258,-0.00759261774084763,-0.0594131629892787
35,-0.00827835676923788,-0.0601148471285033,0.897100593461606,-0.387561825485933,0.89710059346173,-0.387561825477084,-0.00818229278640453,-0.0602433725657738
35.5,-0.00887998921677113,-0.0609355341606783,0.894709789495307,-0.392572011762847,0.89470978949567,-0.392572011754388,-0.00878265353692265,-0.0610675060240782
36,-0.00949215711813989,-0.0617499760701838,0.892291674117967,-0.397566595972094,0.892291674118549,-0.397566595964023,-0.00939358299607784,-0.0618853971944759
36.5,-0.0101147439022206,-0.0625580136852382,0.889846307868525,-0.402545422112377,0.889846307869309,-0.402545422104691,-0.0100149621611121,-0.0626968849912468
37,-0.0107476312984324,-0.0633594925521943,0.887373755196643,-0.407508333032743,0.887373755197613,-0.407508333025441,-0.010646670250929,-0.0635018132997873
37.5,-0.0113906995292898,-0.0641542628197216,0.884874084365662,-0.412455170659298,0.8848740843668,-0.412455170652374,-0.011288584919494,-0.0643000308590473
38,-0.012043827489662,-0.0649421791206259,0.882347367353414,-0.417385776205309,0.882347367354704,-0.41738577619876,-0.0119405824550583,-0.0650913911401958
38.5,-0.0127068929133095,-0.0657231004520302,0.879793679751629,-0.42229999036586,0.879793679753057,-0.422299990359681,-0.0126025379657391,-0.0658757522223505
39,-0.0133797725273067,-0.0664968900545337,0.877213100664559,-0.427197653498065,0.877213100666109,-0.427197653492251,-0.0132743255519988,-0.0666529766661284
39.5,-0.0140623421949159,-0.0672634152909228,0.874605712607357,-0.43207860578788,0.874605712609015,-0.432078605782424,-0.0139558184665656,-0.0674229313856882
40,-0.0147544770475002,-0.0680225475249461,0.871971601404663,-0.436942687404417,0.871971601406415,-0.436942687399313,-0.0146468892623453,-0.0681854875199113
40.5,-0.0154560516060214,-0.0687741620005999,0.869310856089776,-0.441789738642644,0.869310856091609,-0.441789738637886,-0.0153474099288641,-0.0689405203032496
41,-0.0161669398926863,-0.0695181377223146,0.866623568804745,-0.446619600055287,0.866623568806646,-0.446619600050868,-0.0160572520177841,-0.069687908936773
41.5,-0.0168870155332544,-0.0702543573364072,0.863909834701625,-0.451432112574691,0.863909834703582,-0.451432112570603,-0.0167762867580142,-0.0704275364598386
42,-0.0176161518505354,-0.0709827070140847,0.861169751845137,-0.456227117625346,0.861169751847139,-0.45622711762158,-0.0175043851609368,-0.0711592896227986
42.5,-0.0183542219495644,-0.0717030763362909,0.858403421116896,-0.461004457227756,0.858403421118932,-0.461004457224305,-0.0182414181162592,-0.0718830587611072
43,-0.0191010987949359,-0.0724153581806009,0.855610946121354,-0.465763974094245,0.855610946123414,-0.465763974091101,-0.0189872564789793,-0.0725987376711204
43.5,-0.019856655280753,-0.0731194486103768,0.852792433093574,-0.470505511717285,0.852792433095647,-0.470505511714438,-0.0197417711479437,-0.0733062234878894
44,-0.020620764293636,-0.0738152467663504,0.849947990808897,-0.475228914450867,0.849947990810976,-0.47522891444831,-0.0205048331364621,-0.0740054165651705
44.5,-0.0213932987691989,-0.0745026547607632,0.847077730494613,-0.479934027585424,0.847077730496688,-0.479934027583147,-0.0212763136354232,-0.0746962203578728
45,-0.0221741317424151,-0.075181577574196,0.844181765743612,-0.484620697416741,0.844181765745675,-0.484620697414734,-0.0220560840693478,-0.0753785413071247
45.5,-0.0229631363922302,-0.0758519229551716,0.841260212430104,-0.489288771309294,0.841260212432147,-0.489288771307549,-0.0228440161457864,-0.0760522887281034
46,-0.0237601860808134,-0.0765136013226102,0.838313188627376,-0.493938097754405,0.838313188629391,-0.493938097752913,-0.0236399818984663,-0.0767173747007698
46.5,-0.0245651543877657,-0.0771665256711972,0.835340814527605,-0.498568526423577,0.835340814529587,-0.498568526422327,-0.0244438537245643,-0.0773737139636128
47,-0.0253779151396403,-0.0778106114797089,0.832343212363719,-0.503179908217342,0.832343212365661,-0.503179908216325,-0.0252555044164762,-0.0780212238104919
47.5,-0.0261983424350626,-0.0784457766223138,0.829320506333278,-0.507772095309945,0.829320506335175,-0.507772095309153,-0.0260748071884263,-0.0786598239906512
48,-0.0270263106657719,-0.0790719412828874,0.826272822524353,-0.512344941190147,0.826272822526199,-0.512344941189569,-0.0269016356982563,-0.0792894366119568
48.5,-0.0278616945338402,-0.079689027872328,0.823200288843378,-0.516898300698411,0.823200288845169,-0.516898300698037,-0.0277358640647118,-0.0799099860474041
49,-0.0287043690653497,-0.0802969609488849,0.820103034944927,-0.52143203006073,0.820103034946658,-0.521432030060551,-0.0285773668805269,-0.0805213988449205
49.5,-0.0295542096207743,-0.0808956671414756,0.816981192163399,-0.525945986919312,0.816981192165066,-0.525945986919318,-0.0294260192215972,-0.0811236036404748
50,-0.030411091902302,-0.0814850750759929,0.813834893446541,-0.530440030360357,0.813834893448141,-0.530440030360539,-0.0302816966525237,-0.0817165310745109
50.5,-0.0312748919583291,-0.0820651153045598,0.810664273290787,-0.534914020939095,0.810664273292316,-0.534914020939444,-0.0311442752287812,-0.0823001137116947
51,-0.032145486185324,-0.0826357202377115,0.807469467678363,-0.53936782070229,0.80746946767982,-0.539367820702795,-0.0320136314957649,-0.082874285963963
51.5,-0.033022751327281,-0.0831968240794732,0.804250614016107,-0.543801293208365,0.804250614017489,-0.543801293209017,-0.032889642484952,-0.083438984016861
52,-0.0339065644729328,-0.083748362765292,0.801007851075961,-0.548214303545316,0.801007851077265,-0.548214303546106,-0.0337721857074053,-0.0839941457591405
52.5,-0.0347968030509205,-0.0842902739027879,0.797741318937082,-0.55260671834655,0.797741318938308,-0.552606718347469,-0.034661139144831,-0.0845397107155886
53,-0.0356933448230705,-0.0848224967152676,0.79445115892955,-0.556978405804781,0.794451158930696,-0.55697840580582,-0.0355563812383916,-0.0850756199830539
53.5,-0.0365960678759555,-0.0853449719879765,0.791137513579583,-0.561329235684123,0.791137513580648,-0.561329235685273,-0.0364577908754765,-0.0856018161696301
54,-0.0375048506108787,-0.0858576420170213,0.787800526556259,-0.565659079330469,0.787800526557243,-0.565659079331722,-0.0373652473745988,-0.0861182433369516
54.5,-0.0384195717324265,-0.0863604505609277,0.784440342619673,-0.569967809680297,0.784440342620575,-0.569967809681643,-0.0382786304686104,-0.0866248469455575
55,-0.0393401102357321,-0.0868533427947753,0.78105710757049,-0.574255301267964,0.78105710757131,-0.574255301269395,-0.0391978202863804,-0.0871215738032757
55.5,-0.0402663453925634,-0.0873362652668664,0.77765096820086,-0.578521430231617,0.777650968201598,-0.578521430233125,-0.0401226973331131,-0.0876083720165739
56,-0.0411981567363669,-0.0878091658578656,0.774222072246645,-0.582766074317777,0.774222072247303,-0.582766074319353,-0.0410531424694379,-0.0880851909448207
56.5,-0.0421354240463814,-0.0882719937423772,0.770770568340921,-0.586989112884694,0.770770568341498,-0.58698911288633,-0.0419890368894278,-0.0885519811574167
57,-0.0430780273309203,-0.0887246993528859,0.767296605968718,-0.591190426904537,0.767296605969217,-0.591190426906225,-0.0429302620976607,-0.0890086943937123
57.5,-0.0440258468099362,-0.0891672343460251,0.763800335422951,-0.595369898964489,0.763800335423372,-0.595369898966224,-0.0438766998854769,-0.089455283525685
58,-0.0449787628969565,-0.0895995515711167,0.760281907761523,-0.599527413266824,0.760281907761869,-0.599527413268596,-0.0448282323065252,-0.0898917025232961
58.5,-0.0459366561804874,-0.0900216050409239,0.756741474765552,-0.603662855627994,0.756741474765823,-0.603662855629796,-0.0457847416517387,-0.0903179064224776
59,-0.0468994074049714,-0.0904333499045754,0.75317918889868,-0.60777611347682,0.753179188898879,-0.607776113478644,-0.0467461104238258,-0.0907338512956857
59.5,-0.047866897451379,-0.090834742422602,0.749595203267463,-0.611867075851807,0.749595203267591,-0.611867075853647,-0.0477122213113974,-0.0911394942249633
60,-0.0488390073175194,-0.0912257399440389,0.745989671582771,-0.61593563339765,0.745989671582832,-0.615935633399501,-0.0486829571628234,-0.0915347932774496
60.5,-0.0498156180981398,-0.0916063008855369,0.742362748122203,-0.619981678360974,0.742362748122199,-0.619981678362828,-0.049658200959905,-0.0919197074832786
61,-0.0507966109648859,-0.091976384712445,0.738714587693465,-0.624005104585327,0.738714587693398,-0.624005104587178,-0.0506378357914611,-0.0922941968157991
61.5,-0.051781867146193,-0.0923359519217952,0.735045345598692,-0.628005807505506,0.735045345598565,-0.628005807507348,-0.0516217448269097,-0.0926582221740668
62,-0.0527712679071722,-0.0926849640271621,0.731355177599693,-0.631983684141216,0.73135517759951,-0.631983684143043,-0.0526098112899226,-0.0930117453675386
62.5,-0.0537646945295534,-0.09302338354533,0.727644239884085,-0.635938633090115,0.727644239883847,-0.635938633091921,-0.0536019184322329,-0.0933547291029123
