"Freq [GHz]","re(St(P1,P1)) []","im(St(P1,P1)) []","re(St(P1,P2)) []","im(St(P1,P2)) []","re(St(P2,P1)) []","im(St(P2,P1)) []","re(St(P2,P2)) []","im(St(P2,P2)) []"
0,0.00466267102012807,0,0.995348121112329,0,0.995348121330608,0,0.0046626595918724,0
0.5,0.00513878380476385,0.000227247958530796,0.994742793185221,-0.00839122105452006,0.994742792957204,-0.00839122081871935,0.00513868659574257,0.000227735126063777
1,0.00550082365988125,-0.000130154218162204,0.994036937881107,-0.016156554194886,0.994036937921937,-0.0161565543610074,0.00550063657766664,-0.00012905117909412
1.5,0.0051915725495757,-0.000607283307971329,0.993346065126873,-0.0240067141025264,0.993346065094165,-0.0240067142921738,0.00518627606025657,-0.000600507208918799
2,0.0050176015830079,-0.00109714832682073,0.992509578046171,-0.0316578698973498,0.992509577953643,-0.0316578700728876,0.00500862621423526,-0.00109149889813231
2.5,0.00491143284895523,-0.00153296485982324,0.991594808200484,-0.0391231912515693,0.991594808073719,-0.0391231913914556,0.00490241076112286,-0.00152964233001285
3,0.00482782526515058,-0.00190351797289345,0.990644349929438,-0.0464336043159985,0.990644349794249,-0.0464336044139682,0.00482068524851842,-0.00190144725213592
3.5,0.00474330351460406,-0.00221388743411133,0.989678525581913,-0.0536227703323302,0.989678525458178,-0.0536227703919714,0.00473851072965914,-0.00221182548103727
4,0.00464753556955033,-0.00247248792417665,0.988702417391997,-0.0607193282842369,0.988702417292222,-0.0607193283136347,0.00464485244869128,-0.00246962334279743
4.5,0.00453734891852164,-0.00268727527927481,0.987712519074499,-0.0677446160881834,0.98771251900479,-0.0677446160963191,0.0045363208337601,-0.00268323068032572
5,0.00441322996366877,-0.00286489024832814,0.986701378156446,-0.0747131776523524,0.986701378118183,-0.0747131776472552,0.00441340779832344,-0.00285958298928524
5.5,0.00427736045047145,-0.00301070217567556,0.985660329153208,-0.0816342151615785,0.9856603291446,-0.0816342151496254,0.00427837644790652,-0.00300421491438474
6,0.00413254413945285,-0.00312907087303316,0.984580903237404,-0.0885130885898331,0.984580903254681,-0.088513088575696,0.0041341221708372,-0.00312156313770995
6.5,0.00398164002325185,-0.00322360592751902,0.983455452556818,-0.095352543223691,0.983455452595053,-0.0953525432105486,0.00398358226670031,-0.00321526161688546
7,0.00382728094057488,-0.00329736619344079,0.982277355043559,-0.102153615512627,0.982277355097212,-0.102153615502481,0.00382944946904901,-0.00328836547292521
7.5,0.00367175126109204,-0.00335299797086908,0.981041015891276,-0.108916264767921,0.981041015954534,-0.10891626476189,0.00367405143134553,-0.00334350395791461
8,0.0035169516761302,-0.00339282584709544,0.979741782681679,-0.11563979854408,0.979741782748671,-0.11563979854266,0.00351931914368581,-0.00338297963639622
8.5,0.00336441008011269,-0.00341891129384475,0.978375833039676,-0.122323152045587,0.978375833104604,-0.122323152048873,0.00336680132777552,-0.00340883138822434
9,0.00321531515510864,-0.00343309097256661,0.976940062105033,-0.128965067740683,0.976940062162254,-0.128965067748519,0.00321770084475373,-0.0034228748502918
9.5,0.00307055937546167,-0.00343700303724104,0.975431980883389,-0.135564208163535,0.975431980927472,-0.135564208175642,0.00307291978561338,-0.00342672960165524
10,0.00293078400091562,-0.00343210671665783,0.973849628678059,-0.142119224627821,0.973849628703808,-0.142119224643873,0.00293310593668667,-0.00342183896505066
10.5,0.00286710004723388,-0.00344343836146521,0.972414251729372,-0.148672822921994,0.972414251801735,-0.148672822964114,0.00287043445405,-0.00343289404909886
11,0.00281745581896606,-0.00345539072925316,0.970951459459117,-0.155196500166273,0.970951459564361,-0.155196500236087,0.00282162199798754,-0.00344474566464559
11.5,0.00278082506037089,-0.00346946142255034,0.969461621045163,-0.161692559627931,0.969461621171806,-0.16169255972516,0.00278563319476556,-0.00345883161685245
12,0.00275610986800623,-0.00348690031505416,0.967944841062618,-0.16816307206648,0.967944841201226,-0.168163072189495,0.00276137392495077,-0.00347634900053873
12.5,0.00274217898721432,-0.00350872918172707,0.966401018722161,-0.174609879282225,0.966401018865127,-0.174609879428488,0.00274772616811467,-0.00349827522604063
13,0.00273789829076482,-0.00353576379677722,0.964829897538937,-0.18103460313561,0.964829897680271,-0.181034603302019,0.00274357536453929,-0.0035253905782322
13.5,0.00274215429666158,-0.00356863698163146,0.963231106470463,-0.187438658194256,0.963231106605576,-0.187438658377412,0.00274783127512429,-0.00355830104095389
14,0.00275387166774302,-0.00360782148341832,0.961604193583701,-0.193823266564071,0.961604193709208,-0.193823266760484,0.00275944332818567,-0.0035974604899236
14.5,0.00277202563934212,-0.00365365189957778,0.959948653279664,-0.200189473808177,0.959948653393198,-0.200189474014414,0.00277741139124413,-0.00364319165461557
15,0.00279565027121237,-0.00370634513557011,0.958263948036399,-0.206538165147346,0.958263948136447,-0.206538165360136,0.00280079282159812,-0.00369570548085285
15.5,0.00282384333811789,-0.00376601909453456,0.95654952554313,-0.212870081369852,0.956549525628876,-0.212870081586163,0.00282870654911976,-0.00375511869988587
16,0.00285576857595193,-0.00383270945775971,0.954804832000754,-0.219185834063125,0.95480483207195,-0.219185834280206,0.00286033483999393,-0.00382146953683593
16.5,0.00289065589836207,-0.0039063845309637,0.953029322265004,-0.225485919920926,0.953029322321851,-0.225485920136336,0.00289492328874041,-0.00389473158048492
17,0.00292780009990934,-0.00398695821225292,0.95122246741365,-0.231770733985969,0.951222467456696,-0.23177073419758,0.0029317794921998,-0.00397482589620868
17.5,0.00296655847030319,-0.00407430119052066,0.949383760231269,-0.238040581765282,0.949383760261329,-0.238040581971285,0.00297027077551953,-0.0040616315011599
18,0.00300634766261015,-0.00416825051477931,0.947512719026202,-0.244295690210714,0.947512719044273,-0.244295690409607,0.00300982126736754,-0.00415499434156774
18.5,0.00304664008741007,-0.00426861769085751,0.945608890124677,-0.250536217594657,0.945608890131886,-0.250536217785224,0.00304990855948456,-0.00425473492077644
19,0.0030869600445641,-0.00437519546666798,0.943671849326881,-0.2567622623357,0.943671849324432,-0.256762262516993,0.00309006013355101,-0.00436065472710978
19.5,0.00312687975406895,-0.00448776346407054,0.94170120255822,-0.262973870843735,0.94170120254735,-0.262973871015052,0.00312984969528374,-0.00447254160536881
20,0.00316601540620015,-0.00460609280732216,0.93969658590545,-0.26917104446191,0.939696585887395,-0.26917104462277,0.00316889352051236,-0.00459017420709529
20.5,0.00320402331789121,-0.00472994988687647,0.937657665190881,-0.275353745585559,0.937657665166854,-0.275353745735679,0.00320684688964085,-0.00471332564396176
21,0.00324059625581069,-0.00485909938449325,0.935584135207566,-0.281521903037574,0.935584135178732,-0.281521903176842,0.00324340066435197,-0.00484176645689383
21.5,0.00327545996583084,-0.00499330667233866,0.933475718713319,-0.287675416776686,0.933475718680777,-0.287675416905141,0.00327827804264769,-0.00497526700167272
22,0.00330836993254441,-0.00513233968557469,0.931332165260891,-0.293814162010745,0.931332165225672,-0.293814162128554,0.00331123151454266,-0.00511359934014677
22.5,0.00333910838036072,-0.00527597035538374,0.929153249924944,-0.299937992781826,0.929153249887992,-0.299937992889262,0.0033420400301814,-0.00525653871522036
23,0.00336748151863708,-0.00542397567775144,0.926938771972772,-0.306046745084385,0.926938771934947,-0.306046745181812,0.00337050638422237,-0.00540386467765641
23.5,0.00339331702678369,-0.00557613848272087,0.92468855351488,-0.312140239572061,0.924688553476953,-0.312140239659911,0.00339645481447215,-0.00555536192350137
24,0.00341646177066895,-0.00573224795933069,0.92240243816261,-0.318218283903128,0.922402438125262,-0.31821828398189,0.00341972880858527,-0.00571082089265973
24.5,0.0034367797385656,-0.00589209998306228,0.920080289713045,-0.324280674769423,0.920080289676868,-0.324280674839628,0.00344018910973143,-0.00587003817179865
25,0.00345415018301193,-0.00605549728519095,0.917721990875802,-0.330327199648565,0.917721990841307,-0.330327199710772,0.0034577119102569,-0.00603281673823686
25.5,0.0034684659538699,-0.00622224949711514,0.915327442051917,-0.336357638314865,0.915327442019528,-0.336357638369651,0.00347218722123993,-0.00619896607590498
26,0.00347963200753737,-0.00639217309715678,0.912896560171547,-0.342371764140119,0.912896560141612,-0.34237176418807,0.00348351740530439,-0.00636830218944429
26.5,0.00348756407735101,-0.00656509128258875,0.910429277594562,-0.348369345211791,0.910429277567356,-0.348369345253492,0.00349161585996249,-0.00654064753832606
27,0.00349218749064661,-0.00674083378567869,0.907925541075987,-0.354350145292765,0.907925541051718,-0.354350145328793,0.00349640583893734,-0.00671583090922923
27.5,0.00349343611860703,-0.00691923664905048,0.905385310796702,-0.360313924643812,0.905385310775514,-0.360313924674732,0.00349781939938132,-0.00689368724176953
28,0.00349125144584134,-0.00710014197283804,0.902808559458598,-0.366260440727325,0.902808559440581,-0.366260440753682,0.003495796463447,-0.00707405742003453
28.5,0.00348558174751051,-0.0072833976436526,0.900195271442568,-0.372189448808487,0.900195271427758,-0.372189448830806,0.00349028398337203,-0.0072567880401333
29,0.00347638136275785,-0.00746885705341005,0.897545442027025,-0.378100702467978,0.897545442015412,-0.378100702486757,0.00348123519994087,-0.00744173116205182
29.5,0.00346361005411328,-0.00765637881432824,0.894859076664273,-0.38399395403851,0.894859076655807,-0.38399395405422,0.00346860898494383,-0.00762874405252179
30,0.00344723244345962,-0.00784582647507648,0.892136190311754,-0.389868954975869,0.892136190306349,-0.389868954988949,0.00345236925899617,-0.00781768892426071
30.5,0.00342721751601804,-0.00803706824186179,0.889376806815033,-0.395725456173738,0.889376806812573,-0.395725456184598,0.00343248447680605,-0.00800843267581297
31,0.00340353818462341,-0.00822997670732861,0.886580958339355,-0.401563208230355,0.886580958339696,-0.401563208239371,0.00340892717268132,-0.00820084663531118
31.5,0.00337617090735104,-0.00842442858936376,0.88374868484656,-0.407381961673964,0.883748684849537,-0.407381961681481,0.00338167355972857,-0.00839480631067957
32,0.0033450953522472,-0.00862030448129403,0.880880033614241,-0.413181467153108,0.880880033619671,-0.413181467159438,0.00335070317681091,-0.00859019114818005
32.5,0.00331029410358569,-0.00881748861444498,0.877975058794107,-0.418961475596973,0.877975058801794,-0.418961475602396,0.00331599857792214,-0.00878688430067598
33,0.00327175240467747,-0.00901586863364368,0.875033821006617,-0.424721738350277,0.875033821016352,-0.424721738355042,0.00327754505915812,-0.00898477240656104
33.5,0.0032294579327885,-0.00921533538591901,0.87205638696911,-0.430462007286595,0.872056386980679,-0.430462007290922,0.00323533041896995,-0.00918374537995104
34,0.0031834006022381,-0.00941578272241639,0.869042829154793,-0.436182034903457,0.869042829167976,-0.436182034907534,0.00318934474781674,-0.00938369621247359
34.5,0.00313357239217221,-0.00961710731334775,0.865993225480097,-0.441881574402087,0.865993225494672,-0.441881574406076,0.00313958024376415,-0.00958452078674477
35,0.00307996719592785,-0.00981920847565265,0.862907659018079,-0.447560379754253,0.862907659033825,-0.44756037975829,0.00308603105093064,-0.00978611770147952
35.5,0.00302258068925504,-0.0100219880129245,0.859786217735685,-0.453218205758339,0.859786217752382,-0.453218205762534,0.00302869311803322,-0.00998838810801084
36,0.00296141021497726,-0.0102253500671184,0.856628994252857,-0.458854808086435,0.856628994270292,-0.458854808090875,0.00296756407457566,-0.0101912355579206
36.5,0.00289645468198008,-0.0104292009814559,0.85343608562161,-0.464469943323994,0.853436085639574,-0.464469943328744,0.00290264312250704,-0.0103945658613934
37,0.00282771447663771,-0.0106334491739419,0.850207593123321,-0.470063369003368,0.850207593141614,-0.470063369008472,0.00283393094141771,-0.0105982869558464
37.5,0.00275519138505881,-0.0108380050208856,0.846943622082653,-0.47563484363232,0.846943622101082,-0.475634843637805,0.00276142960555975,-0.0108023087843637
38,0.00267888852469955,-0.0110427807498092,0.843644281696606,-0.48118412671847,0.843644281714989,-0.481184126724346,0.00268514251118346,-0.0110065431834163
38.5,0.00259881028407521,-0.0112476903411299,0.840309684877363,-0.486710978790465,0.840309684895528,-0.486710978796724,0.00260507431284818,-0.0112109037793803
39,0.002514962269486,-0.0114526494380234,0.83693994810766,-0.492215161416524,0.836939948125446,-0.492215161423148,0.0025212308675322,-0.0114153058933035
39.5,0.00242735125777577,-0.0116575752638932,0.833535191307547,-0.497696437220946,0.833535191324804,-0.497696437227903,0.00243361918549967,-0.0116196664534259
40,0.00233598515429434,-0.0118623865468789,0.830095537711495,-0.503154569899012,0.830095537728086,-0.503154569906259,0.00234224738701327,-0.0118239039149494
40.5,0.00224087295532682,-0.0120670034508805,0.826621113754881,-0.508589324230686,0.826621113770682,-0.508589324238172,0.00224712466408894,-0.0120279381865555
41,0.00214202471435843,-0.0122713475125886,0.823112048968991,-0.514000466093426,0.823112048983888,-0.514000466101091,0.00214826124659123,-0.0122316905632079
41.5,0.00203945151161511,-0.0124753415840506,0.819568475883727,-0.519387762474357,0.819568475897621,-0.519387762482134,0.00204566837204945,-0.0124350836647835
42,0.00193316542641736,-0.0126789097803094,0.81599052993731,-0.524750981482018,0.815990529950114,-0.524750981489837,0.00193935825866176,-0.0126380413800956
42.5,0.00182317951191785,-0.0128819774317103,0.812378349392306,-0.530089892357849,0.812378349403943,-0.530089892365635,0.0018293440810131,-0.0128404888159044
43,0.00170950777188145,-0.0130844710404719,0.808732075257374,-0.535404265487536,0.808732075267781,-0.53540426549521,0.00171563994810381,-0.0130423522505161
43.5,0.00159216513919264,-0.0132863182411564,0.805051851214202,-0.540693872412333,0.805051851223327,-0.540693872419815,0.0015982608833261,-0.0132435590916207
44,0.00147116745583442,-0.0134874477647025,0.801337823549123,-0.545958485840417,0.801337823556927,-0.545958485847627,0.00147722280609491,-0.0134440378380054
44.5,0.00134653145410718,-0.0136877894057053,0.797590141088971,-0.551197879658341,0.797590141095423,-0.551197879665197,0.00135254251485051,-0.0136437180448371
45,0.00121827473890712,-0.013887273992644,0.793808955140764,-0.556411828942609,0.793808955145845,-0.556411828949031,0.00122423767122398,-0.0138425302922019
45.5,0.0010864157708888,-0.0140858333608059,0.789994419434846,-0.561600109971413,0.789994419438548,-0.561600109977321,0.00109232678514842,-0.0140404061566319
46,0.000950973850389614,-0.0142834003276391,0.786146690071174,-0.566762500236518,0.786146690073497,-0.566762500241838,0.00095682920076845,-0.0142372781853475
46.5,0.000811969101980725,-0.014479908670324,0.782265925468411,-0.571898778455322,0.782265925469364,-0.571898778459979,0.000817765082993138,-0.0144330798729834
47,0.000669422459568692,-0.0146752931053462,0.778352286315593,-0.577008724583055,0.778352286315195,-0.57700872458698,0.00067515540457086,-0.0146277456405668
47.5,0.000523355651951496,-0.0148694892698839,0.774405935526101,-0.58209211982513,0.774405935524378,-0.582092119828256,0.000529021933594331,-0.0148212108165481
48,0.000373791188769124,-0.0150624337048362,0.77042703819373,-0.58714874664961,0.770427038190715,-0.587148746651877,0.000379387221338845,-0.0150134116196861
48.5,0.000220752346788811,-0.0152540638393304,0.766415761550646,-0.592178388799784,0.766415761546377,-0.592178388801134,0.000226274590370501,-0.0152042851436182
49,6.42631564867768E-005,-0.0154443179765716,0.762372274927054,-0.597180831306807,0.762372274921579,-0.597180831307189,6.97081228641094E-005,-0.0153937693429512
49.5,-9.56516111212391E-005,-0.0156331352808962,0.758296749712432,-0.602155860502417,0.758296749705801,-0.602155860501784,-9.02873509209812E-005,-0.0155818030207262
50,-0.000258966457414245,-0.0158204557659134,0.754189359318157,-0.607103264031648,0.754189359310428,-0.607103264029962,-0.000253686264037434,-0.0157683258171185
50.5,-0.000425655168903527,-0.0160062202836305,0.750050279141427,-0.612022830865578,0.750050279132659,-0.612022830862802,-0.000420462324156767,-0.0159532781992543
51,-0.000595690829780449,-0.016190370514454,0.745879686530329,-0.616914351314017,0.745879686520587,-0.616914351310123,-0.000590588524804425,-0.0161366014520274
51.5,-0.000769045834294269,-0.0163728489579955,0.741677760749979,-0.62177761703817,0.741677760739332,-0.621777617033136,-0.000764037156545827,-0.01631823766981
52,-0.000945691898964596,-0.0165535989245905,0.737444682949625,-0.626612421063209,0.737444682938142,-0.626612421057018,-0.000940779818130844,-0.0164981297489716
52.5,-0.00112560007464263,-0.0167325645274596,0.733180636130623,-0.631418557790744,0.733180636118378,-0.631418557783386,-0.00112078742760957,-0.0166762213811145
53,-0.00130874075841719,-0.0169096906754589,0.728885805115234,-0.636195823011178,0.7288858051023,-0.636195823002649,-0.00130403023342202,-0.0168524570469496
53.5,-0.00149508370537393,-0.0170849230663485,0.724560376516151,-0.640944013915899,0.724560376502605,-0.6409440139062,-0.0014904778254663,-0.0170267820107435
54,-0.00168459804021037,-0.0172582081805397,0.720204538706719,-0.64566292910932,0.720204538692637,-0.645662929098462,-0.00168009914613954,-0.0171991423152769
54.5,-0.00187725226869984,-0.017429493275272,0.715818481791774,-0.650352368620729,0.715818481777234,-0.650352368608723,-0.0018728625013601,-0.0173694847772512
55,-0.00207301428901457,-0.0175987263791729,0.711402397579075,-0.655012133915921,0.711402397564152,-0.655012133902788,-0.00206873557155551,-0.0175377569830973
55.5,-0.00227185140289343,-0.0177658562871763,0.706956479551268,-0.659642027908627,0.706956479536038,-0.659642027894392,-0.0022676854226224,-0.0177039072851415
56,-0.00247373032666637,-0.0179308325557592,0.702480922838362,-0.664241854971695,0.702480922822901,-0.664241854956389,-0.00246967851684243,-0.017867884798079
56.5,-0.0026786172021247,-0.0180936054984718,0.697975924190672,-0.668811420948023,0.697975924175054,-0.668811420931682,-0.0026746807237607,-0.0180296393957343
57,-0.00288647760723593,-0.0182541261817354,0.693441681952213,-0.673350533161234,0.693441681936509,-0.673350533143899,-0.0028826573310054,-0.0181891217080579
57.5,-0.00309727656671194,-0.0184123464208905,0.688878396034496,-0.677859000426074,0.688878396018777,-0.677859000407792,-0.00309357305505803,-0.0183462831183466
58,-0.0033109785624118,-0.0185682187764658,0.68428626789074,-0.682336633058527,0.684286267875075,-0.682336633039348,-0.00330739205195069,-0.0185010757606489
58.5,-0.00352754754359758,-0.0187216965506679,0.679665500490443,-0.686783242885642,0.679665500474897,-0.686783242865622,-0.0035240779279021,-0.0186534525173462
59,-0.0037469469370226,-0.0188727337840612,0.675016298294323,-0.691198643255064,0.675016298278958,-0.69119864323426,-0.00374359374986805,-0.0188033670168772
59.5,-0.0039691396568694,-0.0190212852524345,0.670338867229592,-0.695582649044249,0.670338867214468,-0.695582649022724,-0.00396590205601099,-0.0189507736315979
60,-0.00419408811452876,-0.0191673064638442,0.665633414665572,-0.699935076669386,0.665633414650745,-0.699935076647207,-0.00419096486608461,-0.01909562747576
60.5,-0.00442175422821728,-0.0193107536558207,0.660900149389617,-0.704255744093998,0.660900149375141,-0.704255744071235,-0.00441874369171791,-0.0192378844035934
61,-0.00465209943244238,-0.0194515837927308,0.656139281583358,-0.708544470837227,0.656139281569282,-0.708544470813951,-0.00464919954660037,-0.0193775010074815
61.5,-0.00488508468731197,-0.0195897545632932,0.651351022799235,-0.712801077981798,0.651351022785605,-0.712801077958084,-0.00488229295656789,-0.0195144346162267
62,-0.00512067048768977,-0.0197252243782411,0.64653558593733,-0.717025388181676,0.646535585924188,-0.717025388157602,-0.00511798396957364,-0.0196486432933878
