"Freq [GHz]","re(St(P1,P1)) []","im(St(P1,P1)) []","re(St(P1,P2)) []","im(St(P1,P2)) []","re(St(P2,P1)) []","im(St(P2,P1)) []","re(St(P2,P2)) []","im(St(P2,P2)) []"
0,0.00538476489441564,0,0.994633327180054,0,0.994633333393722,0,0.00538476372310015,0
0.5,0.00605445590563392,-0.0018147967145552,0.993871836745697,-0.0088647550264227,0.993871837499292,-0.00886475615968507,0.00605415887488903,-0.00181320476103153
1,0.00659756238646025,-0.00445721690765311,0.993083451515279,-0.0168982353376244,0.993083451736261,-0.0168982354426461,0.00659677685774795,-0.00445368503474342
1.5,0.00688624531880855,-0.00727358214492568,0.992400388369184,-0.0247310253585482,0.992400388522896,-0.0247310254938284,0.00688494382413474,-0.00726789344660617
2,0.00696809422316846,-0.0101259175831139,0.991780710692284,-0.0324949370464669,0.991780710791021,-0.0324949371758283,0.00696632687218468,-0.0101179712124413
2.5,0.00692505451263958,-0.0129596991957914,0.991148271417163,-0.0402426979983783,0.991148271478263,-0.0402426981099424,0.00692283361460078,-0.0129494627046398
3,0.00680013006235303,-0.0157689573917494,0.9904647510709,-0.0479768801225475,0.990464751106301,-0.0479768802143319,0.00679743593792548,-0.0157564132157706
3.5,0.0066143846090867,-0.0185569304815498,0.989714330125616,-0.0556909406759303,0.989714330142624,-0.0556909407491233,0.00661118033176944,-0.01854205952902
4,0.00637860710453886,-0.0213275152562478,0.988891792134343,-0.0633785561494733,0.988891792137335,-0.0633785562060396,0.0063748477290515,-0.0213102929709752
4.5,0.00609870576197347,-0.0240837611967901,0.98799672257388,-0.0710352725007635,0.987996722565489,-0.0710352725426464,0.00609434341282489,-0.0240641571830036
5,0.00577814736440851,-0.0268278383640954,0.987030769922102,-0.0786584291798214,0.98703076990396,-0.0786584292087529,0.00577313406399327,-0.0268058169504393
5.5,0.00541910665084799,-0.0295612492066706,0.985996317672346,-0.0862467534566678,0.985996317645511,-0.0862467534741338,0.00541339595015278,-0.0295367702035136
6,0.00502303700119011,-0.0322850274831268,0.984895831444189,-0.0937999526042077,0.98489583140942,-0.093799952611513,0.00501658495310209,-0.0322580469295666
6.5,0.00459096834487327,-0.0349998856141092,0.983731548724918,-0.1013183747779,0.983731548682827,-0.101318374776235,0.00458373409455737,-0.0349703564669523
7,0.00412366968298927,-0.0377063171010343,0.982505350720571,-0.108802745996114,0.98250535067172,-0.108802745986624,0.00411561581961328,-0.0376741898611694
7.5,0.00362174111643809,-0.0404046664475928,0.981218732629176,-0.116253974971624,0.981218732574119,-0.11625397495548,0.00361283386570965,-0.040369889728991
8,0.00308566757882212,-0.043095176767685,0.979872825791232,-0.123673014214808,0.97987282573054,-0.123673014193256,0.00307587688266664,-0.043057697814783
8.5,0.00251585099531992,-0.0457780222542432,0.978468444787316,-0.131060765917607,0.978468444721575,-0.131060765892001,0.00250515050756717,-0.0457377874120199
9,0.00191262991563301,-0.0484533303440378,0.97700614375687,-0.138418022291952,0.977006143686678,-0.138418022263788,0.00190099693299994,-0.0484102854836257
9.5,0.00127629169959048,-0.0511211968061716,0.975486272968312,-0.145745431563764,0.975486272894264,-0.145745431534706,0.00126370704186496,-0.051075287707822
10,0.000607080198760157,-0.0537816959196951,0.973909030848323,-0.153043482420808,0.973909030770994,-0.153043482392691,0.000593528048838166,-0.0537328686143335
10.5,-0.000138931296948919,-0.056402502305235,0.972251198578616,-0.160344632394493,0.972251198501028,-0.160344632351465,-0.000152381298086146,-0.0563512139000606
11,-0.000920477189169544,-0.0590133422940058,0.970536419222606,-0.167610820813599,0.970536419146357,-0.167610820755949,-0.000933820741572611,-0.0589595893732211
11.5,-0.00173743427246442,-0.0616137476001795,0.968765912960368,-0.174842602218673,0.968765912886944,-0.174842602146864,-0.00175066714930566,-0.0615575264606267
12,-0.00258967342043159,-0.0642032508877923,0.966940745740924,-0.182040532340887,0.966940745671686,-0.182040532255533,-0.00260279146578624,-0.0641445575218418
12.5,-0.00347705956286182,-0.0667813858296191,0.965061843179573,-0.18920515242327,0.965061843115742,-0.189205152325101,-0.00349005868874205,-0.0667202159073201
13,-0.0043994516625589,-0.0693476871680385,0.963130004871376,-0.196336976722583,0.963130004814037,-0.196336976612435,-0.00441232784517104,-0.0692840360185607
13.5,-0.00535670269192676,-0.0719016907780272,0.961145918661116,-0.203436482875095,0.96114591861121,-0.203436482753873,-0.00536945196713057,-0.0718355533703692
14,-0.00634865960941491,-0.0744429337322741,0.959110174516579,-0.210504104786217,0.95911017447491,-0.210504104654881,-0.00636127806734804,-0.0743743046552496
14.5,-0.00737516333590982,-0.0769709543685355,0.957023277746136,-0.217540227700763,0.957023277713373,-0.217540227560304,-0.0073876471147612,-0.076899827810041
15,-0.00843604873118217,-0.0794852923592866,0.954885661382013,-0.224545185121938,0.954885661358696,-0.224545184973366,-0.00844839401007963,-0.079411662084846
15.5,-0.00953114457047249,-0.0819854887837015,0.952697697617349,-0.231519257268417,0.952697697603897,-0.23151925711275,-0.00954334756146955,-0.0819093481142734
16,-0.0106602735213581,-0.0844710862020923,0.950459708238776,-0.238462670786487,0.950459708235494,-0.238462670624727,-0.010672330460487,-0.0843924279911445
16.5,-0.0118232521209606,-0.0869416287327791,0.948171974038253,-0.245375599464688,0.948171974045343,-0.245375599297824,-0.0118351592583358,-0.0868604453426194
17,-0.0130198907536486,-0.0893966621315281,0.945834743219428,-0.252258165730124,0.945834743236995,-0.252258165559117,-0.013031644342599,-0.0893129454088744
17.5,-0.0142499936293281,-0.0918357338735665,0.943448238836802,-0.259110442736393,0.943448238864866,-0.259110442562166,-0.0142615899145326,-0.0917494751243488
18,-0.01551335876245,-0.0942583932382544,0.941012665321652,-0.265932456882304,0.941012665360154,-0.265932456705746,-0.0155247939670641,-0.0941695832016332
18.5,-0.016809777951841,-0.0966641913964503,0.938528214158677,-0.272724190627228,0.93852821420749,-0.272724190449178,-0.0168210482635964,-0.0965728202180069
19,-0.0181390367615114,-0.0990526815006429,0.9359950687827,-0.279485585492905,0.935995068841634,-0.27948558531416,-0.0181501383177671,-0.0989587387047566
19.5,-0.0195009145025261,-0.101423418777866,0.933413408766782,-0.286216545162602,0.933413408835597,-0.286216544983911,-0.0195118433742643,-0.101326893239206
20,-0.0208951842161087,-0.103775960625493,0.930783413372478,-0.292916938606835,0.930783413450885,-0.292916938428897,-0.0209059363908625,-0.10367684053962
20.5,-0.0223216126580929,-0.10610986670993,0.928105264530545,-0.299586603180324,0.928105264618217,-0.299586603003787,-0.022332184021792,-0.106008139562938
21,-0.0237799602848486,-0.10842469906825,0.92537914931682,-0.306225347648073,0.925379149413396,-0.306225347473537,-0.023790346602584,-0.108320351605432
21.5,-0.0252699812408514,-0.110720022212849,0.922605261983482,-0.312832955109355,0.922605262088575,-0.312832954937369,-0.0252801781365435,-0.110613040406299
22,-0.0267914233479961,-0.112995403239146,0.919783805601172,-0.319409185797283,0.919783805714371,-0.31940918562835,-0.0268014262829809,-0.11288577225425
22.5,-0.0283440280968393,-0.115250411936378,0.916914993362365,-0.325953779739025,0.916914993483242,-0.3259537795736,-0.0283538323473577,-0.115138116097127
23,-0.0299275306398891,-0.117484620901573,0.913999049591493,-0.332466459267453,0.913999049719607,-0.332466459105946,-0.0299371312735002,-0.117369643654588
23.5,-0.0315416597870983,-0.119697605656692,0.911036210502517,-0.338946931379688,0.911036210637415,-0.338946931222466,-0.0315510516380183,-0.119579929533902
24,-0.0331861380037207,-0.121888944769075,0.908026724740092,-0.345394889941555,0.908026724881318,-0.345394889788943,-0.0331953156471114,-0.121768551348904
24.5,-0.034860681410676,-0.124058219975181,0.904970853736319,-0.351810017739704,0.90497085388341,-0.351810017591987,-0.034869639135894,-0.123935089842151
25,-0.0365649997875768,-0.12620501630772,0.901868871911131,-0.358191988385181,0.901868872063624,-0.358191988242607,-0.0365737315704228,-0.126079129010319
25.5,-0.0382987965785824,-0.128328922226243,0.898721066740913,-0.364540468073718,0.898721066898348,-0.364540467936497,-0.0383072960525809,-0.128200256232907
26,-0.0400617689012334,-0.130429529751251,0.895527738716735,-0.370855117209018,0.895527738878655,-0.370855117077329,-0.0400700293279885,-0.130298062404287
26.5,-0.0418536075584314,-0.132506434601928,0.89228920121076,-0.377135591896,0.892289201376712,-0.377135591769987,-0.0418616217971149,-0.132372142069184
27,-0.0436739970537228,-0.134559236337572,0.889005780266875,-0.383381545311279,0.889005780436412,-0.383381545191058,-0.0436817575297567,-0.134422093561626
27.5,-0.0455226156100533,-0.136587538502825,0.885677814329344,-0.389592628958392,0.88567781450203,-0.389592628844053,-0.0455301142830744,-0.136447519147476
28,-0.0473991351921516,-0.138590948776842,0.882305653921349,-0.395768493815197,0.882305654096755,-0.395768493706797,-0.047406363523345,-0.138448025170587
28.5,-0.0493032215327141,-0.140569079126504,0.878889661283536,-0.40190879138078,0.878889661461244,-0.401908791278357,-0.049310170451637,-0.14042322220274
29,-0.0512345341625493,-0.142521545963847,0.875430209981214,-0.408013174628969,0.875430210160817,-0.408013174532536,-0.0512411940335715,-0.142372725197417
29.5,-0.0531927264448451,-0.144447970307863,0.871927684487535,-0.414081298875228,0.871927684668637,-0.414081298784776,-0.0531990870333752,-0.144296153647591
30,-0.0551774456137233,-0.146347977950875,0.868382479748874,-0.420112822563414,0.868382479931091,-0.420112822478917,-0.0551834960523953,-0.146193131747646
30.5,-0.0571883328172403,-0.148221199629716,0.864795000737614,-0.426107407978517,0.864795000920575,-0.426107407899927,-0.057194061572294,-0.148063288559636
31,-0.0592250231649802,-0.15006727120196,0.861165661996764,-0.432064721891064,0.861165662180112,-0.432064721818318,-0.0592304180030901,-0.14990625818405
31.5,-0.0612871457804143,-0.151885833827514,0.857494887180041,-0.43798443613861,0.857494887363431,-0.43798443607163,-0.0612921937362674,-0.151721679935357
32,-0.0633743238581304,-0.153676534155891,0.853783108590512,-0.443866228149241,0.853783108773611,-0.443866228087933,-0.0633790112031245,-0.153509198522559
32.5,-0.0654861747261082,-0.15543902451957,0.850030766720272,-0.449709781411768,0.850030766902763,-0.449709781356026,-0.0654904869385812,-0.155268464235097
33,-0.0676223099131323,-0.157172963133898,0.846238309793273,-0.455514785896857,0.846238309974851,-0.455514785846562,-0.0676262316506282,-0.156999133134478
33.5,-0.0697823352214613,-0.158878014304037,0.842406193312966,-0.461280938433072,0.842406193493341,-0.461280938388096,-0.0697858502956137,-0.158700867252011
34,-0.071965850804834,-0.160553848639545,0.838534879616148,-0.467007943041456,0.838534879795041,-0.467007943001657,-0.0719689421595564,-0.160373334793174
34.5,-0.0741724512518804,-0.162200143277306,0.834624837434066,-0.472695511232009,0.834624837611214,-0.472695511197242,-0.0741751009456746,-0.162016210349169
35,-0.076401725674954,-0.16381658211356,0.830676541461683,-0.478343362265155,0.830676541636836,-0.478343362235262,-0.0764039148682926,-0.163629175116319
35.5,-0.0786532578043889,-0.165402856045966,0.826690471935736,-0.483951223380988,0.826690472108654,-0.483951223355804,-0.0786549667532968,-0.165211917124063
36,-0.0809266260881075,-0.166958663226717,0.822667114222096,-0.489518829998919,0.822667114392556,-0.489518829978276,-0.0809278341452748,-0.166764131472455
36.5,-0.0832214037964559,-0.16848370932793,0.818606958412809,-0.495045925890096,0.818606958580599,-0.495045925873816,-0.0832220894214599,-0.168285520580151
37,-0.0855371591320705,-0.169977707820667,0.814510498933053,-0.500532263324744,0.814510499097973,-0.500532263312647,-0.0855372999125572,-0.169775794444107
37.5,-0.0878734553444624,-0.171440380269197,0.81037823415817,-0.505977603196461,0.810378234320035,-0.505977603188363,-0.0878730280305021,-0.171234670912339
38,-0.0902298508488975,-0.172871456642299,0.806210666040875,-0.511381715125243,0.806210666199508,-0.511381715120956,-0.0902288314031244,-0.172661875971337
38.5,-0.0926058993489929,-0.174270675643734,0.802008299748623,-0.516744377540964,0.802008299903864,-0.516744377540295,-0.0926042630156296,-0.174057144050001
39,-0.0950011499622472,-0.175637785064277,0.797771643311152,-0.522065377748783,0.797771643462848,-0.522065377751537,-0.0949988713587088,-0.175420218342215
39.5,-0.0974151473475061,-0.176972542158116,0.793501207278071,-0.52734451197793,0.793501207426083,-0.527344511983911,-0.0974122005829632,-0.176750851150571
40,-0.0998474318330277,-0.178274714046786,0.78919750438644,-0.532581585415127,0.78919750453064,-0.532581585424139,-0.0998437906591735,-0.178048804254119
40.5,-0.102297539543474,-0.179544078154338,0.784861049238173,-0.537776412223831,0.784861049378443,-0.537776412235674,-0.102293177543721,-0.179313849303506
41,-0.104765002523661,-0.180780422677947,0.780492357987131,-0.542928815550373,0.780492358123365,-0.542928815564847,-0.104759893348237,-0.180545768247405
41.5,-0.10724934885632,-0.181983547098816,0.776091948035732,-0.548038627518004,0.776091948167833,-0.54803862753491,-0.107243466512169,-0.181744353794785
42,-0.109750102770395,-0.183153262738937,0.771660337740907,-0.553105689209741,0.771660337868787,-0.55310568922888,-0.109743421976573,-0.182909409918274
42.5,-0.112266784735462,-0.18428939337006,0.767198046129204,-0.558129850640865,0.767198046252789,-0.558129850662038,-0.112259281356834,-0.184040752404795
43,-0.114798911536731,-0.185391775882175,0.762705592620872,-0.563110970721837,0.762705592740093,-0.563110970744847,-0.114790563111331,-0.185138209460601
43.5,-0.117345996323615,-0.18646026101978,0.758183496762711,-0.568048917212354,0.758183496877511,-0.568048917237004,-0.117336782702159,-0.186201622379038
44,-0.11990754862305,-0.187494714195384,0.753632277969512,-0.572943566667192,0.753632278079842,-0.572943566693289,-0.119897452742808,-0.187230846280715
44.5,-0.122483074306471,-0.188495016390935,0.749052455273882,-0.577794804374457,0.749052455379702,-0.577794804401806,-0.122472083126249,-0.18822575093736
45,-0.125072075496455,-0.189461065159155,0.744444547084281,-0.582602524286789,0.744444547185558,-0.5826025243152,-0.125060181124908,-0.189186221692403
45.5,-0.127674050395469,-0.19039277573827,0.739809070951061,-0.587366628946063,0.739809071047772,-0.587366628975346,-0.127661251451559,-0.190112160493495
46,-0.130288493014592,-0.191290082294932,0.735146543340339,-0.592087029402049,0.735146543432468,-0.59208702943202,-0.13027479626696,-0.191003487054504
46.5,-0.132914892774365,-0.192152939311586,0.730457479415529,-0.596763645125499,0.730457479503068,-0.596763645155975,-0.132900315115974,-0.191860140167241
47,-0.135552733942773,-0.192981323135618,0.725742392826327,-0.601396403916064,0.725742392909275,-0.601396403946863,-0.135537304768624,-0.192682079186194
47.5,-0.138201494866288,-0.193775233708364,0.721001795505018,-0.605985241805433,0.721001795583382,-0.605985241836381,-0.138185258935708,-0.19346928571284
48,-0.140860646938613,-0.194534696492019,0.716236197469898,-0.610530102956077,0.716236197543691,-0.610530102986998,-0.14084366781981,-0.194221765509589
48.5,-0.143529653237565,-0.195259764611195,0.711446106635684,-0.615030939555899,0.711446106704925,-0.615030939586625,-0.143512017451179,-0.194939550677056
49,-0.146207966742849,-0.195950521222629,0.70663202863072,-0.619487711709158,0.706632028695435,-0.619487711739522,-0.146189788743268,-0.195622702131656
49.5,-0.148895028025529,-0.196607082120246,0.701794466620848,-0.623900387323908,0.701794466681069,-0.623900387353749,-0.148876456183772,-0.196271312423333
50,-0.151590262272887,-0.19722959857195,0.696933921139791,-0.628268941996288,0.696933921195557,-0.628268942025447,-0.151571486052556,-0.19688550893455
50.5,-0.154293075479332,-0.197818260366939,0.69205088992589,-0.632593358891881,0.692050889977243,-0.632593358920204,-0.154274334026393,-0.197465457500537
51,-0.157002849594141,-0.198373299024871,0.687145867765065,-0.636873628624412,0.687145867812054,-0.63687362865175,-0.156984441990031,-0.198011366485294
51.5,-0.159718936369751,-0.198894991076651,0.682219346339863,-0.641109749132019,0.682219346382543,-0.641109749158226,-0.159701233821447,-0.198523491335293
52,-0.16244064960025,-0.199383661264704,0.677271814084451,-0.645301725551302,0.67727181412288,-0.645301725576237,-0.162424109853763,-0.199002139608938
52.5,-0.165167255380356,-0.199839685420403,0.67230375604543,-0.64944957008937,0.672303756079671,-0.649449570112897,-0.165152439634023,-0.199447676438436
53,-0.167897959954659,-0.20026349264678,0.667315653748335,-0.653553301894082,0.667315653778457,-0.653553301916069,-0.1678855524975,-0.199860530312349
53.5,-0.170631894673957,-0.200655566251705,0.66230798506972,-0.657612946922655,0.662307985095793,-0.657612946942976,-0.170622725353428,-0.200241198958205
54,-0.173368097545708,-0.201016442623249,0.657281224114668,-0.66162853780884,0.657281224136768,-0.661628537827371,-0.173363166934943,-0.200590254935265
54.5,-0.176105490886166,-0.20134670689505,0.652235841099645,-0.665600113728796,0.652235841117854,-0.665600113745421,-0.176105997608519,-0.200908350290266
55,-0.178842854696781,-0.201646983796203,0.647172302240574,-0.669527720265867,0.647172302254973,-0.669527720280473,-0.178850223682745,-0.201196219245237
55.5,-0.181578795666028,-0.201917921504919,0.642091069645989,-0.673411409274369,0.642091069656665,-0.673411409286848,-0.181594705037625,-0.201454677326247
56,-0.184311712242172,-0.20216016563558,0.636992601215203,-0.677251238742556,0.636992601222246,-0.677251238752806,-0.184338114880634,-0.201684614543352
56.5,-0.187039757175317,-0.202374319735393,0.631877350541349,-0.681047272654896,0.631877350544851,-0.68104727266282,-0.187078890643514,-0.201886979128231
57,-0.189760800469737,-0.202560887981921,0.6267457668192,-0.684799580853786,0.626745766819257,-0.684799580859292,-0.189815175664736,-0.202062746874205
57.5,-0.192472398017699,-0.202720195426934,0.621598294757665,-0.688508238900821,0.621598294754374,-0.68850823890382,-0.192544752673544,-0.202212869308805
58,-0.195171774450725,-0.20285228160633,0.616435374496852,-0.692173327937752,0.616435374490312,-0.692173327938163,-0.195264972669076,-0.202338191912544
58.5,-0.197855832895435,-0.202956765385552,0.61125744152961,-0.695794934547234,0.611257441519925,-0.695794934544978,-0.197972687186316,-0.202439331832073
59,-0.200521208860554,-0.203032683562519,0.60606492662744,-0.699373150613466,0.606064926614713,-0.699373150608472,-0.200664198822708,-0.2025165040193
59.5,-0.203164389093764,-0.20307831411598,0.600858255770683,-0.702908073182841,0.600858255755019,-0.702908073175042,-0.20333525465199,-0.20256928731118
60,-0.20578191642377,-0.203091007708324,0.595637850082889,-0.706399804324688,0.595637850064397,-0.706399804314023,-0.205981119159245,-0.202596330580202
60.5,-0.208370694580504,-0.20306706723172,0.590404125769273,-0.709848450992208,0.590404125748061,-0.709848450978618,-0.208596774690837,-0.202595017497628
61,-0.210928388590008,-0.203001730903595,0.585157494059174,-0.713254124883681,0.585157494035351,-0.713254124867116,-0.211177301269283,-0.202561139764983
61.5,-0.213453884424112,-0.202889321592584,0.579898361152396,-0.716616942304052,0.579898361126074,-0.716616942284465,-0.213718472202373,-0.202488671636236
62,-0.215947730082769,-0.20272361237897,0.574627128169391,-0.719937024026942,0.574627128140682,-0.719937024004293,-0.216217552903157,-0.202369781585474
62.5,-0.218412442977513,-0.20249841630682,0.569344191105146,-0.723214495157194,0.569344191074161,-0.723214495131445,-0.218674200233787,-0.202195232927463
63,-0.220852558060191,-0.202208338298677,0.564049940786716,-0.726449484993996,0.56404994075357,-0.726449484965116,-0.221091244772805,-0.201955275303226
63.5,-0.223274329125948,-0.201849549900987,0.55874476283431,-0.729642126894682,0.558744762799114,-0.729642126862646,-0.223475053210912,-0.201640986163115
