"Freq [GHz]","re(St(P1,P1)) []","im(St(P1,P1)) []","re(St(P1,P2)) []","im(St(P1,P2)) []","re(St(P2,P1)) []","im(St(P2,P1)) []","re(St(P2,P2)) []","im(St(P2,P2)) []"
0,0.00472516541555024,0,0.995285138866166,0,0.995285139317275,0,0.00472518136746203,0
0.5,0.00517172808471145,0.000871610180730897,0.994690500327362,-0.00854932021288946,0.99469050032846,-0.00854932028681787,0.005171569654987,0.000872442981375343
1,0.00549636897746986,0.00119327500032895,0.993968514804557,-0.0164967239794827,0.993968514796368,-0.0164967239526383,0.00549588694860859,0.00119520077696222
1.5,0.00534451442570116,0.00173677240073822,0.99323849718236,-0.0245223128731986,0.993238497183206,-0.0245223128397267,0.00534413505690168,0.00173976911052165
2,0.00516392900820328,0.00223204769331531,0.992337252005522,-0.0323435239141077,0.992337252014436,-0.0323435238789394,0.00516362124340386,0.0022361972713778
2.5,0.00497436105324534,0.00268156091172855,0.991334015873971,-0.0399637962333177,0.991334015888306,-0.0399637962000039,0.00497406459777494,0.00268692521926894
3,0.0047910267772846,0.00309421578141311,0.99027801281694,-0.0474074654608625,0.990278012833562,-0.047407465431295,0.00479067104258624,0.00310083118303517
3.5,0.00462375712093932,0.00348199170596963,0.989197498574905,-0.0547060579098382,0.989197498591029,-0.0547060578846299,0.00462327538009344,0.00348987400672485
4,0.00447773625307746,0.00385751871770879,0.988104336066569,-0.0618895354384517,0.988104336080109,-0.0618895354174347,0.00447707254089247,0.00386667177408029
4.5,0.00435479992883914,0.00423283059917345,0.986999721557481,-0.068982398047325,0.986999721567099,-0.068982398029986,0.00435391035801758,0.00424325408589699
5,0.00425465853502638,0.00461902025917382,0.98587890930884,-0.0760029026618083,0.985878909313838,-0.0760029026475548,0.00425350967600802,0.0046307148351179
5.5,0.00417580026726339,0.00502643548134785,0.98473442540847,-0.0829637685672573,0.984734425408639,-0.0829637685555689,0.00417436665065551,0.00503940525716562
6,0.00411605169893059,0.00546515176615792,0.983557995709905,-0.0898733537358405,0.983557995705389,-0.0898733537263263,0.00411431365769444,0.00547940454217954
6.5,0.00407285303495386,0.00594558453535399,0.982341585068836,-0.0967368095331294,0.982341585060022,-0.0967368095255239,0.00407079554287687,0.00596113022905254
7,0.0040433084412223,0.00647920008281666,0.981077890286592,-0.103557033633845,0.981077890274029,-0.103557033627995,0.00404092141048035,0.00649604746396104
7.5,0.00402404206636701,0.0070793513029086,0.979760524170311,-0.11033539180843,0.979760524154649,-0.110335391804266,0.004021322708498,0.00709750275816212
8,0.00401084529795363,0.00776231530578864,0.978384037860886,-0.11707223807276,0.978384037842836,-0.117072238070283,0.00400780365369957,0.00778175887860533
8.5,0.00399803842426578,0.00854866284073807,0.976943866243146,-0.123767277617302,0.976943866223451,-0.123767277616541,0.00399470820693401,0.00856936017527943
9,0.00397737126346371,0.00946516154456445,0.975436242559993,-0.130419814162638,0.975436242539407,-0.130419814163643,0.0039738302053702,0.00948702950634894
9.5,0.0039361085841349,0.0105475266653419,0.97385810585434,-0.13702891526269,0.973858105833609,-0.137028915265513,0.00393251659016776,0.0105704092444032
10,0.00385359111066313,0.01184450907148,0.972207012396566,-0.143593520655865,0.972207012376422,-0.143593520660554,0.00385026311379301,0.011868134876261
10.5,0.00405816482081577,0.0124179846458956,0.970659011428251,-0.150202972770088,0.970659011407939,-0.150202972772254,0.00405577930551748,0.0124430045863693
11,0.00427254681237021,0.0129887485873508,0.969085255226648,-0.156773082396218,0.969085255206448,-0.156773082395961,0.00427114145051677,0.0130151961095817
11.5,0.00449671183505068,0.0135566798724343,0.967486705346234,-0.163306728734669,0.967486705326393,-0.163306728732108,0.00449632288103843,0.0135845905216962
12,0.00473063323928707,0.0141216587441644,0.965863985520709,-0.169806604282687,0.965863985501442,-0.169806604277965,0.00473129540788692,0.0141510702206453
12.5,0.0049742829347936,0.0146835667994352,0.964217435061078,-0.176275199857112,0.964217435042572,-0.176275199850383,0.00497602927071758,0.0147145190123639
13,0.00522763134460025,0.0152422870800346,0.96254715747667,-0.182714797599528,0.962547157459083,-0.182714797590953,0.00523049308334445,0.0152748221994155
13.5,0.00549064735407753,0.0157977041672446,0.960853063965642,-0.189127470216105,0.960853063949105,-0.18912747020585,0.00549465377363156,0.0158318666723316
14,0.0057632982544876,0.0163497042799188,0.959134911726158,-0.195515084936264,0.959134911710775,-0.195515084924496,0.0057684765175057,0.0163855410034763
14.5,0.00604554968052498,0.0168981753760615,0.957392337253503,-0.20187931091085,0.957392337239357,-0.201879310897737,0.0060519246666115,0.0169357355433348
15,0.00633736554130615,0.0174430072576985,0.955624884929329,-0.208221628996242,0.955624884916482,-0.208221628981944,0.00634495966908344,0.0174823425189286
15.5,0.00663870794419902,0.0179840916789153,0.953832031293068,-0.214543343076075,0.953832031281563,-0.214543343060751,0.00664754098291057,0.0180252561341154
16,0.00694953711086188,0.0185213224567884,0.952013205426734,-0.220845592252811,0.952013205416599,-0.22084559223661,0.00695962598132094,0.018564372671382
16.5,0.00726981128483467,0.0190545955848911,0.950167805894679,-0.227129363395455,0.950167805885926,-0.227129363378521,0.00728116984961352,0.0190995905946891
17,0.00759948662996224,0.0195838093489775,0.948295214669037,-0.233395503658495,0.948295214661668,-0.233395503640963,0.00761212547283485,0.0196308106528473
17.5,0.00793851711893628,0.0201088644443235,0.946394808447084,-0.239644732692297,0.946394808441089,-0.239644732674295,0.00795244331369949,0.0201579359827797
18,0.00828685441118759,0.020629664094145,0.94446596773412,-0.245877654349659,0.94446596772948,-0.245877654331306,0.00830207128014693,0.0206808722119523
18.5,0.0086444477193609,0.0211461141683382,0.942508084028936,-0.25209476775972,0.942508084025624,-0.252094767741125,0.00866095458193744,0.0211995275591108
19,0.00901124366358785,0.0216581233016993,0.940520565411273,-0.258296477691931,0.940520565409254,-0.258296477673195,0.00902903557569978,0.0217138129323391
19.5,0.00938718611277134,0.0221656030106239,0.938502840793891,-0.264483104171809,0.938502840793129,-0.264483104153028,0.00940625359788716,0.0222236420233444
20,0.00977221601212069,0.0226684678070999,0.936454363067165,-0.270654891339231,0.936454363067617,-0.270654891320489,0.00979254478513103,0.0227289313966861
20.5,0.010166271196194,0.023166635308687,0.934374611332209,-0.276812015560901,0.934374611333828,-0.276812015542279,0.0101878418815589,0.0232296005725354
21,0.0105692861867619,0.0236600263429483,0.932263092389776,-0.282954592823313,0.932263092392513,-0.282954592804878,0.0105920740327184,0.0237255721014173
21.5,0.0109811919748786,0.0241485650446149,0.930119341626609,-0.289082685442203,0.930119341630412,-0.289082685424023,0.0110051665658626,0.0242167716291268
22,0.0114019157866457,0.0246321789435573,0.927942923418515,-0.295196308130495,0.927942923423333,-0.295196308112626,0.0114270407564893,0.0247031279499776
22.5,0.0118313808322826,0.0251107990414166,0.925733431149961,-0.301295433469888,0.925733431155741,-0.301295433452382,0.0118576135811874,0.0251845730462104
23,0.0122695060382849,0.0255843598745209,0.923490486933224,-0.307379996832375,0.923490486939912,-0.307379996815278,0.0122967974570519,0.0256610421113639
23.5,0.0127162057626555,0.0260527995604884,0.921213741095809,-0.313449900797556,0.921213741103349,-0.313449900780908,0.0127444999681557,0.0261324735551249
24,0.0131713894934469,0.0265160598256737,0.918902871492658,-0.319505019110246,0.918902871500998,-0.319505019094082,0.013200623579845,0.0265988089871092
24.5,0.0136349615311472,0.0269740860104228,0.916557582689418,-0.325545200220746,0.916557582698506,-0.325545200205096,0.0136650653419446,0.0270599931768198
25,0.0141068206557993,0.0274268270488762,0.914177605054359,-0.331570270447597,0.914177605064141,-0.331570270432489,0.0141377165823223,0.0275159739869935
25.5,0.0145868597801429,0.0278742354198562,0.911762693789328,-0.337580036799952,0.911762693799753,-0.337580036785408,0.0146184625926478,0.0279667022773695
26,0.0150749655905458,0.0283162670652783,0.909312627924096,-0.34357428949372,0.909312627935113,-0.343574289479758,0.0151071823086667,0.0284121317759869
26.5,0.0155710181780184,0.0287528812723636,0.906827209293457,-0.349552804192909,0.906827209305017,-0.349552804179543,0.0156037479877618,0.0288522189150444
27,0.0160748906621835,0.0291840405159032,0.90430626151231,-0.355515344004745,0.904306261524363,-0.355515343991989,0.0161080248871431,0.0292869226284929
27.5,0.0165864488117491,0.0296097102568507,0.901749628960558,-0.361461661254547,0.90174962897306,-0.361461661242409,0.0166198709465481,0.0297162041086645
28,0.0171055506657024,0.0300298586936065,0.899157175786895,-0.367391499063811,0.899157175799799,-0.367391499052297,0.0171391364799457,0.0301400265194725
28.5,0.017632046160226,0.0304444564626007,0.896528784938248,-0.373304592752676,0.89652878495151,-0.37330459274179,0.0176656638813417,0.0305583546641053
29,0.018165776767105,0.0308534762850756,0.893864357219832,-0.379200671085787,0.89386435723341,-0.379200671075531,0.0181992873503928,0.030971154605526
29.5,0.018706575150207,0.0312568925574639,0.891163810389283,-0.385079457378618,0.891163810403136,-0.38507945736899,0.0187398326441459,0.0313783932387193
30,0.0192542648474381,0.0316546808833915,0.888427078287126,-0.390940670479511,0.888427078301213,-0.39094067047051,0.0192871168617845,0.0317800378143114
30.5,0.0198086599863458,0.0320468175460902,0.885654110004908,-0.396784025641114,0.885654110019194,-0.396784025632735,0.0198409482697651,0.0321760554140165
31,0.0203695650422906,0.0324332789210225,0.882844869091572,-0.402609235293373,0.882844869106018,-0.40260923528561,0.0204011261751654,0.0325664123793658
31.5,0.0209367746487461,0.0328140408296519,0.879999332798028,-0.408416009728969,0.8799993328126,-0.408416009721813,0.0209674408553704,0.0329510736962778
32,0.0215100734698131,0.0331890778366527,0.877117491359501,-0.414204057710875,0.877117491374167,-0.414204057704319,0.0215396735523936,0.033330002339265
32.5,0.0220892361453836,0.033558362494394,0.874199347314805,-0.419973087010654,0.874199347329531,-0.419973087004687,0.0221175965401196,0.0337031585804506
33,0.0226740273195226,0.0339218645402153,0.8712449148615,-0.425722804885172,0.871244914876256,-0.425722804879783,0.0227009732725391,0.0340704992699797
33.5,0.0232642017625185,0.0342795500538798,0.868254219245686,-0.431452918498548,0.868254219260444,-0.431452918493725,0.0232895586205725,0.0344319770959594
34,0.0238595045966161,0.0346313805845304,0.865227296185056,-0.437163135295401,0.865227296199788,-0.437163135291131,0.0238830992043641,0.0347875398335591
34.5,0.0244596716346522,0.0349773122584977,0.862164191323752,-0.442853163330792,0.862164191338431,-0.44285316332706,0.0244813338268841,0.0351371295944332
35,0.0250644298396638,0.0353172948813113,0.85906495971755,-0.448522711561648,0.859064959732153,-0.448522711558441,0.0250839940133644,0.0354806820890421
35.5,0.0256734979119301,0.0356512710492231,0.855929665347833,-0.454171490103922,0.855929665362336,-0.454171490101224,0.0256908046594293,0.0358181259157446
36,0.0262865870079222,0.0359791752873143,0.852758380662881,-0.459799210459271,0.852758380677261,-0.459799210457066,0.0263014847888571,0.0361493818916185
36.5,0.0269034015931791,0.0363009332328083,0.849551186144968,-0.465405585714611,0.849551186159205,-0.465405585712883,0.02691574841966,0.0364743624407607
37,0.027523640428324,0.036616460883391,0.846308169901855,-0.470990330717533,0.846308169915929,-0.470990330716265,0.027533305534709,0.0367929710563034
37.5,0.0281469976842287,0.0369256639310832,0.843029427281252,-0.476553162230228,0.843029427295145,-0.476553162229402,0.0281538631504617,0.037105101852421
38,0.0287731641788927,0.0372284372024337,0.839715060506933,-0.482093799064276,0.839715060520628,-0.482093799063876,0.0287771264745688,0.0374106392222007
38.5,0.0294018287249322,0.0375246642253561,0.836365178335199,-0.487611962198402,0.83636517834868,-0.48761196219841,0.0294028001403138,0.0377094576163507
39,0.0300326795728849,0.0378142169418871,0.832979895730466,-0.493107374881036,0.832979895743719,-0.493107374881433,0.0300305895030952,0.0380014214562572
39.5,0.0306654059318629,0.0380969555842813,0.829559333558824,-0.498579762719352,0.829559333571834,-0.498579762720121,0.030660201981574,0.0382863851929334
40,0.0312996995456701,0.0383727287293283,0.826103618298446,-0.504028853756244,0.826103618311201,-0.504028853757366,0.0312913484238168,0.0385641935208988
40.5,0.0319352562994663,0.038641373542503,0.822612881765816,-0.509454378536541,0.822612881778305,-0.509454378537999,0.0319237444768704,0.0388346817530567
41,0.0325717778295332,0.0389027162196417,0.819087260856787,-0.514856070163639,0.819087260868999,-0.514856070165413,0.0325571119368128,0.0390976763592457
41.5,0.0332089731069108,0.0391565726293607,0.815526897301546,-0.520233664347556,0.815526897313471,-0.520233664349629,0.0331911800555216,0.0393529956674626
42,0.033846559964657,0.0394027491545501,0.811931937432612,-0.525586899445356,0.811931937444241,-0.525586899447709,0.0338256867802826,0.039600450722861
42.5,0.034484266538434,0.0396410437261309,0.808302531965056,-0.530915516494738,0.808302531976382,-0.530915516497353,0.0344603799029388,0.0398398462956842
43,0.0351218325910158,0.0398712470370644,0.804638835788178,-0.536219259241533,0.804638835799195,-0.536219259244392,0.0350950180965951,0.0400709820254427
43.5,0.0357590106932323,0.0400931439195755,0.800941007767915,-0.541497874161738,0.800941007778616,-0.541497874164823,0.0357293718199312,0.0402936536850135
44,0.0363955672367372,0.0403065148638455,0.797209210559326,-0.546751110478684,0.797209210569706,-0.546751110481977,0.0363632240718633,0.0405076545451152
44.5,0.0370312832577483,0.0405111376523598,0.793443610428513,-0.551978720175831,0.793443610438568,-0.551978720179314,0.036996370982574,0.040712776816878
45,0.0376659550554273,0.0407067890806927,0.789644377083405,-0.557180458005657,0.789644377093133,-0.557180458009313,0.0376286222306699,0.0409088131481482
45.5,0.0382993945936662,0.0408932467331035,0.785811683512854,-0.562356081495053,0.785811683522251,-0.562356081498864,0.0382598012803201,0.041095558147784
46,0.0389314296805516,0.0410702907798426,0.781945705833526,-0.567505350947563,0.78194570584259,-0.567505350951513,0.0388897454364745,0.0412728099116114
46.5,0.039561903925405,0.0412377057627114,0.778046623144129,-0.572628029442824,0.778046623152859,-0.572628029446895,0.0395183057205525,0.0414403715238683
47,0.0401906764789294,0.0413952823361098,0.774114617386519,-0.57772388283346,0.774114617394915,-0.577723882837637,0.0401453465731423,0.0415980525089562
47.5,0.0408176215672576,0.0415428189325592,0.770149873213282,-0.582792679739719,0.770149873221344,-0.582792679743984,0.0407707453941062,0.0417456702099849
48,0.0414426278355391,0.0416801233243326,0.7661525778614,-0.587834191542049,0.766152577869129,-0.587834191546388,0.0413943919339195,0.0418830510729116
48.5,0.0420655975208483,0.0418070140563025,0.762122921031639,-0.592848192371844,0.762122921039037,-0.592848192376239,0.0420161875529816,0.0420100318179468
49,0.0426864454775581,0.0419233217292183,0.758061094773348,-0.597834459100518,0.758061094780416,-0.597834459104956,0.0426360443679252,0.0421264604831364
49.5,0.0433050980807868,0.0420288901171423,0.753967293374318,-0.602792771327097,0.753967293381059,-0.602792771331562,0.0432538843055842,0.042232197328572
50,0.043921492035089,0.042123577107547,0.749841713255454,-0.607722911364437,0.749841713261872,-0.607722911368916,0.0438696380862082,0.0423271155933118
50.5,0.0445355731161589,0.0422072554574146,0.745684552869958,-0.612624664224235,0.745684552876056,-0.612624664228711,0.0444832441578152,0.0424111021007517
51,0.0451472948730734,0.0422798133633153,0.741496012606783,-0.617497817600913,0.741496012612566,-0.617497817605375,0.0450946476031908,0.0424840577116785
51.5,0.0457566173175337,0.0423411548478387,0.737276294698132,-0.622342161854513,0.737276294703605,-0.622342161858947,0.0457037990401416,0.0425458976274918
52,0.0463635056248237,0.0423911999686795,0.733025603130768,-0.62715748999266,0.733025603135936,-0.627157489997053,0.0463106535341876,0.0425965515490188
52.5,0.0469679288688916,0.0424298848600781,0.728744143560943,-0.631943597651703,0.728744143565812,-0.631943597656042,0.0469151695410858,0.0426359636988429
53,0.0475698588112428,0.0424571616191151,0.724432123232751,-0.636700283077086,0.724432123237327,-0.636700283081361,0.0475173078944692,0.0426640927171743
53.5,0.0481692687603106,0.0424729980515143,0.720089750899731,-0.641427347103042,0.720089750904021,-0.641427347107238,0.0481170308515964,0.0426809114428675
54,0.0487661325148443,0.0424773772931656,0.71571723674956,-0.646124593131627,0.71571723675357,-0.646124593135735,0.0487143012078185,0.0426864065923717
54.5,0.049360423401661,0.0424702973244413,0.711314792331665,-0.650791827111198,0.711314792335403,-0.650791827115208,0.0493090814879397,0.0426805783500651
55,0.0499521134150462,0.0424517703947965,0.706882630487642,-0.655428857514337,0.706882630491116,-0.655428857518238,0.049901333220338,0.0426634398837386
55.5,0.0505411724621729,0.0424218223749304,0.702420965284315,-0.660035495315294,0.702420965287533,-0.660035495319076,0.0504910162974662,0.0426350167988782
56,0.0511275677162746,0.0423804920532497,0.697930011949335,-0.664611553966972,0.697930011952304,-0.664611553970626,0.0510780884243316,0.0425953465450171
56.5,0.0517112630769383,0.0423278303924255,0.693409986809193,-0.669156849377493,0.693409986811924,-0.669156849381011,0.0516625046547246,0.0425444777867353
57,0.0522922187348576,0.042263899760634,0.688861107229546,-0.67367119988638,0.688861107232047,-0.673671199889754,0.0522442170133811,0.0424824697510205
57.5,0.0528703908367188,0.0421887731506879,0.684283591557737,-0.678154426240378,0.684283591560016,-0.6781544262436,0.052823174200924,0.042409391561669
58,0.0534457312445279,0.0421025333987454,0.679677659067446,-0.68260635156894,0.679677659069513,-0.682606351572002,0.0533993213773467,0.042325321570279
58.5,0.0540181873826787,0.0420052724127181,0.675043529905353,-0.687026801359407,0.675043529907219,-0.687026801362303,0.0539726000189537,0.0422303466921984
59,0.0545877021653473,0.0418970904189209,0.670381425039756,-0.691415603431897,0.670381425041429,-0.691415603434622,0.0545429478430566,0.0421245617545987
59.5,0.0551542139963501,0.0417780952339859,0.665691566211043,-0.69577258791393,0.665691566212534,-0.695772587916477,0.055110298794319,0.042008068862666
60,0.055717656833415,0.0416484015676051,0.660974175883976,-0.700097587214794,0.660974175885295,-0.700097587217158,0.0556745830864193,0.0418809767887717
60.5,0.0562779603088003,0.0415081303603225,0.656229477201693,-0.704390435999686,0.656229477202851,-0.704390436001863,0.0562357272926409,0.0417434003884314
61,0.0568350498983943,0.0413574081593784,0.651457693941384,-0.708650971163632,0.65145769394239,-0.708650971165618,0.0567936544790775,0.0415954600458801
61.5,0.0573888471317212,0.0411963665345149,0.646659050471567,-0.712879031805201,0.646659050472432,-0.712879031806992,0.0573482843743225,0.041437281151222
62,0.0579392698357036,0.0410251415347048,0.641833771710935,-0.717074459200031,0.64183377171167,-0.717074459201624,0.0578995335697964,0.041268993610325
62.5,0.0584862324055123,0.0408438731859488,0.636982083088688,-0.72123709677418,0.636982083089303,-0.721237096775572,0.0584473157451998,0.0410907313879631
63,0.0590296460963867,0.0406527050296202,0.632104210506334,-0.725366790077303,0.63210421050684,-0.725366790078494,0.0589915419139748,0.0409026320841213
63.5,0.0595694193308619,0.0404517837002584,0.627200380300897,-0.729463386755687,0.627200380301305,-0.729463386756675,0.0595321206840737,0.0407048365429086
64,0.0601054580164183,0.040241258541296,0.622270819209496,-0.733526736525135,0.622270819209815,-0.733526736525917,0.0600689585297728,0.0404974884931226
