"Freq [GHz]","re(St(P1,P1)) []","im(St(P1,P1)) []","re(St(P1,P2)) []","im(St(P1,P2)) []","re(St(P2,P1)) []","im(St(P2,P1)) []","re(St(P2,P2)) []","im(St(P2,P2)) []"
0,0.00536702800263811,0,0.994645583123202,0,0.994645578903146,0,0.00536702283267232,0
0.5,0.00583977893644416,0.00110135079400209,0.994064026314717,-0.00827566974383132,0.994064026423924,-0.0082756715036183,0.00583973871932386,0.00110151382540025
1,0.00622793479421446,0.00163076165930676,0.99338936114766,-0.0159463353061362,0.993389361254303,-0.0159463353189331,0.00622790638481341,0.00163114214306148
1.5,0.00607598214416782,0.0020483588394562,0.992729425376059,-0.0236932859905465,0.992729425473347,-0.0236932860068553,0.00607631222728688,0.00204858055249879
2,0.00601863979023687,0.00250317730743355,0.99193927162105,-0.0312495491267022,0.991939271707186,-0.031249549144146,0.00601921721696286,0.00250352375328688
2.5,0.00599993559713408,0.00299011970475682,0.991082915473046,-0.0386337632430678,0.99108291554727,-0.038633763259611,0.00600067156367556,0.00299065527177689
3,0.00600063719927713,0.0035010416630783,0.990197653659608,-0.0458794371071356,0.99019765372182,-0.0458794371213358,0.00600148522613608,0.00350177502853555
3.5,0.00601314825276034,0.00403130244652239,0.989298798420435,-0.0530199377463028,0.989298798470904,-0.0530199377573233,0.00601408538667858,0.0040322268514057
4,0.00603408975785502,0.00457874312717177,0.988387865458053,-0.0600818787792559,0.988387865497192,-0.060081878786761,0.00603510556288289,0.00457984684971713
4.5,0.0060618312004308,0.00514269187059035,0.987459354649697,-0.0670839659003439,0.987459354677964,-0.0670839659043923,0.00606292230403371,0.00514396103520021
5,0.00609555439024478,0.0057233911951009,0.986505043395598,-0.0740381951288365,0.98650504341344,-0.0740381951297566,0.00609672176628995,0.00572481038608519
5.5,0.00613485733516506,0.00632168899231722,0.985516287046307,-0.0809516047715206,0.985516287054143,-0.0809516047698136,0.00613610491921368,0.00632324117499472
6,0.00617957116774387,0.00693887387719538,0.984485077100196,-0.0878278395071224,0.984485077098427,-0.0878278395034062,0.0061809051520767,0.00694054007317391
6.5,0.00622966943889763,0.00757659010418088,0.983404426702454,-0.0946683343448145,0.983404426691469,-0.0946683343397616,0.00623109793818788,0.00757834895555209
7,0.00628522074592255,0.0082367984984808,0.98226842998557,-0.101473142341047,0.982268429965755,-0.101473142335359,0.00628675368253001,0.00823862575477285
7.5,0.0063463631059095,0.0089217659841383,0.981072182605813,-0.108241488137184,0.981072182577557,-0.108241488131551,0.00634801223974454,0.00892363391025075
8,0.00641328990210341,0.00963407466648247,0.979811656446115,-0.114972127891816,0.979811656409821,-0.114972127886909,0.00641506896882842,0.00963595135500217
8.5,0.00648624232282233,0.0103766459498442,0.978483570721023,-0.121663578387376,0.978483570677107,-0.121663578383833,0.00648816726564062,0.0103784945128313
9,0.00656550562031484,0.0111527777779963,0.977085276234456,-0.128314259838787,0.977085276183342,-0.128314259837195,0.00656759491388719,0.0111545553861681
9.5,0.00665140770981514,0.0119661947399221,0.975614657532348,-0.134922582578094,0.975614657474478,-0.134922582578996,0.00665368278454807,0.0119678514689388
10,0.00674431923821006,0.0128211119901769,0.974070052498968,-0.1414869975958,0.97407005243479,-0.141486997599678,0.00674680502163983,0.0128225894233491
10.5,0.00696079732962851,0.0134364756449425,0.972609116684457,-0.14810700407463,0.972609116619406,-0.148107004071136,0.00696335097426429,0.0134380280824895
11,0.00718734875188097,0.0140481185554044,0.971114999502378,-0.154690364746751,0.971114999437264,-0.154690364736021,0.00718997435381727,0.0140497459660169
11.5,0.00742390459666192,0.0146558728484063,0.969589046442718,-0.161239046204078,0.969589046378286,-0.161239046186335,0.00742660635545897,0.0146575751536782
12,0.00767039289342994,0.0152595719509496,0.9680323250597,-0.167754957113011,0.968032324996627,-0.167754957088545,0.00767317511494875,0.0152613490194278
12.5,0.00792673862969873,0.0158590506494702,0.966445655982705,-0.174239925578762,0.966445655921596,-0.174239925547917,0.00792960572867993,0.0158609022905365
13,0.00819286377239439,0.0164541451490896,0.964829643189726,-0.180695682528044,0.964829643131117,-0.180695682491212,0.00819582027478621,0.0164560711066795
13.5,0.00846868729030656,0.0170446931328421,0.963184702856391,-0.187123850255712,0.963184702800746,-0.187123850213309,0.00847173783532623,0.0170466930790054
14,0.00875412517764057,0.0176305338207965,0.961511090314584,-0.193525935306038,0.961511090262299,-0.193525935258509,0.00875727451956634,0.017632607349118
14.5,0.00904909047869631,0.0182115080291236,0.959808924836172,-0.199903324914461,0.959808924787578,-0.199903324862257,0.00905234348839051,0.0182136546480249
15,0.00935349331368673,0.0187874582290544,0.958078212101056,-0.206257286309119,0.958078212056424,-0.206257286252702,0.00935685497983643,0.0187896773549689
15.5,0.00966724090571558,0.019358228605709,0.956318864318859,-0.212588968253822,0.956318864278402,-0.212588968193645,0.00967071633579422,0.0193605195561641
16,0.00999023760893369,0.0199236651167962,0.954530718054414,-0.218899404298508,0.954530718018296,-0.218899404235024,0.00999383202987772,0.0199260271034114
16.5,0.0103223849378816,0.0204836155511421,0.952713549863877,-0.225189517285126,0.952713549832213,-0.225189517218776,0.0103261036964797,0.020486047672543
17,0.0106635815980443,0.0210379295870198,0.950867089885281,-0.231460124732962,0.950867089858143,-0.231460124664169,0.0106674301610373,0.0210404308217063
17.5,0.0110137235176275,0.0215864588502828,0.948991033549048,-0.23771194479623,0.948991033526472,-0.237711944725405,0.0110177074715185,0.0215890280494411
18,0.0113727038805668,0.0221290569722348,0.947085051583842,-0.243945602547385,0.947085051565829,-0.243945602474917,0.0113768289311445,0.0221316928525293
18.5,0.0117404131607932,0.0226655796472435,0.945148798494521,-0.250161636391857,0.945148798481041,-0.250161636318119,0.011744685132359,0.0226682807835861
19,0.012116739157755,0.0231958846900444,0.943181919684124,-0.256360504464389,0.943181919675122,-0.256360504389727,0.0121211639920679,0.0231986495083705
19.5,0.0125015670332125,0.0237198320927154,0.941184057382941,-0.262542590894152,0.941184057378341,-0.262542590818895,0.0125061507881447,0.0237226588627664
20,0.0128947793493199,0.0242372840812832,0.939154855536274,-0.268708211856366,0.93915485553598,-0.268708211780822,0.0128995281972256,0.0242401709094295
20.5,0.0132962561079902,0.0247481051719343,0.937093963789641,-0.274857621352865,0.937093963793538,-0.274857621277319,0.0133011763338,0.0247510499940322
21,0.0137058747915621,0.0252521622267876,0.935001040696839,-0.280991016683835,0.935001040704802,-0.28099101660855,0.0137109727905971,0.025255162801108
21.5,0.0141235104047724,0.0257493245092035,0.932875756263009,-0.287108543588556,0.932875756274899,-0.287108543513776,0.0141287926802868,0.0257523784094271
22,0.0145490355180226,0.0262394637385746,0.930717793922061,-0.293210301045051,0.930717793937732,-0.293210300970999,0.0145545086784839,0.0262425683468841
22.5,0.0149823203119659,0.0267224541445756,0.92852685203584,-0.299296345727731,0.928526852055136,-0.299296345654612,0.0149879910680728,0.0267256066448536
23,0.0154232326233937,0.0271981725208366,0.926302644991342,-0.305366696128964,0.926302645014104,-0.305366696056964,0.0154291077848453,0.0272013698919815
23.5,0.0158716379924262,0.0276664982779764,0.924044903962199,-0.311421336355443,0.924044903988261,-0.31142133628473,0.0158777244644489,0.0276697372873635
24,0.016327399711008,0.0281273134959759,0.921753377391617,-0.317460219613634,0.921753377420814,-0.317460219544361,0.0163337044906468,0.0281305906930642
24.5,0.0167903788726925,0.0285805029758475,0.919427831245876,-0.323483271400832,0.919427831278037,-0.323483271333135,0.0167969090448786,0.0285838146859583
25,0.0172604344237117,0.0290259542905493,0.917068049080361,-0.329490392419649,0.917068049115315,-0.329490392353647,0.0172671971571196,0.0290292966088272
25.5,0.0177374232153186,0.0294635578351097,0.914673831953861,-0.335481461234388,0.914673831991441,-0.335481461170189,0.0177444257580204,0.0294669266206815
26,0.018221200057387,0.0298932068759119,0.912244998221405,-0.341456336687808,0.912244998261442,-0.341456336625505,0.0182284497323184,0.0298965977462586
26.5,0.0187116177732559,0.0303147975991036,0.909781383231164,-0.347414860096469,0.90978138327349,-0.347414860036142,0.0187191219735061,0.0303182059246634
27,0.0192085272557906,0.0307282291580828,0.907282838946876,-0.353356857242266,0.907282838991325,-0.353356857183985,0.0192162934397322,0.0307316500570938
27.5,0.019711777524645,0.0311334037200117,0.904749233513732,-0.359282140176967,0.904749233560143,-0.359282140120789,0.0197198132109189,0.0311368320536161
28,0.0202212157847007,0.0315302265113289,0.902180450782641,-0.365190508855634,0.902180450830855,-0.365190508801608,0.0202295285470679,0.0315336568789495
28.5,0.0207366874856436,0.0319186058621952,0.899576389805227,-0.371081752613893,0.899576389855087,-0.371081752562056,0.0207452849477273,0.0319220325971976
29,0.0212580363826627,0.0322984532498563,0.896936964309728,-0.376955651502896,0.896936964361081,-0.376955651453278,0.0212669262125919,0.0323018704155151
29.5,0.0217851045982192,0.0326696833408473,0.894262102166112,-0.382811977494948,0.89426210221881,-0.38281197744757,0.0217942945031941,0.0326730847266299
30,0.0223177326848567,0.0330322140320261,0.891551744847153,-0.388650495571631,0.891551744901051,-0.388650495526506,0.0223272304056597,0.0330355931502064
30.5,0.0228557596890118,0.0333859664903753,0.888805846890891,-0.394470964705394,0.888805846945849,-0.394470964662528,0.0228655729944763,0.0333893165729953
31,0.0233990232157711,0.0337308651915362,0.886024375368805,-0.400273138744641,0.886024375424687,-0.400273138704035,0.0234091598972346,0.0337341791877268
31.5,0.023947359494533,0.0340668379570325,0.883207309363079,-0.406056767211453,0.883207309419752,-0.406056767173099,0.0239578273602913,0.0340701085307107
32,0.0245006034455154,0.0343938159901498,0.880354639455581,-0.411821596020306,0.880354639512918,-0.411821595984191,0.0245114103153072,0.0343970355181089
32.5,0.0250585887470555,0.0347117339104227,0.877466367230538,-0.417567368125383,0.877466367288416,-0.417567368091491,0.0250697424465921,0.034714894480822
33,0.0256211479036373,0.0350205297866953,0.874542504792345,-0.423293824103371,0.874542504850645,-0.423293824071679,0.0256326562592066,0.0350236231979797
33.5,0.0261881123145821,0.0353201451687247,0.871583074299513,-0.429000702678003,0.871583074358122,-0.429000702648485,0.0261999831477481,0.0353231629289719
34,0.026759312343331,0.0356105251172746,0.868588107515414,-0.434687741192011,0.868588107574222,-0.434687741164635,0.0267715534657567,0.0356134584440051
34.5,0.027334577387245,0.0358916182326899,0.865557645376179,-0.44035467603161,0.86555764543508,-0.440354676006342,0.027347196595661,0.0358944580531377
35,0.0279137359478415,0.0361633766818925,0.862491737575865,-0.446001243008157,0.862491737634759,-0.446001242984959,0.0279267410191894,0.0361661136337688
35.5,0.0284966157013844,0.036425756223781,0.859390442168845,-0.451627177701163,0.859390442227634,-0.451627177679994,0.0285100143881575,0.0364283806565414
36,0.0290830435697341,0.0366787162330067,0.856253825189191,-0.45723221576643,0.856253825247783,-0.457232215747246,0.0290968435955473,0.0366812182096432
36.5,0.0296728457913672,0.0369222197220813,0.853081960286732,-0.462816093212737,0.85308196034504,-0.462816093195492,0.0296870548467784,0.0369245890214591
37,0.0302658479924594,0.0371562333618056,0.849874928379373,-0.468378546650132,0.849874928437312,-0.468378546634778,0.0302804737310738,0.0371584594815655
37.5,0.0308618752579284,0.0373807274999807,0.846632817321176,-0.473919313512606,0.846632817378667,-0.473919313499089,0.0308769252928132,0.0373827996600283
38,0.0314607522023218,0.0375956761783737,0.843355721585699,-0.479438132257644,0.843355721642666,-0.479438132245914,0.0314762341027539,0.0375975833249848
38.5,0.0320623030404323,0.0378010571479287,0.840043741964006,-0.48493474254491,0.840043742020377,-0.484934742534912,0.0320782243290141,0.0378027879584917
39,0.03266635165751,0.0379968518821755,0.836696985276767,-0.490408885396081,0.836696985332473,-0.490408885387759,0.0326827198076751,0.0379983947706011
39.5,0.0332727216789439,0.0381830455888338,0.833315564099878,-0.495860303337649,0.833315564154855,-0.495860303330946,0.0332895441128833,0.0381843887116644
40,0.033881236539266,0.0383596272195724,0.82989959650297,-0.501288740528365,0.829899596557159,-0.501288740523222,0.0338985206262973,0.0383607584828215
40.5,0.0344917195503344,0.0385265894779111,0.826449205800246,-0.506693942872763,0.826449205853588,-0.506693942869122,0.0345094726057444,0.0385274965446694
41,0.0351039939685318,0.0386839288252271,0.822964520313034,-0.512075658122138,0.822964520365477,-0.512075658119939,0.0351222232529134,0.0386845991240797
41.5,0.035717883060821,0.0388316454848577,0.819445673143524,-0.517433635964144,0.819445673195017,-0.517433635963325,0.0357365957799257,0.0388320662191488
42,0.0363332101694725,0.0389697434442499,0.815892801959087,-0.522767628102118,0.815892802009584,-0.522767628102618,0.0363524134746068,0.0389699016022471
42.5,0.0369497987752904,0.0390982304551453,0.812306048786693,-0.528077388325094,0.81230604883615,-0.528077388326851,0.0369694997642663,0.0390981128211521
43,0.037567472559128,0.0392171180317455,0.808685559816865,-0.533362672569388,0.808685559865241,-0.533362672572341,0.0375876782777878,0.0392167111982256
43.5,0.0381860554614965,0.0393264214468411,0.805031485216708,-0.538623238972543,0.805031485263969,-0.53862323897663,0.0382067729058247,0.0393257118276078
44,0.0388053717400391,0.0394261597258347,0.801343978951526,-0.543858847920348,0.801343978997636,-0.543858847925507,0.0388266078588697,0.0394251335703808
44.5,0.0394252460246485,0.039516355638621,0.797623198614564,-0.549069262087579,0.797623198659492,-0.549069262093747,0.0394470077229664,0.0395149990476611
45,0.0400455033699746,0.039597035689254,0.793869305264476,-0.554254246473029,0.793869305308194,-0.554254246480144,0.040067797512819,0.0395953346315646
45.5,0.0406659693050672,0.0396682301033288,0.79008246327007,-0.559413568429367,0.790082463312554,-0.559413568437367,0.0406888027220175,0.0396661704339702
46,0.0412864698798841,0.0397299728129858,0.786262840161981,-0.564546997688284,0.786262840203207,-0.564546997697109,0.0413098493701159,0.0397275402930116
46.5,0.0419068317083713,0.0397823014394446,0.782410606490872,-0.569654306381358,0.782410606530821,-0.569654306390946,0.0419307640462555,0.0397794817571971
47,0.0425268820078126,0.0398252572729269,0.778525935691842,-0.574735269057019,0.778525935730495,-0.574735269067308,0.04255137394902,0.0398220360670412
47.5,0.0431464486341325,0.0398588852498354,0.774609003954688,-0.579789662693964,0.774609003992033,-0.579789662704896,0.0431715069221906,0.0398552481340766
48,0.0437653601128084,0.0398832339270123,0.77065999009974,-0.584817266711341,0.770659990135763,-0.584817266722855,0.0437909914860466,0.0398791665170778
48.5,0.0443834456650433,0.0398983554528689,0.766679075458944,-0.589817862975962,0.766679075493635,-0.589817862988,0.0444096568638433,0.0398938433953089
49,0.0450005352288296,0.0399043055351499,0.762666443761946,-0.594791235806836,0.762666443795298,-0.594791235819339,0.0450273330030744,0.0398993345385592
49.5,0.0456164594745097,0.0399011434050467,0.758622281026902,-0.599737171977222,0.75862228105891,-0.599737171990133,0.0456438505911052,0.0398956992736967
50,0.0462310498144379,0.0398889317773267,0.754546775455776,-0.604655460714432,0.754546775486437,-0.604655460727694,0.0462590410647548,0.0398830004474181
50.5,0.0468441384063249,0.0398677368060941,0.750440117333892,-0.609545893697561,0.750440117363204,-0.609545893711119,0.0468727366133679,0.0398613043848154
51,0.0474555581498302,0.0398376280357228,0.746302498933533,-0.614408265053323,0.746302498961497,-0.614408265067122,0.0474847701749236,0.0398306808433164
51.5,0.0480651426759731,0.0397986783464382,0.74213411442137,-0.619242371350149,0.74213411444799,-0.619242371364135,0.0480949754246913,0.0397912029614749
52,0.0486727263289124,0.0397509638939297,0.737935159769556,-0.624048011590679,0.737935159794836,-0.624048011604799,0.0487031867559499,0.0397429472020058
52.5,0.0492781441396515,0.0396945640422909,0.733705832670268,-0.628824987202789,0.733705832694214,-0.628824987216992,0.0493092392522714,0.0396859932883574
53,0.0498812317912377,0.0396295612894627,0.729446332453571,-0.63357310202926,0.729446332476192,-0.633573102043495,0.0499129686508747,0.0396204241339982
53.5,0.0504818255750341,0.0395560411842397,0.725156860008418,-0.638292162316194,0.725156860029724,-0.638292162330412,0.050514211296568,0.0395463257634732
54,0.0510797623376746,0.0394740922337528,0.720837617706646,-0.642981976700282,0.72083761772665,-0.642981976714435,0.0511128040858003,0.0394637872241237
54.5,0.0516748794183579,0.0393838058001952,0.716488809329837,-0.647642356195004,0.716488809348551,-0.647642356209044,0.0517085844004134,0.0393729004872234
55,0.052267014576196,0.0392852759853761,0.712110639998905,-0.652273114175838,0.712110640016344,-0.65227311418972,0.0523013900306966,0.0392737603370718
55.5,0.0528560059074225,0.0391785995014933,0.707703316106286,-0.656874066364562,0.707703316122467,-0.656874066378241,0.0528910590874582,0.0391664642464041
56,0.053441691752371,0.0390638755263131,0.703267045250629,-0.661445030812703,0.703267045265568,-0.661445030826135,0.0534774299029119,0.0390511122362288
56.5,0.0540239105923034,0.0389412055407029,0.698802036173864,-0.665985827884197,0.698802036187582,-0.665985827897343,0.0540603409203209,0.0389278067179692
57,0.0546025009363317,0.0388106931462215,0.694308498700564,-0.670496280237328,0.69430849871308,-0.670496280250145,0.0546396305725346,0.0387966523155009
57.5,0.0551773011989439,0.0386724438601957,0.689786643679489,-0.674976212805972,0.689786643690826,-0.674976212818421,0.0552151371497709,0.0386577556643742
58,0.0557481495689327,0.0385265648854332,0.685236682927238,-0.679425452780218,0.685236682937417,-0.679425452792262,0.0557866986573118,0.0385112251852201
58.5,0.0563148838709063,0.0383731648514418,0.680658829173916,-0.683843829586392,0.680658829182961,-0.683843829597994,0.0563541526641441,0.0383571708279753
59,0.0568773414210182,0.0382123535237043,0.676053296010747,-0.688231174866531,0.676053296018684,-0.688231174877656,0.0569173361440402,0.0381957037832434
59.5,0.057435358879109,0.0380442414773006,0.671420297839555,-0.692587322457342,0.671420297846408,-0.692587322467958,0.0574760853111451,0.0380269361567546
60,0.0579887721001198,0.0378689397308853,0.666760049824035,-0.696912108368683,0.666760049829832,-0.696912108378757,0.0580302354528183,0.0378509806025727
60.5,0.0585374159884497,0.0376865593368018,0.66207276784278,-0.701205370761586,0.662072767847548,-0.701205370771087,0.0585796207633174,0.0376679499103817
61,0.059081124359848,0.0374972109229578,0.65735866844396,-0.705466949925867,0.657358668447727,-0.705466949934767,0.0591240741828925,0.0374779565419647
61.5,0.0596197298165566,0.0373010041820015,0.652617968801635,-0.709696688257341,0.652617968804431,-0.709696688265612,0.0596634272480248,0.0372811121118151
62,0.0601530636426789,0.037098047303406,0.647850886673632,-0.713894430234664,0.647850886675486,-0.71389443024228,0.0601975099599195,0.0370775268068012
62.5,0.0606809557282201,0.0368884463442983,0.643057640360931,-0.718060022395835,0.643057640361874,-0.718060022402773,0.060726150679917,0.0368673087399506
63,0.0612032345318608,0.0366723045353289,0.638238448668524,-0.722193313314377,0.638238448668587,-0.722193313320613,0.0612491760622949,0.0366505632338101
63.5,0.0617197270943868,0.0364497215186758,0.633393530867702,-0.72629415357521,0.633393530866916,-0.726294153580723,0.0617664110369308,0.0364273920295353
64,0.0622302591166254,0.0362207925163947,0.628523106659717,-0.730362395750247,0.628523106658115,-0.730362395755017,0.0622776788565102,0.0361978924189755
