"Freq [GHz]","re(St(P1,P1)) []","im(St(P1,P1)) []","re(St(P1,P2)) []","im(St(P1,P2)) []","re(St(P2,P1)) []","im(St(P2,P1)) []","re(St(P2,P2)) []","im(St(P2,P2)) []"
0,0.00591924344388417,0,0.994099460818688,0,0.994099459407153,0,0.00591924459143911,0
0.5,0.00671109638555834,-0.00316596105480116,0.993201801187546,-0.00982885743390582,0.993201801082581,-0.00982885759520613,0.00671086593816383,-0.00316488714577723
1,0.00732077580270385,-0.0073055178281578,0.992302939616259,-0.0186862443182889,0.992302939629596,-0.0186862442757416,0.00732019969190034,-0.00730307924908757
1.5,0.00762400400514451,-0.011649919066052,0.9915287281425,-0.0273216690638876,0.99152872817282,-0.0273216690313678,0.00762306727028061,-0.0116459510402027
2,0.00767243536883377,-0.0160385468564357,0.99082972053313,-0.0358888662660686,0.990829720570099,-0.0358888662449282,0.00767119602178035,-0.0160328990165457
2.5,0.00756059363925665,-0.0204107454577436,0.99011472519409,-0.044448234287378,0.990114725231923,-0.0444482342759667,0.007559117478527,-0.0204033092865235
3,0.0073363248095033,-0.0247607736275874,0.989337426153371,-0.0530029447369529,0.989337426188762,-0.0530029447332154,0.00733468464957898,-0.0247514546474701
3.5,0.00702189556569621,-0.0290925322996678,0.988477427535578,-0.0615457607184329,0.988477427566544,-0.0615457607204224,0.0070201767835627,-0.0290812459416383
4,0.00662785552374601,-0.0334100379298565,0.987526455579694,-0.070069408274323,0.987526455605066,-0.0700694082802915,0.00662615669636768,-0.0333967119377778
4.5,0.00615938428153351,-0.0377159080738227,0.986481796087038,-0.0785683615711275,0.986481796106201,-0.0785683615794923,0.00615781453058428,-0.0377004849914524
5,0.00561914139380493,-0.0420114794147839,0.985343259964522,-0.0870387649130375,0.9853432599773,-0.0870387649224131,0.00561781655598592,-0.0419939176162867
5.5,0.00500858748076283,-0.0462971661645906,0.984111739626425,-0.0954780269584727,0.984111739632992,-0.0954780269676778,0.00500762636951269,-0.0462774394705985
6,0.00432861584396527,-0.050572772325296,0.982788507644605,-0.10388443089515,0.98278850764542,-0.10388443090323,0.00432813718682246,-0.0505508686611762
6.5,0.00357985913977688,-0.0548377185790452,0.981374880396441,-0.112256825394977,0.981374880392206,-0.112256825401221,0.00357997935827381,-0.0548136381457729
7,0.00276283748382244,-0.0590911964691818,0.979872068808002,-0.12059439600998,0.979872068799602,-0.120594396013932,0.00276366926172278,-0.0590649497854461
7.5,0.00187802774818113,-0.0633322692477858,0.978281126609665,-0.128896503148262,0.978281126598125,-0.128896503149739,0.00187967923981414,-0.0633038752924273
8,0.000925893747544704,-0.0675599357692995,0.976602948477116,-0.137162571796996,0.976602948463557,-0.137162571796085,0.000928468257463066,-0.06752942034543
8.5,-9.31025041143174E-005,-0.0717731695792212,0.974838291883888,-0.145392020079777,0.974838291869482,-0.145392020076827,-8.95065225515745E-005,-0.071740563945812
9,-0.0011784981670574,-0.0759709417559442,0.972987808178983,-0.153584216130541,0.972987808164921,-0.153584216126168,-0.00117378691610015,-0.0759362815258999
9.5,-0.00232983040404278,-0.0801522333637097,0.971052075054175,-0.161738455020661,0.971052075041636,-0.161738455015726,-0.0023239144388385,-0.0801155576425368
10,-0.00354663816583956,-0.0843160414418991,0.969031626428022,-0.169853949427936,0.969031626418148,-0.16985394942354,-0.00353943204652407,-0.0842773921706934
10.5,-0.00489092015284737,-0.0883732081118209,0.96690682741415,-0.17796045064658,0.966906827404512,-0.177960450642369,-0.00488253537325573,-0.0883328076333809
11,-0.00629765165247154,-0.0924074470035512,0.964698737032231,-0.186021249993415,0.964698737022794,-0.186021249989402,-0.00628803415444129,-0.0923653217607745
11.5,-0.00776639285704506,-0.0964177342434196,0.962408909057134,-0.194035823466891,0.962408909047865,-0.194035823463079,-0.00775548908208223,-0.096373911916924
12,-0.00929668504168318,-0.1004030552905,0.960038813621587,-0.202003691756087,0.960038813612453,-0.202003691752479,-0.00928444195605949,-0.100357564795065
12.5,-0.0108880507715408,-0.104362405327859,0.957589842077186,-0.20992440850394,0.957589842068157,-0.209924408500537,-0.0108744158915978,-0.104315276808584
13,-0.0125399941176544,-0.108294789649381,0.955063312743405,-0.217797550246583,0.955063312734453,-0.217797550243381,-0.0125249155353204,-0.108246054477531
13.5,-0.0142520008813311,-0.112199224042002,0.952460477236612,-0.225622707968342,0.952460477227711,-0.225622707965331,-0.0142354272898415,-0.112148914810578
14,-0.0160235388269605,-0.116074735163201,0.949782527116146,-0.233399480175638,0.949782527107271,-0.233399480172808,-0.0160054195467845,-0.116022885682169
14.5,-0.0178540579231756,-0.119920360913515,0.947030600629086,-0.241127467368363,0.947030600620216,-0.241127467365703,-0.0178343429281438,-0.119867006204727
15,-0.0197429905922544,-0.123735150803934,0.944205789377598,-0.248806267772784,0.944205789368713,-0.248806267770281,-0.019721630535882,-0.123680327095687
15.5,-0.0216897519676595,-0.12751816631797,0.941309144771427,-0.256435474193433,0.941309144762511,-0.256435474191073,-0.0216666982096621,-0.127461911039233
16,-0.0236937401596083,-0.13126848126821,0.938341684162515,-0.264014671841255,0.938341684153554,-0.264014671839024,-0.0236689447925983,-0.131210833042482
16.5,-0.0257543365285636,-0.134985182147224,0.93530439658846,-0.271543436999869,0.935304396579441,-0.27154343699775,-0.0257277524049225,-0.134926180786023
17,-0.0278709059665049,-0.138667368472575,0.932198248076759,-0.279021336399534,0.932198248067671,-0.27902133639751,-0.0278424867254212,-0.138607054968559
17.5,-0.0300427971858812,-0.142314153125829,0.929024186482452,-0.286447927178587,0.929024186473288,-0.286447927176644,-0.0300124972805426,-0.142252569645521
18,-0.0322693430160969,-0.145924662685354,0.925783145848589,-0.293822757323289,0.925783145839343,-0.293822757321411,-0.0322371177410249,-0.145861852561484
18.5,-0.0345498607073953,-0.149498037752748,0.922476050291993,-0.301145366488863,0.92247605028266,-0.301145366487033,-0.0345156662259071,-0.149434045476201
19,-0.0368836522420016,-0.153033433272727,0.919103817426786,-0.308415287116239,0.919103817417364,-0.308415287114441,-0.0368474456137875,-0.152968304484092
19.5,-0.039270004652368,-0.156530018846328,0.915667361345463,-0.315632045770375,0.91566736133595,-0.315632045768598,-0.039231743861167,-0.15646380032705
20,-0.0417081903463799,-0.159986979037259,0.912167595182355,-0.322795164636668,0.912167595172751,-0.322795164634896,-0.0416678343277355,-0.159919718700386
20.5,-0.0441974674393345,-0.163403513671215,0.908605433287619,-0.329904163121692,0.908605433277926,-0.32990416311991,-0.0441549761084118,-0.163335260551754
21,-0.0467370800925624,-0.166778838128086,0.904981793041682,-0.336958559513468,0.904981793031901,-0.336958559511665,-0.0466924143720092,-0.16670964237297
21.5,-0.0493262588584753,-0.170112183626826,0.901297596340774,-0.343957872664233,0.901297596330909,-0.343957872662395,-0.0492793807063034,-0.170042096484478
22,-0.0519642210318926,-0.173402797502909,0.897553770784003,-0.350901623665672,0.89755377077406,-0.350901623663789,-0.0519150934693547,-0.173331871312449
22.5,-0.0546501710074347,-0.176649943478209,0.893751250591582,-0.357789337492578,0.893751250581563,-0.357789337490639,-0.0545987581468798,-0.176578231658277
23,-0.0573833006428046,-0.179852901923189,0.889890977282565,-0.364620544596099,0.889890977272475,-0.364620544594096,-0.0573295677154763,-0.179780458960423
23.5,-0.0601627896277429,-0.183010970111287,0.885973900138868,-0.371394782432129,0.885973900128716,-0.371394782430052,-0.0601067030115,-0.182937851548459
24,-0.0629878058584571,-0.186123462465365,0.882000976480565,-0.378111596914103,0.882000976470357,-0.378111596911944,-0.0629293331053893,-0.186049724889204
24.5,-0.0658575058172973,-0.18918971079616,0.877973171775587,-0.38477054378262,0.877973171765328,-0.384770543780371,-0.0657966156811964,-0.18911541182487
25,-0.0687710349574643,-0.192209064532578,0.873891459605061,-0.3913711898868,0.873891459594759,-0.391371189884456,-0.0687076974211281,-0.192134262803108
25.5,-0.0717275280925114,-0.195180890943822,0.869756821503666,-0.397913114374472,0.869756821493329,-0.397913114372026,-0.071661714394839,-0.195105646098873
26,-0.0747261097903972,-0.198104575353222,0.865570246692542,-0.404395909789916,0.865570246682178,-0.404395909787364,-0.0746577924532476,-0.19802894802807
26.5,-0.0777658947718515,-0.200979521343716,0.86133273172061,-0.410819183079303,0.861332731710225,-0.410819183076641,-0.0776950476266155,-0.200903573152859
27,-0.0808459883127804,-0.203805150954945,0.857045280028504,-0.417182556505,0.857045280018107,-0.417182556502223,-0.0807725865266329,-0.203728944478629
27.5,-0.0839654866504597,-0.2065809048719,0.852708901447839,-0.423485668470768,0.852708901437438,-0.423485668467873,-0.0838895067522474,-0.206504503642572
28,-0.0871234773932279,-0.20930624260509,0.848324611647144,-0.429728174260507,0.848324611636746,-0.429728174257493,-0.0870448972989453,-0.209229711093828
28.5,-0.090319039933403,-0.211980642662235,0.843893431534504,-0.435909746693645,0.843893431524116,-0.435909746690511,-0.0902378389712063,-0.211904046265218
29,-0.0935512458631192,-0.214603602711464,0.839416386625822,-0.442030076700613,0.839416386615453,-0.442030076697355,-0.0934674047978221,-0.214527007736531
29.5,-0.0968191593927743,-0.217174639736019,0.834894506386552,-0.448088873822043,0.834894506376209,-0.448088873818661,-0.0967326604497748,-0.217098113389418
30,-0.100121837771781,-0.219693290180539,0.830328823553797,-0.454085866635498,0.830328823543487,-0.454085866631991,-0.100032664660352,-0.219616900553905
30.5,-0.103458331711267,-0.222159110088901,0.825720373444848,-0.460020803113516,0.825720373434578,-0.460020803109886,-0.103366469647145,-0.222082926146582
31,-0.106827685808404,-0.224571675233751,0.821070193257452,-0.465893450916839,0.821070193247229,-0.465893450913086,-0.106733121535599,-0.224495766800543
31.5,-0.110228938971974,-0.226930581237754,0.816379321366435,-0.471703597626596,0.816379321356267,-0.471703597622719,-0.110131660783731,-0.22685501898717
32,-0.113661124848829,-0.22923544368669,0.811648796620692,-0.477451050919139,0.811648796610584,-0.477451050915142,-0.113561122607644,-0.229160299129855
32.5,-0.117123272250811,-0.231485898234519,0.806879657644029,-0.483135638687158,0.806879657633988,-0.483135638683041,-0.117020537407406,-0.231411243709802
33,-0.12061440558174,-0.23368160070054,0.802072942142861,-0.48875720911055,0.802072942132893,-0.488757209106315,-0.120508931192903,-0.233607509364074
33.5,-0.124133545264037,-0.235822227158848,0.797229686223341,-0.494315630680399,0.797229686213452,-0.494315630676049,-0.124025326009195,-0.235748772976043
34,-0.127679708164479,-0.237907474020243,0.792350923720141,-0.499810792179281,0.792350923710337,-0.499810792174819,-0.127568740360885,-0.237834731758456
34.5,-0.131251908018653,-0.239937058106842,0.787437685538752,-0.505242602620987,0.787437685529037,-0.505242602616415,-0.131138189635037,-0.239865103329357
35,-0.134849155853527,-0.241910716719624,0.782490999012902,-0.510610991152552,0.782490999003283,-0.510610991147873,-0.134732686522057,-0.241839625781101
35.5,-0.138470460407631,-0.243828207699195,0.777511887278416,-0.515915906921432,0.777511887268896,-0.515915906916649,-0.138351241433994,-0.24375805774278
36,-0.142114828548208,-0.245689309480067,0.772501368664632,-0.52115731891041,0.772501368655217,-0.521157318905525,-0.141992862919621,-0.245620178436339
36.5,-0.14578126568473,-0.2474938211388,0.767460456104271,-0.52633521574279,0.767460456094965,-0.526335215737809,-0.145656558075641,-0.247425787726778
37,-0.149468776178053,-0.249241562436373,0.762390156562502,-0.531449605460216,0.76239015655331,-0.531449605455142,-0.149341332953283,-0.249174706166768
37.5,-0.153176363744479,-0.250932373855183,0.757291470485772,-0.536500515275376,0.757291470476695,-0.536500515270212,-0.153046192959518,-0.250866775036154
38,-0.156903031853901,-0.252566116631115,0.752165391270837,-0.541487991301695,0.752165391261881,-0.541487991296446,-0.156770143252024,-0.252501856376756
38.5,-0.160647784121133,-0.254142672781157,0.747012904754343,-0.546412098262035,0.747012904745512,-0.546412098256703,-0.160512189126962,-0.25407983302295
39,-0.164409624689444,-0.255661945127057,0.741834988723138,-0.551272919178276,0.741834988714435,-0.551272919172866,-0.164271336398548,-0.255600608628584
39.5,-0.168187558605223,-0.257123857315565,0.736632612445463,-0.556070555043565,0.73663261243689,-0.556070555038082,-0.168046591769261,-0.257064107690722
40,-0.171980592182559,-0.25852835383585,0.73140673622306,-0.560805124478916,0.731406736214619,-0.560805124473364,-0.171836963189437,-0.258470275570856
40.5,-0.175787733356434,-0.259875400034659,0.726158310964178,-0.565476763375727,0.726158310955873,-0.565476763370109,-0.175641460204839,-0.259819078514131
41,-0.179607992023036,-0.261164982129881,0.720888277777364,-0.570085624525735,0.720888277769197,-0.570085624520057,-0.179459094290663,-0.261110503667267
41.5,-0.183440380365546,-0.262397107223149,0.715597567585926,-0.574631877239785,0.715597567577899,-0.57463187723405,-0.183288879170189,-0.262344559095783
42,-0.18728391316355,-0.26357180331213,0.710287100762858,-0.579115706956754,0.710287100754973,-0.579115706950967,-0.187129831116167,-0.263521273801184
42.5,-0.19113760808401,-0.264689119303198,0.704957786785989,-0.583537314843872,0.704957786778247,-0.583537314838036,-0.1909809692327,-0.264640697738766
43,-0.195000485951448,-0.265749125025101,0.699610523913098,-0.587896917389615,0.699610523905502,-0.587896917383736,-0.194841315715163,-0.265702901836625
43.5,-0.198871570994716,-0.266751911244281,0.694246198876696,-0.592194745990272,0.694246198869245,-0.592194745984354,-0.198709896085348,-0.266707978016482
44,-0.202749891067382,-0.26769758968237,0.688865686598119,-0.596431046531226,0.688865686590816,-0.596431046525273,-0.202585739398688,-0.267656039216784
44.5,-0.206634477838352,-0.268586293036377,0.683469849920617,-0.600606078963924,0.683469849913461,-0.600606078957941,-0.206467878419971,-0.268547219418494
45,-0.210524366948941,-0.269418175001886,0.678059539361028,-0.604720116879467,0.678059539354021,-0.604720116873457,-0.210355349763506,-0.269381673673779
45.5,-0.214418598132053,-0.270193410299431,0.672635592879672,-0.608773447079654,0.672635592872814,-0.608773447073621,-0.214247193993149,-0.270159578137617
46,-0.218316215288592,-0.27091219470399,0.667198835668041,-0.612766369146329,0.667198835661333,-0.612766369140279,-0.218142455677014,-0.270881130102035
46.5,-0.222216266515547,-0.27157474507715,0.661750079953885,-0.616699195009758,0.661750079947326,-0.616699195003694,-0.222040183390969,-0.271546548032292
47,-0.226117804079488,-0.272181299401122,0.656290124823229,-0.620572248516764,0.65629012481682,-0.62057224851069,-0.2259394296643,-0.272156071603852
47.5,-0.230019884328341,-0.272732116813158,0.650819756058931,-0.624385864999286,0.650819756052672,-0.624385864993205,-0.229839250860025,-0.272709961738274
48,-0.233921567533435,-0.273227477638229,0.645339745995291,-0.628140390843987,0.645339745989182,-0.628140390837905,-0.233738706981415,-0.273208500635368
48.5,-0.237821917652785,-0.273667683416851,0.639850853388293,-0.631836183063493,0.639850853382334,-0.631836183057413,-0.237636861395222,-0.273651991797831
49,-0.241720002005431,-0.274053056923748,0.634353823301,-0.635473608869802,0.634353823295189,-0.635473608863727,-0.241532780461009,-0.274040760043262
49.5,-0.245614890845498,-0.274383942171552,0.628849387003671,-0.63905304525039,0.628849386998009,-0.639053045244324,-0.245425533054734,-0.274375151496735
50,-0.249505656823348,-0.274660704391779,0.623338261888117,-0.642574878547463,0.623338261882601,-0.642574878541411,-0.249314189973522,-0.274655533554942
50.5,-0.253391374319844,-0.274883729982989,0.617821151395853,-0.646039504040816,0.617821151390484,-0.646039504034781,-0.253197823207273,-0.274882294810312
51,-0.257271118638479,-0.27505342641303,0.612298744959589,-0.649447325534689,0.612298744954365,-0.649447325528673,-0.257075505061505,-0.275055844920158
51.5,-0.26114396503882,-0.275170222058609,0.606771717957589,-0.652798754949008,0.60677171795251,-0.652798754943016,-0.260946307114779,-0.275176614401899
52,-0.265008987593656,-0.27523456596093,0.601240731680464,-0.656094211915361,0.601240731675528,-0.656094211909396,-0.264809298993149,-0.275245054330415
52.5,-0.26886525785147,-0.275246927470581,0.595706433309923,-0.659334123378015,0.595706433305129,-0.65933412337208,-0.268663546943739,-0.27526163590759
53,-0.272711843285586,-0.275207795748185,0.590169455909067,-0.662518923200289,0.590169455904413,-0.662518923194386,-0.272508112189717,-0.2752268498668
53.5,-0.276547805511936,-0.275117679079235,0.584630418423744,-0.665649051776528,0.58463041841923,-0.665649051770662,-0.276342049050289,-0.275141205666462
54,-0.280372198259099,-0.274977103951914,0.579089925694572,-0.66872495564995,0.579089925690194,-0.668724955644123,-0.280164402811948,-0.275005230416466
54.5,-0.284184065077716,-0.274786613835332,0.573548568479144,-0.671747087136563,0.573548568474903,-0.671747087130779,-0.283974207342007,-0.274819467469333
55,-0.287982436782204,-0.274546767582414,0.568006923484046,-0.674715903955369,0.568006923479939,-0.674715903949629,-0.287770482442878,-0.274584474594214
55.5,-0.291766328626723,-0.274258137366588,0.56246555340621,-0.677631868865025,0.562465553402235,-0.677631868859332,-0.291552230956787,-0.274300821636388
56,-0.295534737230693,-0.273921306044601,0.556925006983235,-0.680495449307129,0.556925006979391,-0.680495449301487,-0.295318435646735,-0.273969087548053
56.5,-0.299286637288233,-0.273536863819604,0.551385819052246,-0.683307117056268,0.55138581904853,-0.683307117050678,-0.299068055901913,-0.273589856658548
57,-0.30302097812218,-0.273105404059939,0.545848510616883,-0.686067347876941,0.545848510613294,-0.686067347871407,-0.302800024346242,-0.273163714034739
57.5,-0.306736680178864,-0.272627518111102,0.540313588922052,-0.688776621187492,0.540313588918588,-0.688776621182015,-0.306513243468987,-0.272691239766896
58,-0.31043263160651,-0.272103788923423,0.534781547536032,-0.691435419731105,0.534781547532691,-0.691435419725686,-0.310206582448433,-0.272173002004727
58.5,-0.314107685120078,-0.27153478330923,0.529252866439572,-0.694044229253963,0.529252866436351,-0.694044229248607,-0.313878874405257,-0.27160954856599
59,-0.317760655430383,-0.270921042645465,0.523728012121607,-0.696603538190629,0.523728012118505,-0.696603538185335,-0.317528914402517,-0.271001396951921
59.5,-0.321390317606232,-0.270263071857134,0.51820743768123,-0.69911383735667,0.518207437678244,-0.699113837351443,-0.321155458604274,-0.270349022636356
60,-0.32499540684464,-0.2695613265621,0.512691582935572,-0.701575619648602,0.512691582932701,-0.701575619643442,-0.32475722511251,-0.269652845558209
60.5,-0.328574620242385,-0.268816198338973,0.507180874533249,-0.703989379751125,0.50718087453049,-0.703989379746034,-0.328332897116972,-0.268913214850349
61,-0.332126621284907,-0.268027998209234,0.501675726073027,-0.706355613851696,0.501675726070377,-0.706355613846676,-0.331881129104321,-0.268130391993703
61.5,-0.335650047882131,-0.267196938615127,0.496176538227404,-0.708674819362427,0.496176538224861,-0.70867481935748,-0.335400556964879,-0.267304532804843
62,-0.339143524863926,-0.266323114437506,0.490683698870767,-0.710947494649284,0.490683698868331,-0.71094749464441,-0.338889812881997,-0.266435668956215
62.5,-0.342605681869585,-0.265406483938988,0.485197583211832,-0.713174138768577,0.485197583209498,-0.713174138763778,-0.34234754585661,-0.265523690091325
63,-0.346035177485173,-0.264446850933663,0.479718553930063,-0.715355251210708,0.479718553927829,-0.715355251205986,-0.345772448565359,-0.264568328019889
63.5,-0.3494307302509,-0.263443849953852,0.47424696131577,-0.717491331651138,0.474246961313634,-0.717491331646493,-0.34916329092786,-0.263569144927676
