"Freq [GHz]","re(St(P1,P1)) []","im(St(P1,P1)) []","re(St(P1,P2)) []","im(St(P1,P2)) []","re(St(P2,P1)) []","im(St(P2,P1)) []","re(St(P2,P2)) []","im(St(P2,P2)) []"
0,0.00638442249186255,0,0.993630295415642,0,0.993630299184588,0,0.00638442458102872,0
0.5,0.00685319668334472,0.00197417955867252,0.993072071603674,-0.00825799815244821,0.993072071631207,-0.00825799719002163,0.00685310891965685,0.00197441033427737
1,0.00724366961495804,0.00340742951218331,0.992449153265708,-0.0159520860055657,0.992449153300079,-0.015952085984356,0.00724347026109839,0.0034079929351627
1.5,0.00733975125051245,0.00464473715672398,0.991822908399375,-0.0237137599908817,0.991822908440153,-0.023713759966677,0.00733942801097864,0.00464566294442292
2,0.00741979897340617,0.0059731646248391,0.991075433273321,-0.031299067055599,0.991075433317369,-0.0312990670323181,0.00741938697722766,0.00597445205539238
2.5,0.00750762568967156,0.00734156753924609,0.990265451955977,-0.0387289865104865,0.990265451999354,-0.0387289864895699,0.00750712414050936,0.0073432132070792
3,0.00760942480403504,0.00873237440270991,0.989425207475018,-0.0460366500525211,0.989425207514515,-0.0460366500335887,0.00760882315630029,0.00873437723780057
3.5,0.00772750348856799,0.010138266226166,0.988566432568911,-0.0532532633516984,0.988566432602565,-0.0532532633335414,0.00772678758954104,0.010140627057166
4,0.00786300230864323,0.0115558847098027,0.987688756838343,-0.0604026440590841,0.987688756865326,-0.0604026440403986,0.00786215630800013,0.0115586057764281
4.5,0.00801664881662756,0.0129836619180992,0.986786126133155,-0.0675008244519768,0.986786126153473,-0.067500824431721,0.00801565587102326,0.0129867465846987
5,0.00818901662913507,0.0144209357671823,0.985850609124084,-0.0745575726106225,0.985850609138277,-0.0745575725881453,0.00818785918722253,0.01442438836885
5.5,0.008380629447026,0.0158675434128845,0.984874300531169,-0.0815781962737869,0.984874300540097,-0.0815781962488087,0.00837928936546806,0.0158713691784174
6,0.0085920083016045,0.017323616485907,0.9838501156157,-0.0885650386319954,0.983850115620406,-0.0885650386045427,0.00859046688491527,0.0173278215063313
6.5,0.00882369549160866,0.0187894703214502,0.982772021283786,-0.0955185618436563,0.982772021285414,-0.0955185618139982,0.00882193349435051,0.0187940615472337
7,0.00907626809339718,0.0202655404622645,0.981635013985623,-0.102438081396921,0.981635013985369,-0.102438081365488,0.00907426570221775,0.0202705257200488
7.5,0.00935034650864727,0.0217523444605838,0.980435002482664,-0.109322245901798,0.980435002481752,-0.109322245869135,0.00934808331268372,0.0217577324843461
8,0.00964660055917735,0.0232504579237776,0.979168669088679,-0.116169343571367,0.979168669088347,-0.116169343538079,0.00964405551323648,0.023256258397657
8.5,0.00996575436217715,0.0247604989194428,0.977833340029937,-0.122977494734461,0.977833340031431,-0.122977494701187,0.00996290574509454,0.0247667225307153
9,0.0103085906296191,0.0262831174529325,0.976426875157623,-0.129744770733994,0.976426875162187,-0.129744770701376,0.0103054159991824,0.0262897759544729
9.5,0.0106759547476527,0.0278189881016355,0.97494757825738,-0.136469265712686,0.974947578266254,-0.136469265681352,0.0106724308929199,0.0278260943836472
10,0.0110687588443385,0.0293688046457694,0.973394125706982,-0.143149138400644,0.973394125721399,-0.143149138371187,0.0110648617358983,0.0293763728169387
10.5,0.0115429002964741,0.0307770616766865,0.971897286341701,-0.149904607891927,0.971897286358969,-0.149904607868224,0.0115386930197324,0.0307850612659273
11,0.0120387951550324,0.0321766789855698,0.970358806574519,-0.156622556095299,0.970358806593952,-0.15662255607745,0.01203426408971,0.0321851174030847
11.5,0.0125562529228675,0.0335672842732579,0.968780345077483,-0.163304224605292,0.968780345098422,-0.163304224593319,0.0125513846426754,0.0335761692036973
12,0.013095075598843,0.0349485104488756,0.967163339326962,-0.169950882727284,0.967163339348779,-0.169950882721134,0.0130898568757338,0.034957849841748
12.5,0.0136550578510611,0.0363199958118381,0.965509020293693,-0.176563803626119,0.965509020315801,-0.176563803625675,0.0136494756589086,0.0363297978717623
13,0.0142359871953075,0.0376813842271888,0.963818428473321,-0.183144244354914,0.963818428495175,-0.183144244360002,0.0142300287130142,0.037691657404034
13.5,0.0148376441784154,0.0390323252940501,0.962092430614898,-0.189693429513499,0.962092430636,-0.189693429523905,0.0148312967924386,0.039043078272996
14,0.0154598025662663,0.0403724745071128,0.960331736620666,-0.196212538226118,0.960331736640568,-0.196212538241581,0.0154530538725585,0.0403837161986553
14.5,0.0161022295361219,0.041701493410961,0.958536916199126,-0.20270269409466,0.958536916217425,-0.202702694114896,0.0160950673414845,0.0417132329409058
15,0.0167646858729854,0.0430190497471405,0.956708414951732,-0.209164957771252,0.956708414968077,-0.209164957795951,0.0167570981958354,0.0430312964466175
15.5,0.0174469261696882,0.0443248175938524,0.954846569659761,-0.215600321797643,0.954846569673845,-0.21560032182648,0.017438901240239,0.0443375809893767
16,0.0181486990303931,0.0456184774981745,0.95295162261137,-0.222009707374072,0.952951622622933,-0.22200970740671,0.0181402252902528,0.0456317673017976
16.5,0.0188697472772045,0.0468997166007505,0.951023734869868,-0.228393962743328,0.951023734878691,-0.228393962779423,0.0188608133783967,0.0469135427003302
17,0.0196098081595714,0.0481682287528369,0.949062998433524,-0.234753862903678,0.949062998439432,-0.234753862942886,0.019600402962989,0.0481826012024531
17.5,0.0203686135661814,0.0494237146256984,0.947069447276087,-0.241090110394487,0.947069447278941,-0.241090110436464,0.020358726139476,0.0494386436362582
18,0.0211458902390193,0.050665881812278,0.945043067286717,-0.247403336929243,0.945043067286413,-0.247403336973653,0.0211355098539445,0.0506813777423341
18.5,0.0219413599892964,0.0518944449211485,0.942983805149843,-0.2536941056807,0.94298380514631,-0.253694105727212,0.0219304761185121,0.0519105182679627
19,0.0227547399149319,0.0531091256626937,0.940891576220614,-0.259962914051294,0.940891576213811,-0.25996291409959,0.0227433422282854,0.0531257870535764
19.5,0.0235857426192862,0.0543096529275624,0.938766271461552,-0.266210196788111,0.938766271451464,-0.266210196837881,0.0235738209795841,0.0543269131115223
20,0.0244340764308334,0.0554957628573716,0.936607763511619,-0.272436329325369,0.936607763498255,-0.272436329376319,0.0244216208891284,0.0555136326970875
20.5,0.0252994456234925,0.0566671989077139,0.93441591196134,-0.27864163125836,0.934415911944732,-0.278641631310209,0.0252864464138921,0.0566856893718817
21,0.0261815506372948,0.0578237119034906,0.93219056790745,-0.284826369871179,0.932190567887647,-0.284826369923661,0.0261679981713249,0.0578428340595469
21.5,0.0270800882991241,0.0589650600866245,0.929931577858631,-0.290990763656465,0.929931577835701,-0.290990763709329,0.0270659731596579,0.0589848250938869
22,0.0279947520432207,0.0600910091562261,0.927638787060671,-0.297134985778905,0.927638787034696,-0.297134985831916,0.0279800649780038,0.0601114282594661
22.5,0.0289252321311863,0.061201332301273,0.925312042305293,-0.303259167445721,0.925312042276367,-0.303259167498658,0.0289099640459763,0.0612224168247524
23,0.0298712158712021,0.0622958102258937,0.922951194282358,-0.30936340115691,0.922951194250586,-0.30936340120957,0.0298553578225526,0.0623175715678732
23.5,0.0308323878362014,0.0633742311673535,0.920556099530302,-0.315447743815894,0.9205560994958,-0.315447743868086,0.0308159310239128,0.0633966807951074
24,0.0318084300807308,0.0644363909068435,0.91812662203479,-0.321512219687673,0.91812662199768,-0.321512219739223,0.0317913658399951,0.0644595403521857
24.5,0.0327990223562485,0.0654820927731909,0.915662634520801,-0.327556823196804,0.915662634481211,-0.327556823247553,0.0327813421495193,0.0655059536285378
25,0.0338038423246115,0.0665111476396161,0.913164019478751,-0.333581521561661,0.913164019436816,-0.333581521611463,0.0337855377332246,0.0665357315545976
25.5,0.0348225657695166,0.0675233739136603,0.910630669960932,-0.339586257264678,0.910630669916789,-0.339586257313401,0.0348036284850908,0.0675486925922952
26,0.0358548668056605,0.0685185975204421,0.908062490180491,-0.345570950360807,0.908062490134282,-0.345570950408333,0.0358352886213122,0.0685446627188884
26.5,0.0369004180854034,0.0694966518793707,0.90545939594146,-0.351535500628317,0.905459395893326,-0.351535500674539,0.0368801908867989,0.0695234754042577
27,0.0379588910027174,0.0704573778744912,0.90282131492494,-0.357479789567419,0.902821314875025,-0.357479789612245,0.0379380067590018,0.0704849715818534
27.5,0.0390299558942208,0.0714006238186105,0.900148186853463,-0.363403682253238,0.900148186801912,-0.363403682296583,0.0390084066488459,0.0714289996134148
28,0.0401132822370969,0.0723262454113769,0.897439963552773,-0.369307029050229,0.89743996349973,-0.369307029092023,0.0400910600985902,0.0723554152476655
28.5,0.0412085388437212,0.0732341056914967,0.894696608927795,-0.375189667195581,0.894696608873403,-0.375189667235763,0.0411856359764162,0.0732640815731366
29,0.0423153940528113,0.0741240749832486,0.891918098867342,-0.381051422259283,0.891918098811742,-0.3810514222978,0.0422918026675808,0.0741548689652985
29.5,0.0434335159169352,0.0749960308374963,0.88910442109014,-0.386892109488566,0.889104421033472,-0.386892109525378,0.0434092282619526,0.0750276550281852
30,0.0445625723862263,0.0758498579673839,0.886255574943045,-0.392711535044303,0.886255574885447,-0.392711535079375,0.0445375807377917,0.0758823245307101
30.5,0.0457022314881463,0.0766854481788973,0.883371571160757,-0.398509497136767,0.883371571102366,-0.398509497170075,0.0456765281416046,0.0767187693378348
31,0.0468521615031683,0.0775027002965032,0.880452431595056,-0.404285787067871,0.880452431536003,-0.404285787099397,0.0468257387639544,0.0775368883368187
31.5,0.0480120311362424,0.0783015200840416,0.877498188920353,-0.410040190186691,0.877498188860767,-0.410040190216425,0.0479848813110831,0.078336587358717
32,0.0491815096839304,0.0790818201610977,0.87450888632138,-0.415772486764742,0.874508886261388,-0.415772486792681,0.049153625072232,0.0791177790953465
32.5,0.050360267197094,0.0798435199150279,0.871484577167927,-0.421482452797119,0.871484577107651,-0.421482452823265,0.0503316400825501,0.0798803830119027
33,0.0515479746390387,0.0805865454088683,0.868425324680776,-0.427169860735211,0.868425324620336,-0.427169860759574,0.0515185972814857,0.0806243252554462
33.5,0.0527443040390225,0.0813108292853088,0.865331201592306,-0.432834480156384,0.865331201531818,-0.432834480178979,0.0527141686665698,0.0813495385594459
34,0.053948928641041,0.0820163106669508,0.862202289804682,-0.438476078375625,0.862202289744256,-0.43847607839647,0.0539180274425105,0.0820559621445927
34.5,0.0551615230478212,0.0827029350530482,0.859038680048028,-0.444094421003788,0.859038679987772,-0.444094421022908,0.0551298481655195,0.0827435416160813
35,0.0563817633599559,0.0833706542129354,0.855840471540579,-0.449689272456782,0.855840471480598,-0.449689272474205,0.056349306882808,0.0834122288575682
35.5,0.0576093273101189,0.0840194260763454,0.852607771652425,-0.455260396419674,0.852607771592818,-0.455260396435434,0.05757608126719,0.0840619819219973
36,0.0588438943923201,0.0846492146208269,0.849340695574153,-0.460807556269404,0.849340695515015,-0.460807556283537,0.0588098507467527,0.0846927649195158
36.5,0.0600851459861509,0.0852599897564462,0.846039365991435,-0.466330515459513,0.846039365932859,-0.466330515472059,0.060050296629538,0.0853045479026491
37,0.0613327654759939,0.0858517272079984,0.842703912766377,-0.471829037870011,0.842703912708451,-0.471829037881012,0.0612971022232217,0.0858973067489665
37.5,0.0625864383651735,0.0864244083948956,0.83933447262625,-0.477302888125265,0.839334472569057,-0.477302888134769,0.0625499529497429,0.0864710230414094
38,0.0638458523850196,0.0869780203089515,0.835931188860075,-0.482751831882561,0.835931188803694,-0.482751831890615,0.0638085364548811,0.0870256839464864
38.5,0.065110697598847,0.0875125553902426,0.832494211023383,-0.488175636093752,0.83249421096789,-0.488175636100407,0.0650725427127661,0.0875612820905272
39,0.06638066650084,0.0880280114012402,0.829023694651374,-0.493574069242227,0.829023694596841,-0.493574069247536,0.066341664125312,0.0880778154341824
39.5,0.0676554541098471,0.0885243912993942,0.825519800980591,-0.498946901557247,0.825519800927085,-0.498946901561265,0.0676155956165793,0.0885752871453537
40,0.0689347580580935,0.089001703108362,0.821982696679147,-0.504293905207502,0.821982696626733,-0.504293905210286,0.0688940347220786,0.0890537054707407
40.5,0.0702182786748315,0.0894599597880561,0.818412553585503,-0.509614854475611,0.81841255353424,-0.509614854477219,0.0701766816730253,0.0895130836061783
41,0.0715057190649472,0.0898991791036855,0.814809548455696,-0.514909525915121,0.814809548405642,-0.514909525915613,0.0714632394755658,0.0899534395659507
41.5,0.0727967851825493,0.0903193834939658,0.811173862718932,-0.520177698491454,0.811173862670139,-0.520177698490889,0.0727534139850036,0.0903747960512401
42,0.0740911858995778,0.0907205999386722,0.807505682241372,-0.525419153708086,0.807505682193888,-0.525419153706527,0.0740469139750566,0.0907771803178872
42.5,0.075388633069462,0.0911028598256891,0.803805197097949,-0.53063367571918,0.80380519705182,-0.530633675716687,0.0753434512021795,0.0911606240436315
43,0.0766888415858773,0.0914661988177266,0.800072601352021,-0.535821051429754,0.800072601307289,-0.535821051426392,0.0766427404649925,0.0915251631949785
43.5,0.0779915294366427,0.0918106567188552,0.796308092842648,-0.540981070584397,0.796308092799351,-0.540981070580228,0.0779444996588625,0.09187083789386
44,0.0792964177528073,0.0921362773410108,0.792511872979274,-0.546113525845432,0.792511872937448,-0.54611352584052,0.0792484498256866,0.0921976922842394
44.5,0.0806032308529867,0.0924431083706229,0.788684146543594,-0.551218212861385,0.78868414650327,-0.551218212855794,0.0805543151989278,0.0925057743988006
45,0.0819116962830018,0.0927312012355009,0.784825121498363,-0.556294930326509,0.78482512145957,-0.556294930320303,0.0818618232439596,0.0927951360258736
45.5,0.0832215448508796,0.0930006109721262,0.780935008802936,-0.561343480032074,0.780935008765699,-0.561343480025316,0.0831707046937866,0.0930658325767305
46,0.084532510657285,0.0932513960934781,0.777014022235293,-0.566363666910056,0.777014022199634,-0.56636366690281,0.0844806935801908,0.0933179229533829
46.5,0.0858443311214454,0.0934836184575251,0.773062378220326,-0.571355299069824,0.773062378186264,-0.571355299062154,0.085791527260379,0.0935514694170191
47,0.0871567470026387,0.0936973431365122,0.769080295664167,-0.576318187828352,0.769080295631719,-0.57631818782032,0.0871029464391961,0.0937665374571984
47.5,0.0884695024173157,0.0938926382871538,0.765067995794339,-0.581252147734449,0.765067995763519,-0.581252147726119,0.0884146951869727,0.0939631956619268
48,0.0897823448519313,0.0940695750218673,0.761025702005515,-0.586156996587466,0.761025701976331,-0.5861569965789,0.0897265209530806,0.0941415155887328
48.5,0.0910950251715549,0.0942282272811377,0.75695363971067,-0.591032555450888,0.756953639683132,-0.591032555442146,0.0910381745752676,0.0943015716368504
49,0.092407297624341,0.09436867170714,0.752852036197447,-0.59587864866118,0.75285203617156,-0.595878648652323,0.0923494102848497,0.094443440920624
49.5,0.0937189198419343,0.0944909875187182,0.748721120489523,-0.600695103832264,0.748721120465289,-0.600695103823351,0.0936599857078336,0.0945672031442341
50,0.095029652835888,0.0945952563878115,0.7445611232128,-0.605481751855911,0.744561123190218,-0.605481751847003,0.0949696618620471,0.094672940477847
50.5,0.0963392609901758,0.0946815623174415,0.740372276466238,-0.610238426898368,0.740372276445307,-0.610238426889521,0.0962782031503597,0.094760737435283
51,0.0976475120498742,0.0947499915213383,0.736154813697167,-0.614964966393474,0.736154813677882,-0.614964966384747,0.0975853773500627,0.0948306807532966
51.5,0.0989541771060984,0.0948006323052977,0.731908969580904,-0.619661211032525,0.731908969563258,-0.619661211023973,0.0988909555984979,0.0948828592725558
52,0.100259030577271,0.0948335749503602,0.727634979904525,-0.624327004751108,0.727634979888509,-0.624327004742783,0.100194712375007,0.0949173638204077
52.5,0.101561850186801,0.0948489115978861,0.72333308145464,-0.628962194713111,0.723333081440242,-0.628962194705069,0.101496425479283,0.0949342870955102
53,0.102862416937261,0.094846736136609,0.719003511909033,-0.633566631292122,0.71900351189624,-0.633566631284415,0.102795876006202,0.0949337235544081
53.5,0.104160515081127,0.0948271440917409,0.714646509732024,-0.638140168050377,0.71464650972082,-0.638140168043055,0.104092848317217,0.0949157693001288
54,0.105455932088184,0.0947902325161998,0.710262314073429,-0.642682661715423,0.710262314063797,-0.642682661708536,0.105387130008382,0.0948805219728724
54.5,0.106748458609648,0.0947360998840365,0.705851164670998,-0.647193972154665,0.705851164662919,-0.64719397214826,0.106678511875104,0.0948280806428601
55,0.108037888439109,0.0946648459861116,0.701413301756205,-0.651673962347924,0.701413301749657,-0.651673962342048,0.107966787873674,0.0947585457054103
55.5,0.109324018470351,0.0945765718281058,0.696948965963285,-0.656122498358142,0.696948965958246,-0.65612249835284,0.109251755079671,0.0946720187783083
56,0.110606648652141,0.0944713795309076,0.692458398241416,-0.660539449300357,0.692458398237861,-0.660539449295672,0.110533213643315,0.0945686026015296
56.5,0.111885581940055,0.0943493722334491,0.687941839769937,-0.664924687309057,0.687941839767841,-0.664924687305032,0.111810966741822,0.0944484009393704
57,0.11316062424541,0.0942106539980415,0.683399531876515,-0.66927808750403,0.683399531875849,-0.669278087500703,0.113084820528868,0.094311518485056
57.5,0.114431584381392,0.0940553297182706,0.678831715958163,-0.673599527954781,0.678831715958899,-0.673599527952192,0.114354584081202,0.0941580607678712
58,0.115698274006432,0.0938835050294982,0.674238633405031,-0.677888889643652,0.674238633407139,-0.677888889641838,0.115620069342492,0.093988134062868
58.5,0.11696050756492,0.0936952862220339,0.669620525526888,-0.682146056427675,0.669620525530336,-0.682146056426671,0.116881091064481,0.0938018453032146
59,0.118218102225302,0.0934907801570144,0.664977633482206,-0.68637091499929,0.664977633486962,-0.686370914999128,0.118137466745504,0.0935993019952199
59.5,0.119470877815659,0.0932700941850544,0.660310198209793,-0.690563354845964,0.660310198215822,-0.690563354846676,0.119389016566443,0.093380612136099
60,0.120718656756809,0.0930333360677102,0.655618460362885,-0.694723268208804,0.655618460370152,-0.694723268210421,0.120635563324189,0.0931458841345216
60.5,0.121961263993008,0.0927806139018039,0.650902660245646,-0.69885055004022,0.650902660254115,-0.698850550042768,0.121876932362661,0.0928952267339974
61,0.123198526920312,0.0925120360466661,0.646163037752007,-0.702945097960696,0.646163037761641,-0.702945097964201,0.123112951501458,0.0926287489391419
61.5,0.12443027531267,0.0922277110543368,0.641399832306781,-0.707006812214743,0.641399832317542,-0.70700681221923,0.124343450962196,0.0923465599448763
62,0.125656341245794,0.0919277476027744,0.636613282809009,-0.71103559562607,0.636613282820859,-0.71103559563156,0.125568263292597,0.0920487690686124
62.5,0.126876559018881,0.0916122544321253,0.631803627577468,-0.715031353552036,0.631803627590366,-0.71503135355855,0.126787223288381,0.091735485685464
63,0.128090765074243,0.0912813402841036,0.626971104298301,-0.718993993837434,0.626971104312207,-0.71899399384499,0.128000167913022,0.0914068191665414
63.5,0.129298797914891,0.0909351138445236,0.622115949974719,-0.722923426767639,0.622115949989593,-0.722923426776253,0.129206936215429,0.0910628788203802
64,0.130500498020151,0.0905736836890458,0.617238400878722,-0.726819565021184,0.617238400894523,-0.726819565030871,0.130407369245596,0.0907037738375516
64.5,0.131695707759351,0.0901971582321843,0.612338692504804,-0.730682323621791,0.612338692521489,-0.730682323632565,0.131601309968283,0.0903296132385104
