"Freq [GHz]","re(St(P1,P1)) []","im(St(P1,P1)) []","re(St(P1,P2)) []","im(St(P1,P2)) []","re(St(P2,P1)) []","im(St(P2,P1)) []","re(St(P2,P2)) []","im(St(P2,P2)) []"
0,0.00518428521507985,0,0.99483298958512,0,0.994833004195243,0,0.00518428580068075,0
0.5,0.00575451643969416,-0.000887704014150614,0.99412347849697,-0.00973835895921482,0.994123479881463,-0.00973835906017939,0.00575489392683437,-0.000889163999808318
1,0.00618425932984401,-0.00248555657946525,0.993311628717986,-0.0187371078942853,0.99331162926212,-0.0187371079517185,0.00618518271509849,-0.0024890282386032
1.5,0.00635807933132604,-0.00422148907280295,0.992527521816257,-0.0275292476621551,0.992527522117133,-0.0275292479132183,0.00635939151534082,-0.00422719140685501
2,0.00633986765485162,-0.00595878110764225,0.991730378840403,-0.0362329884298802,0.991730378947185,-0.0362329886392079,0.00634144533817427,-0.00596676488378023
2.5,0.00620622085418399,-0.00765629004492041,0.990861142943952,-0.0448809740914484,0.990861142962922,-0.0448809742027372,0.00620800345279138,-0.00766655652792991
3,0.00599638067425046,-0.00930962736524599,0.989897949096163,-0.0534683329861103,0.989897949094067,-0.0534683330149051,0.0059983402496635,-0.00932217127949109
3.5,0.00573130234988239,-0.0109206341059629,0.988838502449135,-0.0619867786465225,0.988838502454766,-0.0619867786263129,0.00573342533812005,-0.0109354514748947
4,0.00542385645770738,-0.0124917391844432,0.987688531550146,-0.0704312568437997,0.987688531567876,-0.0704312568056427,0.00542613533761083,-0.0125088271792793
4.5,0.00508309127833484,-0.0140252268520911,0.986456310286935,-0.0788003788968119,0.986456310308136,-0.0788003788626011,0.00508552113860961,-0.0140445823060196
5,0.00471600278323103,-0.0155233339686705,0.985150142719444,-0.0870955821580219,0.985150142730665,-0.0870955821394475,0.00471858018905424,-0.0155449520629887
5.5,0.00432829388642664,-0.0169883944561491,0.983777262271569,-0.0953201606772467,0.983777262259997,-0.0953201606772556,0.00433101682225268,-0.0170122678634517
6,0.00392471592666344,-0.0184229108889564,0.982343439716389,-0.103478440051173,0.982343439673194,-0.103478440066448,0.00392758421412986,-0.0184490293607675
6.5,0.00350923587143415,-0.0198295612400212,0.980852954023975,-0.111575150135478,0.980852953946058,-0.111575150159101,0.00351225175021103,-0.0198579115544719
7,0.00308513249574005,-0.0212111660495582,0.979308740968055,-0.119614984714086,0.979308740858642,-0.119614984738049,0.00308830120181725,-0.0212417322228973
7.5,0.00265506569710064,-0.0225706369045264,0.977712615407461,-0.12760231692803,0.977712615275923,-0.127602316945291,0.00265839595486519,-0.0226034005768829
8,0.00222113711544381,-0.023910920228297,0.976065508838592,-0.135541034948728,0.976065508699797,-0.135541034954835,0.0022246415086144,-0.0239458611476548
8.5,0.00178494856780143,-0.025234944744267,0.974367691277345,-0.143434464915112,0.974367691150753,-0.143434464909353,0.00178864378372549,-0.0252720412882903
9,0.00134765969084182,-0.0265455769772829,0.972618963233476,-0.15128535352456,0.972618963142142,-0.151285353510707,0.00135156664973402,-0.0265848066683834
9.5,0.000910044150883457,-0.0278455865094167,0.970818813405218,-0.159095888745691,0.970818813374821,-0.159095888732438,0.000914188040331082,-0.0278869264927279
10,0.000472543201250945,-0.029137621062417,0.968966543171685,-0.166867742784586,0.96896654322961,-0.16686774278572,0.00047695343956948,-0.0291810485284127
10.5,0.00010914001695253,-0.0304848196193901,0.967076080925162,-0.174591068749979,0.967076080976881,-0.174591068758061,0.000114246455943975,-0.0305309161290483
11,-0.000277655715415673,-0.0318268129517563,0.965142228531186,-0.182279463219944,0.965142228576512,-0.182279463233441,-0.000271826473064757,-0.0318754954754006
11.5,-0.000687399985425857,-0.0331635575451319,0.963164500579135,-0.189934994690573,0.963164500618111,-0.189934994708107,-0.000680829099274805,-0.0332147531288478
12,-0.00111968504494336,-0.0344949549462914,0.961142311723561,-0.197559387060925,0.961142311756405,-0.197559387081287,-0.0011123591749751,-0.0345485999261252
12.5,-0.00157413733112288,-0.0358208636152235,0.95907502268807,-0.205154059016759,0.959075022715127,-0.205154059038903,-0.00156604688647943,-0.035876902760863
13,-0.00205041472420631,-0.0371411083514759,0.956961974552853,-0.212720161910994,0.956961974574565,-0.21272016193404,-0.00204155251960858,-0.0371994940096911
13.5,-0.00254820351836443,-0.0384554877547556,0.954802513670224,-0.220258615013962,0.954802513687086,-0.220258615037183,-0.00253856375230088,-0.0385161790340978
14,-0.00306721534494114,-0.0397637801085025,0.952596009216553,-0.227770137544004,0.952596009229093,-0.22777013756681,-0.00305679282960364,-0.0398267421276981
14.5,-0.00360718419310463,-0.0410657480072381,0.950341865054751,-0.235255277257713,0.950341865063508,-0.235255277279642,-0.0035959737799412,-0.0411309512173701
15,-0.00416786361005533,-0.0423611419884176,0.948039527272935,-0.242714435621434,0.948039527278446,-0.242714435642136,-0.00415585976649702,-0.0424285615712976
15.5,-0.00474902412170897,-0.0436497033782652,0.945688488493732,-0.250147889735564,0.945688488496514,-0.250147889754786,-0.0047362206241971,-0.0437193187187463
16,-0.0053504508885992,-0.0449311665186869,0.943288289817912,-0.25755581126817,0.943288289818456,-0.257555811285742,-0.0053368406047149,-0.0450029607461526
16.5,-0.00597194159545894,-0.0462052605078127,0.940838521074723,-0.26493828269463,0.940838521073488,-0.264938282710453,-0.00595751633408664,-0.0462792201007431
17,-0.00661330456347264,-0.0474717105589071,0.938338819895424,-0.272295311150726,0.938338819892835,-0.272295311164762,-0.00659805497671656,-0.0475478250060366
17.5,-0.00727435706907492,-0.0487302390602919,0.935788870001713,-0.279626840198665,0.935788869998156,-0.279626840210925,-0.00725827259341094,-0.0488085005719099
18,-0.00795492385084118,-0.0499805664012647,0.933188399001938,-0.286932759786406,0.933188398997761,-0.286932759796939,-0.00793799267790296,-0.0500609696645482
18.5,-0.00865483578553872,-0.0512224116152264,0.930537175910771,-0.294212914655902,0.930537175906281,-0.29421291466479,-0.0086370448551959,-0.0513049535880037
19,-0.00937392871489062,-0.0524554928802179,0.927835008548276,-0.301467111428563,0.927835008543744,-0.301467111435908,-0.00935526372502771,-0.0525401726180836
19.5,-0.0101120424057931,-0.0536795279085112,0.925081740928526,-0.308695124568924,0.925081740924188,-0.308695124574851,-0.0100924878345436,-0.0537663464208173
20,-0.0108690196281259,-0.0548942342501617,0.922277250713278,-0.315896701401385,0.922277250709337,-0.315896701406027,-0.0108485587653524,-0.0549831943808785
20.5,-0.0116447053358798,-0.0560993295300789,0.919421446780179,-0.323071566330671,0.919421446776805,-0.323071566334171,-0.0116233203214738,-0.0561904358600771
21,-0.0124389459388547,-0.0572945316340621,0.916514266935785,-0.330219424394972,0.916514266933119,-0.330219424397477,-0.0124166178060637,-0.0573877904017723
21.5,-0.0132515886536636,-0.0584795588559084,0.913555675789626,-0.337339964261254,0.913555675787784,-0.337339964262911,-0.0132282973760867,-0.058574977893729
22,-0.0140824809241463,-0.059654130015198,0.910545662795508,-0.344432860755422,0.910545662794581,-0.344432860756378,-0.0140582054654292,-0.0597517186993684
22.5,-0.0149314699025452,-0.0608179645532663,0.907484240459212,-0.351497777005263,0.90748424045927,-0.35149777700566,-0.0149061882680437,-0.0609177337652216
23,-0.015798401983882,-0.061970782613306,0.904371442707029,-0.358534366261521,0.904371442708125,-0.358534366261498,-0.0157720912737951,-0.0620727447108085
23.5,-0.0166831223870052,-0.063112305109289,0.901207323406475,-0.365542273451707,0.901207323408642,-0.365542273451397,-0.0166557588506115,-0.0632164739058365
24,-0.0175854747766014,-0.0642422537873826,0.897991955028718,-0.372521136512098,0.897991955031975,-0.372521136511624,-0.0175570338673672,-0.0643486445386094
24.5,-0.0185053009212629,-0.0653603512827416,0.894725427441357,-0.379470587535678,0.894725427445711,-0.379470587535157,-0.0184757573526571,-0.0654689806786932
25,-0.0194424403833446,-0.0664663211739824,0.891407846819875,-0.386390253767312,0.89140784682532,-0.386390253766854,-0.0194117681852779,-0.0665772073362716
25.5,-0.0203967302369347,-0.0675598880370734,0.888039334666289,-0.393279758471987,0.888039334672813,-0.393279758471693,-0.0203649028127713,-0.0676730505200733
26,-0.0213680048107618,-0.0686407775000553,0.884620026923961,-0.400138721697437,0.884620026931542,-0.400138721697398,-0.0213349949948889,-0.0687562372953729
26.5,-0.0223560954533017,-0.0697087162996592,0.881150073178186,-0.406966760948699,0.881150073186794,-0.406966760948999,-0.0223218755692672,-0.0698264958432284
27,-0.0233608303177183,-0.0707634323406394,0.877629635932937,-0.413763491789023,0.877629635942538,-0.413763491789738,-0.0233253722369562,-0.0708835555218514
27.5,-0.0243820341646079,-0.0718046547584603,0.874058889954965,-0.420528528378942,0.874058889965522,-0.42052852838014,-0.0243453093657816,-0.0719271469308123
28,-0.0254195281807971,-0.0728321139857997,0.870438021677255,-0.427261483963202,0.870438021688727,-0.427261483964944,-0.0253815078097913,-0.072957001978599
28.5,-0.0264731298126916,-0.0738455418232198,0.866767228654646,-0.433961971313472,0.866767228666986,-0.433961971315811,-0.0264337847432855,-0.0739728539539362
29,-0.0275426526128839,-0.074844671514249,0.863046719065191,-0.440629603133301,0.863046719078356,-0.440629603136284,-0.0275019535081371,-0.0749744376011303
29.5,-0.0286279060989185,-0.075829237825042,0.859276711251573,-0.447263992430639,0.859276711265514,-0.447263992434304,-0.0285858234732941,-0.0759614891996756
30,-0.0297286956232647,-0.0767989771287001,0.855457433297501,-0.453864752862194,0.855457433312173,-0.453864752866576,-0.0296851999055068,-0.0769337466482001
30.5,-0.0308448222536966,-0.07775362749433,0.851589122634693,-0.460431499053222,0.851589122650046,-0.460431499058347,-0.0307998838504808,-0.0778909495528812
31,-0.0319760826633965,-0.0786929287808087,0.847672025676525,-0.466963846895564,0.847672025692513,-0.466963846901455,-0.0319296720237462,-0.0788328393203082
31.5,-0.0331222690301966,-0.0796166227352597,0.843706397474987,-0.473461413826354,0.843706397491563,-0.473461413833029,-0.0330743567106794,-0.079759159254823
32,-0.0342831689444764,-0.0805244530961448,0.839692501397982,-0.479923819089294,0.839692501415101,-0.479923819096767,-0.0342337256751504,-0.0806696546602623
32.5,-0.035458565325305,-0.0814161657009178,0.835630608824427,-0.486350683980125,0.835630608842043,-0.486350683988404,-0.0354075620764078,-0.0815640729460558
33,-0.0366482363444897,-0.0822915085981222,0.831520998854922,-0.492741632077587,0.831520998872994,-0.492741632086679,-0.0365956443938336,-0.0824421637375909
33.5,-0.037851955358246,-0.083150232163816,0.827363958036123,-0.499096289461006,0.827363958054608,-0.499096289470909,-0.0377977463592862,-0.0833036789907163
34,-0.0390694908462687,-0.0839920892221875,0.823159780097135,-0.505414284915384,0.823159780115994,-0.505414284926099,-0.0390136368967937,-0.0841483731102919
34.5,-0.0403006063580098,-0.0848168351702167,0.818908765696564,-0.511695250124825,0.81890876571576,-0.511695250136347,-0.0402430800694017,-0.0849760030726151
35,-0.0415450604660305,-0.0856242281062287,0.814611222178995,-0.517938819854921,0.81461122219849,-0.517938819867245,-0.0414858350330322,-0.0857863285516061
35.5,-0.0428026067263057,-0.0864140289621571,0.810267463339879,-0.524144632124706,0.810267463359641,-0.524144632137822,-0.0427416559972195,-0.0865791120485654
36,-0.0440729936454065,-0.0871860016393525,0.805877809197972,-0.530312328368661,0.805877809217967,-0.530312328382557,-0.0440102921926473,-0.0873541190253551
36.5,-0.045355964654493,-0.0879399131477394,0.801442585774545,-0.536441553589232,0.801442585794744,-0.536441553603897,-0.0452914878454067,-0.0881111180408052
37,-0.0466512580900924,-0.0886755337481404,0.796962124878775,-0.542531956500263,0.79696212489915,-0.542531956515683,-0.0465849821579434,-0.0888498808901799
37.5,-0.0479586071816298,-0.0893926370975423,0.792436763898753,-0.548583189661706,0.792436763919277,-0.548583189677865,-0.0478905092966546,-0.089570182747485
38,-0.0492777400457198,-0.0900910003971205,0.787866845597668,-0.554594909605941,0.787866845618316,-0.554594909622822,-0.0492077983861359,-0.0902718023104339
38.5,-0.0506083796872103,-0.0907704045427822,0.783252717914789,-0.560566776956033,0.78325271793554,-0.560566776973619,-0.0505365735100607,-0.0909545219478496
39,-0.0519502440070086,-0.0914306342780157,0.778594733770913,-0.566498456536208,0.778594733791745,-0.566498456554481,-0.0518765537187214,-0.0916181278492856
39.5,-0.0533030458167054,-0.092071478348814,0.773893250878014,-0.572389617474843,0.773893250898906,-0.572389617493783,-0.0532274530432315,-0.0922624101766508
40,-0.0546664928600261,-0.0926927296604261,0.769148631552862,-0.57823993330021,0.769148631573799,-0.578239933319799,-0.0545889805164191,-0.0928871632175964
40.5,-0.0560402878411458,-0.0932941854357032,0.76436124253443,-0.584049082029271,0.764361242555395,-0.584049082049489,-0.0559608402004438,-0.093492185540434
41,-0.0574241284598956,-0.0938756473747794,0.759531454804903,-0.589816746249728,0.759531454825881,-0.589816746270555,-0.0573427312211491,-0.0940772801503378
41.5,-0.0588177074539037,-0.0944369218158336,0.754659643414182,-0.595542613195593,0.754659643435161,-0.595542613217007,-0.0587343478091945,-0.0946422546465834
42,-0.060220712647696,-0.0949778198966705,0.749746187307749,-0.601226374816504,0.749746187328717,-0.601226374838487,-0.0601353793479952,-0.0951869213805667
42.5,-0.0616328270087951,-0.0954981577168457,0.744791469157802,-0.606867727841008,0.744791469178748,-0.606867727863539,-0.0615455104284783,-0.0957110976143389
43,-0.0630537287108437,-0.09599775650007,0.739795875197576,-0.61246637383403,0.739795875218491,-0.612466373857089,-0.0629644209107095,-0.0962146056793964
43.5,-0.0644830912037762,-0.0964764427566029,0.734759795058785,-0.618022019248741,0.734759795079661,-0.618022019272307,-0.0643917859923816,-0.0966972731354468
44,-0.0659205832910547,-0.0969340484453569,0.72968362161212,-0.62353437547303,0.729683621632951,-0.623534375497083,-0.0658272762841944,-0.0971589329288789
44.5,-0.0673658692139904,-0.0973704111354173,0.724567750810752,-0.629003158870781,0.724567750831531,-0.629003158895302,-0.0672705578921348,-0.0975994235506512
45,-0.0688186087431449,-0.0977853741666908,0.719412581536801,-0.634428090818153,0.719412581557523,-0.634428090843123,-0.0687212925066501,-0.0980185891933169
45.5,-0.0702784572768168,-0.098178786809377,0.714218515450716,-0.639808897735049,0.714218515471377,-0.639808897760447,-0.0701791374987235,-0.0984162799068938
46,-0.0717450659465999,-0.0985505044219622,0.708985956843558,-0.645145311111951,0.708985956864155,-0.645145311137759,-0.0716437460228211,-0.0987923517532824
46.5,-0.0732180817299932,-0.0989003886074408,0.703715312492123,-0.65043706753232,0.703715312512655,-0.650437067558521,-0.0731147671267066,-0.099146666958944
47,-0.0746971475700302,-0.0992283073674346,0.698406991516905,-0.655683908690715,0.698406991537368,-0.655683908717289,-0.0745918458680681,-0.0994790940655277
47.5,-0.0761819025018924,-0.099534135253927,0.693061405242847,-0.660885581406807,0.69306140526324,-0.660885581433737,-0.0760746234379476,-0.0997895080781585
48,-0.07767198178645,-0.0998177535182745,0.687678967062878,-0.666041837635449,0.687678967083201,-0.666041837662718,-0.0775627372908839,-0.100077790611071
48.5,-0.0791670170506689,-0.100079050257201,0.6822600923042,-0.671152434472964,0.682260092324452,-0.671152434500556,-0.0790558212817364,-0.10034383003029
49,-0.0806666364348148,-0.100317920555452,0.676805198097297,-0.676217134159805,0.67680519811748,-0.676217134187702,-0.0805535058090964,-0.100587521593058
49.5,-0.0821704647463569,-0.100534266624794,0.67131470324767,-0.681235704079721,0.671314703267784,-0.681235704107908,-0.0820554179652102,-0.100808767583692
50,-0.0836781236204849,-0.100727997939054,0.66578902811024,-0.686207916755597,0.665789028130286,-0.686207916784057,-0.0835611816923078,-0.10100747744557
50.5,-0.0851892316871206,-0.10089903136487,0.66022859446643,-0.691133549842081,0.660228594486409,-0.691133549870801,-0.0850704179452355,-0.101183567908957
51,-0.0867034047443012,-0.101047291287865,0.654633825403888,-0.696012386115155,0.654633825423802,-0.696012386144119,-0.0865827448602619,-0.101336963114336
51.5,-0.088220255937801,-0.101172709733909,0.649005145198841,-0.70084421345876,0.649005145218691,-0.700844213487954,-0.0880977779299269,-0.10146759473098
52,-0.0897393959468366,-0.101275226485187,0.643342979201048,-0.705628824848614,0.643342979220838,-0.705628824878024,-0.0896151301837902,-0.101575402070442
52.5,-0.0912604331756999,-0.101354789190754,0.637647753721344,-0.710366018333342,0.637647753741075,-0.710366018362956,-0.0911344123749046,-0.101660332194674
53,-0.0927829739511384,-0.101411353471288,0.631919895921745,-0.715055597013028,0.63191989594142,-0.715055597042831,-0.0926552331718621,-0.101722340018497
53.5,-0.0943066227252967,-0.10144488301774,0.626159833708102,-0.719697369015309,0.626159833727723,-0.719697369045289,-0.0941771993562107,-0.101761388406115
54,-0.0958309822840182,-0.101455349683604,0.620367995625274,-0.724291147469122,0.620367995644843,-0.724291147499267,-0.0956999160250568,-0.101777448261413
54.5,-0.0973556539602958,-0.10144273357051,0.614544810754809,-0.728836750476203,0.614544810774328,-0.7288367505065,-0.0972229867986324,-0.101770498611743
55,-0.098880237852644,-0.101407023106877,0.608690708615107,-0.73333400108044,0.60869070863458,-0.733334001110878,-0.0987460140326185,-0.10174052668495
55.5,-0.100404333048158,-0.10134821511935,0.602806119064047,-0.737782727235195,0.602806119083475,-0.737782727265762,-0.10026859903498,-0.101687527979359
56,-0.101927537850006,-0.101266314896765,0.596891472204052,-0.742182761768664,0.596891472223438,-0.74218276179935,-0.101790342287078,-0.101611506326473
56.5,-0.103449450009108,-0.101161336246381,0.590947198289576,-0.746533942347392,0.590947198308923,-0.746533942378185,-0.103310843668799,-0.101512473946138
57,-0.10496966695971,-0.101033301542144,0.584973727636997,-0.750836111438012,0.584973727656305,-0.750836111468903,-0.104829702687433,-0.101390451493935
57.5,-0.106487786058601,-0.100882241764747,0.578971490536877,-0.755089116267317,0.57897149055615,-0.755089116298294,-0.106346518710037,-0.101245468100554
58,-0.108003404827654,-0.100708196533249,0.572940917168594,-0.759292808780722,0.572940917187832,-0.759292808811775,-0.107860891198978,-0.101077561402957
58.5,-0.109516121199418,-0.100511214128048,0.566882437517295,-0.76344704559922,0.566882437536501,-0.76344704563034,-0.109372419950389,-0.100886777567084
59,-0.111025533765436,-0.100291351505003,0.56079648129318,-0.767551687974901,0.560796481312354,-0.767551688006078,-0.110880705335214,-0.100673171301923
59.5,-0.11253124202699,-0.100048674300499,0.554683477853067,-0.771606601745103,0.55468347787221,-0.771606601776328,-0.112385348542536,-0.100436805864742
60,-0.114032846647942,-0.0997832568272727,0.548543856124239,-0.775611657285284,0.548543856143352,-0.775611657316546,-0.113885951824889,-0.10017775305729
60.5,-0.115529949709346,-0.0994951820608369,0.542378044530536,-0.77956672946067,0.54237804454962,-0.77956672949196,-0.115382118745208,-0.0998960932128151
61,-0.11702215496551,-0.0991845416163137,0.536186470920682,-0.783471697576761,0.536186470939737,-0.783471697608071,-0.116873454425102,-0.0995919151737038
61.5,-0.118509068101158,-0.0988514357155446,0.529969562498818,-0.787326445328758,0.529969562517845,-0.787326445360077,-0.118359565794123,-0.0992653162596218
62,-0.119990296989367,-0.0984959731443202,0.523727745757221,-0.791130860749966,0.523727745776219,-0.791130860781285,-0.119840061839686,-0.0989164022259778
62.5,-0.121465451949929,-0.098118271199597,0.517461446411194,-0.794884836159252,0.517461446430161,-0.794884836190563,-0.121314553857307,-0.0985452872125969
