"Freq [GHz]","re(St(P1,P1)) []","im(St(P1,P1)) []","re(St(P1,P2)) []","im(St(P1,P2)) []","re(St(P2,P1)) []","im(St(P2,P1)) []","re(St(P2,P2)) []","im(St(P2,P2)) []"
0,0.00552037418418649,0,0.994488848620676,0,0.994488851749338,0,0.00552037836934005,0
0.5,0.00603970308315382,0.000484547859965545,0.993831149919021,-0.00957042548900944,0.993831150997295,-0.0095704279153459,0.00603972977913969,0.000484793484048396
1,0.00644198265979057,0.000342816730533713,0.993059153552869,-0.0184745017791741,0.993059153180411,-0.018474501743647,0.00644205037797896,0.000343334264890416
1.5,0.00662121181111797,7.85772101608018E-005,0.992274450067132,-0.0271834978041099,0.992274449870248,-0.0271834976049092,0.00662142311314184,7.94277221807249E-005
2,0.00664281523251642,-0.000180261429115092,0.991453916492222,-0.035791908739883,0.991453916438972,-0.0357919085670826,0.00664324327317178,-0.000179102389163077
2.5,0.00657606730411375,-0.00039793930257126,0.990550488240324,-0.0443296526950174,0.990550488243402,-0.0443296525990586,0.00657677824859215,-0.000396484203314174
3,0.00645651532507019,-0.000570177068921041,0.989548598978052,-0.0527922297453305,0.98954859897837,-0.0527922297162569,0.00645757966198168,-0.000568439096143791
3.5,0.00630385350570672,-0.00069790212519738,0.988450050419749,-0.0611722373145023,0.988450050388459,-0.0611722373252714,0.00630534386316994,-0.000695902093873713
4,0.00613101655076842,-0.000782700626618116,0.987263603109571,-0.0694657878206097,0.987263603038617,-0.0694657878441998,0.00613300295875141,-0.000780468884516772
4.5,0.00594784793332326,-0.000826397199727325,0.985999836136455,-0.0776728865624632,0.985999836030122,-0.0776728865780161,0.00595039330061475,-0.00082397218445518
5,0.00576251532150929,-0.000831266047291557,0.984668761055543,-0.085796503905553,0.984668760924328,-0.0857965038999211,0.00576567237363435,-0.000828690566415879
5.5,0.00558200861237945,-0.000800211463928946,0.983278808308492,-0.0938415063536322,0.983278808164898,-0.0938415063209268,0.00558581903381611,-0.000797527776281726
6,0.00541226368502035,-0.000736817024401759,0.981836519562975,-0.101813746183068,0.98183651941882,-0.10181374612333,0.00541675971471006,-0.000734061910685924
6.5,0.00525814843833128,-0.000645275534858492,0.980346602977998,-0.109719373847846,0.980346602842831,-0.109719373765485,0.00526335662897223,-0.000642476489433719
7,0.00512342234606628,-0.000530233658900592,0.978812161262725,-0.117564362519976,0.978812161143054,-0.117564362422256,0.00512936873541972,-0.000527407049323969
7.5,0.005010722738216,-0.000396587664004855,0.977234983835155,-0.125354209029664,0.97723498373422,-0.125354208925371,0.00501743841175688,-0.000393739250462044
8,0.0049215996643714,-0.000249263885929274,0.975615842361233,-0.133093769812822,0.97561584227913,-0.133093769711211,0.00492912566814737,-0.00024639158962092
8.5,0.00485660222929561,-9.30118011699399E-005,0.973954758477941,-0.140787193453749,0.973954758411949,-0.140787193363747,0.00486499299840585,-9.0110185670067E-005
9,0.00481540777219896,6.77700283775451E-005,0.9722512305272,-0.148437917927054,0.972251230472205,-0.148437917856687,0.00482473259293412,7.07043563599186E-005
9.5,0.00479697927776575,0.00022916328599365,0.970504416625359,-0.156048707968079,0.970504416574302,-0.156048707924104,0.00480732169472865,0.000232126210495842
10,0.00479973475271506,0.00038781059163906,0.968713276997994,-0.163621714740304,0.968713276942308,-0.163621714727989,0.00481119017214821,0.000390785699373897
10.5,0.00484406016774341,0.000547566898457141,0.96689481154793,-0.171144830209579,0.966894811501975,-0.171144830189412,0.00485727074380965,0.000550595376530794
11,0.00490116161765697,0.000699207800034074,0.965040474948799,-0.178635153420272,0.965040474912525,-0.178635153394352,0.00491607864244845,0.000702167465345571
11.5,0.00496969320507509,0.000842474694525475,0.963149432908816,-0.186094990424502,0.963149432881892,-0.186094990394665,0.00498627024594772,0.000845267861123489
12,0.00504845456805322,0.000977203100684498,0.961220785653287,-0.193526255314954,0.961220785635185,-0.193526255282768,0.00506664959907896,0.000979752105158216
12.5,0.00513637121024876,0.00110329869919878,0.959253612884442,-0.200930521606099,0.959253612874496,-0.200930521572874,0.0051561478978657,0.00110554210231317
13,0.00523247718631817,0.00122071970348969,0.957247005742189,-0.208309069731516,0.957247005739647,-0.208309069698323,0.00525380558643154,0.0012226090941434
13.5,0.00533590011329921,0.00132946389865474,0.955200088688093,-0.21566292985702,0.955200088692163,-0.215662929824712,0.00535875696364466,0.00133096121992171
14,0.00544584833967562,0.0014295591153779,0.953112033720951,-0.222992919751512,0.953112033730831,-0.222992919720745,0.00547021707795284,0.00143063443535585
14.5,0.00556160004346218,0.00152105622694121,0.950982068864146,-0.230299677803949,0.950982068879051,-0.230299677775212,0.00558747064337861,0.00152168588449619
15,0.0056824940147524,0.00160402399660087,0.948809482458816,-0.237583691481826,0.948809482477994,-0.237583691455458,0.00570986270469231,0.00160418906094195
15.5,0.00580792188629925,0.00167854527978561,0.946593624456396,-0.244845321636961,0.946593624479143,-0.244845321613178,0.00583679079578736,0.00167823027172642
16,0.00593732159546828,0.00174471421635514,0.944333905625585,-0.25208482311052,0.944333905651252,-0.252084823089438,0.00596769836076044,0.00174390604740893
16.5,0.00607017188543091,0.00180263414460091,0.942029795365431,-0.259302362094108,0.942029795393429,-0.259302362075754,0.00610206923575807,0.0018013212373289
17,0.00620598767870517,0.00185241603983055,0.939680818639842,-0.266498030683491,0.939680818669645,-0.266498030667829,0.00623942301780567,0.00185058759913015
17.5,0.00634431618012471,0.00189417733272501,0.937286552411372,-0.2736718590275,0.937286552442514,-0.273671859014438,0.00637931117284701,0.00189182274301047
18,0.00648473358802165,0.00192804100137978,0.934846621846271,-0.28082382543388,0.93484662187835,-0.28082382542329,0.0065213137583886,0.00192514932900689
18.5,0.00662684231150945,0.00195413485941764,0.932360696482149,-0.287953864751429,0.932360696514818,-0.287953864743151,0.00666503665627655,0.0019506944432901
19,0.00677026860827235,0.00197259098365987,0.929828486488834,-0.295061875306231,0.929828486521799,-0.295061875300089,0.00681010922837644,0.00196858909994568
19.5,0.00691466057135381,0.00198354524037558,0.927249739107742,-0.302147724631159,0.92724973914076,-0.302147724626962,0.00695618232253004,0.00197896782967266
20,0.00705968640536986,0.00198713688059771,0.924624235321773,-0.309211254192674,0.924624235354647,-0.309211254190231,0.00710292656845191,0.00198196832787056
20.5,0.00720503294260522,0.00198350818346182,0.921951786783616,-0.316252283287758,0.92195178681619,-0.316252283286875,0.00725003091351351,0.00197773114269695
21,0.00735040435785128,0.00197280413277823,0.919232233013151,-0.323270612256438,0.919232233045304,-0.323270612256924,0.00739720135693756,0.00196639938959553
21.5,0.00749552104788048,0.00195517211654561,0.916465438862716,-0.330266025131803,0.91646543889436,-0.330266025133477,0.0075441598480907,0.00194811848312004
22,0.00764011864730935,0.00193076164252615,0.913651292240974,-0.337238291829061,0.913651292272048,-0.33723829183175,0.00769064332048119,0.00192303588002885
22.5,0.00778394715746755,0.00189972406535865,0.910789702080977,-0.344187169957993,0.910789702111445,-0.344187169961537,0.00783640283802761,0.00189130082986133
23,0.00792677016898202,0.00186221232244521,0.907880596534999,-0.351112406328565,0.907880596564845,-0.351112406332816,0.00798120283424419,0.00185306413083564
23.5,0.00806836416213225,0.00181838067707818,0.904923921377218,-0.35801373820717,0.904923921406445,-0.358013738211995,0.00812482042840945,0.00180847789002936
24,0.00820851787185911,0.00176838446809602,0.901919638594872,-0.364890894370741,0.901919638623494,-0.364890894376019,0.00826704480559293,0.00175769528753822
24.5,0.00834703170664092,0.00171237986598016,0.898867725148841,-0.37174359599736,0.898867725176884,-0.371743596002985,0.0084076766497731,0.0017008703448822
25,0.00848371721237717,0.00165052363562301,0.895768171885392,-0.378571557424916,0.895768171912892,-0.378571557430794,0.00854652762120417,0.00163815769816922
25.5,0.00861839657404551,0.00158297290625931,0.892620982581954,-0.385374486803424,0.892620982608952,-0.385374486809477,0.00868341987082066,0.00156971237676418
26,0.00875090214920826,0.00150988494913751,0.889426173111016,-0.392152086661796,0.88942617313756,-0.392152086667957,0.00881818558578407,0.00149568958824942
26.5,0.00888107602856253,0.0014314169635703,0.886183770707684,-0.398904054405799,0.886183770733823,-0.398904054412011,0.0089506665613911,0.00141624451048994
27,0.0090087696196392,0.0013477258719734,0.882893813327725,-0.405630082760693,0.88289381335351,-0.405630082766913,0.00908071379546427,0.00133153209157189
27.5,0.00913384325049571,0.00125896812445214,0.87955634908433,-0.412329860169333,0.879556349109813,-0.412329860175526,0.00920818710211335,0.00124170685831215
28,0.00925616579088157,0.00116529951342659,0.876171435753077,-0.419003071154331,0.876171435778309,-0.419003071160473,0.00933295474234802,0.00114692273394601
28.5,0.00937561428885214,0.00106687499869085,0.872739140335771,-0.425649396651105,0.872739140360801,-0.425649396657181,0.00945489306955793,0.00104733286549252
29,0.00949207362122056,0.000963848543229062,0.869259538674967,-0.432268514317186,0.86925953869984,-0.432268514323186,0.00957388618826921,0.000943089461205249
29.5,0.00960543615659037,0.000856372959978202,0.865732715111959,-0.438860098822021,0.865732715136722,-0.438860098827945,0.00968982562492987,0.000834343638396517
30,0.0097156014299592,0.000744599769681553,0.86215876218198,-0.445423822120551,0.862158762206673,-0.445423822126402,0.00980261000975385,0.000721245281833593
30.5,0.0098224758281289,0.000628679069847871,0.858537780341116,-0.451959353713117,0.858537780365777,-0.451959353718905,0.00991214476886987,0.000603942912801303
31,0.009925972285315,0.000508759414782567,0.854869877720229,-0.458466360893665,0.85486987774489,-0.458466360899404,0.0100183418261852,0.000482583568843453
31.5,0.0100260099884952,0.000384987706559481,0.851155169901801,-0.464944508987723,0.851155169926491,-0.464944508993432,0.010121119314538,0.000357312694114986
32,0.0101225140921465,0.000257509096751929,0.847393779716194,-0.471393461581304,0.847393779740939,-0.471393461587002,0.0102204012957905,0.000228274040205645
32.5,0.0102154154420934,0.000126466898676791,0.843585837054322,-0.477812880741555,0.843585837079142,-0.477812880747266,0.0103161174896224,9.56095772286503E-005
33,0.0103046503082694,-7.99749014546158E-006,0.839731478694175,-0.484202427229818,0.839731478719088,-0.484202427235567,0.0104082030108283,-4.05405850779639E-005
33.5,0.0103901601262238,-0.000145744655644209,0.835830848139026,-0.490561760707519,0.835830848164044,-0.490561760713333,0.0104965981149863,-0.000180038266534788
34,0.010471891247247,-0.000286637225346942,0.831884095465456,-0.496890539935271,0.831884095490588,-0.496890539941176,0.0105812479523819,-0.000322747276344293
34.5,0.0105497946970118,-0.000430539917410266,0.827891377179671,-0.503188422965399,0.827891377204921,-0.503188422971422,0.0106621023301017,-0.000468533463904408
35,0.0106238259426411,-0.00057731958096241,0.823852856080782,-0.509455067328092,0.823852856106153,-0.509455067334262,0.0107391154822264,-0.000617264761023528
35.5,0.0106939446681029,-0.00072684522819233,0.819768701129969,-0.515690130211316,0.819768701155458,-0.51569013021766,0.0108122458480525,-0.000768811215945853
36,0.0107601145578758,-0.000878988058623964,0.815639087324607,-0.521893268634578,0.815639087350209,-0.521893268641122,0.0108814558582774,-0.000923045019608382
36.5,0.0108223030887691,-0.00103362147604402,0.811464195576616,-0.528064139616646,0.811464195602323,-0.528064139623416,0.0109467117290815,-0.00107984052457488
37,0.0108804813298367,-0.00119062109851997,0.807244212594405,-0.534202400337289,0.807244212620207,-0.53420240034431,0.0110079832640354,-0.00123907425707337
37.5,0.0109346237502651,-0.00134986476197785,0.802979330767897,-0.540307708293115,0.802979330793778,-0.540307708300409,0.011065243663747,-0.0014006249225883
38,0.01098470803515,-0.00151123251777452,0.798669748056232,-0.546379721447576,0.798669748082178,-0.546379721455166,0.0111184693431631,-0.00156437340543203
38.5,0.0110307149090311,-0.0016746066247133,0.794315667877813,-0.552418098375229,0.794315667903806,-0.552418098383134,0.011167639756426,-0.00173020276273161
39,0.0110726279670761,-0.00183987153593412,0.78991729900242,-0.558422498400319,0.789917299028439,-0.558422498408557,0.011212737229175,-0.00189799821325354
39.5,0.0111104335137733,-0.00200691388108576,0.785474855445185,-0.564392581729785,0.78547485547121,-0.564392581738372,0.0112537467981785,-0.00206764712146956
40,0.0111441204089957,-0.0021756224442061,0.78098855636227,-0.570328009580791,0.780988556388277,-0.570328009589741,0.0112906560581649,-0.00223903897727162
40.5,0.0111736799212898,-0.002345888137679,0.776458625948103,-0.576228444302871,0.776458625974068,-0.576228444312197,0.0113234550157195,-0.00241206537171357
41,0.0111991055882223,-0.00251760397267053,0.771885293334096,-0.582093549494823,0.771885293359995,-0.582093549504535,0.0113521359500975,-0.00258661996916254
41.5,0.0112203930836406,-0.00269066502637172,0.767268792488759,-0.587922990116443,0.767268792514566,-0.587922990126549,0.0113766932808136,-0.00276259847619587
42,0.0112375400916541,-0.00286496840642791,0.762609362119164,-0.593716432595253,0.762609362144852,-0.593716432605757,0.0113971234418284,-0.00293989860761024
42.5,0.0112505461871762,-0.00304041321285176,0.757907245573718,-0.599473544928324,0.757907245599263,-0.599473544939233,0.0114134247621911,-0.00311842004984519
43,0.0112594127228521,-0.0032169004977507,0.753162690746244,-0.605193996779364,0.753162690771616,-0.605193996790678,0.0114255973529485,-0.0032980644221412
43.5,0.0112641427221686,-0.00339433322314653,0.748375949981316,-0.610877459571157,0.748375950006489,-0.610877459582875,0.011433643000162,-0.00347873523572073
44,0.0112647407785837,-0.00357261621717964,0.743547279980893,-0.616523606573548,0.743547280005841,-0.616523606585669,0.0114375650638466,-0.00366033785127085
44.5,0.0112612129604779,-0.00375165612894324,0.738676941712208,-0.622132112987074,0.738676941736904,-0.622132112999594,0.0114373683826569,-0.0038427794349819
45,0.0112535667217374,-0.0039313613822034,0.733765200316945,-0.627702656022403,0.733765200341363,-0.627702656035316,0.0114330591841393,-0.00402596891339302
45.5,0.0112418108177845,-0.00411164212823067,0.728812325021696,-0.633234914975716,0.72881232504581,-0.633234914989013,0.0114246450003679,-0.00420981692726941
46,0.0112259552268667,-0.00429241019795013,0.723818589049711,-0.638728571300177,0.723818589073496,-0.63872857131385,0.0114121345887839,-0.0043942357847282
46.5,0.011206011076415,-0.00447357905362367,0.718784269533944,-0.644183308673631,0.718784269557376,-0.644183308687668,0.0113955378580573,-0.00457913941381194
47,0.0111819905742854,-0.0046550637402335,0.713709647431417,-0.649598813062664,0.713709647454473,-0.649598813077053,0.0113748657987859,-0.0047644433146975
47.5,0.0111539069447046,-0.00483678083675154,0.70859500743889,-0.65497477278317,0.708595007461546,-0.654974772797896,0.0113501304188667,-0.00495006451170699
48,0.011121774368729,-0.00501864840744914,0.70344063790986,-0.660310878557557,0.703440637932096,-0.660310878572605,0.0113213446833433,-0.00513592150529496
48.5,0.0110856079290454,-0.00520058595339057,0.698246830772893,-0.665606823568717,0.698246830794688,-0.665606823584071,0.011288522458573,-0.00532193422414673
49,0.0110454235589372,-0.00538251436425408,0.693013881451281,-0.670862303510902,0.693013881472615,-0.670862303526542,0.0112516784605317,-0.00550802397753036
49.5,0.0110012379952374,-0.00556435587059689,0.687742088784046,-0.676077016637618,0.687742088804903,-0.676077016653527,0.0112108282070927,-0.00569411340803128
50,0.0109530687351077,-0.00574603399668655,0.682431754948279,-0.681250663806678,0.682431754968641,-0.681250663822836,0.0111659879741113,-0.0058801264447827
50.5,0.010900933996472,-0.00592747351399164,0.677083185382814,-0.686382948522503,0.677083185402666,-0.686382948538889,0.0111171747551601,-0.00606598825729548
51,0.0108448526819475,-0.00610860039544447,0.671696688713247,-0.691473576975823,0.671696688732575,-0.691473576992415,0.0110644062247451,-0.00625162520999317
51.5,0.0107848443461137,-0.00628934177054558,0.666272576678286,-0.696522258080862,0.666272576697078,-0.696522258097637,0.0110077007048639,-0.0064369648175307
52,0.0107209291659682,-0.00646962588139832,0.660811164057432,-0.701528703510126,0.660811164075676,-0.701528703527063,0.0109470771347432,-0.00662193570098779
52.5,0.0106531279144177,-0.00664938203974874,0.655312768599983,-0.706492627726903,0.655312768617669,-0.706492627743977,0.0108825550436156,-0.00680646754500286
53,0.0105814619366654,-0.0068285405850832,0.649777710955357,-0.711413748015563,0.649777710972478,-0.711413748032751,0.0108141545263929,-0.00699049105591565
53.5,0.0105059531293481,-0.00700703284385351,0.644206314604728,-0.716291784509768,0.644206314621277,-0.716291784527046,0.0107418962221,-0.00717393792098348
54,0.0104266239222932,-0.0071847910898758,0.638598905793955,-0.721126460218679,0.638598905809926,-0.721126460236022,0.0106658012949278,-0.00735674076871906
54.5,0.0103434972627564,-0.00736174850595217,0.632955813467805,-0.72591750105125,0.632955813483193,-0.725917501068634,0.0105858914177854,-0.00753883313039921
55,0.0102565966020204,-0.00753783914675882,0.627277369205455,-0.7306646358387,0.627277369220259,-0.7306646358561,0.0105021887582212,-0.00772014940279314
55.5,0.0101659458842268,-0.00771299790302737,0.621563907157262,-0.735367596355241,0.62156390717148,-0.735367596372633,0.0104147159665867,-0.00790062481214138
56,0.0100715695373208,-0.00788716046706855,0.615815763982782,-0.740026117337147,0.615815763996416,-0.740026117354507,0.0103234961663343,-0.00808019537942278
56.5,0.0099734924659966,-0.00806026329965187,0.610033278790035,-0.744639936500239,0.610033278803087,-0.744639936517542,0.0102285529463245,-0.00825879788694373
57,0.00987174004652686,-0.00823224359827085,0.604216793075997,-0.749208794555853,0.604216793088468,-0.749208794573077,0.010129910355041,-0.00843636984626556
57.5,0.00976633812337058,-0.0084030392668189,0.598366650668298,-0.753732435225379,0.598366650680194,-0.7537324352425,0.0100275928966021,-0.0086128494675034
58,0.00965731300745654,-0.00857258888669143,0.592483197668127,-0.758210605253422,0.592483197679453,-0.758210605270415,0.00992162552846104,-0.0087881756300095
58.5,0.00954469147603626,-0.00874083168932144,0.586566782394312,-0.76264305441965,0.586566782405077,-0.762643054436494,0.00981203366070532,-0.00896228785446024
59,0.00942850077400986,-0.00890770753017933,0.58061775532858,-0.767029535549415,0.580617755338791,-0.76702953556609,0.00969884315684483,-0.00913512627635965
59.5,0.00930876861663194,-0.00907315686422677,0.574636469061946,-0.771369804523177,0.574636469071614,-0.77136980453966,0.00958208033600794,-0.00930663162097173
60,0.00918552319350308,-0.00923712072284744,0.56862327824227,-0.775663620284802,0.568623278251405,-0.775663620301072,0.00946177197644299,-0.00947674517968949
60.5,0.00905879317375846,-0.00939954069225207,0.562578539522905,-0.779910744848794,0.562578539531519,-0.779910744864832,0.00933794532024318,-0.00964540878784848
61,0.0089286077123642,-0.00956035889336654,0.556502611512469,-0.784110943306507,0.556502611520576,-0.784110943322295,0.00921062807920892,-0.0098125648039899
61.5,0.00879499645744597,-0.00971951796319698,0.5503958547257,-0.788263983831392,0.550395854733314,-0.788263983846911,0.00907984844176085,-0.00997815609057612
62,0.00865798955855435,-0.00987696103768909,0.544258631535384,-0.79236963768332,0.54425863154252,-0.792369637698554,0.00894563508082696,-0.0101421259961607
