"Freq [GHz]","re(St(P1,P1)) []","im(St(P1,P1)) []","re(St(P1,P2)) []","im(St(P1,P2)) []","re(St(P2,P1)) []","im(St(P2,P1)) []","re(St(P2,P2)) []","im(St(P2,P2)) []"
0,0.00698046894035542,0,0.993034770071972,0,0.993034765386255,0,0.00698046894495974,0
0.5,0.00747919512761186,0.0018116004833626,0.992437148459626,-0.00935934526309623,0.992437148848126,-0.00935934540797234,0.00747917821706068,0.00181221910464124
1,0.00788812993654808,0.00306230509326078,0.991767142281736,-0.0181331724185423,0.991767142150099,-0.0181331725673282,0.00788808427017962,0.00306363540945753
1.5,0.00816894678554814,0.00420852073632716,0.991073509265269,-0.0267491611300219,0.991073509156133,-0.026749161147066,0.00816903323028129,0.00421065027805057
2,0.00834676734848827,0.00532990378079035,0.99034337608424,-0.0352769275205134,0.990343376029983,-0.0352769275014619,0.00834706441361854,0.00533274894181801
2.5,0.00847561174752753,0.0064663585667244,0.989537091821166,-0.0437454776117452,0.989537091801559,-0.0437454775956319,0.00847615457603323,0.00646985936027988
3,0.00858557752903755,0.00762393810938011,0.988640321037837,-0.0521528903540336,0.988640321033656,-0.0521528903495394,0.00858639083134749,0.00762804759636904
3.5,0.00869252548718502,0.00880162426510189,0.987653322786472,-0.0604939066168813,0.987653322786788,-0.06049390662176,0.00869362883155977,0.00880630000809912
4,0.00880559488811605,0.00999745947090869,0.986582246448378,-0.0687657956256782,0.986582246448786,-0.0687657956351115,0.00880700253440025,0.0100026608818524
4.5,0.00893078523580682,0.0112097030444236,0.985434776023364,-0.0769687942424868,0.985434776023363,-0.0769687942522639,0.00893250557705294,0.0112153914980109
5,0.00907258707133052,0.0124368885842516,0.984218139137418,-0.0851053543094658,0.984218139138372,-0.0851053543169646,0.00907462261151937,0.0124430286415391
5.5,0.00923473892909549,0.0136776773380385,0.982938299364091,-0.0931792655211341,0.982938299367841,-0.0931792655253139,0.00923708690818409,0.0136842383481914
6,0.00942058416779656,0.0149307069173581,0.981599744879648,-0.101194925888157,0.981599744887671,-0.101194925889224,0.0094232377984112,0.0149376646367996
6.5,0.00963323471240463,0.0161944721109593,0.980205570295958,-0.109156811268882,0.98020557030892,-0.109156811267801,0.00963618496619362,0.0162018101212627
7,0.00987563578869366,0.017467238264917,0.978757687056238,-0.11706912720638,0.978757687073816,-0.117069127204425,0.00987887365735232,0.017474949028029
7.5,0.010150576733806,0.0187469816471686,0.977257072180618,-0.124935606122693,0.977257072201492,-0.124935606121069,0.0101540958720336,0.0187550670653138
8,0.0104606708833477,0.0200313518731972,0.975704008106145,-0.132759410799453,0.975704008128098,-0.132759410799007,0.0104644705182234,0.020039823242926
8.5,0.0108083172148113,0.0213176530766122,0.974098291709919,-0.140543110093967,0.974098291729987,-0.140543110094985,0.0108124051813543,0.0213265303510188
9,0.0111956514697627,0.0226028417788884,0.97243940519618,-0.148288700109312,0.972439405210813,-0.148288700111387,0.0112000472092614,0.0226121520827589
9.5,0.011624492056592,0.0238835401759867,0.970726649397206,-0.155997651221624,0.970726649402427,-0.155997651223593,0.011629229396126,0.0238933155566108
10,0.012096284838007,0.0251560638918127,0.968959243786012,-0.163670967466552,0.968959243777571,-0.163670967466465,0.0121014143597572,0.0251663383327263
10.5,0.0126264538056082,0.0263467759155067,0.967142500469987,-0.171303711516297,0.967142500458066,-0.171303711518094,0.0126321919349041,0.0263577996038675
11,0.0131781953353591,0.0275268368349311,0.965280344975906,-0.178901033780981,0.965280344960529,-0.17890103378386,0.0131845314934439,0.0275385969696571
11.5,0.0137511006154094,0.0286956842185178,0.963372796941736,-0.186464783266764,0.963372796923055,-0.18646478327001,0.0137580256268575,0.028708164253775
12,0.014344762235277,0.0298527715951789,0.961419729907841,-0.193996538503644,0.961419729886103,-0.193996538506635,0.0143522685332824,0.0298659517758186
12.5,0.0149587734706089,0.0309975697545495,0.959420917487985,-0.201497629505291,0.959420917463509,-0.201497629507504,0.0149668552144319,0.0310114276253204
13,0.0155927276043426,0.0321295677492786,0.957376070050568,-0.208969161586437,0.957376070023721,-0.208969161587449,0.0156013807238413,0.0321440786285263
13.5,0.0162462173126644,0.0332482736363289,0.95528486331327,-0.216412039536726,0.955284863284448,-0.216412039536208,0.0162554394941008,0.0332634110485113
14,0.0169188341345725,0.0343532149933579,0.953146960185188,-0.22382699112899,0.953146960154802,-0.223826991126703,0.0169286247606253,0.0343689510576017
14.5,0.0176101680359146,0.0354439392441359,0.950962027067473,-0.231214589306328,0.95096202703593,-0.231214589302111,0.017620528091364,0.0354602450183046
15,0.0183198070725304,0.0365200138239752,0.948729745676076,-0.238575272664383,0.948729745643773,-0.238575272658148,0.0183307390254779,0.0365368596053508
15.5,0.0190473371523101,0.0375810262126914,0.946449821297994,-0.245909364041312,0.946449821265308,-0.245909364033035,0.01905884481923,0.0375983817975438
16,0.0197923418924728,0.0386265838591533,0.944121988246797,-0.25321708716463,0.944121988214078,-0.25321708715434,0.0198044302938926,0.0386444187641917
16.5,0.0205544025658956,0.0396563140179851,0.94174601315077,-0.260498581395726,0.941746013118335,-0.2604985813835,0.0205670777781598,0.039674597667122
17,0.0213330981287482,0.0406698635158431,0.939321696590415,-0.267753914671043,0.939321696558551,-0.267753914656995,0.0213463671361259,0.0406885653958635
17.5,0.0221280053207719,0.041666898461719,0.936848873501955,-0.274983094772873,0.936848873470912,-0.274983094757147,0.0221418758711366,0.0416859882504454
18,0.0229386988291523,0.0426471039131928,0.934327412679075,-0.282186079079576,0.934327412649066,-0.282186079062339,0.0229531792955988,0.0426665515836162
18.5,0.0237647515069375,0.0436101835083575,0.931757215635155,-0.289362782950148,0.931757215606358,-0.289362782931583,0.0237798507569933,0.043629959411966
19,0.0246057346372366,0.0445558590712105,0.929138215030752,-0.296513086895434,0.929138215003311,-0.296513086875736,0.0246214619107243,0.0445759340035099
19.5,0.0254612182348721,0.045483870196779,0.926470372824496,-0.303636842680757,0.92647037279852,-0.303636842660127,0.025477583031048,0.0455042154476912
20,0.0263307713777723,0.0463939738209327,0.923753678268003,-0.310733878494352,0.923753678243571,-0.310733878472993,0.0263477833519762,0.0464145612124827
20.5,0.0272139625610114,0.047285943778792,0.920988145835518,-0.317804003304264,0.92098814581268,-0.317804003282378,0.0272316314308099,0.0473067456921759
21,0.0281103600670817,0.0481595703547866,0.918173813155237,-0.324847010514123,0.918173813134016,-0.324847010491904,0.0281286955276764,0.0481805597486877
21.5,0.0290195323466707,0.0490146598267789,0.915310738990658,-0.33186268101617,0.915310738971053,-0.331862680993807,0.0290385439951942,0.049035810248498
22,0.0299410484048498,0.0498510340061318,0.912399001305749,-0.338850785728503,0.912399001287736,-0.338850785706174,0.0299607456730753,0.0498723195969017
22.5,0.0308744781881988,0.0506685297751948,0.909438695436479,-0.345811087692824,0.909438695420017,-0.345811087670696,0.0308948702831328,0.0506899252708275
23,0.0318193929689979,0.0514669986234082,0.906429932382649,-0.352743343799263,0.90642993236768,-0.352743343777491,0.0318404888207686,0.0514884793512531
23.5,0.0327753657231026,0.0522463061829757,0.903372837227409,-0.359647306196096,0.903372837213859,-0.359647306174818,0.032797173939579,0.0522678480560008
24,0.0337419714986612,0.0530063317649117,0.900267547686975,-0.366522723434305,0.90026754767476,-0.366522723413649,0.0337645003261996,0.053027911273585
24.5,0.034718787773225,0.0537469678961466,0.897114212789478,-0.373369341390071,0.897114212778504,-0.373369341370147,0.0347420450629882,0.0537685620986752
25,0.0357053947972371,0.0544681198582873,0.893912991679256,-0.380186904002079,0.893912991669421,-0.380186903982984,0.0357293879765337,0.0544897063696823
25.5,0.0367013759222226,0.0551697052286054,0.890664052541166,-0.38697515385528,0.890664052532364,-0.386975153837097,0.0367261119703521,0.0551912622089307
26,0.0377063179123286,0.0558516534237538,0.887367571638246,-0.393733832638005,0.887367571630365,-0.393733832620801,0.0377318033404438,0.0558731595658808
26.5,0.0387198112381391,0.0565139052467247,0.884023732455367,-0.400462681495349,0.884023732448294,-0.400462681479178,0.0387460520726775,0.056535339763816
27,0.0397414503519556,0.0571564124375341,0.880632724941119,-0.407161441298195,0.880632724934739,-0.407161441283097,0.0397684521212153,0.0571777550504651
27.5,0.0407708339439294,0.057779137228119,0.877194744840078,-0.413829852844245,0.877194744834278,-0.413829852830247,0.0407986016674131,0.0578003681529838
28,0.0418075651786604,0.058382051901934,0.87370999310767,-0.420467657004817,0.873709993102339,-0.420467656991936,0.0418361033588274,0.0584031518377514
28.5,0.0428512519120133,0.0589651383587205,0.870178675400069,-0.427074594828931,0.870178675395098,-0.42707459481717,0.0428805645281282,0.0589860884754403
29,0.0439015068880841,0.059528387684936,0.866601001631879,-0.433650407614295,0.866601001627162,-0.433650407603648,0.0439315973918646,0.0595491696118089
29.5,0.0449579479163564,0.0600717997303105,0.862977185594748,-0.440194836953153,0.862977185590186,-0.440194836943604,0.0449888192291641,0.060092395544681
30,0.0460201980292157,0.0605953826910107,0.85930744463047,-0.446707624759574,0.859307444625966,-0.446707624751098,0.0460518525405518,0.0606157749075635
30.5,0.0470878856200858,0.0610991526998604,0.855591999352556,-0.453188513283565,0.85559199934802,-0.45318851327613,0.0471203251871795,0.0611193242603619
31,0.0481606445625311,0.0615831334240777,0.851831073410755,-0.459637245116389,0.851831073406104,-0.459637245109954,0.0481938705108365,0.0616030676876208
31.5,0.0492381143107548,0.0620473556709642,0.848024893293395,-0.466053563190593,0.848024893288553,-0.466053563185112,0.0492721274351833,0.0620670364047397
32,0.0503199399819674,0.0624918570019625,0.844173688162896,-0.47243721077758,0.844173688157791,-0.472437210773002,0.0503547405487111,0.0625112683725619
32.5,0.0514057724211716,0.062916681355491,0.840277689720171,-0.478787931484895,0.840277689714741,-0.478787931481165,0.0514413601699867,0.0629358079207507
33,0.0524952682489472,0.0633218786789355,0.836337132094109,-0.485105469254938,0.836337132088298,-0.485105469251996,0.0525316423957782,0.0633407053803249
33.5,0.0535880898928462,0.0637075045701552,0.832352251752616,-0.49138956836636,0.832352251746374,-0.491389568364143,0.0536252491326956,0.063726016725714
34,0.0546839056030569,0.0640736199288459,0.828323287432104,-0.497639973439075,0.82832328742539,-0.497639973437518,0.0547218481130091,0.0640918032266704
34.5,0.0557823894530074,0.0644202906180642,0.824250480082641,-0.503856429443508,0.824250480075419,-0.503856429442544,0.0558211128953383,0.0644381311103488
35,0.0568832213255982,0.064747587136202,0.820134072826234,-0.510038681714488,0.820134072818476,-0.510038681714049,0.0569227228508982,0.0647650712338342
35.5,0.0579860868857751,0.065055584299671,0.815974310926045,-0.516186475969977,0.815974310917731,-0.516186475969995,0.0580263631360369,0.065072698767383
36,0.0590906775401457,0.0653443609365183,0.811771441764567,-0.522299558334693,0.81177144175568,-0.5222995583351,0.0591317246517752,0.0653610928886035
36.5,0.0601966903843756,0.0656139995911934,0.807525714829023,-0.528377675368553,0.807525714819556,-0.528377675369282,0.0602385039910819,0.0656303364877808
37,0.0613038281390705,0.065864586240625,0.803237381702476,-0.534420574099763,0.803237381692426,-0.534420574100746,0.0613464033746151,0.0658805158845269
37.5,0.0624117990748745,0.0660962100217686,0.798906696059312,-0.540428002062324,0.798906696048681,-0.540428002063497,0.0624551305756513,0.0661117205558963
38,0.0635203169274989,0.0663089629707365,0.794533913663936,-0.546399707337646,0.794533913652733,-0.546399707338946,0.0635643988349337,0.0663240428760987
38.5,0.0646291008033876,0.0665029397736202,0.790119292371706,-0.552335438599948,0.790119292359945,-0.552335438601314,0.0646739267661479,0.0665175778678984
39,0.0657378750767295,0.0666782375290556,0.785663092131214,-0.558234945165075,0.785663092118913,-0.558234945166449,0.0657834382527372,0.0666924229657705
39.5,0.066846369278501,0.0668349555225904,0.781165574987204,-0.564097977042362,0.781165574974386,-0.564097977043688,0.0668926623367523,0.0668486777908635
40,0.0679543179782245,0.0669731950128709,0.776627005083498,-0.569924284989163,0.77662700507019,-0.56992428499039,0.0680013331004205,0.0669864439377822
40.5,0.0690614606591097,0.0670930590296354,0.772047648665417,-0.575713620567663,0.77204764865165,-0.57571362056874,0.0691091895411044,0.0671058247731924
41,0.0701675415872265,0.0671946521835064,0.767427774081254,-0.581465736203594,0.767427774067061,-0.581465736204477,0.0702159754403094,0.06720692524622
41.5,0.0712723096753516,0.0672780804875214,0.762767651782461,-0.587180385246498,0.762767651767879,-0.587180385247144,0.0713214392273775,0.0672898517106009
42,0.0723755183421114,0.0673434511903389,0.758067554322256,-0.592857322031182,0.758067554307325,-0.592857322031554,0.0724253338384956,0.0673547117585096
42.5,0.0734769253670189,0.0673908726210373,0.753327756352432,-0.598496301940028,0.753327756337194,-0.59849630194009,0.0735274165716242,0.0674016140659854
43,0.0745762927420084,0.0674204540454018,0.748548534618208,-0.604097081465835,0.748548534602707,-0.604097081465558,0.0746274489379396,0.0674306682498499
43.5,0.0756733865200179,0.0674323055335785,0.743730167950978,-0.609659418274917,0.74373016793526,-0.609659418274273,0.0757251965103613,0.0674419847359937
44,0.0767679766611961,0.0674265378389541,0.738872937258908,-0.61518307127015,0.738872937243019,-0.615183071269116,0.0768204287697211,0.067435674638896
44.5,0.0778598368772506,0.0674032622881197,0.733977125515301,-0.620667800653728,0.73397712549929,-0.620667800652287,0.077912918949111,0.0674118496522246
45,0.0789487444744669,0.0673625906817444,0.729043017744741,-0.62611336798939,0.729043017728657,-0.626113367987525,0.0790024438769322,0.0673706219503505
45.5,0.0800344801958963,0.067304635206187,0.724070901007008,-0.631519536263886,0.7240709009909,-0.631519536261587,0.0800887838191441,0.0673121041005955
46,0.0811168280631926,0.0672295083556476,0.719061064378806,-0.636886069947502,0.719061064362723,-0.636886069944762,0.0811717223211992,0.067236408986024
46.5,0.0821955752185667,0.0671373228646664,0.714013798933337,-0.642212735053456,0.714013798917329,-0.64221273505027,0.0822510460501317,0.0671436497385735
47,0.0832705117673056,0.0670281916507532,0.708929397717809,-0.64749929919599,0.708929397701926,-0.647499299192359,0.083326544637246,0.0670339396823125
47.5,0.0843414306212905,0.0669022277669229,0.703808155728932,-0.652745531647052,0.703808155713222,-0.652745531642979,0.0843980105218415,0.0669073922866022
48,0.0854081273439221,0.0667595443639153,0.698650369886499,-0.657951203391393,0.698650369871011,-0.657951203386886,0.0854652387963875,0.0667641211289301
48.5,0.0864703999968592,0.0666002546618522,0.693456339005149,-0.663116087180009,0.693456338989929,-0.663116087175078,0.0865280270535456,0.0666042398671753
49,0.0875280489889502,0.0664244719310901,0.688226363764404,-0.668239957581807,0.688226363749499,-0.668239957576465,0.0875861752354268,0.0664278622210592
49.5,0.0885808769277231,0.0662323094820174,0.682960746677096,-0.673322591033419,0.68296074666255,-0.673322591027682,0.0886394854854464,0.066235101962522
50,0.0896286884737866,0.0660238806635285,0.67765979205628,-0.678363765887095,0.677659792042136,-0.678363765880984,0.0896877620031324,0.0660260729147737
50.5,0.090671290198481,0.0657992988699195,0.672323805980753,-0.683363262456626,0.672323805967052,-0.683363262450161,0.0907308109022238,0.0658008889597393
51,0.0917084904451036,0.0655586775559298,0.666953096259291,-0.688320863061226,0.666953096246072,-0.688320863054432,0.0917684400723786,0.0655596640536367
51.5,0.0927400991940061,0.0653021302596494,0.6615479723937,-0.693236352067367,0.661547972381001,-0.693236352060273,0.0928004590448045,0.0653025122504032
52,0.0937659279318762,0.0650297706330192,0.656108745540818,-0.698109515928521,0.656108745528675,-0.698109515921155,0.0938266788621029,0.0650295477326884
52.5,0.0947857895254691,0.0647417124796313,0.650635728473548,-0.702940143222793,0.650635728461994,-0.702940143215187,0.0948469119526122,0.0647408848501267
53,0.0957994981000667,0.0644380697995457,0.645129235541052,-0.707728024688444,0.645129235530118,-0.707728024680629,0.0958609720095108,0.0644366381645978
53.5,0.0968068689229154,0.064118956840822,0.639589582628196,-0.712472953257289,0.639589582617911,-0.712472953249303,0.0968686738749447,0.0641169225021774
54,0.0978077182918907,0.0637844881574746,0.634017087114361,-0.717174724085996,0.634017087104751,-0.717174724077873,0.0978698334294135,0.0637818530114798
54.5,0.0988018634296139,0.0634347786735495,0.628412067831709,-0.721833134585256,0.628412067822797,-0.721833134577036,0.0988642674866528,0.0634315452280869
55,0.0997891223832469,0.0630699437530101,0.622774845023002,-0.726447984446891,0.62277484501481,-0.726447984438612,0.0998517936942223,0.0630661151447592
55.5,0.100769313930163,0.0626900992751318,0.617105740299074,-0.731019075668876,0.61710574029162,-0.731019075660578,0.100832230440017,0.0626856792871119
56,0.1017422574897,0.0622953617150881,0.611405076596038,-0.735546212578324,0.611405076589339,-0.735546212570049,0.101805396764888,0.0622903547944491
56.5,0.102707773041179,0.0618858482294162,0.605673178132313,-0.74002920185246,0.605673178126382,-0.740029201844249,0.102771112281558,0.0618802595054329
57,0.103665681048348,0.0614616767460358,0.599910370365563,-0.7444678525376,0.59991037036041,-0.744467852529495,0.103729197100004,0.0614555120482662
57.5,0.104615802390435,0.0610229660585093,0.594116979949614,-0.748861976066201,0.594116979945248,-0.748861976058244,0.104679471759474,0.0610162319350694
58,0.105557958299942,0.0605698359242076,0.588293334691434,-0.753211386271981,0.588293334687858,-0.753211386264215,0.10562175716727,0.0605625396601162
58.5,0.106491970307328,0.0601024071660589,0.582439763508236,-0.757515899403186,0.582439763505456,-0.757515899395654,0.106555874544454,0.060094556801606
59,0.107417660192714,0.0596208017775476,0.576556596384794,-0.76177533413402,0.576556596382808,-0.761775334126765,0.107481645378594,0.0596124061266299
59.5,0.108334849944713,0.0591251430306269,0.570644164331005,-0.765989511574295,0.570644164329812,-0.765989511567359,0.10839889138366,0.0591162116990001
60,0.109243361726509,0.0586155555862054,0.564702799339784,-0.77015825527734,0.564702799339377,-0.770158255270765,0.109307434467192,0.0586060989896022
60.5,0.110143017849262,0.0580921656068706,0.558732834345337,-0.774281391246223,0.55873283434571,-0.77428139124005,0.110207096704806,0.0580821949889185
61,0.111033640752936,0.0575551008715039,0.552734603181873,-0.778358747938322,0.552734603183016,-0.778358747932592,0.11109770032214,0.057544628321391
61.5,0.111915052994606,0.0570044908914363,0.546708440542797,-0.782390156268306,0.546708440544697,-0.782390156263057,0.111979067684304,0.0569935293612622
62,0.112787077244325,0.0564404670277994,0.540654681940442,-0.786375449609565,0.540654681943085,-0.786375449604837,0.112851021292872,0.0564290303495498
62.5,0.113649536288567,0.0558631626097199,0.53457366366638,-0.790314463794144,0.534573663669748,-0.790314463789974,0.11371338379049,0.0558512655117984
63,0.114502253041314,0.0552727130529989,0.528465722752355,-0.794207037111228,0.52846572275643,-0.794207037107652,0.114565977973102,0.0552603711762558
63.5,0.115345050562778,0.0546692559789213,0.522331196931878,-0.798053010304231,0.522331196936638,-0.798053010301284,0.115408626809837,0.0546564858921085
64,0.11617775208579,0.0540529313328388,0.516170424602521,-0.801852226566532,0.516170424607942,-0.801852226564247,0.116241153470535,0.0540397505474262
