"Freq [GHz]","re(St(P1,P1)) []","im(St(P1,P1)) []","re(St(P1,P2)) []","im(St(P1,P2)) []","re(St(P2,P1)) []","im(St(P2,P1)) []","re(St(P2,P2)) []","im(St(P2,P2)) []"
0,0.00641431582670293,0,0.993600860761944,0,0.993600860791048,0,0.00641431715655472,0
0.5,0.00688385902840238,0.00214475784520474,0.993000324055203,-0.00972816185512571,0.993000324195492,-0.00972816179798386,0.0068839138629464,0.00214451060818277
1,0.00725604310645878,0.00375661624461898,0.992274275072718,-0.0188843355162831,0.99227427510475,-0.0188843355135155,0.00725609509521519,0.0037559858362215
1.5,0.00748803844854784,0.00526990828455354,0.991477789929515,-0.0278630129294566,0.991477789954513,-0.0278630129394024,0.00748796774926941,0.00526883561807701
2,0.00760849456224122,0.00677464076293077,0.990612554459771,-0.0367264224102524,0.990612554475879,-0.0367264224224595,0.00760815198875786,0.00677309743002041
2.5,0.007674026188635,0.00831071071480238,0.989647074941006,-0.045503535629539,0.989647074951318,-0.0455035356397815,0.00767327614685431,0.00830870623165936
3,0.00771729154869649,0.0098853092618878,0.988572583184315,-0.0541921056383039,0.988572583191502,-0.0541921056457229,0.00771601407374334,0.00988286721230747
3.5,0.00775731644232414,0.0114984010278087,0.987394466228345,-0.0627868551697288,0.987394466234002,-0.0627868551746564,0.00775540227224814,0.011495550675205
4,0.00780671930044441,0.0131483263825185,0.986123620589735,-0.0712858176732345,0.98612362059465,-0.0712858176762836,0.00780406647916043,0.0131451000442402
4.5,0.00787495643616254,0.0148328399545772,0.98477186087075,-0.0796907560613072,0.984771860875236,-0.0796907560630267,0.00787146844913555,0.0148292721227525
5,0.00796968814259469,0.016549219245813,0.983349782261038,-0.0880061936734196,0.983349782265172,-0.0880061936741949,0.00796527291081262,0.0165453462075726
5.5,0.00809734391246802,0.0182942453300283,0.98186592570666,-0.0962382888097704,0.981865925710453,-0.0962382888098237,0.00809191321936392,0.0182901049216424
6,0.00826335212126281,0.0200642154777722,0.980326623641933,-0.10439389202681,0.980326623645418,-0.104393892026242,0.00825682125175897,0.0200598468728721
6.5,0.0084722341562376,0.0218550025147461,0.978736184563268,-0.112479858328808,0.978736184566558,-0.112479858327661,0.00846452163850162,0.0218504460255673
7,0.00872765042303941,0.0236621463458366,0.977097222560625,-0.120502596830229,0.977097222563926,-0.120502596828525,0.00871867782009848,0.0236574432382617
7.5,0.00903243614664459,0.0254809609116124,0.975411022776592,-0.128467811519082,0.975411022780211,-0.12846781151687,0.00902212787345248,0.0254761532387846
8,0.00938864216666953,0.0273066434915865,0.973677885246707,-0.136380382326025,0.973677885251038,-0.136380382323416,0.00937692532244641,0.0273017739498513
8.5,0.00979758526212116,0.0291343774672552,0.971897420910586,-0.144244341548863,0.97189742091609,-0.144244341546044,0.00978438947474371,0.0291294892760017
9,0.0102599076254789,0.0309594231898163,0.970068791912605,-0.152062910016936,0.970068791919799,-0.152062910014186,0.0102451649078115,0.0309545599947003
9.5,0.0107756430632938,0.0327771942786308,0.968190898218969,-0.15983856685388,0.968190898228401,-0.159838566851576,0.0107592876824879,0.0327724000762206
10,0.0113442869203229,0.0345833185859123,0.96626251722497,-0.167573134829334,0.966262517237211,-0.167573134827949,0.0113262552811899,0.0345786376668138
10.5,0.0120454529302628,0.0363231570056599,0.964282380205451,-0.17526542671553,0.964282380217367,-0.175265426715327,0.0120254776129098,0.0363192558328111
11,0.0127715099273445,0.0380466648636228,0.962261389791218,-0.182916414314013,0.962261389802695,-0.182916414314876,0.0127495398464599,0.0380434787247563
11.5,0.0135227386456913,0.0397533552080604,0.96019940243609,-0.190528762784873,0.960199402447039,-0.19052876278668,0.0134987249662015,0.0397508367252324
12,0.0142993072723288,0.0414427718681984,0.958096068528484,-0.198104767198001,0.958096068538836,-0.198104767200632,0.0142732020665433,0.0414408882494219
12.5,0.0151012889211677,0.0431144805056429,0.955950895939442,-0.205646379810783,0.955950895949146,-0.205646379814122,0.0150730443123204,0.0431132112941663
13,0.0159286761428782,0.0447680627042091,0.953763301063786,-0.213155240443073,0.95376330107281,-0.213155240447006,0.0158982437805653,0.0447673979408536
13.5,0.0167813929602107,0.0464031121579187,0.951532649094541,-0.220632707870209,0.951532649102866,-0.220632707874628,0.0167487237213335,0.0464030508822879
14,0.0176593048600602,0.0480192323021835,0.949258285217513,-0.228079890787393,0.949258285225132,-0.228079890792199,0.017624348702048,0.048019781329981
14.5,0.0185622271093481,0.0496160349318413,0.946939558279948,-0.23549767738889,0.946939558286866,-0.235497677393989,0.0185249330252807,0.049617207856226
15,0.0194899317005937,0.0511931394877752,0.944575838314576,-0.242886762974636,0.944575838320804,-0.242886762979942,0.0194502477416021,0.0511949558621407
15.5,0.020442153178803,0.0527501727901549,0.942166529115056,-0.25024767526676,0.942166529120615,-0.250247675272195,0.0204000265199802,0.0527526574577437
16,0.0214185935549703,0.0542867690635795,0.939711076877492,-0.257580797310141,0.939711076882406,-0.257580797315635,0.0213739705885508,0.0542899516059185
16.5,0.022418926472903,0.0558025701463658,0.937208975754789,-0.264886387962412,0.937208975759089,-0.2648863879679,0.0223717529176462,0.0558064844279786
17,0.0234428007643857,0.0572972258092406,0.934659771021005,-0.272164600064806,0.934659771024725,-0.272164600070232,0.0233930217836947,0.0573019096004035
17.5,0.0244898435018988,0.0587703941317874,0.932063060412897,-0.279415496438018,0.932063060416074,-0.279415496443333,0.0244374038256798,0.0587758887946763
18,0.0255596626372434,0.0602217419013054,0.929418494105439,-0.28663906387617,0.929418494108111,-0.286639063881329,0.0255045066842216,0.0602280921276614
18.5,0.0266518492975871,0.0616509450101583,0.926725773685559,-0.293835225324273,0.926725773687764,-0.293835225329238,0.0265939212959702,0.0616581986008844
19,0.0277659797968978,0.0630576888357484,0.923984650411937,-0.30100385042564,0.923984650413717,-0.30100385043038,0.0277052239020858,0.0630658965146698
19.5,0.0289016174098187,0.0644416685929052,0.921194922986156,-0.308144764619448,0.921194922987551,-0.308144764623937,0.0288379778183989,0.0644508838483664
20,0.0300583139462718,0.0658025896524579,0.918356435009856,-0.315257756957919,0.918356435010906,-0.315257756962134,0.0299917350059028,0.0658128686016215
20.5,0.0312356111579804,0.0671401678225023,0.915469072261773,-0.322342586799449,0.915469072262519,-0.322342586803375,0.0311660374730108,0.0671515690941344
21,0.0324330420023987,0.0684541295908125,0.912532759896034,-0.329398989519781,0.912532759896515,-0.329398989523403,0.0323604185352265,0.068466714223129
21.5,0.0336501317849364,0.0697442123281611,0.90954745963726,-0.336426681368915,0.909547459637514,-0.336426681372224,0.0335744039531932,0.0697580436788943
22,0.0348863991965892,0.0710101644531906,0.906513167027712,-0.343425363587576,0.906513167027775,-0.343425363590568,0.0348075129663085,0.0710253081195715
22.5,0.0361413572610985,0.0722517455600902,0.903429908765816,-0.350394725883912,0.903429908765723,-0.350394725886582,0.0360592592360364,0.0722682693068208
23,0.0374145142032628,0.0734687265106992,0.900297740163015,-0.357334449359005,0.900297740162801,-0.357334449361356,0.0373291517105592,0.0734867002043382
23.5,0.0387053742480313,0.0746608894928716,0.897116742736409,-0.364244208958812,0.897116742736105,-0.364244208960846,0.0386166954203918,0.0746803850413323
24,0.0400134383583731,0.0758280280471083,0.893887021947305,-0.371123675520213,0.893887021946942,-0.371123675521935,0.0399213922129421,0.0758491193431868
24.5,0.0413382049185621,0.0769699470634562,0.890608705090358,-0.377972517470065,0.890608705089963,-0.377972517471483,0.0412427414326488,0.0769927099314924
25,0.0426791703684392,0.0780864627507256,0.887281939333832,-0.384790402228351,0.887281939333433,-0.384790402229474,0.0425802405522326,0.07811097489567
25.5,0.0440358297933024,0.0791774025800325,0.883906889908547,-0.391576997359607,0.883906889908168,-0.391576997360446,0.0439333857597048,0.079203743538297
26,0.0454076774733381,0.080242605204603,0.88048373844088,-0.398331971510835,0.880483738440543,-0.398331971511403,0.0453016725050219,0.0802708562962046
26.5,0.046794207395908,0.0812819203577556,0.877012681423748,-0.405054995168796,0.877012681423475,-0.405054995169107,0.046684596009692,0.0813121646393353
27,0.0481949137334996,0.0822952087308673,0.873493928818502,-0.411745741265004,0.873493928818311,-0.411745741265073,0.0480816517421238,0.0823275309492528
27.5,0.0496092912897418,0.0832823418330628,0.869927702780053,-0.418403885652777,0.869927702779961,-0.418403885652619,0.049492335861104,0.0833168283790977
28,0.0510368359155506,0.084243201834315,0.866314236497312,-0.425029107477167,0.866314236497335,-0.425029107476798,0.0509161456294658,0.084279940696747
28.5,0.0524770448971877,0.0851776813935275,0.8626537731409,-0.431621089455695,0.86265377314105,-0.431621089455133,0.0523525797997127,0.0852167621127716
29,0.0539294173177949,0.0860856834731286,0.858946564910211,-0.438179518085107,0.858946564910499,-0.438179518084368,0.0538011389731551,0.0861271970947849
29.5,0.0553934543937651,0.0869671211416136,0.855192872172114,-0.444704083787211,0.855192872172551,-0.444704083786313,0.0552613259339209,0.0870111601696315
30,0.0568686597871765,0.0878219173654125,0.851392962683863,-0.451194481004877,0.851392962684457,-0.451194481003837,0.0567326459590459,0.0878685757148365
30.5,0.0583545398953678,0.0886500047913871,0.847547110893144,-0.457650408257606,0.8475471108939,-0.457650408256442,0.0582146071057355,0.0886993777406335
31,0.0598506041186483,0.0894513255211954,0.843655597308566,-0.46407156816466,0.84365559730949,-0.46407156816339,0.0597067204767771,0.0895035096638367
31.5,0.0613563651070405,0.0902258308787043,0.839718707934305,-0.470457667442475,0.8397187079354,-0.470457667441116,0.0612085004649973,0.0902809240747519
32,0.0628713389868833,0.0909734811715657,0.835736733763024,-0.476808416882042,0.835736733764291,-0.476808416880611,0.0627194649776024,0.0910315824982577
32.5,0.0643950455680814,0.0916942454480183,0.831709970321586,-0.483123531310991,0.831709970323026,-0.483123531309504,0.0642391356411738,0.0917554551501337
33,0.0659270085327198,0.0923881012499196,0.827638717264504,-0.489402729544359,0.827638717266116,-0.489402729542833,0.065767037988046,0.0924525206896459
33.5,0.0674667556057434,0.0930550343629555,0.823523278010422,-0.495645734327328,0.823523278012204,-0.495645734325778,0.0673027016247651,0.0931227659693539
34,0.0690138187083662,0.0936950385649373,0.819363959417321,-0.501852272272644,0.81936395941927,-0.501852272271085,0.0688456603832902,0.0937661857830479
34.5,0.0705677340948441,0.0943081153730303,0.81516107149249,-0.508022073794942,0.815161071494602,-0.50802207379339,0.0703954524555842,0.0943827826126765
35,0.0721280424732378,0.0948942737907178,0.810914927133615,-0.514154873043781,0.810914927135885,-0.514154873042248,0.0719516205122042,0.0949725663750652
35.5,0.0736942891107654,0.0954535300552674,0.806625841897691,-0.520250407836823,0.806625841900113,-0.520250407835322,0.0735137118055155,0.0955355541692
36,0.0752660239243446,0.0959859073864027,0.802294133794712,-0.526308419594294,0.802294133797278,-0.526308419592839,0.0750812782581096,0.0960717700247856
36.5,0.0768428015568948,0.0964914357368583,0.797920123103399,-0.532328653275631,0.797920123106102,-0.532328653274231,0.0766538765370181,0.0965812446527533
37,0.0784241814399881,0.0969701515454483,0.793504132206466,-0.538310857318935,0.793504132209298,-0.538310857317604,0.0782310681142996,0.0970640151983567
37.5,0.0800097278434038,0.0974220974932352,0.789046485443165,-0.544254783583771,0.789046485446116,-0.544254783582516,0.0798124193145656,0.0975201249974325
38,0.0815990099121512,0.0978473222633549,0.784547508977055,-0.550160187297579,0.784547508980116,-0.55016018729641,0.0813975013500132,0.0979496233363999
38.5,0.0831916016915221,0.0982458803050072,0.780007530677166,-0.556026827005967,0.780007530680327,-0.556026827004892,0.0829858903435218,0.0983525652164874
39,0.0847870821407166,0.0986178316020929,0.775426880010888,-0.561854464526925,0.775426880014138,-0.561854464525951,0.0845771673403685,0.0987290111226879
39.5,0.0863850351355931,0.0989632414469407,0.770805887947081,-0.567642864909021,0.77080588795041,-0.567642864908156,0.0861709183091097,0.0990790267978665
40,0.0879850494610834,0.0992821802195305,0.766144886868112,-0.573391796393496,0.766144886871509,-0.573391796392743,0.0877667341321792,0.0994026830224405
40.5,0.0895867187938125,0.099574723172597,0.76144421048957,-0.579101030380145,0.761444210493023,-0.57910103037951,0.0893642105867402,0.0997000554000014
41,0.0911896416754584,0.0998409502229406,0.756704193786631,-0.584770341396855,0.756704193790127,-0.584770341396342,0.0909629483163257,0.0999712241492215
41.5,0.0927934214773742,0.100080945749286,0.751925172926114,-0.590399507072586,0.751925172929644,-0.590399507072197,0.0925625527938058,0.100216273902361
42,0.0943976663570079,0.100294798396952,0.747107485203393,-0.595988308113588,0.747107485206944,-0.595988308113325,0.0941626342762034,0.100435293510655
42.5,0.0960019892066297,0.100482600889598,0.742251468983405,-0.601536528282631,0.742251468986965,-0.601536528282496,0.0957628077518815,0.100628375856834
43,0.0976060075948836,0.100644449848275,0.737357463645119,-0.607043954380996,0.737357463648678,-0.607043954380989,0.0973626928806187,0.10079561767501
43.5,0.0992093437016764,0.100780445617992,0.732425809528892,-0.612510376232981,0.732425809532437,-0.612510376233102,0.0989619139270856,0.100937119378116
44,0.100811624246902,0.100890692101951,0.727456847886185,-0.617935586672665,0.727456847889705,-0.617935586672911,0.100560099688218,0.101052984893096
44.5,0.102412480413491,0.100975296603639,0.722450920831234,-0.623319381532679,0.722450920834718,-0.623319381533051,0.102156883415,0.101143321503962
45,0.104011547765293,0.10103436967688,0.717408371294272,-0.628661559634746,0.717408371297708,-0.62866155963524,0.103751902729128,0.101208239702882
45.5,0.105608466160248,0.101068024983955,0.712329542975995,-0.633961922781725,0.712329542979373,-0.633961922782338,0.105344799535061,0.101247853049365
46,0.107202879659354,0.101076379161901,0.707214780302981,-0.639220275750946,0.707214780306291,-0.639220275751673,0.106935219927912,0.101262278037662
46.5,0.108794436431862,0.101059551697014,0.702064428383835,-0.644436426288596,0.702064428387067,-0.644436426289433,0.108522814097669,0.101251633972414
47,0.110382788657189,0.101017664807639,0.696878832965857,-0.649610185104944,0.696878832969001,-0.649610185105887,0.110107236230188,0.101216042852599
47.5,0.111967592423987,0.100950843335244,0.69165834039207,-0.654741365870209,0.691658340395118,-0.654741365871252,0.111688144405434,0.101155629263808
48,0.113548507626806,0.100859214643805,0.686403297558482,-0.659829785210852,0.686403297561423,-0.659829785211988,0.113265200493378,0.10107052027884
48.5,0.1151251978608,0.100742908527472,0.681114051871458,-0.664875262706145,0.681114051874284,-0.664875262707368,0.114838070048032,0.100960845366607
49,0.116697330314893,0.100602057126511,0.67579095120514,-0.669877620884813,0.675790951207844,-0.669877620886115,0.116406422200002,0.100826736309318
49.5,0.118264575663821,0.100436794851454,0.670434343858839,-0.674836685221617,0.670434343861412,-0.674836685222991,0.117969929548015,0.100668327127893
50,0.119826607959467,0.100247258315418,0.665044578514352,-0.679752284133716,0.665044578516788,-0.679752284135154,0.119528268049802,0.100485754015553
50.5,0.121383104521877,0.100033586274511,0.65962200419319,-0.68462424897668,0.659622004195483,-0.684624248978174,0.121081116912751,0.100279155279479
51,0.122933745830364,0.0997959195762219,0.654166970213692,-0.689452414040029,0.654166970215835,-0.68945241404157,0.122628158484714,0.100048671290494
51.5,0.124478215415059,0.0995344011157285,0.64867982614802,-0.694236616542187,0.648679826150008,-0.694236616543765,0.124169078145353,0.0997944444406134
52,0.126016199749298,0.0992491757999627,0.643160921779058,-0.698976696624744,0.643160921780886,-0.698976696626351,0.12570356419839,0.0995166191083777
52.5,0.127547388143205,0.0989403905193383,0.637610607057219,-0.703672497345951,0.637610607058883,-0.703672497347577,0.127231307765124,0.0992153416318218
53,0.129071472638811,0.0986081941269879,0.632029232057186,-0.708323864673335,0.632029232058682,-0.708323864674972,0.128752002679577,0.0988907602889381
53.5,0.130588147907069,0.0982527374253557,0.626417146934629,-0.71293064747541,0.626417146935953,-0.712930647477045,0.130265345385594,0.0985430252854775
54,0.132097111147085,0.0978741731599873,0.620774701882918,-0.71749269751236,0.620774701884069,-0.717492697513986,0.131771034836239,0.0981722887499213
54.5,0.133598061987899,0.0974726560203333,0.615102247089893,-0.722009869425705,0.615102247090868,-0.722009869427311,0.133268772395812,0.0977787047354468
55,0.135090702393119,0.0970483426473984,0.609400132694716,-0.726482020726843,0.609400132695513,-0.726482020728419,0.134758261744795,0.0973624292286954
55.5,0.136574736568725,0.0966013916480177,0.603668708744861,-0.730909011784477,0.60366870874548,-0.730909011786013,0.136239208788022,0.0969236201651467
56,0.138049870874321,0.0961319636155787,0.597908325153301,-0.735290705810861,0.59790832515374,-0.735290705812347,0.137711321566386,0.0964624374508882
56.5,0.13951581373814,0.0956402211569553,0.592119331655917,-0.739626968846861,0.592119331656178,-0.739626968848288,0.139174310172342,0.0959790429905648
57,0.140972275576048,0.0951263289254407,0.586302077769214,-0.743917669745799,0.586302077769297,-0.743917669747156,0.140627886669493,0.095473600721278
57.5,0.142418968714847,0.0945904536594475,0.580456912748364,-0.748162680156073,0.580456912748271,-0.74816268015735,0.142071765016519,0.0949462766522018
58,0.143855607320092,0.0940327642267259,0.574584185545655,-0.752361874502541,0.574584185545386,-0.752361874503729,0.143505660995687,0.0943972389096694
58.5,0.145281907328696,0.0934534316738586,0.568684244769375,-0.756515129966673,0.568684244768934,-0.756515129967763,0.144929292146211,0.0938266577874768
59,0.146697586386543,0.09285262928077,0.56275743864321,-0.760622326465461,0.562757438642598,-0.760622326466442,0.146342377702655,0.0932347058021458
59.5,0.148102363791325,0.0922305326199863,0.556804114966169,-0.764683346629096,0.556804114965391,-0.76468334662996,0.147744638538633,0.0926215577528747
60,0.149495960440835,0.0915873196203719,0.550824621073132,-0.768698075777437,0.550824621072191,-0.768698075778176,0.149135797115995,0.0919873907859033
60.5,0.150878098786887,0.0909231706350672,0.544819303796024,-0.772666401895256,0.544819303794924,-0.77266640189586,0.150515577439699,0.0913323844630062
61,0.152248502795089,0.0902382685133317,0.538788509425701,-0.776588215606299,0.538788509424447,-0.776588215606761,0.151883705018564,0.0906567208338279
61.5,0.153606897910612,0.0895327986760052,0.532732583674562,-0.780463410146179,0.532732583673158,-0.78046341014649,0.153239906832064,0.0899605845117573
62,0.154953011030148,0.0888069491942839,0.526651871639956,-0.784291881334106,0.526651871638409,-0.784291881334259,0.154583911303347,0.0892441627530453
62.5,0.156286570480196,0.0880609108715029,0.520546717768412,-0.788073527543502,0.520546717766726,-0.788073527543489,0.155915448278608,0.0885076455388484
63,0.157607306001837,0.0872948773276124,0.514417465820737,-0.79180824967151,0.51441746581892,-0.791808249671326,0.157234249012978,0.0877512256598877
63.5,0.158914948742108,0.0865090450860314,0.508264458838025,-0.795495951107435,0.508264458836083,-0.795495951107072,0.158540046163036,0.0869750988033993
64,0.160209231252111,0.0857036136625473,0.502088039108604,-0.799136537700142,0.502088039106544,-0.799136537699593,0.159832573786072,0.0861794636420495
64.5,0.161489887491957,0.0848787856559382,0.495888548135969,-0.802729917724445,0.495888548133798,-0.802729917723706,0.161111567346206,0.0853645219244839
