"Freq [GHz]","re(St(P1,P1)) []","im(St(P1,P1)) []","re(St(P1,P2)) []","im(St(P1,P2)) []","re(St(P2,P1)) []","im(St(P2,P1)) []","re(St(P2,P2)) []","im(St(P2,P2)) []"
0,0.00544972619462669,0,0.994563430009293,0,0.994563424916123,0,0.00544971811922323,0
0.5,0.00591835198043711,0.00119637383120619,0.993937239964982,-0.00975005986785149,0.993937234882825,-0.00975005962597564,0.00591847260932354,0.00119610707407958
1,0.00626315301623492,0.00183520696887385,0.99316329441519,-0.0188899915708056,0.993163294876146,-0.0188899931499442,0.00626348900807017,0.00183449052557094
1.5,0.00641111528285965,0.0023730534472417,0.992325635974503,-0.0278334268765974,0.992325635940884,-0.0278334278200738,0.00641161883355768,0.00237176869445044
2,0.00641155583103981,0.00292309206475849,0.991419334112335,-0.0366558415393712,0.991419333991471,-0.0366558420364438,0.00641215140140528,0.00292118202596292
2.5,0.00632981263210119,0.00352389011337806,0.990409435720891,-0.0453849438439171,0.990409435636766,-0.0453849440719232,0.0063304439806493,0.0035213368170286
3,0.00620282675126349,0.0041820554221994,0.989287492706361,-0.0540164163663874,0.989287492684972,-0.0540164164435044,0.00620345322132398,0.00417885044808664
3.5,0.00605307482146555,0.00489734587475343,0.988060577507511,-0.0625437062137149,0.988060577538878,-0.0625437062156831,0.0060536633596544,0.0048934822590665
4,0.00589631741435004,0.005667606058811,0.986741663322145,-0.0709643683240175,0.986741663382847,-0.0709643682974077,0.00589683812008712,0.00566307684026413
4.5,0.00574476224524889,0.00648963066885422,0.985344634151792,-0.0792803216540454,0.985344634215421,-0.0792803216245828,0.00574518637177812,0.00648442904590851
5,0.00560830424437186,0.00735933792938681,0.983881959422306,-0.0874967211137676,0.983881959465285,-0.0874967210923359,0.00560860345214248,0.00735345762024942
5.5,0.00549502463597523,0.00827190195395033,0.982363768801137,-0.095620689738773,0.982363768806039,-0.0956206897263314,0.00549517081568313,0.0082653374102577
6,0.00541142108233028,0.00922193162955498,0.980797664636467,-0.103660252501218,0.980797664593638,-0.103660252492998,0.00541138639176797,0.00921467806312926
6.5,0.00536255394767043,0.0102036767665568,0.979188909808118,-0.11162354645055,0.979188909716092,-0.111623546439558,0.0053623108843327,0.0101957300362825
7,0.00535217738956016,0.0112112322517968,0.97754078311504,-0.119518290984223,0.977540782980127,-0.119518290964031,0.00535169881859408,0.0112025886745748
7.5,0.00538287608627104,0.0122387197415184,0.975854982661106,-0.127351470966589,0.975854982496472,-0.127351470933434,0.00538213519774355,0.0122293758839804
8,0.00545620925102588,0.0132804364071157,0.974132012047372,-0.13512917926144,0.974132011871867,-0.135129179215707,0.0054551794498062,0.0132703888998211
8.5,0.00557285696532989,0.0143309677466172,0.97237151804613,-0.142856570181555,0.972371517883034,-0.142856570128728,0.00557151171094574,0.0143202131466946
9,0.00573276270380546,0.015385266242248,0.970572568844913,-0.150537884527415,0.970572568720728,-0.150537884478617,0.00573107532236211,0.0153738009567075
9.5,0.00593526695168109,0.0164387002232531,0.968733873416365,-0.158176516685314,0.968733873359714,-0.158176516657516,0.0059332104412019,0.0164265204948797
10,0.00617922849449432,0.0174870783340149,0.966853948276849,-0.165775102954158,0.966853948317516,-0.165775102970176,0.00617677534156549,0.0174741802845726
10.5,0.00652879264395786,0.0185238094846154,0.964938434935752,-0.173326592462225,0.964938434972517,-0.173326592481403,0.00652488509129284,0.0185104773084745
11,0.0068992586693794,0.0195428822040764,0.962990331404948,-0.18084122912159,0.962990331437724,-0.180841229143158,0.00689407064591183,0.0195291383200211
11.5,0.00728972530681149,0.0205450582069751,0.961008751747957,-0.188321981444961,0.961008751776769,-0.18832198146822,0.00728339969590772,0.020530909979489
12,0.00769941544954561,0.0215309392818619,0.958992670122775,-0.19577134999098,0.958992670147737,-0.195771350015307,0.00769206934907352,0.02151638299418
12.5,0.00812764654592749,0.0225009975842139,0.956940984903495,-0.20319141777504,0.956940984924791,-0.203191417799889,0.00811937544194727,0.0224860213422273
13,0.00857380860172735,0.0234555998286075,0.95485256716722,-0.210583899712929,0.95485256718508,-0.210583899737834,0.00856468970257757,0.0234401857114408
13.5,0.00903734766958997,0.0243950267269282,0.952726296480284,-0.217950189387384,0.952726296494974,-0.21795018941195,0.00902744258765512,0.0243791524005184
14,0.00951775334617502,0.0253194887016035,0.950561086546961,-0.225291402156163,0.950561086558768,-0.225291402180068,0.00950711027001702,0.0253031286453378
14.5,0.0100145492297307,0.026229138662712,0.948355902894698,-0.232608414133933,0.948355902903917,-0.232608414156919,0.0100032046958319,0.0262122651144068
15,0.0105272855876519,0.0271240824566499,0.946109774398665,-0.239901896928985,0.946109774405592,-0.239901896950852,0.0105152659358567,0.0271066661505113
15.5,0.0110555336899875,0.028004387456793,0.943821800113737,-0.247172348242012,0.943821800118664,-0.24717234826261,0.0110428562677336,0.0279863982078064
16,0.0115988814102391,0.0288700896624081,0.941491152591637,-0.254420118571776,0.941491152594845,-0.254420118591004,0.011585555576249,0.0288514968357543
16.5,0.0121569297982989,0.0297211995925701,0.939117078615737,-0.261645434347869,0.939117078617492,-0.26164543436566,0.0121429577654063,0.0297019724861987
17,0.0127292904049215,0.030557707200934,0.936698898083213,-0.268848417843561,0.936698898083765,-0.268848417859888,0.0127146679532597,0.0305378153619009
17.5,0.0133155831913103,0.0313795859901749,0.93423600159917,-0.276029104226784,0.934236001598747,-0.276029104241644,0.0133003002765708,0.0313589994800074
18,0.0139154348971986,0.032186796468602,0.931727847214715,-0.283187456094524,0.931727847213529,-0.283187456107942,0.0138994761736173,0.0321654860889942
18.5,0.0145284777702925,0.0329792890630249,0.929173956635616,-0.290323375813092,0.929173956633856,-0.290323375825108,0.0145118230440658,0.0329572265503426
19,0.0151543485819816,0.0337570065798005,0.926573911145202,-0.297436715958472,0.926573911143038,-0.297436715969144,0.0151369732077133,0.0337341647747385
19.5,0.0157926878708246,0.0345198862884848,0.92392734742051,-0.304527288120765,0.92392734741809,-0.304527288130164,0.0157745631011644,0.0344962392856818
20,0.0164431393679286,0.0352678616886579,0.921233953370527,-0.311594870306711,0.921233953367983,-0.311594870314913,0.0164242326646169,0.0352433849698859
20.5,0.0171053495679986,0.0360008640095222,0.918493464087005,-0.318639213145534,0.918493464084449,-0.318639213152625,0.0170856248809764,0.0359755345632198
21,0.0177789674172588,0.036718823483042,0.915705657969004,-0.32566004507693,0.915705657966531,-0.325660045082998,0.0177583854372743,0.0366926199122841
21.5,0.0184636440952198,0.0374216704243309,0.91287035306027,-0.332657076675891,0.912870353057958,-0.332657076681026,0.0184421624843586,0.0373945730448497
22,0.0191590328717833,0.0381093361472855,0.909987403622092,-0.339630004247649,0.909987403620004,-0.339630004251943,0.0191366064755327,0.0380813270767741
22.5,0.0198647890247117,0.0387817537388557,0.907056696952139,-0.346578512807026,0.907056696950327,-0.346578512810569,0.019841370068527,0.0387528169785034
23,0.020580569805291,0.0394388587115322,0.904078150450992,-0.35350227853989,0.904078150449493,-0.353502278542769,0.0205561080780914,0.039408980220534
23.5,0.0213060344422628,0.0400805895505989,0.901051708931853,-0.360400970830007,0.901051708930694,-0.360400970832307,0.021280477468842,0.0400497573142002
24,0.0220408441758662,0.0407068881701327,0.897977342164604,-0.367274253922079,0.897977342163802,-0.367274253923881,0.0220141373798629,0.0406750922616745
24.5,0.022784662315299,0.0413177002896508,0.894855042642588,-0.374121788281031,0.894855042642151,-0.374121788282411,0.0227567491740451,0.0412849329269604
25,0.0235371543140415,0.0419129757415866,0.891684823558709,-0.380943231698392,0.891684823558639,-0.380943231699422,0.0235079765064025,0.0418792313380107
25.5,0.0242979878584637,0.0424926687183209,0.888466716976581,-0.387738240188729,0.888466716976869,-0.387738240189475,0.0242674854065519,0.0424579439286321
26,0.0250668329658997,0.0430567379663086,0.885200772182057,-0.394506468712359,0.885200772182694,-0.394506468712882,0.0250349443713939,0.0430210317276917
26.5,0.0258433620890206,0.0436051469338228,0.881887054200655,-0.40124757175483,0.881887054201623,-0.401247571755186,0.0258100244646816,0.0435684605021051
27,0.0266272502238596,0.0441378638779836,0.8785256424667,-0.407961203788805,0.878525642467978,-0.407961203789044,0.0265923994207167,0.0441002008592724
27.5,0.0274181750193002,0.0446548619360541,0.875116629630672,-0.414647019639799,0.875116629632236,-0.414647019639965,0.0273817457498929,0.0446162283139127
28,0.0282158168861874,0.0451561191653296,0.871660120491946,-0.421304674773756,0.87166012049377,-0.42130467477389,0.0281777428441667,0.0451165233236311
28.5,0.0290198591045522,0.0456416185554708,0.868156231044904,-0.427933825521457,0.868156231046959,-0.427933825521593,0.0289800730808807,0.0456010712970578
29,0.0298299879276823,0.0461113480166589,0.864605087627268,-0.434534129252225,0.864605087629525,-0.434534129252393,0.0297884219236221,0.0460698625779292
29.5,0.0306458926820177,0.0465653003465916,0.861006826160324,-0.441105244507286,0.861006826162752,-0.44110524450751,0.0306024780190485,0.0465228924081469
30,0.03146726586201,0.047003473178985,0.857361591471558,-0.447646831101357,0.857361591474126,-0.447646831101659,0.0314219332887888,0.0469601608724577
30.5,0.0322938032192753,0.0474258689159857,0.853669536691012,-0.4541585501995,0.853669536693689,-0.454158550199894,0.0322464830157165,0.0473816728271853
31,0.0331252038454912,0.0478324946466366,0.849930822713465,-0.460640064375019,0.849930822716221,-0.46064006437552,0.033075825924025,0.0477874378151407
31.5,0.0339611702486094,0.048223362053319,0.846145617719241,-0.46709103765315,0.846145617722047,-0.467091037653765,0.0339096642526607,0.0481774699686462
32,0.0348014084220714,0.0485984873079121,0.842314096747145,-0.47351113554432,0.842314096749968,-0.473511135545055,0.0347477038217812,0.0485517879024183
32.5,0.0356456279067874,0.0489578909592459,0.838436441313637,-0.47990002507009,0.838436441316453,-0.479900025070947,0.0355896540919968,0.0489104145978821
33,0.0364935418457307,0.0493015978132541,0.834512839072991,-0.486257374784215,0.834512839075773,-0.486257374785194,0.0364352282162321,0.0492533772803317
33.5,0.0373448670310556,0.0496296368071308,0.830543483513637,-0.492582854790768,0.830543483516359,-0.492582854791865,0.037284143084117,0.049580707290242
34,0.038199323943717,0.0499420408786482,0.826528573686456,-0.498876136760825,0.826528573689094,-0.498876136762037,0.0381361193588756,0.0498924399498869
34.5,0.0390566367856063,0.0502388468317033,0.822468313961207,-0.505136893948875,0.822468313963739,-0.505136893950193,0.0389908815067356,0.0501886144263444
35,0.0399165335042837,0.0505200951990716,0.818362913807675,-0.511364801209792,0.818362913810083,-0.511364801211208,0.039848157818928,0.0504692735918516
35.5,0.0407787458104036,0.0507858301032291,0.814212587598519,-0.517559535017028,0.814212587600784,-0.51755953501853,0.0407076804263789,0.0507344638823864
36,0.0416430091879737,0.0510360991160654,0.810017554431105,-0.523720773482408,0.81001755443321,-0.523720773483987,0.0415691853072422,0.0509842351552916
36.5,0.0425090628976233,0.0512709531182088,0.805778037965933,-0.529848196377848,0.805778037967864,-0.529848196379489,0.0424324122874427,0.0512186405466623
37,0.0433766499730682,0.0514904461586313,0.801494266279549,-0.535941485159092,0.801494266281293,-0.535941485160782,0.0432971050344242,0.0514377363291662
37.5,0.0442455172109915,0.0516946353151421,0.797166471730041,-0.542000322991559,0.797166471731588,-0.542000322993283,0.044163011044327,0.0516415817709015
38,0.0451154151545745,0.0518835805563228,0.792794890833482,-0.548024394778232,0.792794890834822,-0.548024394779976,0.0450298816228318,0.0518302389958483
38.5,0.0459860980709251,0.0520573446053969,0.788379764149838,-0.554013387189535,0.788379764150966,-0.554013387191284,0.045897471859921,0.0520037728463959
39,0.0468573239226667,0.0522159928064982,0.783921336177091,-0.559966988695023,0.783921336177998,-0.559966988696761,0.0467655405988303,0.0521622507484181
39.5,0.0477288543339625,0.0523595929937374,0.779419855252401,-0.565884889596761,0.779419855253086,-0.565884889598472,0.0476338503994619,0.0523057425792861
40,0.0486004545512577,0.0524882153634479,0.774875573459383,-0.571766782064164,0.774875573459842,-0.571766782065834,0.0485021674965542,0.0524343205391997
40.5,0.0494718933990266,0.0526019323499367,0.770288746540578,-0.577612360170129,0.770288746540811,-0.577612360171742,0.0493702617528954,0.0525480590261533
41,0.0503429432308187,0.0527008185050378,0.765659633814419,-0.583421319928217,0.765659633814427,-0.583421319929758,0.0502379066078837,0.0526470345148452
41.5,0.0512133798759049,0.0527849503817375,0.76098849809601,-0.589193359330703,0.760988498095795,-0.589193359332157,0.0511048790217346,0.0527313254397757
42,0.052082982581825,0.0528544064221055,0.756275605621165,-0.594928178387256,0.75627560562073,-0.594928178388611,0.0519709594156444,0.0528010120827763
42.5,0.0529515339531327,0.052909266849735,0.751521225973234,-0.600625479164066,0.751521225972584,-0.600625479165307,0.0528359316082114,0.0528561764651696
43,0.0538188198866467,0.0529496135668773,0.746725632012275,-0.606284965823199,0.746725632011416,-0.606284965824314,0.0536995827484245,0.0528969022447306
43.5,0.0546846295035104,0.0529755300564264,0.741889099806238,-0.611906344662014,0.741889099805176,-0.611906344662991,0.0545617032455274,0.0529232746176075
44,0.0555487550783544,0.0529871012888755,0.737011908563844,-0.617489324152441,0.737011908562586,-0.617489324153268,0.0554220866960548,0.052935380225323
44.5,0.0564109919658663,0.0529844136343781,0.732094340568908,-0.623033614979969,0.732094340567463,-0.623033614980635,0.0562805298083515,0.052933307066965
45,0.0572711385250609,0.0529675547799758,0.72713668111589,-0.628538930082188,0.727136681114269,-0.628538930082685,0.0571368323248658,0.0529171444166507
45.5,0.058128996041543,0.0529366136520905,0.72213921844649,-0.634004984686738,0.722139218444701,-0.634004984687056,0.0579907969425163,0.0528869827463304
46,0.0589843686480502,0.0528916803443172,0.717102243687134,-0.63943149634853,0.717102243685189,-0.639431496348662,0.0588422292314231,0.0528429136539795
46.5,0.0598370632435631,0.0528328460505625,0.712026050787253,-0.644818184986144,0.712026050785162,-0.644818184986082,0.0596909375522859,0.0527850297972087
47,0.0606868894112551,0.0527602030035457,0.706910936458212,-0.650164772917265,0.706910936455987,-0.650164772917003,0.0605367329726934,0.052713424832306
47.5,0.0615336593355666,0.0526738444186724,0.701757200112861,-0.655470984893097,0.701757200110516,-0.65547098489263,0.0613794291826412,0.0526281933587188
48,0.0623771877186616,0.0525738644432697,0.69656514380561,-0.660736548131643,0.696565143803156,-0.660736548130967,0.0622188424095242,0.0525294308689525
48.5,0.0632172916965348,0.0524603581111636,0.691335072172996,-0.665961192349798,0.691335072170446,-0.665961192348909,0.0630547913328726,0.0524172337038668
49,0.0640537907550289,0.0523334213025697,0.686067292374715,-0.671144649794182,0.686067292372082,-0.671144649793078,0.0638870969990837,0.0522916990133279
49.5,0.0648865066460108,0.052193150709243,0.680762114035088,-0.676286655270665,0.680762114032386,-0.676286655269344,0.0647155827364147,0.0521529247221693
50,0.0657152633039493,0.0520396438048437,0.675419849184949,-0.681386946172532,0.675419849182191,-0.681386946170994,0.065540074070465,0.0520010095013964
50.5,0.0665398867631432,0.0518729988204436,0.670040812203959,-0.686445262507263,0.670040812201157,-0.686445262505508,0.0663603986404003,0.0518360527445658
51,0.0673602050758209,0.051693314725106,0.664625319763338,-0.691461346921888,0.664625319760507,-0.691461346919916,0.067176386116152,0.0516581545492638
51.5,0.0681760482313502,0.0515006912114486,0.659173690769026,-0.696434944726898,0.659173690766179,-0.696434944724712,0.0679878681168083,0.0514674157035833
52,0.0689872480767673,0.051295228686099,0.653686246305293,-0.701365803918705,0.653686246302443,-0.701365803916309,0.0687946781304284,0.0512639376775123
52.5,0.0697936382388472,0.0510770282649446,0.648163309578793,-0.706253675200631,0.648163309575952,-0.706253675198027,0.069596651435487,0.0510478226191218
53,0.0705950540479227,0.0508461917730642,0.642605205863103,-0.711098312002421,0.642605205860285,-0.711098311999614,0.0703936250241571,0.0508191733554393
53.5,0.071391332463649,0.0506028217492282,0.637012262443752,-0.715899470498292,0.637012262440969,-0.715899470495287,0.0711854375276338,0.0505780933978907
54,0.0721823120029111,0.0503470214548436,0.63138480856377,-0.720656909623516,0.631384808561035,-0.720656909620319,0.0719719291436894,0.0503246869521777
54.5,0.0729678326700639,0.0500788948872127,0.625723175369775,-0.725370391089545,0.625723175367099,-0.725370391086162,0.0727529415666474,0.0500590589324593
55,0.0737477358896834,0.0497985467969759,0.620027695858623,-0.730039679397693,0.620027695856018,-0.730039679394132,0.0735283179199604,0.0497813149796972
55.5,0.0745218644420086,0.0495060827095853,0.614298704824648,-0.734664541851395,0.614298704822125,-0.734664541847664,0.074297902691557,0.049491561484015
56,0.0752900624012407,0.0492016089506741,0.608536538807515,-0.739244748567059,0.608536538805085,-0.739244748563165,0.0750615416721335,0.0491899056109227
56.5,0.0760521750768598,0.0488852326751607,0.602741536040706,-0.743780072483528,0.602741536038379,-0.743780072479481,0.0758190818965446,0.048876455331246
57,0.076808048958122,0.0485570618999293,0.596914036400669,-0.748270289370187,0.596914036398457,-0.748270289365997,0.0765703715884492,0.048551319454597
57.5,0.0775575316618791,0.0482172055399276,0.591054381356656,-0.752715177833737,0.591054381354567,-0.752715177829414,0.07731526010836,0.0482146076662202
58,0.0783004718838671,0.0478657734475058,0.585162913921253,-0.757114519323656,0.585162913919296,-0.75711451931921,0.0780535979052314,0.0478664305670393
58.5,0.0790367193536013,0.0475028764548309,0.579239978601656,-0.761468098136389,0.57923997859984,-0.761468098131831,0.0787852364717276,0.0475068997167264
59,0.0797661247930044,0.0471286264191925,0.573285921351682,-0.765775701418293,0.573285921350015,-0.765775701413634,0.0795100283032885,0.0471361276796117
59.5,0.0804885398788915,0.046743136271018,0.56730108952456,-0.770037119167366,0.567301089523049,-0.770037119162619,0.0802278268611191,0.046754228073245
60,0.0812038172094291,0.0463465200644109,0.561285831826505,-0.774252144233798,0.561285831825157,-0.774252144228975,0.0809384865392134,0.0463613156194248
60.5,0.0819118102746763,0.0459388930300215,0.555240498271103,-0.778420572319377,0.555240498269924,-0.778420572314489,0.0816418626355144,0.0459575061974861
61,0.0826123734313103,0.0455203716300508,0.549165440134512,-0.782542201975779,0.54916544013351,-0.78254220197084,0.0823378113273193,0.0455429168996637
61.5,0.083305361881629,0.0450910736151909,0.54306100991152,-0.78661683460179,0.543061009910698,-0.786616834596812,0.0830261896510038,0.045117666088314
62,0.0839906316569248,0.0446511180832979,0.536927561272437,-0.790644274439478,0.536927561271802,-0.790644274434476,0.0837068554861671,0.0446818734547978
62.5,0.0846680396053016,0.0442006255395858,0.530765449020877,-0.794624328569369,0.530765449020432,-0.794624328564356,0.0843796675442599,0.0442356600798074
63,0.0853374433840092,0.0437397179581375,0.524575029052405,-0.79855680690465,0.524575029052154,-0.798556806899638,0.0850444853617697,0.0437791484949277
63.5,0.0859987014563713,0.043268518844513,0.518356658314091,-0.802441522184436,0.518356658314037,-0.802441522179439,0.085701169298025,0.0433124627452125
64,0.0866516730933408,0.0427871532992358,0.512110694764961,-0.80627828996615,0.512110694765107,-0.806278289961183,0.0863495805376638,0.0428357284525552
