"Freq [GHz]","re(St(P1,P1)) []","im(St(P1,P1)) []","re(St(P1,P2)) []","im(St(P1,P2)) []","re(St(P2,P1)) []","im(St(P2,P1)) []","re(St(P2,P2)) []","im(St(P2,P2)) []"
0,0.00515246456302521,0,0.994857784477063,0,0.994857780795428,0,0.00515246480478027,0
0.5,0.0056094371391282,0.0008899498441437,0.994224412932645,-0.00985723261553417,0.994224412066369,-0.00985723288151874,0.0056093640723347,0.000890164972172869
1,0.00593005197906571,0.00122456944657401,0.993423347288379,-0.0190977618422679,0.993423346966361,-0.0190977618379549,0.00592976147839863,0.00122506289266155
1.5,0.00602896601077774,0.00146431769528732,0.992547404722592,-0.0281334358601555,0.992547404539677,-0.0281334357197061,0.00602837781286336,0.0014651442806084
2,0.00596624798994538,0.0017283203610976,0.991591768757211,-0.0370395488143735,0.991591768696467,-0.0370395486937234,0.00596531094602248,0.00172950987090914
2.5,0.00581020172261404,0.002054602750583,0.99052346667422,-0.0458418054844625,0.990523466667149,-0.0458418054256899,0.00580885451006452,0.00205616062853231
3,0.00559990792852871,0.00244993357111056,0.989336714183961,-0.0545347563637932,0.989336714184876,-0.0545347563577128,0.00559807766600828,0.00245185902115352
3.5,0.00536001436068889,0.00291413781434979,0.988041268058913,-0.0631115881703179,0.988041268047876,-0.0631115881939346,0.00535762015110031,0.00291642996782837
4,0.00510837347721294,0.00344472832430132,0.986652513108911,-0.0715702654593304,0.9866525130832,-0.0715702654909851,0.00510532876493996,0.00344738840958758
4.5,0.0048590312478447,0.00403777030945474,0.985186341948944,-0.0799135789925138,0.985186341915069,-0.079913579017024,0.00485524520565717,0.00404080272043217
5,0.00462336224712406,0.00468816289611862,0.983656790225217,-0.0881478324984668,0.983656790193094,-0.0881478325079241,0.00461874073780016,0.00469157595483427
5.5,0.00441053357768284,0.00538990256019467,0.982075129103399,-0.0962814240320595,0.98207512908249,-0.0962814240247578,0.00440497999170508,0.00539370914968274
6,0.00422775092134184,0.00613638086748036,0.980449728288771,-0.104323667662102,0.980449728285794,-0.104323667640737,0.00422116701665046,0.0061405989428307
6.5,0.00408045244775046,0.00692068329160378,0.978786309029494,-0.112283928148311,0.978786309047288,-0.112283928118088,0.00407273922340201,0.00692533624360969
7,0.0039725031590916,0.00773585659131593,0.977088366575884,-0.120171046431013,0.97708836661309,-0.120171046397942,0.00396356174946715,0.00774097344298008
7.5,0.00390639850275607,0.00857512671995009,0.975357635009796,-0.127993001241078,0.975357635061046,-0.127993001210586,0.00389613106123696,0.00858074215167992
8,0.00388347101647956,0.00943206189080037,0.973594525639827,-0.135756746294037,0.973594525696232,-0.135756746269937,0.00387178155492686,0.00943821610472151
8.5,0.00390409062882305,0.0103006836739405,0.971798506665943,-0.143468168663544,0.971798506715722,-0.143468168647322,0.00389088578422594,0.0103074221182586
9,0.00396785070214878,0.0111755333820223,0.969968413768318,-0.151132124546395,0.969968413797463,-0.151132124536772,0.0039530404100154,0.0111829063620492
9.5,0.00407373469861452,0.0120517026373093,0.968102693483429,-0.15875251977566,0.968102693476338,-0.158752519768359,0.00405723276127176,0.0120597648415743
10,0.00422026106348178,0.0129248369413486,0.966199587169359,-0.166332412229989,0.966199587109407,-0.166332412217662,0.00420198560906876,0.0129336469101031
10.5,0.00446092401338233,0.0137949678552212,0.964266913430429,-0.17386336291356,0.964266913376741,-0.173863362895216,0.00443953950804127,0.0138045277107182
11,0.00472470213971965,0.014648876654503,0.962304923768344,-0.181358329067883,0.96230492372111,-0.181358329044882,0.0047003394522071,0.014659349752927
11.5,0.00500998265691341,0.0154870727995426,0.960312349014396,-0.188820449281925,0.960312348973606,-0.188820449255497,0.00498274996930134,0.0154985896619779
12,0.0053153974405499,0.0163100001606997,0.958287816572267,-0.196252338550172,0.958287816537756,-0.196252338521413,0.00528538240872972,0.0163226662872451
12.5,0.00563977238058591,0.0171180400504549,0.956229914493173,-0.203656151589436,0.956229914464658,-0.203656151559299,0.00560704428982564,0.0171319418926821
13,0.0059820880897612,0.0179115161029646,0.95413723836737,-0.211033642797084,0.954137238344483,-0.211033642766392,0.00594669989226818,0.0179267256563591
13.5,0.006341449251202,0.0186906999369894,0.952008424600036,-0.218386221430908,0.95200842458235,-0.21838622140035,0.00630343943406236,0.0187072782942768
14,0.00671706057317145,0.0194558169832368,0.949842173083411,-0.225715001342012,0.949842173070466,-0.225715001312159,0.00667645483976931,0.0194738171010749
14.5,0.00710820782516336,0.0202070521287223,0.947637261745563,-0.233020845095548,0.947637261736879,-0.233020845066861,0.00706502059213515,0.0202265209955388
15,0.00751424280447094,0.0209445549956424,0.945392554978852,-0.240304402634863,0.945392554973947,-0.240304402607703,0.00746847852597066,0.0209655353409204
15.5,0.0079345713606882,0.0216684447712414,0.943107007539781,-0.247566144835619,0.943107007538179,-0.247566144810261,0.00788622569608521,0.0216909764215913
16,0.00836864381302543,0.0223788145635604,0.940779665167486,-0.254806392397223,0.94077966516873,-0.254806392373861,0.00831770465546799,0.0224029355250772
16.5,0.0088159472505272,0.0230757352912909,0.938409662885982,-0.262025340559432,0.938409662889637,-0.2620253405382,0.0087623956334596,0.0231014826185147
17,0.00927599932204159,0.0237592591339177,0.935996221727977,-0.269223080133866,0.935996221733635,-0.269223080114834,0.00921981021956597,0.0237866696313822
17.5,0.00974834321107348,0.0244294225770769,0.933538644437546,-0.276399615318087,0.933538644444828,-0.276399615301279,0.00968948624649218,0.0244585333686784
18,0.0102325435577448,0.0250862490911203,0.931036310567094,-0.283554878724833,0.931036310575656,-0.283554878710233,0.0101709836329515,0.0251170980844566
18.5,0.0107281831414015,0.0257297514807953,0.928488671273797,-0.290688744017425,0.928488671283323,-0.290688744004985,0.0106638809981692,0.0257623777474629
19,0.0112348601768154,0.0263599339420872,0.925895244035688,-0.29780103649904,0.925895244045898,-0.297801036488682,0.0111677728995339,0.026394378030278
19.5,0.0117521861074181,0.0269767938595062,0.923255607442713,-0.304891541961211,0.923255607453356,-0.304891541952839,0.0116822675754799,0.0270130980516341
20,0.0122797838026534,0.0275803233739664,0.92056939616888,-0.311960014057191,0.920569396179737,-0.311960014050691,0.0122069850995019,0.027618531899348
20.5,0.0128172860850566,0.0281705107482719,0.917836296194825,-0.319006180429509,0.917836296205706,-0.319006180424757,0.0127415558698643,0.0282106699587255
21,0.0133643345271622,0.0287473415541752,0.915056040322731,-0.326029747788574,0.915056040333472,-0.326029747785437,0.0132856193742246,0.0287895000687928
21.5,0.013920578469826,0.0293107997021962,0.912228404005522,-0.333030406110432,0.912228404015988,-0.333030406108773,0.0138388231799723,0.0293550085262388
22,0.0144856742226179,0.0298608683328219,0.909353201497784,-0.340007832096778,0.90935320150786,-0.340007832096457,0.0144008221102941,0.0299071809547089
22.5,0.0150592844142086,0.0303975305854756,0.906430282325606,-0.346961692018491,0.906430282335201,-0.346961692019368,0.0149712775733171,0.0304460030550451
23,0.0156410774664468,0.0309207702595991,0.903459528065552,-0.353891644045338,0.903459528074595,-0.353891644047277,0.0155498570175665,0.030971461250219
23.5,0.0162307271705351,0.0314305723804724,0.900440849418285,-0.360797340148382,0.900440849426722,-0.360797340151248,0.0161362334917158,0.0314835432370759
24,0.0168279123474399,0.0319269236808215,0.897374183559482,-0.367678427647981,0.897374183567276,-0.367678427651644,0.0167300852904462,0.0319822384555839
24.5,0.0174323165777741,0.0324098130079484,0.894259491749136,-0.374534550468599,0.894259491756265,-0.374534550472937,0.0173310956713512,0.0324675384850037
25,0.018043627988869,0.0328792316649231,0.891096757179666,-0.381365350151807,0.891096757186119,-0.381365350156704,0.0179389526303502,0.0329394373752894
25.5,0.0186615390888072,0.0333351736934053,0.887885983043304,-0.388170466670422,0.887885983049083,-0.388170466675767,0.0185533487251888,0.0333979319210898
26,0.0192857466388697,0.0337776361047275,0.88462719079971,-0.394949539079742,0.884627190804826,-0.394949539085433,0.01917398093829,0.0338430218848431
26.5,0.0199159515572404,0.0342066190651407,0.881320418625587,-0.401702206035813,0.881320418630061,-0.401702206041757,0.0198005505716535,0.0342747101747409
27,0.0205518588479588,0.0346221260404613,0.877965720029052,-0.408428106205671,0.877965720032911,-0.408428106211781,0.0204327631676784,0.034693002982697
27.5,0.0211931775500894,0.0350241639047346,0.87456316261265,-0.415126878590262,0.874563162615927,-0.415126878596459,0.0210703284507497,0.0350979098868779
28,0.021839620702847,0.0354127430170781,0.871112826970047,-0.421798162777189,0.87111282697278,-0.421798162783402,0.0217129602852666,0.0354894439228818
28.5,0.022490905323122,0.0357878772703675,0.867614805702651,-0.428441599137479,0.867614805704882,-0.428441599143645,0.0223603766464543,0.0358676216271914
29,0.0231467523923839,0.0361495841150911,0.864069202543517,-0.435056828978019,0.864069202545293,-0.435056828984083,0.0230122996009019,0.0362324630561809
29.5,0.023806886850451,0.0364978845613203,0.860476131577062,-0.441643494659253,0.86047613157843,-0.441643494665165,0.0236684552942388,0.0365839917835981
30,0.0244710375939841,0.03683280316145,0.856835716544119,-0.448201239685986,0.856835716545127,-0.448201239691703,0.0243285739437827,0.0369222348791486
30.5,0.0251389374779351,0.0371543679761104,0.853148090222899,-0.454729708777651,0.853148090223599,-0.45472970878314,0.0249923898343407,0.0372472228705644
31,0.0258103233184517,0.0374626105254076,0.849413393877334,-0.461228547923207,0.849413393877777,-0.461228547928437,0.0256596413156532,0.0375589896912991
31.5,0.0264849358960075,0.0377575657274326,0.845631776765132,-0.467697404424821,0.845631776765368,-0.46769740442977,0.0263300708002057,0.0378575726157698
32,0.027162519957722,0.0380392718258051,0.841803395698662,-0.474135926933638,0.841803395698742,-0.474135926938288,0.0270034247603713,0.0381430121839095
32.5,0.0278428242180377,0.0383077703078528,0.83792841465252,-0.480543765480259,0.837928414652494,-0.480543765484596,0.0276794537240292,0.0384153521166141
33,0.0285256013570611,0.03856310581486,0.834007004412269,-0.486920571501978,0.834007004412185,-0.486920571505994,0.0283579122679543,0.0386746392235121
33.5,0.0292106080160222,0.0388053260457137,0.830039342259449,-0.493265997868351,0.830039342259354,-0.493265997872043,0.0290385590084321,0.0389209233043771
34,0.0298976047894219,0.0390344816551195,0.826025611688487,-0.499579698906294,0.826025611688426,-0.499579698909663,0.0297211565886489,0.0391542570453507
34.5,0.0305863562135361,0.0392506261474922,0.821966002151641,-0.505861330425583,0.821966002151658,-0.505861330428632,0.0304054716625322,0.0393746959110696
35,0.0312766307510255,0.039453815767484,0.817860708828526,-0.51211054974539,0.817860708828662,-0.512110549748127,0.0310912748747899,0.0395822980336583
35.5,0.0319682007714938,0.0396441093880601,0.813709932417178,-0.518327015722274,0.813709932417471,-0.518327015724708,0.0317783408369787,0.0397771240994873
36,0.0326608425278804,0.0398215683969272,0.809513878943973,-0.524510388779886,0.80951387894446,-0.524510388782031,0.032466448099502,0.0399592372344962
36.5,0.0333543361286466,0.0399862565820442,0.805272759590004,-0.530660330940523,0.805272759590721,-0.530660330942395,0.0331553791194839,0.0401287028888169
37,0.0340484655057491,0.0401382400169027,0.800986790531857,-0.536776505858564,0.800986790532835,-0.53677650586018,0.0338449202245278,0.0402855887213538
37.5,0.0347430183784504,0.0402775869461658,0.796656192794895,-0.542858578855729,0.796656192796164,-0.542858578857109,0.0345348615724,0.040429964484929
38,0.0354377862130342,0.0404043676722247,0.79228119211748,-0.548906216958075,0.792281192119067,-0.548906216959239,0.0352249971067178,0.0405619019125296
38.5,0.0361325641785388,0.0405186544431613,0.787862018824681,-0.554919088934574,0.787862018826612,-0.554919088935545,0.0359151245087568,0.0406814746051447
39,0.0368271510986422,0.0406205213425688,0.783398907710243,-0.560896865337096,0.783398907712538,-0.560896865337898,0.0366050451455042,0.0407887579216372
39.5,0.0375213493998483,0.0407100441816282,0.778892097925723,-0.566839218541607,0.778892097928403,-0.566839218542265,0.0372945640141299,0.0408838288710406
40,0.0382149650561498,0.0407873003938006,0.774341832875854,-0.572745822790373,0.774341832878937,-0.572745822790911,0.0379834896830362,0.0409667660076329
40.5,0.0389078075303585,0.0408523689324615,0.769748360119315,-0.578616354234957,0.769748360122815,-0.578616354235401,0.0386716342296905,0.0410376493291097
41,0.039599689712296,0.0409053301717478,0.765111931274177,-0.584450490979804,0.765111931278108,-0.584450490980182,0.0393588131754335,0.0410965601781174
41.5,0.0402904278540592,0.0409462658108909,0.76043280192743,-0.590247913126206,0.760432801931803,-0.590247913126542,0.0400448454174852,0.0411435811474139
42,0.0409798415025807,0.0409752587822342,0.755711231548038,-0.596008302816437,0.755711231552861,-0.596008302816759,0.0407295531583602,0.0411787959888471
42.5,0.0416677534296995,0.0409923931631473,0.750947483403066,-0.601731344277893,0.750947483408346,-0.601731344278227,0.0414127618329289,0.041202289526356
43,0.0423539895599795,0.0409977540919862,0.746141824476487,-0.60741672386703,0.74614182448223,-0.607416723867402,0.0420943000333427,0.04121414757314
43.5,0.0430383788964933,0.0409914276882557,0.741294525390327,-0.613064130112951,0.741294525396535,-0.613064130113388,0.0427739994320677,0.0412144568531354
44,0.0437207534448208,0.0409735009770774,0.736405860327857,-0.618673253760487,0.736405860334532,-0.618673253761015,0.0434516947032531,0.0412033049269098
44.5,0.0444009481354777,0.0409440618180751,0.73147610695859,-0.624243787812624,0.731476106965729,-0.624243787813267,0.0441272234426738,0.0411807801220636
45,0.0450788007450164,0.0409031988387465,0.72650554636487,-0.629775427572148,0.726505546372473,-0.629775427572931,0.0448004260864764,0.0411469714682087
45.5,0.0457541518160254,0.0408510013723744,0.721494462969894,-0.635267870682406,0.721494462977956,-0.635267870683352,0.0454711458289623,0.0411019686365733
46,0.046426844576258,0.0407875594005416,0.716443144466988,-0.640720817167057,0.716443144475505,-0.640720817168192,0.0461392285396405,0.0410458618842747
46.5,0.0470967248571124,0.040712963500243,0.711351881750058,-0.646133969468752,0.711351881759022,-0.646133969470095,0.0468045226797688,0.0409787420032663
47,0.0477636410116899,0.0406273047956391,0.70622096884508,-0.651507032486622,0.706220968854484,-0.651507032488197,0.0474668792186181,0.04090070027398
47.5,0.0484274438326437,0.0405306749144226,0.701050702842568,-0.656839713612558,0.701050702852402,-0.656839713614386,0.0481261515496652,0.0408118284236342
48,0.0490879864700418,0.0404231659487994,0.695841383830944,-0.662131722766176,0.695841383841199,-0.662131722768276,0.0487821954069391,0.0407122185892046
48.5,0.0497451243494414,0.0403048704210512,0.690593314830768,-0.667382772428442,0.690593314841433,-0.667382772430834,0.0494348687817286,0.0406019632850099
49,0.0503987150903925,0.0401758812536362,0.685306801729781,-0.672592577673922,0.685306801740843,-0.672592577676623,0.0500840318398506,0.0404811553748725
49.5,0.0510486184255628,0.0400362917437949,0.679982153218723,-0.677760856201604,0.679982153230168,-0.677760856204633,0.0507295468396882,0.0403498880488006
50,0.051694696120684,0.0398861955425828,0.674619680727919,-0.682887328364292,0.674619680739735,-0.682887328367663,0.0513712780511837,0.0402082548041264
50.5,0.052336811895503,0.0397256866382854,0.669219698364616,-0.687971717196528,0.669219698376788,-0.687971717200258,0.0520090916759838,0.0400563494310205
51,0.0529748313459308,0.0395548593441187,0.66378252285104,-0.693013748441064,0.663782522863552,-0.693013748445166,0.0526428557689152,0.0398942660023154
51.5,0.0536086218675625,0.0393738082901544,0.658308473463197,-0.698013150573841,0.658308473476034,-0.698013150578329,0.0532724401609692,0.0397220988675311
52,0.054238052580743,0.0391826284193596,0.652797871970405,-0.702969654827512,0.652797871983549,-0.702969654832396,0.0538977163839716,0.0395399426510221
52.5,0.0548629942573473,0.0389814149876719,0.647251042575546,-0.707882995213483,0.647251042588981,-0.707882995218777,0.0545185575970983,0.0393478922541347
53,0.0554833192494384,0.0387702635679913,0.64166831185607,-0.712752908542508,0.641668311869779,-0.712752908548219,0.0551348385154011,0.0391460428612634
53.5,0.0560989014199602,0.0385492700579971,0.636050008705738,-0.717579134443819,0.636050008719703,-0.717579134449959,0.0557464353404995,0.0389344899497012
54,0.056709616075613,0.038318530691659,0.630396464277123,-0.72236141538285,0.630396464291325,-0.722361415389425,0.0563532256935859,0.0387133293031541
54.5,0.0573153399020614,0.0380781420543345,0.624708011924861,-0.727099496677528,0.624708011939283,-0.727099496684546,0.0569550885508859,0.038482657028796
55,0.0579159509016153,0.0378282011013222,0.618984987149697,-0.731793126513193,0.61898498716432,-0.731793126520659,0.0575519041817161,0.0382425695777387
55.5,0.0585113283335158,0.0375688051797452,0.613227727543299,-0.73644205595614,0.613227727558104,-0.73644205596406,0.0581435540892695,0.0379931637687737
56,0.0591013526569572,0.0373000520536269,0.607436572733875,-0.741046038965838,0.607436572748844,-0.741046038974214,0.0587299209542526,0.0377345368152556
56.5,0.0596859054769663,0.037022039932026,0.6016118643326,-0.745604832405825,0.601611864347714,-0.745604832414662,0.0593108885814971,0.0374667863549734
57,0.0602648694932647,0.0367348675000851,0.59575394588086,-0.750118196053339,0.595753945896099,-0.750118196062638,0.0598863418496642,0.037190010482871
57.5,0.0608381284522165,0.0364386339528486,0.589863162798321,-0.754585892607685,0.589863162813666,-0.754585892617448,0.0604561666641418,0.0369043077864613
58,0.061405567101974,0.0361334390317001,0.583939862331848,-0.759007687697404,0.583939862347281,-0.75900768770763,0.0610202499132479,0.0366097773837758
58.5,0.0619670711509262,0.035819383063267,0.577984393505275,-0.763383349886241,0.577984393520777,-0.76338334989693,0.0615784794278325,0.0363065189636981
59,0.0625225272295373,0.035496567000633,0.571997107070023,-0.767712650677977,0.571997107085575,-0.767712650689127,0.062130743944371,0.0359946328285167
59.5,0.0630718228556764,0.0351650924667003,0.565978355456604,-0.771995364520141,0.565978355472188,-0.77199536453175,0.0626769330716349,0.0356742199385247
60,0.0636148464035114,0.0348250617995416,0.559928492726995,-0.776231268806645,0.559928492742592,-0.77623126881871,0.0632169372610206,0.0353453819585124
60.5,0.0641514870760591,0.0344765780995687,0.5538478745279,-0.780420143879373,0.553847874543492,-0.780420143891889,0.0637506477806111,0.035008221305968
61,0.0646816348814513,0.0341197452783532,0.547736858044906,-0.784561773028757,0.547736858060475,-0.784561773041719,0.0642779566930372,0.0346628412008193
61.5,0.0652051806129961,0.0337546681089264,0.541595801957539,-0.788655942493387,0.541595801973067,-0.788655942506791,0.0647987568372001,0.034309345716538
62,0.0657220158330861,0.033381452277382,0.535425066395224,-0.792702441458679,0.535425066410695,-0.792702441472517,0.0653129418139147,0.033947839832428
62.5,0.0662320328610161,0.033000204435605,0.529225012894162,-0.796701062054639,0.529225012909557,-0.796701062068904,0.0658204059755156,0.03357842948691
63,0.0667351247647541,0.032611032254946,0.522996004355114,-0.800651599352759,0.522996004370417,-0.800651599367444,0.0663210444194794,0.0332012216316267
63.5,0.0672311853567115,0.0322140444806575,0.516738405002111,-0.804553851362087,0.516738405017305,-0.804553851377182,0.0668147529860872,0.0328163242861727
64,0.067720109193546,0.031809350986909,0.51045258034208,-0.808407619024491,0.51045258035715,-0.808407619039987,0.0673014282601695,0.0324238465932676
