"Freq [GHz]","re(St(P1,P1)) []","im(St(P1,P1)) []","re(St(P1,P2)) []","im(St(P1,P2)) []","re(St(P2,P1)) []","im(St(P2,P1)) []","re(St(P2,P2)) []","im(St(P2,P2)) []"
0,0.0050929499633412,0,0.994918386670179,0,0.994918383497861,0,0.00509297953294663,0
0.5,0.00559218315105525,0.000179123406443438,0.994263111705862,-0.00967816178416214,0.994263113741017,-0.00967816266245691,0.00559251922673099,0.00017767950461689
1,0.00595546934754942,-0.00024624839358367,0.993476895414533,-0.0187016587747273,0.993476895502466,-0.0187016591870375,0.00595627340752358,-0.000249625043124979
1.5,0.00610061502880033,-0.000774064865575852,0.992657131679129,-0.0275263879957031,0.992657131634301,-0.0275263882018386,0.00610162437862716,-0.000779762055021394
2,0.0060725950342384,-0.00130440687919631,0.991786657727096,-0.036239927681228,0.991786657675412,-0.036239927742507,0.00607361389475702,-0.0013123804802575
2.5,0.00593851458610173,-0.00178760657876076,0.990822918077715,-0.0448709807640579,0.990822918058311,-0.0448709807443404,0.00593944361997334,-0.0017978117687445
3,0.005739561212879,-0.00221399802653544,0.989753553284559,-0.0534146533347943,0.989753553301322,-0.0534146532815303,0.0057403258657347,-0.00222639907376987
3.5,0.00550091090096205,-0.00258394895571978,0.988583086777957,-0.0618636225640481,0.988583086819169,-0.0618636225094313,0.00550144251688889,-0.0025985070208181
4,0.00523949086565212,-0.00290065090502623,0.98732262534788,-0.0702145295816612,0.987322625395348,-0.0702145295448453,0.00523972447417398,-0.00291731676854123
4.5,0.0049675812695088,-0.00316834144196942,0.985984687198983,-0.0784682641111765,0.985984687233527,-0.0784682641004784,0.00496745757592298,-0.00318705358189586
5,0.00469444042756073,-0.00339171728691401,0.984580798209804,-0.0866289082553431,0.984580798214886,-0.0866289082706659,0.00469390799810843,-0.00341240372270679
5.5,0.0044271185008371,-0.00357560119751543,0.98312049779001,-0.0947025445558074,0.983120497754012,-0.0947025445912368,0.0044261349002514,-0.00359818391783762
6,0.00417094172064375,-0.0037246785712064,0.981611078618693,-0.102696247287904,0.981611078536099,-0.102696247334265,0.00416947353888969,-0.00374907981914419
6.5,0.00392985055696124,-0.0038432805478541,0.980057703214214,-0.11061732617077,0.980057703085917,-0.110617326217934,0.00392787295516234,-0.00386943056451106
7,0.00370665493322472,-0.00393521662644947,0.978463695763683,-0.118472809297851,0.978463695596686,-0.118472809336661,0.00370415185065606,-0.00396306258473
7.5,0.00350322405715832,-0.00400365973931516,0.976830893206605,-0.126269123898331,0.976830893013329,-0.126269123922095,0.00350019062081143,-0.00403317543172177
8,0.00332061420335811,-0.00405108550492184,0.975159991160794,-0.134011927362813,0.975159990958178,-0.134011927368358,0.00331706309653278,-0.00408228077910655
8.5,0.00315913742901881,-0.00407926913776446,0.973450852362392,-0.14170604470021,0.973450852170923,-0.141706044688589,0.00315511078445044,-0.00411219707361754
9,0.00301838108580827,-0.00408934652637338,0.971702764859663,-0.149355476318658,0.971702764702433,-0.149355476295526,0.00301396852340734,-0.00412410509131833
9.5,0.00289719920272431,-0.00408194660755212,0.969914648471065,-0.156963448566809,0.969914648372906,-0.156963448542576,0.00289256060192,-0.00411867053620751
10,0.00279370928742281,-0.0040573961951873,0.968085213889331,-0.164532487237119,0.968085213876054,-0.164532487226923,0.00278909779141549,-0.00409623503836176
10.5,0.00273156984737297,-0.00406957400114294,0.966233487611261,-0.172050231636698,0.966233487597599,-0.172050231632748,0.00272554322619356,-0.00411034297495094
11,0.00268285190979151,-0.00408628305948477,0.964348643186189,-0.179535120498497,0.964348643171285,-0.179535120500419,0.00267551909398847,-0.00412879316104497
11.5,0.00264608104535644,-0.00410831508211418,0.96242955304199,-0.186989666228708,0.962429553025093,-0.18698966623603,0.0026375589064383,-0.00415241756978446
12,0.00261989089860537,-0.00413627055167076,0.960475044234879,-0.194415939950295,0.960475044215348,-0.194415939962469,0.0026102978013369,-0.00418185169809426
12.5,0.00260302076831814,-0.00417059574558198,0.958483944765539,-0.201815632400469,0.958483944742849,-0.201815632416891,0.002592471921679,-0.00421757170966908
13,0.00259431048127848,-0.0042116126268068,0.956455115646324,-0.209190109334317,0.956455115620061,-0.209190109354352,0.00258291470614608,-0.00425992464009006
13.5,0.0025926938334894,-0.00425954287159458,0.954387472092604,-0.216540460823213,0.954387472062458,-0.216540460846206,0.00258055143021549,-0.00430915284181133
14,0.00259719143336279,-0.00431452713567282,0.95227999656882,-0.223867544392907,0.952279996534585,-0.223867544418203,0.00258439289224416,-0.00436541371035215
14.5,0.00260690347614362,-0.00437664048608388,0.95013174585364,-0.231172022285679,0.950131745815203,-0.231172022312633,0.00259352882563196,-0.00442879558108045
15,0.00262100277034144,-0.00444590476383389,0.947941853809746,-0.238454393319852,0.947941853767076,-0.238454393347842,0.00260712140112501,-0.00449933053925355
15.5,0.00263872819703737,-0.00452229849991892,0.9457095311506,-0.245715019907832,0.945709531103744,-0.245715019936263,0.00262439903540951,-0.00457700475336775
16,0.00265937869084809,-0.00460576488630915,0.943434063180577,-0.252954150816654,0.943434063129646,-0.25295415084497,0.00264465062302871,-0.00466176682744446
16.5,0.00268230777230072,-0.00469621820305277,0.9411148062355,-0.260171940237845,0.941114806180666,-0.260171940265532,0.00266722024378135,-0.00475353457149597
17,0.00270691862479644,-0.00479354902071405,0.93875118335654,-0.267368463693598,0.938751183298021,-0.267368463720185,0.00269150235633414,-0.00485220050995516
17.5,0.00273265968788478,-0.00489762843113528,0.936342679581357,-0.274543731255097,0.936342679519413,-0.274543731280162,0.00271693746352103,-0.00495763638302216
18,0.00275902072709699,-0.00500831150657399,0.933888837123046,-0.281697698493895,0.933888837057969,-0.281697698517064,0.00274300822023471,-0.00506969684363434
18.5,0.00278552933558218,-0.00512544014502736,0.931389250622383,-0.28883027553282,0.93138925055449,-0.288830275553767,0.00276923594746564,-0.00518822251082662
19,0.00281174782187732,-0.00524884542616455,0.928843562595609,-0.295941334511817,0.928843562525234,-0.295941334530261,0.00279517751322711,-0.00531304250687858
19.5,0.00283727043969934,-0.00537834957577821,0.926251459153624,-0.303030715737498,0.926251459081117,-0.303030715753206,0.00282042254125808,-0.00544397657901308
20,0.00286172091859405,-0.00551376761593447,0.923612666034904,-0.310098232743891,0.923612665960622,-0.310098232756676,0.00284459091018424,-0.00558083688545974
20.5,0.0028847502579234,-0.00565490876151276,0.920926944970589,-0.317143676455554,0.920926944894887,-0.317143676465271,0.00286733050863475,-0.00572342950900495
21,0.00290603475058704,-0.00580157761096767,0.918194090383615,-0.324166818612959,0.918194090306852,-0.324166818619502,0.00288831521502453,-0.00587155574804399
21.5,0.00292527420673183,-0.00595357516905026,0.915413926412615,-0.331167414593271,0.915413926335141,-0.331167414596572,0.00290724307407619,-0.00602501322478721
22,0.00294219035136906,-0.00611069973123879,0.912586304244047,-0.338145205736898,0.912586304166206,-0.338145205736924,0.0029238346454129,-0.00618359684213088
22.5,0.00295652537323132,-0.00627274765343122,0.909711099731767,-0.345099921271022,0.909711099653889,-0.34509992126777,0.00293783150263582,-0.00634709961426205
23,0.00296804060524686,-0.00643951402557574,0.906788211280978,-0.352031279905208,0.906788211203383,-0.352031279898706,0.00294899486411626,-0.00651531339103695
23.5,0.00297651531973636,-0.00661079326408109,0.90381755797273,-0.358938991160765,0.903817557895722,-0.358938991151067,0.00295710433927149,-0.00668802949218827
24,0.00298174562385639,-0.00678637963486484,0.900799077905373,-0.365822756484322,0.900799077829238,-0.365822756471504,0.00296195677633432,-0.00686503926428128
24.5,0.00298354344288909,-0.00696606771657438,0.897732726730235,-0.372682270186819,0.897732726655243,-0.37268227017098,0.00296336519960472,-0.00704613457091519
25,0.00298173558080739,-0.00714965281166657,0.894618476360154,-0.379517220241453,0.894618476286556,-0.379517220222708,0.00296115782589496,-0.00723110822469852
25.5,0.00297616284911029,-0.00733693131161206,0.891456313830994,-0.386327288967749,0.891456313759023,-0.386327288946229,0.00295517715136145,-0.00741975436802678
26,0.00296667925624439,-0.00752770102138145,0.888246240297986,-0.393112153623814,0.888246240227857,-0.393112153599664,0.00294527910118636,-0.00761186880849452
26.5,0.00295315125109635,-0.0077217614474967,0.884988270150405,-0.39987148692449,0.884988270082311,-0.399871486897866,0.00293133223567643,-0.00780724931382393
27,0.00293545701498982,-0.0079189140532181,0.881682430229758,-0.406604957499684,0.881682430163876,-0.40660495747075,0.00291321700726921,-0.00800569587043642
27.5,0.00291348579746242,-0.00811896248395461,0.878328759138252,-0.413312230304322,0.87832875907474,-0.413312230273251,0.00289082506371929,-0.00820701090922427
28,0.00288713729176793,-0.0083217127655193,0.874927306625779,-0.419992966989046,0.874927306564774,-0.419992966956015,0.00286405859341676,-0.00841099950159463
28.5,0.00285632104665579,-0.00852697347754305,0.871478133045024,-0.426646826238912,0.871478132986649,-0.426646826204103,0.00283282970933568,-0.0086174695284762
29,0.00282095591146264,-0.00873455590408012,0.86798130886559,-0.433273464085852,0.867981308809949,-0.433273464049447,0.00279705986860257,-0.00882623182467701
29.5,0.00278096951195389,-0.0089442741632455,0.864436914239112,-0.439872534199418,0.864436914186293,-0.439872534161603,0.00275667932504786,-0.00903710030074456
30,0.00273629775470302,-0.00915594531754138,0.860845038608392,-0.446443688159397,0.860845038558468,-0.446443688120356,0.00271162661245372,-0.00924989204425719
30.5,0.00268688435808745,-0.00936938946638177,0.857205780354497,-0.452986575713061,0.857205780307524,-0.452986575672978,0.0026618480564809,-0.00946442740232123
31,0.00263268040820364,-0.00958442982223107,0.853519246476523,-0.459500845019229,0.853519246432544,-0.459500844978284,0.00260729731349024,-0.00968053004688096
31.5,0.00257364393821308,-0.00980089277165075,0.849785552299507,-0.465986142880827,0.849785552258552,-0.465986142839197,0.00254793493466476,-0.00989802702435594
32,0.00250973952979755,-0.0100186079224693,0.846004821206546,-0.472442114967225,0.846004821168632,-0.472442114925084,0.00248372795400681,-0.0101167487909821
32.5,0.00244093793552397,-0.010237408138226,0.842177184391741,-0.478868406027373,0.842177184356872,-0.478868405984891,0.00241464949891324,-0.0103365292351502
33,0.00236721572104592,-0.0104571295609484,0.838302780631085,-0.485264660094476,0.838302780599255,-0.485264660051816,0.00234067842214869,-0.010557205687948
33.5,0.00228855492616042,-0.0106776116232876,0.834381756068803,-0.491630520682803,0.834381756039996,-0.491630520640125,0.0022617989541262,-0.0107786189230348
34,0.00220494274381822,-0.0108986970509478,0.830414264017036,-0.497965630977084,0.830414263991227,-0.497965630934541,0.002178000374499,-0.0110006131468795
34.5,0.00211637121623387,-0.0111202318563278,0.826400464767057,-0.504269634014843,0.826400464744211,-0.50426963397258,0.00208927670211023,-0.0112230359803821
35,0.00202283694733429,-0.011342065324208,0.822340525410488,-0.510542172861927,0.822340525390562,-0.510542172820083,0.00199562640243567,-0.0114457384327565
35.5,0.00192434083079357,-0.0115640499902832,0.818234619669218,-0.516782890781474,0.818234619652163,-0.516782890740184,0.00189705211167623,-0.011668574868564
36,0.00182088779295919,-0.0117860416132958,0.814082927732918,-0.52299143139648,0.814082927718677,-0.522991431355868,0.00179356037672723,-0.011891402968675
36.5,0.00171248655001732,-0.0120078991414704,0.809885636103218,-0.529167438846127,0.80988563609173,-0.529167438806313,0.00168516141026037,-0.0121140836859256
37,0.00159914937875111,-0.0122294846739172,0.805642937443772,-0.535310557936018,0.805642937434969,-0.535310557897113,0.00157186886022137,-0.0123364811961404
37.5,0.00148089190029754,-0.0124506634176106,0.801355030435528,-0.541420434282429,0.801355030429339,-0.541420434244537,0.00145369959304659,-0.0125584628451851
38,0.00135773287631946,-0.0126713036405363,0.797022119636679,-0.547496714450719,0.797022119633028,-0.547496714413938,0.00133067348995281,-0.012779899092629
38.5,0.00122969401702377,-0.0128912766215371,0.792644415346792,-0.553539046088008,0.792644415345599,-0.553539046052429,0.00120281325566524,-0.0130006634525819
39,0.0010967998005042,-0.0131104565973558,0.788222133474755,-0.559547078050249,0.788222133475937,-0.559547078015953,0.00107014423898527,-0.0132206324322008
39.5,0.000959077302868094,-0.0133287207073478,0.783755495410197,-0.565520460523811,0.783755495413669,-0.565520460490875,0.000932694264610845,-0.0134396854683498
40,0.000816556038656269,-0.013545948936289,0.779244727898114,-0.571458845141719,0.77924472790379,-0.571458845110214,0.000790493475654297,-0.0136577048628271
40.5,0.000669267811070906,-0.0137620240556736,0.774690062916476,-0.577361885094657,0.774690062924266,-0.577361885064644,0.000643574186318219,-0.0138745757165607
41,0.000517246571532293,-0.0139768315638703,0.770091737556611,-0.583229235236885,0.770091737566427,-0.583229235208422,0.000491970744207759,-0.0140901858631302
41.5,0.000360528288120554,-0.0141902596254719,0.765449993906226,-0.589060552187205,0.765449993917975,-0.589060552160338,0.000335719401786672,-0.0143044258019407
42,0.000199150822459082,-0.0144021990101431,0.760765078934906,-0.594855494425103,0.760765078948499,-0.594855494399879,0.000174858196494265,-0.0145171886313409
42.5,3.31538146166044E-005,-0.0146125430312467,0.75603724438201,-0.60061372238224,0.756037244397355,-0.600613722358694,9.42683906063335E-006,-0.0147283699819596
43,-0.000137421424375672,-0.0148211874845028,0.751266746646835,-0.60633489852939,0.751266746663842,-0.606334898507556,-0.000160533390415718,-0.0149378679504945
43.5,-0.000312532012790967,-0.0150280305869113,0.746453846680999,-0.612018687459019,0.746453846699576,-0.612018687438921,-0.000334979739061325,-0.0151455830341711
44,-0.000492133591631083,-0.0152329729161456,0.741598809882944,-0.617664755963609,0.741598809903002,-0.617664755945269,-0.000513868070894152,-0.0153514180660695
44.5,-0.000676180411577187,-0.0154359173506029,0.736701905994533,-0.623272773109905,0.736701906015984,-0.623272773093338,-0.000697152949954538,-0.0155552781514764
45,-0.000864625413815268,-0.015636769010282,0.73176340899966,-0.628842410309202,0.731763409022415,-0.628842410294418,-0.000884787717276125,-0.0157570706054335
45.5,-0.00105742030507178,-0.0158354351986324,0.72678359702484,-0.634373341383831,0.726783597048813,-0.634373341370836,-0.00107672456205404,-0.015956704891589
46,-0.0012545156271887,-0.0160318253455116,0.721762752241747,-0.639865242629992,0.721762752266854,-0.639865242618787,-0.00127291458735657,-0.0161540925624977
46.5,-0.00145586082153909,-0.0162258509513619,0.716701160771652,-0.64531779287704,0.716701160797809,-0.645317792867622,-0.00147330787069733,-0.0163491472014364
47,-0.00166140428859213,-0.0164174255327124,0.711599112591717,-0.650730673543412,0.711599112618844,-0.650730673535773,-0.0016778535197951,-0.016541784365849
47.5,-0.00187109344290204,-0.0166064645690902,0.706456901443155,-0.656103568689274,0.706456901471172,-0.656103568683404,-0.00188649972380861,-0.0167319215324723
48,-0.00208487476379943,-0.0167928854514221,0.701274824741169,-0.661436165066065,0.701274824769999,-0.661436165061948,-0.00209919380033602,-0.0169194780442146
48.5,-0.00230269384204507,-0.0169766074319817,0.696053183486692,-0.66672815216303,0.696053183516262,-0.666728152160648,-0.00231588223844664,-0.0171043750588264
49,-0.00252449542269362,-0.0171575515759415,0.690792282179876,-0.671979222250896,0.690792282210111,-0.671979222250227,-0.00253651073800826,-0.0172865354994107
49.5,-0.00275022344440906,-0.0173356407145777,0.685492428735301,-0.677189070422783,0.685492428766132,-0.677189070423802,-0.0027610242455518,-0.0174658840067929
50,-0.00297982107545225,-0.01751079940015,0.680153934398895,-0.682357394632491,0.680153934430255,-0.682357394635172,-0.00298936698690827,-0.0176423468937754
50.5,-0.00321323074656682,-0.0176829538624959,0.674777113666528,-0.687483895730264,0.674777113698351,-0.687483895734575,-0.00322148249684229,-0.0178158521012945
51,-0.00345039418096099,-0.0178520319673519,0.669362284204252,-0.692568277496135,0.669362284236476,-0.692568277502044,-0.00345731364589058,-0.017986329156476
51.5,-0.00369125242158713,-0.0180179631764175,0.663909766770174,-0.697610246670974,0.663909766802739,-0.697610246678446,-0.00369680266460837,-0.0181537091325975
52,-0.00393574585590728,-0.0181806785091667,0.658419885137924,-0.702609512985324,0.658419885170774,-0.702609512994321,-0.00393989116541277,-0.0183179246109481
52.5,-0.00418381423831932,-0.0183401105064104,0.652892966021708,-0.707565789186135,0.652892966054786,-0.707565789196618,-0.00418652016220966,-0.0184789096445803
53,-0.00443539671041865,-0.0184961931956052,0.647329339002899,-0.712478791061484,0.647329339036155,-0.712478791073412,-0.00443663008796424,-0.0186365997239303
53.5,-0.00469043181925022,-0.0186488620579015,0.641729336458171,-0.71734823746337,0.641729336491555,-0.717348237476702,-0.00469016081039314,-0.0187909317442989
54,-0.00494885753371244,-0.0187980539969176,0.636093293489128,-0.722173850328682,0.636093293522592,-0.722173850343372,-0.0049470516459188,-0.0189418439751621
54.5,-0.00521061125925587,-0.0189437073092244,0.630421547853406,-0.726955354698407,0.630421547886908,-0.726955354714412,-0.00520724137204209,-0.0190892760312924
55,-0.0054756298510098,-0.0190857616565266,0.624714439897246,-0.731692478735178,0.624714439930743,-0.73169247875245,-0.00547066823826864,-0.0192331688456593
55.5,-0.0057438496254803,-0.0192241580395117,0.618972312489477,-0.736384953739217,0.618972312522931,-0.736384953757709,-0.00573726997571894,-0.0193734646440786
56,-0.00601520637093605,-0.0193588387733483,0.613195510956924,-0.741032514162769,0.613195510990298,-0.741032514182434,-0.0060069838055507,-0.0195101069215842
56.5,-0.00628963535660215,-0.0194897474648065,0.607384383021184,-0.745634897623088,0.607384383054445,-0.745634897643876,-0.00627974644630808,-0.019643040420477
57,-0.00656707134078149,-0.01961682899097,0.601539278736775,-0.75019184491403,0.60153927876989,-0.750191844935892,-0.00655549412031209,-0.0197722111100296
57.5,-0.00684744857800118,-0.0197400294795177,0.595660550430606,-0.75470310001635,0.595660550463547,-0.754703100039235,-0.0068341625591965,-0.0198975661677956
58,-0.00713070082529621,-0.0198592962905308,0.589748552642779,-0.759168410106731,0.589748552675519,-0.75916841013059,-0.00711568700869264,-0.0200190539624975
58.5,-0.00741676134771824,-0.019974577999806,0.583803642068665,-0.763587525565632,0.58380364210118,-0.763587525590414,-0.00740000223275322,-0.0201366240384455
59,-0.00770556292316793,-0.0200858243836329,0.577826177502259,-0.767960199983995,0.577826177534527,-0.767960200009649,-0.00768704251711072,-0.0202502271014524
59.5,-0.00799703784663713,-0.0201929864050084,0.571816519780777,-0.772286190168874,0.571816519812777,-0.77228619019535,-0.00797674167235263,-0.0203598150062035
60,-0.00829111793394099,-0.0202960162012404,0.565775031730481,-0.776565256148039,0.565775031762197,-0.776565256175287,-0.00826903303659365,-0.0204653407450383
60.5,-0.00858773452501971,-0.0203948670729224,0.559702078113708,-0.780797161173605,0.559702078145124,-0.780797161201574,-0.00856384947782485,-0.0205667584381024
61,-0.00888681848688866,-0.0204894934742247,0.553598025577078,-0.784981671724728,0.55359802560818,-0.784981671753368,-0.00886112339600875,-0.0206640233248354
61.5,-0.00918830021630368,-0.0205798510044793,0.547463242600871,-0.789118557509428,0.547463242631646,-0.789118557538689,-0.00916078672499177,-0.0207570917567401
62,-0.00949210964220915,-0.0206658964010118,0.541298099449537,-0.793207591465571,0.541298099479977,-0.793207591495404,-0.00946277093429493,-0.0208459211914021
