"Freq [GHz]","re(St(P1,P1)) []","im(St(P1,P1)) []","re(St(P1,P2)) []","im(St(P1,P2)) []","re(St(P2,P1)) []","im(St(P2,P1)) []","re(St(P2,P2)) []","im(St(P2,P2)) []"
0,0.00575048913765386,0,0.994264126449707,0,0.994264131397358,0,0.00575049019511198,0
0.5,0.0061888928026157,0.00177170081016342,0.993676871099453,-0.00976535408427281,0.99367687025654,-0.00976535361581554,0.00618921290219276,0.00177065022398537
1,0.00652289643038984,0.00303423904489364,0.992938068354229,-0.0189736129638014,0.992938068253315,-0.0189736130289546,0.00652374051297677,0.00303168382405872
1.5,0.0066992030152786,0.00420204574495209,0.992115405826079,-0.027994871416869,0.992115405755071,-0.027994871399283,0.00670044576658224,0.00419772877247304
2,0.00675036691724085,0.00537272446100978,0.991214113246025,-0.0368933719546352,0.991214113220789,-0.0368933719228917,0.00675189401478704,0.0053665826314262
2.5,0.00673471386051894,0.00658596957381441,0.990205323919513,-0.0456968628866452,0.990205323919936,-0.0456968628677696,0.00673646544689221,0.00657798787602637
3,0.00668668243083603,0.00784951104994835,0.989082454341843,-0.0544023921439383,0.989082454350252,-0.0544023921418013,0.00668862609746457,0.00783968186372608
3.5,0.00662740590346234,0.00916365119002727,0.987852956261012,-0.0630043625977512,0.987852956267453,-0.0630043626078454,0.00662951970049686,0.00915196712667576
4,0.00657165792456027,0.0105265751980959,0.986529668752929,-0.0715008844769045,0.98652966875356,-0.0715008844929681,0.00657392286117164,0.0105130297951046
4.5,0.00653085357349603,0.0119353975242698,0.985126155562578,-0.0798941527183628,0.985126155557415,-0.0798941527349779,0.00653325098845126,0.0119199871154168
5,0.00651426503853542,0.0133863847005076,0.983654509578944,-0.0881894003708688,0.983654509570086,-0.0881894003842953,0.00651677626394054,0.0133691098771411
5.5,0.00652951662973683,0.0148750800714827,0.982124490096666,-0.0963936847812548,0.982124490087046,-0.0963936847894944,0.00653212365722777,0.0148559464463078
6,0.00658280522629595,0.0163964560792826,0.980543368468744,-0.104514861925483,0.980543368461334,-0.104514861928018,0.00658549171117198,0.0163754744111939
6.5,0.00667902813590879,0.0179450920840991,0.978916132776234,-0.112560829396846,0.978916132773581,-0.11256082939426,0.00668178039131997,0.01792227791513
7,0.00682188972861916,0.019515355712854,0.977245849427188,-0.12053902357598,0.977245849431178,-0.120539023569581,0.00682469753719859,0.0194907286807475
7.5,0.00701401119303345,0.0211015695828527,0.975534065791342,-0.12845612414392,0.975534065803125,-0.128456124135408,0.0070168683668856,0.0210751525554027
8,0.00725704801813,0.0226981527604289,0.973781191388239,-0.136317912844147,0.973781191408245,-0.13631791283535,0.00725995269971054,0.022669970908741
8.5,0.00755181223353206,0.024299732690809,0.971986828337856,-0.144129238551347,0.971986828365871,-0.144129238544037,0.00755476696450738,0.0242698125870544
9,0.00789839437822168,0.0259012277352935,0.970150041602603,-0.151894050058326,0.970150041637865,-0.151894050054066,0.00790140597982299,0.0258695965312921
9.5,0.00829628048967293,0.0274979030765672,0.968269570512457,-0.159615467856688,0.968269570553767,-0.159615467856747,0.00829935980274066,0.0274645877949999
10,0.00874446060129389,0.0290854040374531,0.966343988376426,-0.167295874847643,0.966343988422243,-0.16729587485295,0.00874762213169838,0.0290504309888115
10.5,0.0093249916561971,0.030638566421799,0.964372272407299,-0.174932433313483,0.964372272447391,-0.174932433320654,0.00932878294388173,0.03060190667198
11,0.00992947854643808,0.0321717468255076,0.962364240777328,-0.182529043972646,0.962364240811878,-0.182529043980483,0.0099338573472815,0.0321334229934389
11.5,0.0105578785586938,0.0336854781467624,0.960319367317912,-0.190088642097475,0.960319367347281,-0.19008864210493,0.010562814297621,0.0336455097794057
12,0.0112100849755498,0.0351801350412195,0.958236940142185,-0.197613729630749,0.958236940166865,-0.197613729636934,0.011215556714971,0.0351385392302888
12.5,0.0118859398774329,0.0366559671768101,0.956116128846809,-0.205106414087762,0.956116128867386,-0.205106414091953,0.0118919347502354,0.0366127589800052
13,0.0125852437077264,0.0381131250277862,0.953956037144086,-0.212568448984274,0.953956037161207,-0.212568448985904,0.0125917556939827,0.0380683177530394
13.5,0.0133077625349575,0.0395516800905231,0.951755743279999,-0.220001273739802,0.951755743294336,-0.220001273738455,0.0133147914956568,0.0395052854830042
14,0.0140532336536943,0.0409716408797793,0.949514330403002,-0.227406051721162,0.949514330415236,-0.227406051716561,0.0140607845585194,0.0409236692391544
14.5,0.0148213699715776,0.0423729656982323,0.94723090879772,-0.234783705623699,0.947230908808515,-0.234783705615692,0.0148294522744193,0.0423234259454592
15,0.0156118634987261,0.0437555729133552,0.944904631628812,-0.242134949771616,0.944904631638803,-0.24213494976016,0.0156204906265429,0.0437044726207509
15.5,0.0164243881658605,0.0451193492901156,0.942534705578867,-0.249460319186964,0.942534705588648,-0.249460319172115,0.0164335770950688,0.0450666946846039
16,0.0172586021350165,0.0464641567935808,0.940120397524232,-0.256760195456783,0.940120397534343,-0.256760195438676,0.0172683730358675,0.0464099527403843
16.5,0.018114149722754,0.0477898381770001,0.937661038180868,-0.264034829542659,0.937661038191795,-0.264034829521499,0.0181245256567758,0.0477340881491493
17,0.0189906630244545,0.0490962215979709,0.935156023470445,-0.271284361744763,0.935156023482612,-0.271284361720809,0.0190016696834848,0.0490389276356726
17.5,0.0198877633057559,0.050383124450821,0.932604814203867,-0.278508839067145,0.932604814217637,-0.2785088390407,0.0198994287836868,0.0503242871137455
18,0.0208050622107834,0.0516503565622393,0.930006934552807,-0.285708230243233,0.93000693456848,-0.28570823021463,0.0208174168010965,0.0515899748770998
18.5,0.021742162824782,0.0528977228659446,0.92736196967641,-0.292882438677843,0.927361969694225,-0.292882438647436,0.0217552388384633,0.0528357942711946
19,0.0226986606198264,0.0541250256482182,0.924669562786725,-0.300031313550052,0.924669562806861,-0.30003131351821,0.0227124922194111,0.0540615459373202
19.5,0.0236741443056319,0.055332066437678,0.921929411869527,-0.307154659304018,0.921929411892109,-0.307154659271114,0.0236887673520347,0.0552670297020819
20,0.0246681966024567,0.056518647598224,0.91914126622405,-0.314252243734859,0.919141266249148,-0.314252243701263,0.0246836485119346,0.056452046170987
20.5,0.0256803949492814,0.0576845736729079,0.916304922943242,-0.321323804855909,0.916304922970877,-0.321323804821984,0.0256967145584506,0.057616398073695
21,0.026710312157552,0.05882965251755,0.91342022342342,-0.328369056713179,0.913420223453568,-0.328369056679277,0.0267275395948028,0.0587598913996152
21.5,0.027757517018527,0.0599536962559313,0.910487049966692,-0.335387694293408,0.910487049999289,-0.335387694259859,0.0277756935805508,0.0598823363555905
22,0.0288215748705712,0.0610565220827728,0.907505322519887,-0.342379397654049,0.907505322554835,-0.342379397621168,0.0288407429029741,0.0609835481717558
22.5,0.0299020481313822,0.0621379529362267,0.904474995578719,-0.349343835387187,0.904474995615886,-0.349343835355262,0.0299222509125988,0.0620633477772541
23,0.0309984967991037,0.0631978180579855,0.901396055274469,-0.356280667514623,0.901396055313693,-0.35628066748392,0.0310197784270012,0.0631215623638395
23.5,0.0321104789254687,0.0642359534561925,0.898268516651986,-0.363189547898328,0.898268516693086,-0.363189547869084,0.0321328842061873,0.0641580258524959
24,0.0332375510634811,0.0652522022839227,0.89509242114145,-0.370070126238907,0.895092421184223,-0.370070126211334,0.0332611254021594,0.0651725792758101
24.5,0.034379268691635,0.0662464151440975,0.891867834221736,-0.376922049724646,0.891867834265965,-0.376922049698926,0.0344040579847841,0.0661650710869122
25,0.0355351866162905,0.0672184503300577,0.888594843269996,-0.383744964384863,0.888594843315451,-0.38374496436115,0.0355612371456505,0.0671353574041813
25.5,0.0367048593535041,0.0681681740097067,0.885273555589784,-0.390538516193673,0.885273555636227,-0.390538516172094,0.0367322176812822,0.06808330219959
26,0.0378878414913804,0.0690954603600524,0.881904096608617,-0.397302351963608,0.881904096655804,-0.397302351944262,0.0379165543568197,0.0690087774375031
26.5,0.0390836880338195,0.0700001916580453,0.878486608234969,-0.40403612006283,0.878486608282656,-0.404036120045791,0.0391138022510936,0.0699116631697931
27,0.0402919547263678,0.0708822583328522,0.875021247364275,-0.410739470984736,0.875021247412214,-0.410739470970049,0.0403235170838294,0.0707918475923947
27.5,0.0415121983648053,0.0717415589840844,0.871508184523375,-0.417412057794461,0.871508184571325,-0.417412057782149,0.0415452555256372,0.0716492270677883
28,0.0427439770869668,0.0725780003699054,0.867947602643015,-0.424053536473202,0.867947602690736,-0.424053536463265,0.0427785754913119,0.0724837061173413
28.5,0.043986850648266,0.0733914973685607,0.864339695948225,-0.430663566178069,0.864339695995485,-0.430663566170484,0.0440230364169225,0.0732951973870075
29,0.0452403806813076,0.0741819729163993,0.860684668956891,-0.437241809432533,0.860684669003466,-0.437241809427258,0.0452781995210981,0.0740836215894498
29.5,0.0465041309399741,0.0749493579251959,0.856982735577253,-0.443787932260186,0.856982735622931,-0.443787932257159,0.046543628050884,0.0748489074253885
30,0.0477776675283043,0.0756935911812286,0.853234118295631,-0.450301604272598,0.853234118340209,-0.45030160427174,0.0478188875125166,0.0755909914866052
30.5,0.0490605591144974,0.0764146192283859,0.849439047446205,-0.45678249872031,0.849439047489493,-0.456782498721527,0.0491035458874322,0.0763098181428686
31,0.050352377130349,0.0771123962372947,0.845597760555252,-0.463230292514606,0.845597760597074,-0.46323029251779,0.0503971738338299,0.077005339414763
31.5,0.0516526959564224,0.0777868838623246,0.841710501752785,-0.469644666226418,0.841710501792975,-0.469644666231449,0.0516993448740787,0.0776775148342708
32,0.052961093093255,0.0784380510881332,0.837777521245069,-0.476025304067708,0.83777752128348,-0.476025304074454,0.0530096355682846,0.0783263112947511
32.5,0.0542771493189123,0.0790658740672671,0.833799074842042,-0.482371893859745,0.833799074878539,-0.482371893868067,0.0543276256742994,0.0789517028918378
33,0.0556004488331847,0.0796703359502294,0.829775423534098,-0.488684126991923,0.829775423568562,-0.488684127001673,0.0556528982944893,0.0795536707566473
33.5,0.056930579388754,0.080251426709278,0.825706833113221,-0.494961698374138,0.825706833145547,-0.494961698385162,0.0569850400095607,0.0801322028825592
34,0.0582671324096354,0.0808091429571383,0.821593573833854,-0.501204306385158,0.821593573863954,-0.501204306397297,0.0583236409997626,0.0806872939467541
34.5,0.0596097030972375,0.0813434877617089,0.817435920109313,-0.507411652818977,0.817435920137113,-0.50741165283207,0.0596682951537782,0.0812189451275716
35,0.060957890524363,0.0818544704577628,0.813234150239927,-0.513583442830727,0.813234150265367,-0.51358344284461,0.0610186001656453,0.0817271639186924
35.5,0.0623112977175035,0.0823421064565601,0.808988546169451,-0.519719384883396,0.808988546192486,-0.519719384897904,0.0623741576200285,0.0822119639410633
36,0.0636695317277733,0.0828064170542242,0.804699393266617,-0.525819190696316,0.804699393287216,-0.525819190711284,0.0637345730661946,0.0826733647534024
36.5,0.0650322036908457,0.0832474292396725,0.800366980128976,-0.531882575196146,0.800366980147124,-0.531882575211412,0.0650994560810395,0.0831113916620841
37,0.0663989288762586,0.0836651755028208,0.795991598406502,-0.537909256470889,0.795991598422194,-0.537909256486291,0.0664684203215238,0.083526075531119
37.5,0.0677693267264617,0.08405969364374,0.791573542642616,-0.543898955727294,0.79157354265586,-0.543898955742675,0.067841083566884,0.0839174525929022
38,0.0691430208859858,0.0844310265833771,0.78711311013059,-0.549851397251886,0.787113110141409,-0.549851397267092,0.0692170677509895,0.0842855642603552
38.5,0.0705196392211197,0.0847792221764229,0.782610600783464,-0.55576630837574,0.782610600791889,-0.555766308390623,0.0705959989852197,0.0846304569410249
39,0.0718988138304861,0.0851043330268421,0.778066317015792,-0.56164341944302,0.778066317021866,-0.561643419457436,0.0719775075722482,0.0849521818536763
39.5,0.0732801810469126,0.085406416306564,0.773480563635751,-0.567482463783252,0.773480563639527,-0.567482463797064,0.0733612280111165,0.0852507948478656
40,0.0746633814309877,0.0856855335777641,0.768853647746267,-0.573283177687217,0.768853647747809,-0.573283177700295,0.0747467989939841,0.0855263562269343
40.5,0.0760480597567185,0.0859417506191607,0.764185878653989,-0.579045300386323,0.764185878653366,-0.579045300398543,0.076133863394957,0.0857789305748449
41,0.077433864989672,0.0861751372566895,0.759477567785027,-0.584768574035269,0.75947756778232,-0.584768574046518,0.0775220682513768,0.0860085865872272
41.5,0.078820450258024,0.0863857671988963,0.754729028606568,-0.590452743697805,0.754729028601863,-0.590452743707974,0.0789110647379754,0.0862153969069843
42,0.0802074728169057,0.0865737178773639,0.749940576553505,-0.596097557335341,0.749940576546895,-0.59609755734433,0.0803005081342907,0.0863994379647623
42.5,0.0815945940064604,0.0867390702924402,0.745112528959366,-0.601702765798189,0.74511252895095,-0.601702765805908,0.0816900577857356,0.0865607898245789
43,0.0829814792040064,0.0868819088645248,0.74024520499091,-0.607268122819183,0.740245204980791,-0.607268122825551,0.0830793770587226,0.0866995360348479
43.5,0.0843677977707187,0.0870023212911369,0.735338925585816,-0.61279338500943,0.735338925574102,-0.612793385014373,0.0844681332902345,0.0868157634850444
44,0.085753222993215,0.087100398409956,0.730394013392988,-0.618278311855948,0.73039401337979,-0.618278311859401,0.0858559977322372,0.0869095622682022
44.5,0.0871374320204575,0.0871762340680121,0.72541079271504,-0.623722665720953,0.725410792700474,-0.623722665722861,0.0872426454913249,0.0869810255494204
45,0.0885201057963543,0.0872299249971734,0.720389589452604,-0.629126211842557,0.720389589436787,-0.629126211842874,0.0886277554639871,0.0870302494405417
45.5,0.0899009289884566,0.0872615706960577,0.71533073105013,-0.634488718336641,0.715330731033181,-0.634488718335329,0.0900110102678786,0.0870573328811275
46,0.0912795899131328,0.0872712733184713,0.710234546442924,-0.639809956199704,0.710234546424962,-0.639809956196736,0.0913920961694789,0.0870623775258425
46.5,0.092655780457608,0.0872591375684659,0.705101366005174,-0.645089699312466,0.705101365986319,-0.645089699307819,0.0927707030085153,0.0870454876383462
47,0.0940291959992384,0.0872252706020752,0.699931521498788,-0.65032772444402,0.699931521479162,-0.650327724437684,0.0941465241195202,0.0870067699917529
47.5,0.0953995353224015,0.0871697819357772,0.694725346022874,-0.655523811256377,0.694725346002595,-0.65552381124835,0.0955192562508945,0.0869463337757228
48,0.0967665005333548,0.0870927833617158,0.689483173963718,-0.660677742309204,0.689483173942907,-0.660677742299489,0.096888599481835,0.0868642905102177
48.5,0.0981297969734376,0.0869943888696956,0.684205340945183,-0.665789303064595,0.684205340923954,-0.665789303053205,0.0982542571374866,0.0867607539659401
49,0.0994891331309591,0.0868747145759432,0.678892183779399,-0.670858281891742,0.678892183757869,-0.670858281878699,0.0996159357026651,0.0866358400914615
49.5,0.100844220552127,0.0867338786586181,0.673544040417724,-0.675884470071354,0.673544040396005,-0.675884470056686,0.100973344734501,0.0864896669470245
50,0.102194773751352,0.0865720013000418,0.668161249901886,-0.680867661799702,0.668161249880088,-0.680867661783441,0.102326196774338,0.0863223546449991
50.5,0.10354051012127,0.0863892046355978,0.662744152315305,-0.685807654192163,0.662744152293534,-0.685807654174352,0.103674207259219,0.0861340252969454
51,0.1048811498428,0.0861856127092402,0.657293088734548,-0.690704247286184,0.657293088712906,-0.690704247266871,0.105017094433289,0.0859248029672364
51.5,0.106216415795563,0.0859613514355402,0.651808401180924,-0.695557244043544,0.65180840115951,-0.695557244022783,0.106354579259427,0.0856948136331682
52,0.107546033468974,0.0857165485681843,0.64629043257221,-0.700366450351841,0.646290432551119,-0.700366450329691,0.107686385331419,0.0854441851514848
52.5,0.108869730874315,0.0854513336748241,0.640739526674521,-0.705131675025131,0.640739526653842,-0.705131675001658,0.109012238786985,0.0851730472312235
53,0.110187238458076,0.0851658381181766,0.635156028054332,-0.709852729803649,0.635156028034152,-0.709852729778922,0.110331868221945,0.08488153141278
53.5,0.111498289016871,0.0848601950432454,0.629540282030688,-0.714529429352552,0.629540282011084,-0.714529429326645,0.111645004605815,0.0845697710530803
54,0.112802617614191,0.0845345393705422,0.623892634627596,-0.719161591259635,0.623892634608646,-0.719161591232627,0.112951381199128,0.0842379013167387
54.5,0.114099961499289,0.0841890077951621,0.618213432526677,-0.723749036031986,0.618213432508449,-0.723749036003959,0.114250733472737,0.0838860591730665
55,0.115390060028444,0.0838237387915671,0.612503023020059,-0.728291587091529,0.612503023002618,-0.728291587062569,0.115542799029375,0.0835143833987871
55.5,0.116672654588877,0.0834388726239177,0.60676175396359,-0.732789070769441,0.606761753946995,-0.732789070739637,0.116827317527734,0.0831230145863109
56,0.117947488525559,0.083034551361781,0.60098997373038,-0.737241316299409,0.600989973714683,-0.737241316268852,0.118104030609304,0.0827120951574044
56.5,0.119214307071161,0.0826109189010467,0.595188031164721,-0.741648155809719,0.595188031149969,-0.741648155778502,0.119372681828226,0.0822817693820827
57,0.120472857279367,0.0821681209898609,0.58935627553643,-0.746009424314157,0.589356275522664,-0.746009424282377,0.12063301658438,0.0818321834025527
57.5,0.121722887961791,0.0817063052593805,0.583495056495648,-0.750324959701727,0.583495056482904,-0.75032495966948,0.121884782059956,0.0813634852620138
58,0.122964149628697,0.0812256212591582,0.577604724028138,-0.754594602725171,0.577604724016445,-0.754594602692554,0.123127727159697,0.0808758249381288
58.5,0.124196394433747,0.0807262204969408,0.571685628411125,-0.758818196988295,0.571685628400507,-0.758818196955408,0.12436160245505,0.0803693543809567
59,0.125419376122957,0.0802082564826668,0.565738120169712,-0.762995588932126,0.565738120160187,-0.762995588899068,0.125586160132412,0.079844227555141
59.5,0.126632849988065,0.0796718847764457,0.55976255003392,-0.767126627819877,0.559762550025501,-0.767126627786747,0.126801153945665,0.0793006004861394
60,0.127836572824487,0.0791172630402792,0.553759268896389,-0.771211165720761,0.553759268889082,-0.771211165687658,0.128006339173189,0.0787386313102663
60.5,0.129030302894023,0.0785445510933001,0.547728627770767,-0.775249057492657,0.547728627764573,-0.775249057459679,0.12920147257952,0.0781584803283237
61,0.130213799892496,0.0779539109702792,0.541670977750847,-0.779240160763645,0.541670977745761,-0.779240160730888,0.130386312381825,0.0775603100625787
61.5,0.131386824922451,0.0773455069831488,0.535586669970458,-0.783184335912439,0.535586669966469,-0.783184335879999,0.131560618221342,0.0769442853168478
62,0.132549140471075,0.0767195057852972,0.529476055564175,-0.787081446047731,0.529476055561268,-0.787081446015702,0.132724151139947,0.0763105732394416
62.5,0.133700510393458,0.0760760764383657,0.523339485628853,-0.790931356986486,0.523339485627009,-0.790931356954961,0.133876673561963,0.0756593433887061
63,0.134840699901331,0.0754153904812864,0.517177311186048,-0.794733937231192,0.517177311185239,-0.79473393720026,0.135017949281355,0.0749907678009123
63.5,0.135969475557373,0.0747376220012882,0.510989883145316,-0.79848905794612,0.510989883145514,-0.798489057915868,0.136147743454424,0.0743050210602197
64,0.13708660527521,0.0740429477065956,0.504777552268459,-0.8021965929326,0.504777552269628,-0.802196592903112,0.137265822598101,0.0736022803704453
64.5,0.138191858325176,0.073331547000543,0.498540669134719,-0.805856418603361,0.498540669136821,-0.805856418574719,0.138371954593943,0.0728827256283639
