"Freq [GHz]","re(St(P1,P1)) []","im(St(P1,P1)) []","re(St(P1,P2)) []","im(St(P1,P2)) []","re(St(P2,P1)) []","im(St(P2,P1)) []","re(St(P2,P2)) []","im(St(P2,P2)) []"
0,0.00563568004366743,0,0.994385435187723,0,0.994385431884439,0,0.00563568253568292,0
0.5,0.0064100073134945,-0.00444373109701957,0.993445363692381,-0.011684770217812,0.99344536454046,-0.0116847695464983,0.00641064168192784,-0.00444572371983654
1,0.00699200351888507,-0.00987994857569063,0.992395473794279,-0.0223689970779155,0.992395473812696,-0.0223689969204663,0.00699364766039778,-0.00988470815868325
1.5,0.00720437946377217,-0.0155488594092112,0.991423870196098,-0.0327837167076908,0.99142387021363,-0.032783716673233,0.00720719549047999,-0.0155566622935908
2,0.00709771119771752,-0.0212602776334681,0.990484198927568,-0.043108478896924,0.990484198906476,-0.0431084789050846,0.00710155962174497,-0.0212715423609584
2.5,0.00677377370340704,-0.0269428116057018,0.989481471084493,-0.0534094033473824,0.989481471037187,-0.053409403360142,0.00677851899473136,-0.0269577037613189
3,0.00628667889546985,-0.0325866236481502,0.988367079367633,-0.0636891245898124,0.98836707931042,-0.0636891245942905,0.00629225464316097,-0.032605225681932
3.5,0.00566320454007752,-0.0381938398319424,0.987120474272717,-0.0739383178286861,0.987120474217764,-0.0739383178226873,0.00566958825562924,-0.03821621710029
4,0.00491725438765878,-0.0437675808256497,0.98573447608096,-0.0841475934651079,0.985734476036137,-0.0841475934506786,0.00492444359256838,-0.0437938007321872
4.5,0.0040566140316276,-0.0493099710561928,0.984208070302918,-0.0943096772755183,0.984208070272772,-0.0943096772561827,0.00406461188042107,-0.0493401064531831
5,0.00308602227192267,-0.0548220598760008,0.982543002868611,-0.104419386670994,0.982543002855223,-0.104419386650498,0.00309482981057974,-0.054856187524214
5.5,0.00200862314460037,-0.0603040728252662,0.980742128084522,-0.114473177033378,0.980742128088139,-0.114473177015084,0.0020182355644951,-0.0603422704890555
6,0.000826688646126117,-0.0657556559719552,0.978808592134534,-0.124468676040263,0.97880859215405,-0.124468676026825,0.000837093962465341,-0.0657979993761657
6.5,-0.000458003182854716,-0.0711760592591757,0.976745437988438,-0.134404296436376,0.976745438021765,-0.134404296429585,-0.000446823920059458,-0.0712226193567105
7,-0.00184396154957689,-0.0765642650501688,0.974555432931632,-0.144278936864852,0.974555432975988,-0.14427893686554,-0.00183203304112611,-0.0766151057787603
7.5,-0.00332986557770243,-0.0819190766102436,0.972241016088376,-0.15409176080094,0.972241016140534,-0.154091760808964,-0.00331721639819915,-0.0819742532147369
8,-0.00491449560968305,-0.0872391789358984,0.969804309497886,-0.163842039777416,0.969804309554369,-0.16384203979166,-0.00490115590908757,-0.087298736886372
8.5,-0.00659669196433488,-0.0925231807684899,0.967247160408128,-0.173529047442629,0.967247160465376,-0.173529047461033,-0.00658269093339814,-0.0925871552781778
9,-0.00837532968131027,-0.097769643780242,0.964571196021162,-0.183151992540126,0.964571196075666,-0.183151992559733,-0.00836069293156139,-0.0978380599077866
9.5,-0.0102493028115783,-0.102977102941406,0.961777879990278,-0.192709980775629,0.961777880038695,-0.192709980792641,-0.0102340497959501,-0.10304997624586
10,-0.0122175145185009,-0.108144080761591,0.958868564901263,-0.202201997422787,0.958868564940503,-0.20220199743263,-0.0122016560985776,-0.108221418464908
10.5,-0.0142718236187454,-0.113271542639518,0.955826613617161,-0.211630679630515,0.955826613654897,-0.211630679643365,-0.0142553027591218,-0.113353238619051
11,-0.0164220899663816,-0.118356573538645,0.952675405386488,-0.220987121693609,0.95267540542241,-0.220987121709146,-0.016404914766906,-0.118442672167774
11.5,-0.0186674227975603,-0.123396966614709,0.949416865172966,-0.230270939452943,0.949416865206827,-0.230270939470828,-0.0186496033971496,-0.123487510349795
12,-0.0210068506299792,-0.128390529791991,0.946052788594648,-0.239481680127607,0.946052788626261,-0.239481680147498,-0.0209883988687073,-0.12848555914862
12.5,-0.0234393216517763,-0.13333509133931,0.942584871257928,-0.248618818554794,0.94258487128716,-0.248618818576348,-0.0234202507536861,-0.133434644911706
13,-0.0259637046588116,-0.138228505281048,0.939014734674092,-0.257681757622221,0.939014734700862,-0.257681757645102,-0.0259440289397804,-0.13833261979893
13.5,-0.0285787904932925,-0.143068656589278,0.935343948704474,-0.266669831829315,0.935343948728746,-0.266669831853202,-0.0285585250970947,-0.143177367006135
14,-0.031283293933268,-0.147853466112845,0.93157405063993,-0.275582313082086,0.931574050661702,-0.275582313106675,-0.0312624545978984,-0.147966805719733
14.5,-0.0340758559807686,-0.152580895208708,0.927706561124673,-0.284418417988239,0.927706561143981,-0.284418418013245,-0.0340544588360923,-0.152698895767776
15,-0.0369550464960289,-0.157248950049659,0.923742997196041,-0.293177316066148,0.923742997212949,-0.29317731609131,-0.0369331078929614,-0.157371641942034
15.5,-0.0399193671261189,-0.161855685590617,0.91968488274142,-0.301858138410142,0.919684882756011,-0.301858138435224,-0.0398969034967879,-0.1619830979736
16,-0.0429672544781647,-0.166399209182955,0.915533756680485,-0.310459986464076,0.915533756692866,-0.310459986488859,-0.0429442822258976,-0.166531370152013
16.5,-0.046097083489942,-0.170877683832625,0.911291179172525,-0.318981940645851,0.911291179182814,-0.318981940670152,-0.0460736189074319,-0.171014620584217
17,-0.0493071709537664,-0.175289331103309,0.906958736130363,-0.327423068639237,0.906958736138691,-0.327423068662883,-0.0492832301673946,-0.175431070095036
17.5,-0.0525957791531358,-0.179632433670324,0.902538042298638,-0.335782433227765,0.902538042305145,-0.335782433250613,-0.0525713780911719,-0.179779000775558
18,-0.0559611195752638,-0.183905337534782,0.898030743127829,-0.34405909959119,0.89803074313266,-0.344059099613119,-0.055936273957498,-0.184056758189329
18.5,-0.0594013566664919,-0.188106453910339,0.893438515648523,-0.352252142019847,0.893438515651824,-0.352252142040753,-0.0593760820127607,-0.188262753249293
19,-0.0629146116012624,-0.192234260797194,0.888763068524428,-0.360360650028393,0.888763068526346,-0.360360650048195,-0.0628889232563462,-0.192395463780532
19.5,-0.0664989660390449,-0.196287304259505,0.884006141438306,-0.368383733869538,0.884006141438989,-0.368383733888169,-0.0664728792114182,-0.196453435785412
20,-0.0701524658470319,-0.200264199423535,0.879169503942798,-0.376320529461948,0.87916950394239,-0.37632052947936,-0.0701259956590942,-0.200435284428831
20.5,-0.0738731247696928,-0.204163631214369,0.874254953888283,-0.384170202755754,0.874254953886925,-0.384170202771914,-0.0738462863171888,-0.204339694761708
21,-0.0776589280292378,-0.207984354849324,0.869264315522421,-0.391931953565071,0.869264315520248,-0.39193195357996,-0.0776317364477697,-0.208165422201141
21.5,-0.0815078358438126,-0.211725196106032,0.864199437340783,-0.399605018900462,0.864199437337926,-0.39960501891407,-0.0814803063804851,-0.211911292785414
22,-0.0854177868526496,-0.215385051382848,0.859062189754825,-0.407188675835903,0.859062189751408,-0.407188675848236,-0.0853899349411048,-0.215576203221753
22.5,-0.0893867014396184,-0.218962887568713,0.853854462632215,-0.414682243945205,0.853854462628355,-0.414682243956277,-0.0893585427768794,-0.219159120744041
23,-0.0934124849485402,-0.222457741738904,0.848578162754934,-0.422085087342238,0.848578162750743,-0.422085087352071,-0.0933840355722696,-0.222659082797096
23.5,-0.0974930307852946,-0.22586872069232,0.843235211232508,-0.429396616358103,0.843235211228088,-0.429396616366729,-0.0974643071502799,-0.226075196563243
24,-0.101626223403225,-0.229195000345128,0.837827540900872,-0.436616288886805,0.837827540896319,-0.436616288894259,-0.101597242456033,-0.229406638346037
24.5,-0.105809941169561,-0.232435824994693,0.83235709373172,-0.443743611429083,0.832357093727123,-0.443743611435409,-0.105780720420516,-0.232652652825126
25,-0.110042059111685,-0.235590506466843,0.826825818272341,-0.450778139862185,0.82682581826778,-0.45077813986743,-0.110012616703425,-0.235812552195306
25.5,-0.11432045154288,-0.238658423158593,0.821235667132059,-0.457719479961248,0.821235667127607,-0.457719479965464,-0.114290806314935,-0.238885715201901
26,-0.118642994568012,-0.241639018987645,0.815588594528013,-0.464567287696132,0.815588594523738,-0.464567287699374,-0.118613166116936,-0.241871586083773
26.5,-0.123007568470167,-0.244531802259093,0.809886553900324,-0.471321269325566,0.809886553896284,-0.47132126932789,-0.12297757720489,-0.244769673434351
27,-0.127412059979744,-0.247336344458997,0.804131495604401,-0.477981181308724,0.804131495600648,-0.477981181310192,-0.1273819271719,-0.247579548990335
27.5,-0.131854364427936,-0.25005227898372,0.798325364686309,-0.484546830052676,0.798325364682888,-0.484546830053347,-0.131824112257031,-0.250300846356906
28,-0.136332387786824,-0.252679299813223,0.792470098745498,-0.491018071512567,0.792470098742449,-0.491018071512503,-0.136302039380156,-0.252933259677621
28.5,-0.140844048598533,-0.255217160135865,0.78656762588803,-0.497394810660006,0.786567625885385,-0.497394810659269,-0.140813628065871,-0.255476542256462
29,-0.14538727979613,-0.257665670931625,0.780619862772267,-0.503677000833769,0.780619862770052,-0.503677000832421,-0.145356812259202,-0.257930505138928
29.5,-0.149960030419013,-0.260024699520103,0.774628712748238,-0.509864642985742,0.774628712746477,-0.509864642983844,-0.149929542035905,-0.260295015658483
30,-0.15456026722569,-0.262294168079157,0.768596064091118,-0.515957784833947,0.768596064089826,-0.515957784831558,-0.154529785210293,-0.262569995954144
30.5,-0.15918597620686,-0.264474052139527,0.762523788328694,-0.52195651993345,0.762523788327881,-0.52195651993063,-0.159155528843545,-0.264755421464537
31,-0.163835164001791,-0.266564379060383,0.756413738662225,-0.527860986675103,0.756413738661898,-0.52786098667191,-0.163804780655505,-0.266851319403295
31.5,-0.168505859220928,-0.268565226490317,0.750267748479708,-0.533671367221165,0.750267748479869,-0.533671367217654,-0.168475570342936,-0.268857767220284
32,-0.17319611367775,-0.27047672081795,0.744087629960235,-0.539387886386174,0.744087629960882,-0.539387886382399,-0.173165950807249,-0.270774891052777
32.5,-0.177904003532788,-0.272299035615965,0.737875172767873,-0.5450108104707,0.737875172769,-0.545010810466713,-0.17787399929465,-0.272602864170353
33,-0.182627630352752,-0.274032390082106,0.731632142833294,-0.550540446055006,0.731632142834892,-0.550540446050856,-0.182597818451634,-0.274341905417018
33.5,-0.187365122087643,-0.275677047480362,0.725360281221199,-0.55597713875908,0.725360281223256,-0.555977138754815,-0.187335537298727,-0.275992277653733
34,-0.192114633968703,-0.277233313585332,0.719061303081445,-0.561321271974966,0.719061303083944,-0.56132127197063,-0.192085312125316,-0.277554286204318
34.5,-0.196874349329997,-0.278701535132505,0.712736896681687,-0.566573265576851,0.712736896684612,-0.566573265572485,-0.196845327308363,-0.279028277307425
35,-0.201642480356384,-0.280082098276988,0.706388722519253,-0.571733574613933,0.706388722522582,-0.571733574609577,-0.201613796057763,-0.280414636577096
35.5,-0.206417268760579,-0.28137542706301,0.700018412509882,-0.576802687990687,0.700018412513594,-0.576802687986378,-0.206388961091025,-0.281713787474196
36,-0.211196986391964,-0.282581981906331,0.693627569250961,-0.581781127138764,0.693627569255031,-0.581781127134536,-0.211169095239945,-0.282926189790842
36.5,-0.215979935779734,-0.283702258091533,0.687217765356793,-0.586669444684452,0.687217765361195,-0.586669444680333,-0.215952501991842,-0.284052338149777
37,-0.220764450612956,-0.284736784285997,0.680790542863459,-0.59146822311525,0.680790542868167,-0.591468223111271,-0.220737515967916,-0.285092760520458
37.5,-0.225548896160015,-0.285686121072218,0.674347412700789,-0.596178073448892,0.674347412705775,-0.596178073445076,-0.225522503341218,-0.286048016753533
38,-0.230331669629914,-0.286550859499983,0.667889854228978,-0.600799633907792,0.667889854234212,-0.600799633904163,-0.230305862196656,-0.286918697135168
38.5,-0.235111200477824,-0.287331619659788,0.661419314837358,-0.605333568601719,0.66141931484281,-0.605333568598297,-0.235086022835449,-0.287705420962622
39,-0.239885950657233,-0.288029049278754,0.654937209602876,-0.609780566221199,0.654937209608517,-0.609780566218,-0.239861448026364,-0.288408835142316
39.5,-0.244654414820999,-0.288643822340203,0.648444921005827,-0.614141338743958,0.648444921011625,-0.614141338740997,-0.244630633206007,-0.28902961281151
40,-0.249415120473565,-0.289176637727908,0.641943798700401,-0.618416620156511,0.641943798706327,-0.6184166201538,-0.249392106630453,-0.289568451984648
40.5,-0.254166628076529,-0.289628217895958,0.635435159337666,-0.622607165192786,0.635435159343689,-0.622607165190336,-0.25414442948037,-0.290026074225258
41,-0.258907531109741,-0.289999307565065,0.628920286438602,-0.62671374809152,0.628920286444691,-0.626713748089336,-0.258886195921804,-0.290403223344255
41.5,-0.26363645609003,-0.290290672446057,0.622400430314841,-0.630737161373953,0.622400430320966,-0.63073716137204,-0.263616033124728,-0.290700664125371
42,-0.268352062549624,-0.290503097991201,0.615876808034832,-0.63467821464323,0.615876808040964,-0.634678214641591,-0.268332601241398,-0.290919181078352
42.5,-0.273053042976275,-0.290637388173914,0.609350603433154,-0.638537733406737,0.609350603439264,-0.638537733405373,-0.273034593346528,-0.291059577220488
43,-0.277738122717065,-0.290694364297365,0.602822967160765,-0.642316557922467,0.602822967166824,-0.642316557921375,-0.277720735341237,-0.291122672886956
43.5,-0.282406059847805,-0.290674863832343,0.59629501677401,-0.64601554207037,0.596295016779991,-0.646015542069548,-0.282389785822691,-0.291109304570377
44,-0.287055645009896,-0.290579739284771,0.589767836860265,-0.649635552249544,0.589767836866143,-0.649635552248986,-0.287040535921286,-0.291020323789921
44.5,-0.291685701216491,-0.290409857093074,0.583242479198146,-0.653177466301956,0.583242479203893,-0.653177466301655,-0.291671809107204,-0.290856595990226
45,-0.29629508362972,-0.290166096555659,0.576719962950228,-0.65664217246332,0.576719962955822,-0.656642172463267,-0.296282460968105,-0.290618999470322
45.5,-0.300882679310706,-0.289849348788598,0.570201274886346,-0.660030568341631,0.570201274891763,-0.660030568341815,-0.300871378959675,-0.290308424342712
46,-0.305447406944075,-0.289460515713623,0.563687369635504,-0.663343559923752,0.563687369640721,-0.663343559924163,-0.305437482130708,-0.289925771522671
46.5,-0.309988216538555,-0.289000509076435,0.557179169964565,-0.666582060610386,0.557179169969563,-0.66658206061101,-0.309979720824344,-0.289471951747796
47,-0.314504089105286,-0.28847024949531,0.550677567081891,-0.669746990279639,0.55067756708665,-0.669746990280461,-0.314497076357048,-0.288947884627775
47.5,-0.318994036315353,-0.287870665539916,0.544183420964169,-0.672839274379346,0.544183420968671,-0.672839274380351,-0.318988560676851,-0.288354497724299
48,-0.32345710013804,-0.287202692840214,0.537697560704744,-0.675859843048219,0.537697560708972,-0.675859843049392,-0.323453216002348,-0.287692725660977
48.5,-0.327892352461243,-0.286467273225274,0.531220784881786,-0.678809630265836,0.531220784885726,-0.678809630267159,-0.327890114443879,-0.286963509263111
49,-0.33229889469544,-0.285665353891791,0.524753861944733,-0.681689573031401,0.52475386194837,-0.681689573032857,-0.332298357608285,-0.286167794727087
49.5,-0.33667585736255,-0.284797886602058,0.518297530617446,-0.684500610571168,0.518297530620769,-0.684500610572738,-0.336677076188581,-0.285306532819161
50,-0.341022399670995,-0.28386582691109,0.511852500316634,-0.68724368357435,0.511852500319632,-0.687243683576015,-0.341025429539836,-0.284380678103341
50.5,-0.345337709078204,-0.282870133422608,0.505419451584095,-0.68991973345729,0.505419451586759,-0.689919733459031,-0.345342605242509,-0.283391188198046
51,-0.349621000841771,-0.281811767073502,0.498999036531442,-0.692529701655631,0.498999036533764,-0.692529701657428,-0.349627818654448,-0.282339023061201
51.5,-0.353871517560414,-0.280691690446415,0.492591879295981,-0.695074528944163,0.492591879297955,-0.695074528945995,-0.353880312452691,-0.281225144303382
52,-0.358088528705856,-0.279510867110029,0.486198576506506,-0.697555154783997,0.486198576508128,-0.697555154785845,-0.358099356166191,-0.280050514528609
52.5,-0.362271330146702,-0.27827026098664,0.479819697757794,-0.699972516696692,0.47981969775906,-0.699972516698534,-0.362284245700531,-0.278816096702368
53,-0.366419243665309,-0.276970835746541,0.473455786092671,-0.70232754966489,0.473455786093579,-0.702327549666707,-0.366434302855638,-0.277522853546403
53.5,-0.370531616468653,-0.275613554228782,0.467107358490544,-0.704621185559038,0.467107358491094,-0.70462118556081,-0.370548874837472,-0.276171746959808
54,-0.374607820694116,-0.274199377887784,0.460774906361363,-0.706854352589704,0.460774906361556,-0.706854352591411,-0.374627333764639,-0.274763737465944
54.5,-0.378647252911085,-0.272729266265319,0.454458896044017,-0.709027974784996,0.454458896043856,-0.709027974786618,-0.378669076170804,-0.273299783684676
55,-0.382649333619219,-0.271204176487347,0.448159769308229,-0.71114297149257,0.448159769307716,-0.711142971494087,-0.382673522503745,-0.271780841829395
55.5,-0.386613506744183,-0.269625062785153,0.441877943859044,-0.713200256905683,0.441877943858185,-0.713200256907077,-0.386640116621886,-0.270207865228339
56,-0.390539239131634,-0.267992876040281,0.435613813843086,-0.715200739612754,0.435613813841886,-0.715200739614004,-0.390568325289042,-0.268581803869627
56.5,-0.394426020040177,-0.266308563352684,0.429367750355752,-0.71714532216985,0.429367750354219,-0.717145322170939,-0.39445763766813,-0.266903603969504
57,-0.398273360633986,-0.264573067631558,0.423140101948626,-0.719034900695543,0.423140101946768,-0.719034900696455,-0.398307564814526,-0.265174207563209
57.5,-0.402080793475744,-0.262787327208286,0.416931195136363,-0.720870364487548,0.41693119513419,-0.720870364488265,-0.402117639169721,-0.263394552117931
58,-0.405847872020528,-0.260952275470938,0.410741334902408,-0.722652595660541,0.410741334899929,-0.722652595661047,-0.405887414055904,-0.261565570167286
58.5,-0.409574170111213,-0.259068840519753,0.404570805202893,-0.724382468804575,0.404570805200121,-0.724382468804855,-0.409616463172036,-0.259688188966732
59,-0.41325928147594,-0.257137944843033,0.398419869468151,-0.726060850663501,0.398419869465098,-0.726060850663539,-0.413304380091982,-0.257763330169392
59.5,-0.416902819228183,-0.255160505012895,0.392288771101272,-0.72768859983277,0.39228877109795,-0.727688599832552,-0.416950777765208,-0.255791909521673
60,-0.420504415369871,-0.25313743140029,0.386177733973207,-0.729266566476044,0.386177733969631,-0.729266566475558,-0.420555288020513,-0.253774836578156
60.5,-0.424063720298044,-0.251069627908744,0.380086962913934,-0.730795592059995,0.380086962910118,-0.730795592059229,-0.424117561073278,-0.251713014435166
61,-0.42758040231544,-0.248957991726249,0.374016644199247,-0.732276509106707,0.374016644195207,-0.732276509105648,-0.42763726503662,-0.249607339482471
61.5,-0.431054147145423,-0.246803413094747,0.36796694603276,-0.733710140963078,0.367966946028511,-0.733710140961718,-0.43111408543686,-0.247458701172555
62,-0.434484657451611,-0.244606775096645,0.361938019022743,-0.735097301586642,0.361938019018302,-0.735097301584969,-0.434547724733679,-0.245267981806901
62.5,-0.437871652362537,-0.242368953457827,0.355929996653454,-0.736438795347216,0.355929996648838,-0.736438795345224,-0.437937901845268,-0.243036056338753
63,-0.441214867001659,-0.24009081636661,0.349942995750644,-0.737735416843807,0.34994299574587,-0.737735416841488,-0.44128435167882,-0.240763792191797
63.5,-0.444514052023006,-0.237773224308103,0.34397711694094,-0.738987950736192,0.343977116936026,-0.738987950733538,-0.444586824666626,-0.238452049094241
64,-0.447768973152715,-0.235417029913458,0.338032445104865,-0.740197171590615,0.338032445099829,-0.740197171587624,-0.447845086308037,-0.236101678927757
