"Freq [GHz]","re(St(P1,P1)) []","im(St(P1,P1)) []","re(St(P1,P2)) []","im(St(P1,P2)) []","re(St(P2,P1)) []","im(St(P2,P1)) []","re(St(P2,P2)) []","im(St(P2,P2)) []"
0,0.00637473298638724,0,0.993637007588404,0,0.993637007486541,0,0.00637474613512268,0
0.5,0.00693146338882045,0.000585859926555798,0.99298038100693,-0.00931350449344848,0.99298038177275,-0.00931350492037453,0.00693182327754727,0.000584558484334252
1,0.00738635590117021,0.000524727750217835,0.992265159723342,-0.017955483116161,0.992265159542812,-0.0179554834466309,0.00738729728377052,0.000521692584857902
1.5,0.00765885455441762,0.000332547795180105,0.991572619430652,-0.0264219169684274,0.991572619238437,-0.0264219170808708,0.00766045740565335,0.000327677525596926
2,0.0077924833097569,0.000117213405077976,0.990874206570298,-0.0348089611375855,0.990874206437812,-0.0348089611677835,0.00779464408489705,0.000110275444917818
2.5,0.00785192445498861,-7.97657868911728E-005,0.990117359101954,-0.0431497556729887,0.990117359015251,-0.0431497556824301,0.00785456051233746,-8.88104044154403E-005
3,0.00787099170675365,-0.000253725509706371,0.989281085500557,-0.0514421637187521,0.989281085439927,-0.0514421637275149,0.00787409800888605,-0.000264852947179151
3.5,0.00786663103255081,-0.000406787025748478,0.988361685384362,-0.0596800104515278,0.988361685337102,-0.0596800104635191,0.00787026477062658,-0.000419968143185123
4,0.00784806363186119,-0.000541512739941297,0.987362644330438,-0.0678594615101069,0.987362644290213,-0.0678594615240167,0.00785232542423286,-0.000556737021518039
4.5,0.00782095612753819,-0.000659858603970775,0.986289778017069,-0.0759795662567262,0.986289777981565,-0.075979566270358,0.007825974093157,-0.000677145800270118
5,0.00778929783142324,-0.000763209023219247,0.985149023251794,-0.0840415771242897,0.985149023220745,-0.0840415771360696,0.00779521271261563,-0.000782614951578609
5.5,0.00775628728566902,-0.000852584785766553,0.983945497120731,-0.0920481384835812,0.983945497094559,-0.0920481384929097,0.00776323721143835,-0.000874202366600407
6,0.00772477667472615,-0.000928842220784709,0.982683181401145,-0.100002607034773,0.982683181380114,-0.10000260704186,0.00773288134996092,-0.000952796944305057
6.5,0.00769750695262889,-0.000992842030180796,0.981364916224037,-0.107908550744957,0.98136491620779,-0.107908550750489,0.00770685221329315,-0.00101928031533038
7,0.00767723520418598,-0.0010455987148843,0.979992536808764,-0.115769411551025,0.979992536796116,-0.115769411555786,0.00768786013389691,-0.00107466736705941
7.5,0.00766679788376809,-0.00108842523067221,0.978567063069633,-0.123588299700801,0.978567063058549,-0.123588299705363,0.00767868825347504,-0.00112024036036562
8,0.00766912521673895,-0.001123085084203,0.977088894036595,-0.131367885778623,0.977088894024261,-0.131367885783095,0.00768221903921912,-0.00115768965572194
8.5,0.00768720556866125,-0.0011519599872325,0.975557983473877,-0.13911036058367,0.975557983456824,-0.139110360587516,0.00770141906861407,-0.00118927113548173
9,0.00772398677154141,-0.00117823517169935,0.973973987224352,-0.14681743907827,0.973973987198602,-0.146817439080197,0.00773927176220118,-0.00121798636098935
9.5,0.00778219175741482,-0.00120609471832678,0.972336380649614,-0.154490390694853,0.972336380610838,-0.154490390692754,0.00779863733716851,-0.00124778477986931
10,0.00786401899559125,-0.0012409032792764,0.970644548513812,-0.16213008353516,0.970644548457454,-0.162130083526091,0.00788200950215882,-0.00128377536211577
10.5,0.00794465930366878,-0.00128623003071082,0.96891868129702,-0.169723565184735,0.968918681253534,-0.169723565169372,0.00796574036961689,-0.0013315636699609
11,0.00803139953913315,-0.00133936302154458,0.967147279497768,-0.177287346252932,0.967147279466433,-0.177287346233932,0.00805538464632358,-0.00138743172155831
11.5,0.00812340017170016,-0.00140055066783029,0.965329991784463,-0.184822732580573,0.965329991764265,-0.184822732560142,0.00815010767621488,-0.00145156307364402
12,0.00821987223219989,-0.00146996854147385,0.963466442939087,-0.192330782890842,0.963466442928825,-0.192330782870765,0.0082491322725228,-0.0015240798043572
12.5,0.00832007427127576,-0.00154773174633815,0.961556258737617,-0.19981234608193,0.961556258735989,-0.199812346063595,0.00835173312397536,-0.00160505352050766
13,0.00842330914859407,-0.00163390473432434,0.95959908248641,-0.207268094497713,0.959599082492087,-0.207268094482158,0.00845723173276242,-0.00169451383002395
13.5,0.00852892090381158,-0.00172850913313516,0.957594585327816,-0.214698552980565,0.957594585339484,-0.214698552968521,0.0085649919593101,-0.00179245492061408
14,0.00863629184149947,-0.00183153003802916,0.955542471996313,-0.222104123821035,0.955542472012721,-0.222104123812968,0.00867441617052053,-0.00189884072764901
14.5,0.0087448398881152,-0.00194292112047156,0.95344248333536,-0.229485107898347,0.95344248335534,-0.229485107894498,0.00878494194700577,-0.00201360905246162
15,0.00885401623461962,-0.00206260882630316,0.951294396577364,-0.236841722395836,0.95129439659985,-0.236841722396268,0.00889603928614685,-0.00213667489962632
15.5,0.00896330325296341,-0.00219049587238818,0.949098024140804,-0.244174115507602,0.949098024164845,-0.244174115512229,0.00900720823221907,-0.00226793323203189
16,0.00907221266149377,-0.00232646420093796,0.946853211502007,-0.251482378548578,0.946853211526766,-0.251482378557201,0.00911797686652915,-0.00240726129020352
16.5,0.00918028390865988,-0.00247037751229762,0.944559834546217,-0.258766555855309,0.944559834570976,-0.258766555867639,0.00922789959597803,-0.00255452058348626
17,0.00928708274329143,-0.00262208346735315,0.942217796685441,-0.266026652828671,0.942217796709594,-0.266026652844359,0.00933655568558345,-0.00270955863169609
17.5,0.00939219994119533,-0.00278141562822154,0.939827025941886,-0.273262642429463,0.939827025964934,-0.273262642448117,0.0094435479880447,-0.00287221051448849
18,0.00949525016063879,-0.00294819518876555,0.937387472129595,-0.280474470396995,0.937387472151141,-0.280474470418198,0.00954850183071115,-0.00304230026990893
18.5,0.00959587090271735,-0.0031222325335063,0.934899104218141,-0.287662059422058,0.934899104237877,-0.287662059445383,0.00965106402702121,-0.00321964217198456
19,0.00969372155612386,-0.00330332865380889,0.932361907926796,-0.294825312470211,0.9323619079445,-0.294825312495235,0.00975090198539524,-0.00340404190874088
19.5,0.00978848250926168,-0.00349127644296487,0.929775883572418,-0.301964115419692,0.92977588358794,-0.301964115446,0.00984770289373482,-0.0035952976759035
20,0.00987985431574673,-0.00368586188629538,0.927141044176686,-0.309078339150518,0.927141044189943,-0.309078339177716,0.00994117296208652,-0.00379320119703808
20.5,0.00996755690209572,-0.00388686515851933,0.924457413826443,-0.316167841197601,0.924457413837407,-0.316167841225314,0.0100310367097051,-0.00399753867778707
21,0.0100513288088145,-0.00409406163759329,0.921725026273246,-0.323232467060196,0.921725026281936,-0.323232467088079,0.0101170362858807,-0.00420809169958147
21.5,0.0101309264581141,-0.00430722284216234,0.918943923753609,-0.330272051242956,0.918943923760087,-0.330272051270694,0.0101989308164027,-0.00442463805667415
22,0.0102061234431864,-0.00452611729822072,0.916114156009005,-0.337286418089352,0.916114156013366,-0.33728641811666,0.0102764957696304,-0.00464695253934044
22.5,0.010276709835382,-0.00475051133946969,0.913235779483835,-0.344275382456285,0.913235779486201,-0.344275382482913,0.0103495223378172,-0.00487480766536219
23,0.0103424915067349,-0.00498016984515792,0.910308856679755,-0.351238750268792,0.910308856680268,-0.351238750294519,0.0104178168306709,-0.00510797436155097
23.5,0.0104032894662257,-0.00521485691861012,0.907333455645679,-0.358176318985559,0.907333455644498,-0.358176319010197,0.0104812000792069,-0.00534622259680417
24,0.0104589392088346,-0.00545433650937666,0.904309649584089,-0.365087877999347,0.904309649581382,-0.365087878022738,0.0105395068487562,-0.00558932196810558
24.5,0.010509290077004,-0.00569837298165199,0.901237516555883,-0.371973208990967,0.901237516551829,-0.371973209012982,0.0105925852606376,-0.0058370422408478
25,0.0105542046345232,-0.00594673163152581,0.898117139267722,-0.378832086251085,0.898117139262501,-0.378832086271623,0.0106402962224625,-0.00608915384490105
25.5,0.0105935580531253,-0.0061991791555045,0.894948604927524,-0.385664276980622,0.894948604921318,-0.385664276999609,0.0106825128673846,-0.00634542832790141
26,0.0106272375122953,-0.00645548407273533,0.89173200515547,-0.392469541577703,0.891732005148457,-0.392469541595086,0.0107191200028307,-0.00660563876731923
26.5,0.0106551416128834,-0.00671541710328971,0.888467435939475,-0.399247633916896,0.888467435931829,-0.399247633932645,0.0107500135694125,-0.00686956014293982
27,0.0106771798051976,-0.00697875150489868,0.885154997625552,-0.405998301624741,0.885154997617443,-0.405998301638846,0.0107751001107871,-0.00713696967146937
27.5,0.0106932718322436,-0.00724526337046361,0.881794794934881,-0.412721286354212,0.881794794926469,-0.412721286366681,0.0107942962552633,-0.00740764710502506
28,0.0107033471887665,-0.00751473188868168,0.878386937000598,-0.419416324059739,0.878386936992037,-0.419416324070596,0.010807528209952,-0.00768137499534194
28.5,0.0107073445966879,-0.00778693957007937,0.874931537418452,-0.426083145273595,0.874931537409881,-0.426083145282876,0.0108147312681989,-0.00795793892554131
29,0.0107052114974728,-0.00806167244071498,0.871428714306408,-0.432721475383926,0.871428714297962,-0.43272147539168,0.0108158493309957,-0.00823712771133289
29.5,0.0106969035618736,-0.00833872020578152,0.867878590369201,-0.439331034914244,0.867878590361,-0.439331034920531,0.0108108344429634,-0.00851873357353372
30,0.0106823842174064,-0.00861787638525546,0.864281292964508,-0.445911539803923,0.864281292956662,-0.445911539808812,0.0107996463434409,-0.00880255228376192
30.5,0.010661624193828,-0.00889893842372114,0.860636954168122,-0.452462701689068,0.860636954160732,-0.452462701692635,0.0107822520330939,-0.00908838328515627
31,0.0106346010867894,-0.00918170777639082,0.856945710836044,-0.458984228182968,0.856945710829195,-0.458984228185293,0.0107586253563834,-0.00937602978992091
31.5,0.0106012989397397,-0.00946598997328729,0.853207704661852,-0.46547582315534,0.853207704655623,-0.46547582315651,0.0107287466001277,-0.00966529885547174
32,0.0105617078440868,-0.0097515946634773,0.849423082228186,-0.47193718700952,0.849423082222642,-0.471937187009624,0.0106926021083107,-0.0099560014408816
32.5,0.0105158235575186,-0.0100383356411416,0.845591995051424,-0.478368016956792,0.845591995046621,-0.478368016955922,0.0106501839131937,-0.0102479524452864
33,0.0104636471403302,-0.0103260308552086,0.841714599619008,-0.484768007287091,0.841714599614991,-0.484768007285339,0.0106014893827123,-0.0105409707298323
33.5,0.0104051846095255,-0.0106145024041575,0.837791057419029,-0.491136849635365,0.837791057415834,-0.491136849632824,0.0105465208840712,-0.0108348791246775
34,0.0103404466103985,-0.0109035765175352,0.833821534961934,-0.497474233242963,0.833821534959586,-0.497474233239725,0.010485285463366,-0.0111295044224969
34.5,0.0102694481052524,-0.011193083525613,0.82980620379432,-0.503779845213466,0.829806203792838,-0.503779845209623,0.0104177945410244,-0.0114246773598468
35,0.0101922080788654,-0.0114828578185524,0.825745240504954,-0.510053370762482,0.825745240504346,-0.510053370758122,0.0103440636227786,-0.0117202325876884
35.5,0.0101087492602624,-0.0117727377963256,0.821638826723212,-0.516294493460976,0.82163882672348,-0.516294493456187,0.0102641120258557,-0.0120160086322776
36,0.0100190978603314,-0.0120625658105797,0.817487149110225,-0.522502895471797,0.817487149111364,-0.522502895466662,0.0101779626200208,-0.0123118478475629
36.5,0.00992328332479031,-0.0123521880995233,0.813290399343086,-0.528678257779111,0.813290399345084,-0.528678257773711,0.0100856415830776,-0.0126075963601505
37,0.00982133810198171,-0.0126414547168611,0.809048774092478,-0.534820260410542,0.809048774095317,-0.534820260404954,0.00998717817040162,-0.0129031040078246
37.5,0.00971329742497073,-0.0129302194556954,0.804762474994144,-0.540928582651857,0.8047624749978,-0.540928582646154,0.00988260449805706,-0.0131982242725462
38,0.00959919910739254,-0.0132183397682569,0.80043170861462,-0.547002903254098,0.800431708619064,-0.547002903248348,0.00977195533903669,-0.0134928142087726
38.5,0.00947908335250253,-0.013505676682256,0.79605668641165,-0.553042900633109,0.796056686416849,-0.553042900627377,0.00965526793213883,-0.013786734367885
39,0.00935299257487066,-0.0137920947145624,0.791637624689731,-0.559048253061451,0.791637624695648,-0.559048253055795,0.00953258180300515,-0.0140798487194367
39.5,0.00922097123417032,-0.0140774617828729,0.787174744551194,-0.565018638852736,0.787174744557789,-0.565018638847214,0.00940393859681371,-0.0143720245698942
40,0.00908306568049982,-0.0143616491159644,0.782668271843241,-0.570953736538452,0.78266827185047,-0.570953736533111,0.0092693819221476,-0.0146631324794498
40.5,0.00893932401069814,-0.01464453116306,0.77811843710134,-0.576853225037349,0.778118437109156,-0.576853225032238,0.00912895720553153,-0.0149530461774827
41,0.00878979593511592,-0.0149259855028003,0.773525475489358,-0.582716783817544,0.773525475497714,-0.582716783812701,0.00898271155615893,-0.0152416424771366
41.5,0.0086345326543093,-0.0152058927522502,0.768889626736802,-0.588544093051443,0.768889626745646,-0.588544093046905,0.0088306936403198,-0.0155288011894817
42,0.00847358674514509,-0.0154841364763335,0.764211135073505,-0.594334833763668,0.764211135082787,-0.594334833759466,0.00867295356505599,-0.0158144050376565
42.5,0.00830701205581469,-0.0157606030980335,0.759490249162099,-0.600088687972148,0.759490249171764,-0.600088687968309,0.00850954277057492,-0.0160983395713556
43,0.00813486360926174,-0.016035181809677,0.754727222028562,-0.605805338822558,0.754727222038559,-0.605805338819105,0.00834051393097318,-0.0163804930819768
43.5,0.00795719751458179,-0.0163077644855545,0.749922310991154,-0.611484470716296,0.749922311001429,-0.611484470713246,0.00816592086281931,-0.0166607565187545
44,0.00777407088584969,-0.0165782455961422,0.745075777587972,-0.617125769432204,0.745075777598472,-0.617125769429572,0.0079858184411698,-0.0169390234060346
44.5,0.00758554176807436,-0.0168465221240895,0.740187887503405,-0.622728922242228,0.740187887514075,-0.622728922240022,0.00780026252260385,-0.0172151897620664
45,0.00739166906972039,-0.0171124934821889,0.735258910493698,-0.628293618021223,0.735258910504486,-0.628293618019449,0.00760930987486591,-0.0174891540193634
45.5,0.00719251250147046,-0.0173760614334534,0.730289120311844,-0.633819547351118,0.730289120322697,-0.633819547349777,0.00741301811273942,-0.0177608169468808
46,0.0069881325208086,-0.0176371300134439,0.725278794631993,-0.639306402619637,0.725278794642859,-0.639306402618727,0.00721144563976872,-0.0180300815741373
46.5,0.00677859028205569,-0.0178956054549435,0.720228214973558,-0.644753878113788,0.720228214984389,-0.644753878113303,0.00700465159547342,-0.018296853117398
47,0.00656394759150575,-0.01815139611507,0.715137666625185,-0.650161670108314,0.715137666635931,-0.650161670108246,0.00679269580771702,-0.0185610389080314
47.5,0.00634426686730705,-0.018404412404899,0.710007438568717,-0.655529476949327,0.710007438579331,-0.655529476949663,0.00657563874988898,-0.0188225483231207
48,0.00611961110378417,-0.0186545667216428,0.704837823403307,-0.660856999133294,0.704837823413744,-0.660856999134019,0.00635354150259604,-0.019081292718403
48.5,0.00589004383987035,-0.0189017733834344,0.699629117269784,-0.666143939381578,0.699629117279999,-0.666143939382675,0.00612646571955738,-0.0193371853635858
49,0.00565562913137357,-0.0191459485667358,0.694381619775392,-0.671390002710738,0.694381619785343,-0.671390002712186,0.0058944735974189,-0.0195901413800893
49.5,0.0054164315267804,-0.0193870102463914,0.689095633918992,-0.676594896498737,0.68909563392864,-0.676594896500512,0.00565762784920509,-0.0198400776812423
50,0.00517251604635038,-0.0196248781383244,0.683771466016822,-0.68175833054726,0.683771466026129,-0.681758330549337,0.00541599168116846,-0.0200869129149405
50.5,0.00492394816422942,-0.0198594736448812,0.678409425628881,-0.686880017140308,0.678409425637811,-0.68688001714266,0.00516962877276372,-0.0203305674087974
51,0.00467079379336049,-0.0200907198028071,0.673009825486025,-0.691959671099222,0.673009825494546,-0.69195967110182,0.00491860325953181,-0.0205709631177641
51.5,0.00441311927295474,-0.0203185412338319,0.667572981417816,-0.696997009834316,0.667572981425896,-0.696997009837129,0.00466297971866197,-0.0208080235742305
52,0.00415099135831482,-0.0205428640978447,0.662099212281195,-0.70199175339325,0.662099212288806,-0.701991753396246,0.00440282315702095,-0.0210416738405841
52.5,0.00388447721280288,-0.0207636160486282,0.656588839890011,-0.706943624506315,0.656588839897127,-0.706943624509459,0.00413819900145213,-0.021271840464209
53,0.00361364440176803,-0.0209807261921086,0.651042188945465,-0.711852348628749,0.651042188952061,-0.711852348632008,0.00386917309114826,-0.0214984514348994
53.5,0.00333856088824613,-0.0211941250470925,0.645459586967482,-0.716717653980246,0.645459586973538,-0.716717653983584,0.00359581167192541,-0.0217214361446635
54,0.00305929503026464,-0.0214037445084421,0.639841364227066,-0.721539271581763,0.639841364232565,-0.721539271585143,0.00331818139222151,-0.021940725349872
54.5,0.00277591557959028,-0.0216095178126406,0.634187853679642,-0.726316935289773,0.634187853684566,-0.726316935293155,0.00303634930066021,-0.0221562511357319
55,0.00248849168176646,-0.0218113795057072,0.628499390899421,-0.731050381828066,0.628499390903757,-0.731050381831415,0.00275038284502915,-0.022367946883027
55.5,0.00219709287729375,-0.0220092654133993,0.622776314014792,-0.735739350817239,0.622776314018529,-0.735739350820517,0.00246034987252458,-0.0225757472370966
56,0.00190178910382466,-0.0222031126136651,0.617018963644775,-0.740383584801955,0.617018963647904,-0.740383584805122,0.00216631863112915,-0.0227795880790023
56.5,0.00160265069923787,-0.0223928594112751,0.611227682836525,-0.744982829276097,0.611227682839039,-0.744982829279114,0.00186835777199051,-0.0229794064988346
57,0.00129974840547026,-0.0225784453145901,0.605402817003904,-0.749536832705914,0.6054028170058,-0.749536832708744,0.00156653635268272,-0.0231751407711166
57.5,0.000993153372997269,-0.0227598110144083,0.599544713867134,-0.754045346551258,0.59954471386841,-0.754045346553863,0.00126092384122822,-0.0233667303322506
58,0.000682937165853714,-0.0229368983648279,0.593653723393519,-0.758508125284996,0.593653723394175,-0.758508125287338,0.000951590120779,-0.0235541157599599
58.5,0.000369171767084842,-0.023109650366075,0.587730197739247,-0.762924926410695,0.587730197739288,-0.762924926412736,0.000638605494849454,-0.0237372387546761
59,5.19295845414769E-005,-0.023278011149237,0.581774491192277,-0.767295510478656,0.581774491191707,-0.767295510480361,0.000322040693000625,-0.0239160421228171
59.5,-0.000268716543075531,-0.0234419259628441,0.575786960116289,-0.771619641100396,0.575786960115116,-0.771619641101727,1.96687688969188E-006,-0.0240904697619055
60,-0.000592693340007611,-0.0236013411612385,0.569767962895718,-0.775897084961622,0.569767962893951,-0.775897084962544,-0.000321544353406922,-0.0242604666474776
60.5,-0.000919927087147887,-0.0237562041946793,0.563717859881845,-0.78012761183381,0.563717859879495,-0.780127611834289,-0.000648420952877204,-0.0244259788217245
61,-0.00125034361574344,-0.0239064636011193,0.55763701333996,-0.784310994584427,0.55763701333704,-0.784310994584431,-0.000978590424947356,-0.0245869533838199
61.5,-0.00158386830116297,-0.0240520689996047,0.551525787397567,-0.788447009185887,0.551525787394093,-0.788447009185383,-0.00131197981480863,-0.024743338481877
62,-0.00192042605679554,-0.0241929710852257,0.545384547993648,-0.792535434723288,0.545384547989636,-0.792535434722244,-0.00164851570278118,-0.0248950833064834
