"Freq [GHz]","re(St(P1,P1)) []","im(St(P1,P1)) []","re(St(P1,P2)) []","im(St(P1,P2)) []","re(St(P2,P1)) []","im(St(P2,P1)) []","re(St(P2,P2)) []","im(St(P2,P2)) []"
0,0.00538168290842123,0,0.994637746844091,0,0.994637745301588,0,0.00538168659653593,0
0.5,0.00608790388830371,-0.00267233314473003,0.993787565314673,-0.0104998312619742,0.993787564868072,-0.0104998312945348,0.00608810746511068,-0.00267227998642738
1,0.00663202579819355,-0.00624866954487757,0.992842984237029,-0.0200801110992153,0.992842984347039,-0.0200801112882125,0.00663253200385938,-0.00624880701465003
1.5,0.00683566184322792,-0.0100166881119712,0.991996011516488,-0.0294174345296128,0.99199601155156,-0.0294174346620188,0.00683650358706167,-0.0100171087548517
2,0.00678405203512611,-0.0137952148543352,0.991171537097736,-0.0386830274693892,0.991171537106437,-0.0386830275480445,0.00678519167899516,-0.0137960285531271
2.5,0.00657275414264191,-0.0175362439730442,0.990284971380574,-0.0479165936700099,0.990284971385684,-0.0479165937093438,0.00657416365764174,-0.0175375047513739
3,0.00624801549845966,-0.0212368179780089,0.989301466307153,-0.0571125370784671,0.989301466317948,-0.0571125370925092,0.00624968081714172,-0.0212385666121051
3.5,0.00583240125019335,-0.0249005416872397,0.98821082563321,-0.0662606560320658,0.988210825651856,-0.0662606560320942,0.0058343127146161,-0.0249028178417241
4,0.00533817434008022,-0.028530696631778,0.98701321221661,-0.0753535722892202,0.987013212241512,-0.0753535722834258,0.00534032056945177,-0.0285335403217797
4.5,0.00477293042302662,-0.0321294829769077,0.985712748836672,-0.0843872672755754,0.985712748864439,-0.0843872672692587,0.00477529557171374,-0.0321329330370297
5,0.0041420048461287,-0.0356982919713884,0.984314650820285,-0.0933603377027801,0.984314650847023,-0.0933603376987815,0.00414456799045704,-0.0357023839126391
5.5,0.00344955092308852,-0.0392380414527214,0.98282393843513,-0.102273148718878,0.982823938457276,-0.102273148718095,0.00345228674851761,-0.039242805478569
6,0.00269904401875687,-0.0427494217627444,0.9812449018514,-0.11112712742466,0.981244901866246,-0.111127127426612,0.00270192431204475,-0.0427548812216063
6.5,0.00189352348033478,-0.0462330544670388,0.979580941694655,-0.119924229854312,0.979580941700612,-0.119924229857702,0.00189651910568067,-0.0462392248469623
7,0.00103570929449315,-0.0496895878475989,0.977834596742219,-0.128666564142525,0.977834596738898,-0.128666564145698,0.00103879242285143,-0.0496964763441579
7.5,0.0001280571337956,-0.0531197497266991,0.976007657823955,-0.137356140875371,0.976007657812125,-0.137356140876735,0.000131203547048653,-0.0531273553727853
8,-0.000827217034570171,-0.0565243721395738,0.974101312382074,-0.145994721013886,0.974101312363538,-0.145994721012206,-0.000824025706006704,-0.0565326864569586
8.5,-0.00182812688502171,-0.0599043976702012,0.972116289743573,-0.154583735052225,0.972116289721003,-0.154583735046854,-0.00182490110210926,-0.0599134057825301
9,-0.00287291190642747,-0.0632608740725464,0.970052992187399,-0.163124251700395,0.970052992164149,-0.163124251691429,-0.00286965242229192,-0.0632705562059908
9.5,-0.00396003545274665,-0.0665949416928528,0.967911605703283,-0.171616979174683,0.967911605683204,-0.171616979163041,-0.0039567318323484,-0.0666052749834742
10,-0.00508818245260001,-0.0699078168048457,0.965692189323254,-0.180062286523122,0.965692189310533,-0.180062286510588,-0.0050848119462738,-0.0699187773299119
10.5,-0.00625847265011587,-0.0732554098785343,0.96339201326928,-0.18846261502636,0.963392013257681,-0.188462615012948,-0.00625509066433616,-0.0732670175131647
11,-0.00748310942620128,-0.0765816711498761,0.96102290238255,-0.196813410167799,0.961022902372141,-0.196813410153657,-0.00747971902106204,-0.076593938912715
11.5,-0.00876170366007345,-0.0798856542767608,0.958585689746966,-0.205116068160035,0.95858568973779,-0.205116068145319,-0.00875830841878733,-0.0798985954799449
12,-0.0100938487965413,-0.0831664222210011,0.956080994543414,-0.213371791462496,0.956080994535493,-0.213371791447353,-0.010090452849031,-0.0831800504321984
12.5,-0.0114791209647052,-0.0864230475946575,0.95350926860506,-0.22158158908244,0.953509268598399,-0.221581589067006,-0.0114757290105461,-0.0864373765987754
13,-0.0129170791066272,-0.0896546129991362,0.950870836760238,-0.229746282268324,0.950870836754823,-0.229746282252735,-0.0129136964372503,-0.0896696567597983
13.5,-0.0144072651161778,-0.0928602113571815,0.948165931222577,-0.237866513975573,0.948165931218381,-0.237866513959953,-0.0144038976362108,-0.0928759839780575
14,-0.015949203988253,-0.0960389462378841,0.945394720468978,-0.245942760802352,0.945394720465961,-0.245942760786813,-0.0159458582359187,-0.0960554619239717
14.5,-0.0175424039785225,-0.0991899321748688,0.94255733314422,-0.253975346376067,0.942557333142336,-0.253975346360712,-0.017539087144978,-0.099207205193808
15,-0.0191863567738071,-0.102312294977791,0.939653877569588,-0.261964455414221,0.939653877568779,-0.261964455399141,-0.0191830767213344,-0.102330339621281
15.5,-0.0208805376731538,-0.1054051720373,0.936684457430578,-0.269910147885268,0.936684457430783,-0.269910147870545,-0.020877302952108,-0.105424002582687
16,-0.0226244057796449,-0.108467712623587,0.93364918419023,-0.277812372858745,0.933649184191383,-0.27781237284445,-0.0226212256440711,-0.108487343295698
16.5,-0.024417404202932,-0.111499078178685,0.930548186730565,-0.285670981763582,0.930548186732599,-0.285670981749774,-0.0244142886247727,-0.111519523111942
17,-0.0262589602724536,-0.114498442602595,0.927381618672987,-0.293485740873764,0.92738161867583,-0.293485740860495,-0.026255919954265,-0.114519715803494
17.5,-0.028148485761265,-0.117464992533396,0.924149663774445,-0.301256342916629,0.924149663778026,-0.301256342903941,-0.0281455321473761,-0.117487107843361
18,-0.0300853771203616,-0.120397927621379,0.9208525397434,-0.308982417755369,0.920852539747648,-0.308982417743295,-0.030082522406418,-0.120420898680067
18.5,-0.0320690157233873,-0.123296460797332,0.917490500770021,-0.31666354213793,0.917490500774866,-0.316663542126497,-0.0320662728642137,-0.123320301006407
19,-0.0340987681215337,-0.126159818534982,0.914063839020108,-0.324299248532829,0.914063839025482,-0.324299248522055,-0.0340961508372842,-0.126184541022412
19.5,-0.0361739863084818,-0.128987241107682,0.910572885302041,-0.331889033091438,0.910572885307876,-0.331889033081333,-0.0361715090890205,-0.129012858692576
20,-0.0382940079951474,-0.131777982839314,0.907018009081102,-0.339432362788058,0.907018009087336,-0.339432362778632,-0.0382916861026402,-0.131804507997346
20.5,-0.0404581568940263,-0.134531312349451,0.903399617985245,-0.346928681795852,0.903399617991817,-0.346928681787104,-0.040456006363716,-0.13455875717889
21,-0.0426657430128842,-0.137246512792705,0.899718156920584,-0.354377417159424,0.899718156927436,-0.354377417151352,-0.0426637806520334,-0.13727488898109
21.5,-0.0449160629575506,-0.139922882092297,0.895974106893094,-0.361777983825134,0.895974106900169,-0.361777983817728,-0.0449143063425361,-0.139952200883776
22,-0.0472084002435226,-0.142559733167695,0.892167983614742,-0.369129789088422,0.892167983621989,-0.369129789081673,-0.0472068677150891,-0.142590005331064
22.5,-0.0495420256161124,-0.145156394156326,0.888300335957026,-0.376432236514721,0.888300335964397,-0.376432236508614,-0.0495407362727839,-0.145187629953787
23,-0.0519161973788514,-0.147712208629223,0.884371744302286,-0.383684729386827,0.884371744309735,-0.383684729381345,-0.0519151710685155,-0.147744417785895
23.5,-0.0543301617298332,-0.150226535800513,0.880382818832807,-0.390886673727742,0.880382818840293,-0.390886673722865,-0.0543294190395129,-0.150259727474712
24,-0.056783153105713,-0.15269875073061,0.876334197789195,-0.398037480943887,0.876334197796679,-0.398037480939593,-0.0567827153495516,-0.152732933484945
24.5,-0.0592743945330294,-0.155128244523,0.872226545722604,-0.405136570129496,0.87222654573005,-0.405136570125763,-0.059274283738518,-0.155163426296289
25,-0.061803097986555,-0.157514424514436,0.86806055175973,-0.412183370069164,0.868060551767108,-0.412183370065965,-0.0618033368790369,-0.157550612594483
25.5,-0.064368464754341,-0.159856714458414,0.863836927894992,-0.419177320971758,0.86383692790227,-0.419177320969069,-0.0643690767398363,-0.159893915455678
26,-0.0669696858091428,-0.162154554701739,0.859556407320611,-0.426117875965503,0.859556407327765,-0.426117875963298,-0.0669706949555291,-0.162192774523911
26.5,-0.0696059421858971,-0.164407402354019,0.855219742802436,-0.433004502380857,0.855219742809442,-0.433004502379108,-0.0696073732025057,-0.164446646181543
27,-0.0722764053649425,-0.166614731449902,0.850827705106961,-0.439836682844941,0.850827705113798,-0.439836682843621,-0.0722782835806164,-0.166655003712472
27.5,-0.0749802376606293,-0.168776033103857,0.846381081483242,-0.446613916208624,0.846381081489894,-0.446613916207706,-0.0749825890002999,-0.168817337457911
28,-0.0777165926150256,-0.170890815657331,0.841880674201885,-0.45333571832506,0.841880674208335,-0.453335718324518,-0.0777194435748677,-0.170933154964578
28.5,-0.0804846153963676,-0.172958604818079,0.837327299152205,-0.460001622696336,0.83732729915844,-0.460001622696141,-0.0804879930175997,-0.173001981125077
29,-0.0832834432019427,-0.174978943791462,0.832721784497788,-0.466611181002994,0.832721784503799,-0.466611181003119,-0.0832873750433287,-0.175023358310295
29.5,-0.0861122056650738,-0.176951393403556,0.828064969390015,-0.473163963529563,0.828064969395792,-0.473163963529983,-0.0861167197742021,-0.176996846493613
30,-0.0889700252658745,-0.178875532215839,0.823357702738617,-0.479659559497701,0.823357702744153,-0.47965955949839,-0.0889751501492817,-0.178922023366745
30.5,-0.0918560177454643,-0.180750956631313,0.818600842037982,-0.48609757731725,0.818600842043273,-0.486097577318183,-0.0918617823376687,-0.180798484447022
31,-0.0947692925232942,-0.182577280991841,0.813795252247667,-0.492477644764332,0.81379525225271,-0.492477644765485,-0.0947757261548206,-0.182625843175931
31.5,-0.0977089531172808,-0.184354137666558,0.808941804725389,-0.49879940909461,0.808941804730181,-0.498799409095958,-0.097716085481747,-0.184403731008737
32,-0.100674097566406,-0.186081177131152,0.804041376210671,-0.505062537098878,0.804041376215214,-0.505062537100399,-0.100681958686744,-0.18613179749501
32.5,-0.103663818855465,-0.187758068037872,0.799094847857259,-0.511266715107388,0.799094847861554,-0.511266715109061,-0.103672439049354,-0.187809710349907
33,-0.106677205341632,-0.189384497276106,0.794103104312379,-0.517411648948593,0.794103104316429,-0.517411648950397,-0.106686615186226,-0.189437155516019
33.5,-0.109713341182525,-0.190960170023373,0.789067032840944,-0.523497063867353,0.789067032844751,-0.523497063869268,-0.109723571478539,-0.191013837215681
34,-0.112771306765432,-0.192484809786596,0.783987522492822,-0.529522704407116,0.783987522496392,-0.529522704409123,-0.112782388500679,-0.192539477993557
34.5,-0.115850179137386,-0.193958158433528,0.778865463311336,-0.535488334260092,0.778865463314674,-0.535488334262174,-0.115862143449829,-0.19401381874941
35,-0.118949032435751,-0.195379976214214,0.773701745581207,-0.541393736088999,0.77370174558432,-0.541393736091139,-0.118961910576157,-0.195436618760906
35.5,-0.122066938319001,-0.196750041772373,0.768497259114229,-0.547238711323607,0.768497259117124,-0.54723871132579,-0.12208076161327,-0.19680765569636
36,-0.125202966397361,-0.198068152146619,0.763252892571021,-0.553023079934928,0.763252892573707,-0.553023079937138,-0.125217766208605,-0.198126725617325
36.5,-0.128356184662987,-0.199334122761426,0.757969532817272,-0.558746680189657,0.757969532819755,-0.558746680191881,-0.12837199235344,-0.199393642970929
37,-0.131525659919356,-0.200547787407764,0.752648064312967,-0.564409368387158,0.752648064315257,-0.564409368389384,-0.131542506812188,-0.200608240571889
37.5,-0.134710458209545,-0.201708998213353,0.747289368533157,-0.570011018581084,0.747289368535262,-0.570011018583299,-0.134728375550651,-0.201770369574144
38,-0.137909645243067,-0.202817625602479,0.741894323418893,-0.575551522287501,0.741894323420824,-0.575551522289697,-0.137928664162909,-0.202879899432051
38.5,-0.141122286820948,-0.203873558245353,0.73646380285702,-0.58103078818122,0.736463802858786,-0.581030788183386,-0.141142438296527,-0.203936717851109
39,-0.144347449258712,-0.204876702996959,0.730998676187584,-0.586448741781839,0.730998676189195,-0.586448741783967,-0.144368764075733,-0.204940730728183
39.5,-0.147584199806962,-0.205826984825423,0.725499807737684,-0.591805325130909,0.72549980773915,-0.591805325132991,-0.147606708522264,-0.205891862081219
40,-0.150831607069221,-0.206724346729872,0.719968056380628,-0.597100496461447,0.719968056381958,-0.597100496463476,-0.150855339973551,-0.206790053968455
40.5,-0.154088741416734,-0.20756874964782,0.71440427511934,-0.602334229860949,0.714404275120545,-0.602334229862919,-0.154113728497913,-0.207635266397133
41,-0.157354675399888,-0.208360172352098,0.708809310693003,-0.607506514928926,0.708809310694092,-0.607506514930833,-0.157380946306459,-0.208427477221739
41.5,-0.160628484155959,-0.209098611337388,0.703184003205963,-0.612617356429911,0.703184003206946,-0.612617356431749,-0.160656068161358,-0.20916668203183
42,-0.163909245812846,-0.209784080696385,0.697529185777996,-0.617666773942773,0.697529185778883,-0.61766677394454,-0.163938171780177,-0.209852894029465
42.5,-0.167196041888514,-0.210416611985701,0.691845684215042,-0.622654801507141,0.691845684215843,-0.622654801508834,-0.167226338235977,-0.210486143896351
43,-0.170487957685802,-0.210996254081543,0.686134316699601,-0.627581487267623,0.686134316700323,-0.627581487269239,-0.17051965235284,-0.211066479650733
43.5,-0.173784082682326,-0.211523073025297,0.680395893499964,-0.63244689311649,0.680395893500618,-0.632446893118027,-0.173817203096539,-0.211593966494171
44,-0.177083510915148,-0.211997151859101,0.674631216697565,-0.637251094335401,0.674631216698158,-0.637251094336859,-0.177118083960041,-0.212068686648252
44.5,-0.180385341359934,-0.212418590451533,0.668841079931698,-0.641994179236727,0.668841079932239,-0.641994179238105,-0.180421393343539,-0.212490739181407
45,-0.183688678304304,-0.212787505313546,0.663026268160922,-0.646676248804957,0.663026268161418,-0.646676248806256,-0.183726234928734,-0.212860239825915
45.5,-0.18699263171508,-0.213104029404781,0.657187557440501,-0.651297416338644,0.657187557440961,-0.651297416339863,-0.187031718047061,-0.213177320785263
46,-0.190296317599166,-0.213368311930427,0.651325714715242,-0.655857807093314,0.651325714715672,-0.655857807094456,-0.190336958041591,-0.213442130531997
46.5,-0.193598858357765,-0.213580518128771,0.645441497627124,-0.660357557925708,0.645441497627531,-0.660357557926774,-0.193641076622315,-0.213654833596229
47,-0.196899383133677,-0.213740829049627,0.639535654337147,-0.664796816939713,0.639535654337538,-0.664796816940705,-0.196943202214554,-0.213815610344977
47.5,-0.200197028151417,-0.213849441323826,0.633608923360845,-0.669175743134301,0.633608923361225,-0.669175743135219,-0.200242470300208,-0.213924656752509
48,-0.203490937049877,-0.213906566923954,0.627662033416921,-0.673494506053757,0.627662033417296,-0.673494506054606,-0.203538023751617,-0.2139821841619
48.5,-0.206780261207302,-0.21391243291655,0.621695703288508,-0.677753285440491,0.621695703288883,-0.677753285441272,-0.20682901315774,-0.213988419037984
49,-0.210064160058333,-0.21386728120597,0.615710641696556,-0.681952270890639,0.615710641696935,-0.681952270891357,-0.210114597142444,-0.213943602711932
49.5,-0.213341801402872,-0.213771368270139,0.609707547184864,-0.686091661512716,0.609707547185251,-0.686091661513372,-0.213393942674643,-0.213847991117658
50,-0.216612361706551,-0.213624964888431,0.60368710801632,-0.690171665589485,0.60368710801672,-0.690171665590084,-0.216666225370065,-0.213701854520296
50.5,-0.219875026392591,-0.213428355861896,0.597650002079904,-0.694192500243272,0.597650002080319,-0.694192500243815,-0.219930629784425,-0.213505477236978
51,-0.223128990124822,-0.213181839726091,0.591596896808018,-0.698154391104843,0.591596896808451,-0.698154391105335,-0.223186349697792,-0.213259157350149
51.5,-0.226373457081684,-0.212885728456767,0.585528449103763,-0.702057571986046,0.585528449104216,-0.702057571986491,-0.226432588389941,-0.212963206413681
52,-0.229607641221001,-0.212540347168659,0.579445305277752,-0.705902284556318,0.579445305278227,-0.70590228455672,-0.2296685589065,-0.212617949152042
52.5,-0.232830766535351,-0.212146033807654,0.573348100994078,-0.709688778023203,0.573348100994577,-0.709688778023565,-0.2328934843157,-0.212223723152767
53,-0.236042067297852,-0.211703138836596,0.567237461225094,-0.713417308816977,0.567237461225618,-0.713417308817301,-0.236106597955557,-0.211780878552522
53.5,-0.239240788298213,-0.211212024915006,0.561114000214625,-0.717088140279492,0.561114000215175,-0.717088140279784,-0.23930714367131,-0.211289777717014
54,-0.242426185068868,-0.210673066572994,0.554978321449293,-0.720701542357326,0.554978321449868,-0.720701542357587,-0.242494376042966,-0.210750794915032
54.5,-0.245597524101078,-0.210086649879643,0.548831017637614,-0.724257791299301,0.548831017638215,-0.724257791299536,-0.245667560602794,-0.210164315986902
55,-0.248754083050836,-0.209453172106143,0.542672670696554,-0.72775716935846,0.54267267069718,-0.727757169358671,-0.248825974042638,-0.209530738007635
55.5,-0.251895150934471,-0.208773041383972,0.536503851745239,-0.731199964498546,0.536503851745889,-0.731199964498736,-0.251968904410906,-0.208850468945049
56,-0.255020028313819,-0.208046676358405,0.530325121105511,-0.734586470105037,0.530325121106184,-0.73458647010521,-0.255095651299135,-0.208123927313171
56.5,-0.258128027470863,-0.20727450583764,0.524137028309062,-0.737916984700788,0.524137028309757,-0.737916984700945,-0.258205526018006,-0.207351541821185
57,-0.261218472571732,-0.206456968437832,0.517940112110846,-0.741191811666297,0.51794011211156,-0.741191811666442,-0.261297851762707,-0.20653375101824
57.5,-0.264290699819994,-0.205594512224333,0.511734900508516,-0.744411258964642,0.511734900509248,-0.744411258964776,-0.264371963767575,-0.205671002934384
58,-0.267344057599127,-0.204687594349409,0.505521910767625,-0.747575638871097,0.505521910768371,-0.747575638871223,-0.267427209449907,-0.204763754717937
58.5,-0.270377906604145,-0.203736680686747,0.499301649452324,-0.750685267707449,0.499301649453083,-0.750685267707568,-0.270462948542888,-0.203812472269577
59,-0.27339161996227,-0.202742245463015,0.493074612461341,-0.75374046558102,0.493074612462109,-0.753740465581134,-0.273478553217568,-0.202817629873438
59.5,-0.27638458334265,-0.201704770886786,0.486841285068975,-0.756741556128406,0.48684128506975,-0.756741556128516,-0.276473408193828,-0.201779709825491
60,-0.279356195055024,-0.200624746775082,0.4806021419709,-0.759688866263918,0.480602141971677,-0.759688866264024,-0.279446910840306,-0.200699202059511
60.5,-0.282305866137353,-0.19950267017784,0.474357647334547,-0.76258272593273,0.474357647335324,-0.762582725932834,-0.282398471263222,-0.199576603770892
61,-0.285233020432352,-0.19833904500056,0.46810825485386,-0.765423467868724,0.468108254854632,-0.765423467868825,-0.285327512384098,-0.198412419038595
61.5,-0.288137094652927,-0.197134381625414,0.461854407808201,-0.768211427357,0.461854407808965,-0.768211427357099,-0.288233470006341,-0.197207158445506
62,-0.291017538436497,-0.195889196531085,0.45559653912523,-0.770946942001062,0.455596539125981,-0.770946942001158,-0.291115792870673,-0.19596133869746
62.5,-0.293873814388192,-0.194604011911586,0.449335071447546,-0.77363035149462,0.449335071448282,-0.773630351494712,-0.293973942699409,-0.194675482241197
63,-0.296705398112952,-0.193279355294324,0.443070417202914,-0.776261997398013,0.443070417203629,-0.776261997398101,-0.296807394229581,-0.193350116881513
63.5,-0.299511778236505,-0.191915759157655,0.436802978677889,-0.778842222919207,0.436802978678579,-0.778842222919289,-0.299615635234915,-0.191985775397844
