"Freq [GHz]","re(St(P1,P1)) []","im(St(P1,P1)) []","re(St(P1,P2)) []","im(St(P1,P2)) []","re(St(P2,P1)) []","im(St(P2,P1)) []","re(St(P2,P2)) []","im(St(P2,P2)) []"
0,0.00547922494132536,0,0.994539175910177,0,0.994539169507334,0,0.00547922477704788,0
0.5,0.00610953147347715,-0.00136375194816907,0.993786472537604,-0.00981413106315898,0.993786473020464,-0.00981413281024146,0.00610994749928651,-0.00136606662494287
1,0.0065964412456303,-0.00350588709766697,0.992964830619712,-0.0188328209206965,0.992964830408429,-0.0188328204512231,0.0065973880203849,-0.00351116561375164
1.5,0.00681951410531312,-0.00580430514171582,0.992208051122448,-0.0276447868755518,0.992208050959878,-0.0276447866676275,0.00682072644075937,-0.00581283341703731
2,0.00684270339244453,-0.00811711442255181,0.991462459101659,-0.036383586047716,0.991462458905659,-0.0363835859418451,0.00684393486688606,-0.00812895859870366
2.5,0.00674627520154747,-0.0104007530750483,0.990659108540787,-0.0450847278572439,0.990659108329021,-0.0450847277835802,0.00674735748434507,-0.0104159109334052
3,0.00657008501708178,-0.0126518101366617,0.989770117929941,-0.0537439559702211,0.989770117727146,-0.0537439559069561,0.00657089297809144,-0.0126702690109433
3.5,0.00633384407499182,-0.0148732619961205,0.988788585066486,-0.0623529070926256,0.988788584889491,-0.0623529070371251,0.00633427238807949,-0.0148950108139783
4,0.00604836365627026,-0.0170680949491313,0.98771637441524,-0.070905866145635,0.987716374272849,-0.0709058661019988,0.00604831531628891,-0.0170931250316233
4.5,0.00572039368265087,-0.0192384804833674,0.986558512926117,-0.079400272068761,0.986558512821061,-0.0794002720425278,0.0057197746221358,-0.0192667840116361
5,0.00535471321836334,-0.0213859478143279,0.985320658968052,-0.0878360067823136,0.985320658898788,-0.087836006778157,0.00535342989657361,-0.0214175160761956
5.5,0.00495507356267078,-0.0235116506342079,0.984007981766545,-0.0962145723596999,0.984007981728651,-0.0962145723804007,0.00495303207339393,-0.0235464725254806
6,0.00452464113504492,-0.0256165716114465,0.982624724302939,-0.104538400000582,0.982624724290161,-0.104538400046619,0.00452174713951548,-0.0256546324750246
6.5,0.00406621051094858,-0.0277016575989215,0.981174108601457,-0.112810330006871,0.981174108606486,-0.112810330076337,0.00406236963799511,-0.0277429383943923
7,0.00358230698539697,-0.0297679026935951,0.979658408725309,-0.121033248323736,0.979658408740349,-0.121033248412415,0.00357742549498363,-0.0298123794713776
7.5,0.00307523445934488,-0.0318163954219202,0.978079096661155,-0.129209850984067,0.978079096678339,-0.129209851085569,0.00306922004132981,-0.031864039072504
8,0.00254709608899073,-0.0338483419349576,0.976437009011182,-0.137342506144395,0.976437009022866,-0.137342506250354,0.00253985870994827,-0.0338991181825179
8.5,0.00199980175608977,-0.0358650733888277,0.974732507007369,-0.145433186521226,0.97473250700634,-0.145433186621477,0.00199125449218027,-0.0359189429970987
9,0.00143506975656846,-0.0378680430929608,0.972965616880215,-0.153483449890174,0.97296561685983,-0.153483449972941,0.00142512956791241,-0.0379249622500391
9.5,0.000854426625905569,-0.0398588172713668,0.971136146047879,-0.161494450411286,0.971136146002158,-0.161494450463344,0.000843015041349343,-0.0399187381196304
10,0.000259207127023042,-0.0418390621150384,0.969243775236592,-0.16946696814882,0.969243775160279,-0.169466968155642,0.000246250819038452,-0.0419019333927944
10.5,-0.000360027524103454,-0.0438701379606683,0.967294016378738,-0.17739575548324,0.967294016314246,-0.177395755470496,-0.000374531737850459,-0.0439358840440383
11,-0.0010088689854983,-0.0458922950375351,0.9652906324336,-0.185286447370726,0.96529063238237,-0.185286447341668,-0.00102499037119273,-0.0459608776006104
11.5,-0.0016872282457138,-0.0479051066704068,0.963233841491661,-0.193140714638974,0.963233841454549,-0.193140714596714,-0.00170503518345821,-0.0479764857984022
12,-0.00239501139988074,-0.0499081460345754,0.961123695139298,-0.200959985760297,0.961123695116663,-0.200959985707738,-0.00241457134414791,-0.0499822802558256
12.5,-0.00313211955375581,-0.0519009861776336,0.958960124075328,-0.208745461214764,0.958960124067121,-0.20874546115456,-0.00315349899417885,-0.0519778324968421
13,-0.00389844872500511,-0.0538832000451022,0.956742975428904,-0.216498130890218,0.956742975434751,-0.21649813082475,-0.00392171314754053,-0.0539627139778154
13.5,-0.00469388974188195,-0.0558543605099966,0.954472042786521,-0.224218792971131,0.954472042805796,-0.224218792902496,-0.00471910359039474,-0.0559364961182718
14,-0.00551832813953068,-0.0578140404065337,0.952147089957484,-0.231908073197031,0.952147089989376,-0.231908073127041,-0.00554555477782986,-0.0578987503357888
14.5,-0.00637164405409241,-0.0597618125681367,0.949767869461734,-0.239566443713519,0.949767869505299,-0.239566443643718,-0.00640094572847155,-0.0598490480851326
15,-0.00725371211483478,-0.0616972498698538,0.94733413663988,-0.247194241004338,0.947334136694092,-0.247194240936014,-0.00728514991715778,-0.0617869609018102
15.5,-0.00816440133452045,-0.0636199252753831,0.944845660183012,-0.25479168259319,0.944845660246801,-0.254791682527387,-0.00819803516590184,-0.0637120604501837
16,-0.00910357499823128,-0.0655294118888303,0.942302229772453,-0.262358882350793,0.942302229844737,-0.262358882288346,-0.00913946353335721,-0.0656239185762786
16.5,-0.0100710905508904,-0.0674252830113447,0.939703661415567,-0.26989586434746,0.939703661495277,-0.269895864289006,-0.0101092912030379,-0.0675221073654639
17,-0.0110667994837011,-0.0693071122027629,0.937049800967675,-0.27740257526328,0.937049801053775,-0.277402575209288,-0.0111073683705037,-0.069406199205106
17.5,-0.0120905472197618,-0.0711744733484325,0.934340526244562,-0.284878895415472,0.934340526336065,-0.28487889536626,-0.0121335391297739,-0.0712757668523523
18,-0.0131421729990869,-0.0730269407312902,0.93157574805554,-0.29232464849139,0.931575748151516,-0.292324648447147,-0.0131876413592121,-0.0731303835071575
18.5,-0.0142215097633098,-0.0748640891093657,0.928755410423501,-0.299739610091677,0.928755410523086,-0.299739610052487,-0.0142695066071362,-0.0749696228906984
19,-0.0153283840403043,-0.0766854937988051,0.925879490205006,-0.307123515194603,0.925879490307406,-0.307123515160454,-0.0153789599774183,-0.0767930593292703
19.5,-0.0164626158290105,-0.0784907307625271,0.922947996279071,-0.314476064652923,0.922947996383563,-0.314476064623734,-0.0165158200153385,-0.0786002678437892
20,-0.0176240184847231,-0.0802793767046401,0.919960968436946,-0.32179693083076,0.91996096854288,-0.321796930806385,-0.0176798985939675,-0.0803908242450067
20.5,-0.0188123986051197,-0.0820510091706683,0.916918476075531,-0.329085762481477,0.916918476182327,-0.329085762461726,-0.018871000801346,-0.0821643052345171
21,-0.0200275559173221,-0.0838052066537445,0.91382061677312,-0.336342188959768,0.913820616880263,-0.336342188944417,-0.0200889248287637,-0.0839202885116705
21.5,-0.0212692831662642,-0.0855415487067868,0.910667514807044,-0.343565823852549,0.910667514914087,-0.343565823841344,-0.0213334618603963,-0.085658352886447
22,-0.0225373660046658,-0.087259616060777,0.907459319657541,-0.350756268104706,0.907459319764096,-0.350756268097379,-0.0226043959646214,-0.0873780783983882
22.5,-0.0238315828849031,-0.0889589907491839,0.904196204530126,-0.35791311270735,0.904196204635862,-0.357913112703622,-0.0239015039872866,-0.0890790464416229
23,-0.0251517049530778,-0.0906392562385812,0.900878364919373,-0.365035941008351,0.900878365024009,-0.36503594100794,-0.0252245554472414,-0.090760839896056
23.5,-0.0264974959455974,-0.0922999975655228,0.89750601722966,-0.372124330697624,0.897506017332963,-0.37212433070025,-0.0265733124344357,-0.0924230432647575
24,-0.0278687120885618,-0.093940801479699,0.894079397462859,-0.379177855512977,0.89407939756464,-0.379177855518363,-0.0279475295108948,-0.0940652428175897
24.5,-0.0292651020002733,-0.0955612565933783,0.890598759978664,-0.38619608670633,0.89059876007877,-0.386196086714209,-0.0293469536148689,-0.0956870267410739
25,-0.0306864065971913,-0.0971609535371751,0.887064376330007,-0.393178594304846,0.887064376428318,-0.393178594314962,-0.0307713239684925,-0.0972879852945248
25.5,-0.0321323590036404,-0.0987394851221253,0.883476534173725,-0.400124948196687,0.883476534270152,-0.400124948208798,-0.0322203719892519,-0.0988677109724392
26,-0.0336026844655959,-0.100296446508049,0.879835536254881,-0.407034719067051,0.879835536349362,-0.407034719080926,-0.0336938212055897,-0.100425798673117
26.5,-0.0350971002688696,-0.101831435378188,0.876141699461977,-0.413907479206428,0.876141699554471,-0.413907479221854,-0.0351913871769622,-0.101961845873503
27,-0.0366153156620203,-0.103344052120062,0.872395353949491,-0.420742803209936,0.872395354039974,-0.420742803226716,-0.0367127774186795,-0.103475452810176
27.5,-0.0381570317843151,-0.104833900012508,0.868596842323693,-0.427540268583762,0.86859684241216,-0.427540268601714,-0.0382576913318408,-0.104966222666465
28,-0.0397219415990636,-0.106300585418812,0.864746518887437,-0.434299456272425,0.864746518973894,-0.434299456291384,-0.0398258201387017,-0.106433761765587
28.5,-0.0413097298326617,-0.107743717985865,0.860844748939503,-0.44101995111851,0.860844749023967,-0.441019951138322,-0.0414168468237883,-0.107877679769743
29,-0.0429200729196565,-0.10916291084924,0.856891908124157,-0.447701342264735,0.856891908206652,-0.447701342285267,-0.0430304460810877,-0.109297589885061
29.5,-0.0445526389541798,-0.110557780844084,0.852888381826642,-0.454343223506779,0.852888381907199,-0.454343223527909,-0.0446662842676398,-0.110693109072276
30,-0.0462070876480526,-0.111927948721679,0.848834564610588,-0.460945193603898,0.848834564689243,-0.460945193625518,-0.0463240193638452,-0.11206385826301
30.5,-0.0478830702959045,-0.113273039371553,0.844730859693474,-0.467506856553369,0.844730859770266,-0.467506856575383,-0.0480033009408221,-0.113409462581504
31,-0.0495802297476189,-0.114592682048958,0.84057767845658,-0.474027821833776,0.840577678531548,-0.474027821856102,-0.0497037701351189,-0.114729551571657
31.5,-0.0512982003884209,-0.115886510607553,0.836375439986104,-0.480507704621401,0.836375440059288,-0.480507704643964,-0.0514250596311037,-0.116023759429163
32,-0.0530366081269368,-0.1171541637371,0.832124570642386,-0.486946125983285,0.832124570713827,-0.486946126006023,-0.0531667936513449,-0.117291725238576
32.5,-0.0547950703915211,-0.118395285205964,0.82782550365446,-0.49334271304997,0.827825503724196,-0.493342713072829,-0.0549285879552855,-0.118533093215085
33,-0.0565731961351718,-0.119609524108174,0.823478678737377,-0.499697099170414,0.823478678805444,-0.499697099193348,-0.0567100498465142,-0.119747512950769
33.5,-0.0583705858493292,-0.120796535114855,0.819084541730005,-0.506008924051207,0.819084541796437,-0.506008924074176,-0.0585107781889417,-0.120934639665088
34,-0.0601868315868543,-0.121955978729702,0.814643544251249,-0.51227783388183,0.814643544316077,-0.512277833904802,-0.0603303634321566,-0.122094134459357
34.5,-0.0620215169944865,-0.123087521548298,0.810156143372804,-0.518503481447447,0.810156143436053,-0.518503481470393,-0.0621683876462651,-0.123225664574922
35,-0.0638742173550482,-0.124190836520929,0.805622801306796,-0.524685526230442,0.805622801368492,-0.52468552625334,-0.0640244245664743,-0.124328903654742
35.5,-0.0657444996396913,-0.125265603218624,0.801043985106837,-0.530823634501748,0.801043985167,-0.530823634524579,-0.0658980396477072,-0.125403532008085
36,-0.0676319225704375,-0.126311508102089,0.796420166381143,-0.536917479402817,0.79642016643979,-0.536917479425563,-0.0677887901294998,-0.126449236877995
36.5,-0.0695360366932786,-0.127328244793197,0.791751821016591,-0.542966741018952,0.791751821073735,-0.5429667410416,-0.0696962251114328,-0.127465712711203
37,-0.0714563844620877,-0.128315514348691,0.787039428912654,-0.548971106444612,0.787039428968304,-0.548971106467149,-0.0716198856393505,-0.12845266143013
37.5,-0.0733925003335775,-0.129273025535719,0.782283473724322,-0.5549302698412,0.782283473778485,-0.554930269863615,-0.0735593048025901,-0.1294097927066
38,-0.0753439108735343,-0.130200495108839,0.777484442613217,-0.560843932487752,0.777484442665896,-0.560843932510035,-0.0755140078424513,-0.130336824236893
38.5,-0.0773101348745515,-0.131097648088083,0.772642826006197,-0.566711802824911,0.772642826057391,-0.566711802847052,-0.0774835122721078,-0.131233482017735
39,-0.0792906834854658,-0.131964218037676,0.767759117360841,-0.572533596492494,0.767759117410548,-0.572533596514482,-0.0794673280081734,-0.132099500622813
39.5,-0.0812850603526869,-0.132799947344992,0.762833812937314,-0.57830903636091,0.762833812985528,-0.578309036382735,-0.0814649575140959,-0.132934623479389
40,-0.0832927617736089,-0.133604587499299,0.757867411576113,-0.584037852556698,0.757867411622827,-0.584037852578348,-0.08347589595556,-0.133738603144577
40.5,-0.0853132768622774,-0.134377899369865,0.752860414481336,-0.589719782482355,0.752860414526541,-0.589719782503818,-0.0854996313680633,-0.134511201580837
41,-0.0873460877274538,-0.135119653482935,0.747813325009115,-0.595354570830683,0.747813325052798,-0.595354570851944,-0.0875356448368048,-0.135252190430212
41.5,-0.0893906696632364,-0.135829630297143,0.742726648460928,-0.60094196959379,0.742726648503077,-0.600941969614834,-0.0895834106890263,-0.135961351286851
42,-0.0914464913523607,-0.136507620476835,0.73760089188154,-0.606481738066928,0.737600891922141,-0.606481738087737,-0.0916423966989279,-0.136638475967318
42.5,-0.0935130150822991,-0.137153425162855,0.732436563861367,-0.611973642847304,0.732436563900404,-0.61197364286786,-0.09371206430526,-0.13728336677821
43,-0.0955896969742523,-0.137766856240243,0.727234174343071,-0.617417457828005,0.727234174380529,-0.617417457848287,-0.0957918688416814,-0.137895836780552
43.5,-0.097675987225148,-0.138347736602374,0.721994234432248,-0.622812964187166,0.721994234468112,-0.622812964207152,-0.0978812597799805,-0.138475710050495
44,-0.0997713303626857,-0.138895900410981,0.716717256212085,-0.628159950372524,0.716717256246337,-0.628159950392188,-0.0999796809861934,-0.139022821935756
44.5,-0.10187516551353,-0.139411193351555,0.711403752561858,-0.633458212081459,0.711403752594483,-0.633458212100775,-0.1020865709897,-0.139537019307291
45,-0.103986926684671,-0.139893472883568,0.706054236979213,-0.638707552236675,0.706054237010196,-0.638707552255614,-0.104201363265316,-0.140018160805658
45.5,-0.106106043058012,-0.140342608484977,0.700669223406145,-0.643907780957615,0.700669223435471,-0.643907780976148,-0.106323486528416,-0.140466117081521
46,-0.108231939298196,-0.140758481890446,0.695249226058607,-0.649058715527754,0.695249226086261,-0.649058715545848,-0.108452365043093,-0.140880771029744
46.5,-0.110364035873698,-0.141140987322732,0.689794759259718,-0.65416018035787,0.689794759285687,-0.654160180375491,-0.110587418943357,-0.141262018016504
47,-0.11250174939117,-0.141490031716654,0.684306337276527,-0.659212006945429,0.684306337300802,-0.659212006962542,-0.112728064567363,-0.141609766098867
47.5,-0.114644492943062,-0.141805534935061,0.678784474160296,-0.664214033830195,0.678784474182865,-0.664214033846762,-0.11487371480465,-0.141923936236242
48,-0.116791676468473,-0.142087429976219,0.673229683590284,-0.669166106546185,0.67322968361114,-0.669166106562167,-0.117023779456338,-0.142204462493126
48.5,-0.118942707127229,-0.14233566317201,0.667642478721014,-0.674068077570091,0.66764247874015,-0.67406807758545,-0.119177665608279,-0.142451292232551
49,-0.121096989687159,-0.142550194376332,0.662023372033005,-0.678919806266289,0.662023372050415,-0.678919806280982,-0.121334778017079,-0.142664386299633
49.5,-0.123253926924525,-0.142730997143082,0.656372875186953,-0.683721158828549,0.656372875202637,-0.683721158842534,-0.12349451950896,-0.142843719194592
50,-0.125412920037579,-0.142878058893086,0.650691498881373,-0.688472008218568,0.650691498895329,-0.688472008231802,-0.125656291391385,-0.142989279234642
50.5,-0.127573369073194,-0.142991381069317,0.644979752713659,-0.693172234101452,0.64497975272589,-0.693172234113891,-0.127819493877393,-0.143101068704095
51,-0.129734673366535,-0.143070979279752,0.639238145044596,-0.697821722778241,0.639238145055105,-0.697821722789842,-0.129983526522577,-0.143179103992026
51.5,-0.131896231993726,-0.143116883427155,0.633467182866279,-0.702420367115633,0.633467182875074,-0.702420367126351,-0.132147788674618,-0.143223415716831
52,-0.134057444237458,-0.143129137825098,0.627667371673474,-0.706968066472981,0.627667371680564,-0.70696806648277,-0.134311679935329,-0.143234048836989
52.5,-0.136217710065514,-0.143107801299464,0.62183921533838,-0.711464726626712,0.621839215343777,-0.711464726635528,-0.136474600635125,-0.143211062747291
53,-0.13837643062216,-0.14305294727467,0.615983215988809,-0.715910259692264,0.615983215992526,-0.715910259700062,-0.138635952319849,-0.14315453135981
53.5,-0.140533008732379,-0.142964663843808,0.610099873889765,-0.720304584043667,0.61009987389182,-0.720304584050402,-0.140795138249898,-0.143064543168819
54,-0.1426868494189,-0.142843053821826,0.604189687328428,-0.724647624230864,0.604189687328842,-0.724647624236492,-0.14295156391158,-0.14294120129884
54.5,-0.144837360432021,-0.142688234780893,0.598253152502524,-0.728939310894904,0.598253152501319,-0.728939310899381,-0.145104637540637,-0.142784623534961
55,-0.146983952792182,-0.142500339066949,0.592290763412073,-0.7331795806811,0.592290763409273,-0.733179580684384,-0.147253770657891,-0.142594942334503
55.5,-0.149126041345289,-0.142279513796439,0.586303011754505,-0.73736837615027,0.586303011750138,-0.737368376152319,-0.14939837861694,-0.142372304819057
56,-0.151263045330752,-0.14202592083212,0.580290386823141,-0.74150564568816,0.580290386817238,-0.741505645688934,-0.151537881163862,-0.142116872745846
56.5,-0.153394388962245,-0.141739736736763,0.574253375409018,-0.745591343413164,0.57425337540161,-0.745591343412622,-0.153671703008872,-0.141828822457282
57,-0.155519502021133,-0.141421152703449,0.568192461706034,-0.749625429082431,0.568192461697159,-0.749625429080537,-0.155799274409851,-0.141508344807506
57.5,-0.15763782046257,-0.141070374461071,0.562108127219422,-0.753607867996477,0.562108127209115,-0.753607867993193,-0.157920031767703,-0.141155645064573
58,-0.159748787034184,-0.140687622153501,0.55600085067751,-0.757538630902382,0.556000850665814,-0.757538630897674,-0.16003341823343,-0.140770942786857
58.5,-0.161851851907289,-0.140273130190756,0.549871107946768,-0.761417693895692,0.549871107933723,-0.761417693889527,-0.162138884326824,-0.140354471672088
59,-0.163946473320515,-0.139827147070315,0.543719371950106,-0.765245038321098,0.543719371935758,-0.765245038313446,-0.164235888566616,-0.139906479377308
59.5,-0.166032118235665,-0.139349935166566,0.537546112588412,-0.769020650672008,0.537546112572808,-0.76902065066284,-0.166323898111909,-0.139427227307828
60,-0.168108263005586,-0.138841770486169,0.53135179666531,-0.772744522489088,0.531351796648497,-0.772744522478377,-0.168402389414599,-0.138916990373132
60.5,-0.170174394053711,-0.138302942386855,0.525136887815093,-0.776416650257865,0.525136887797124,-0.776416650245588,-0.170470848882481,-0.13837605670741
61,-0.172230008564808,-0.137733753256976,0.518901846433837,-0.780037035305492,0.518901846414764,-0.780037035291627,-0.172528773552542,-0.137804727352198
61.5,-0.174274615186357,-0.137134518152813,0.512647129613644,-0.783605683696737,0.512647129593522,-0.783605683681265,-0.174575671773879,-0.137203315898349
62,-0.176307734739737,-0.136505564390362,0.506373191079993,-0.787122606129308,0.506373191058877,-0.787122606112213,-0.176611063899461,-0.136572148084269
62.5,-0.178328900940189,-0.135847231087974,0.500080481132178,-0.790587817828566,0.500080481110128,-0.790587817809835,-0.178634482985735,-0.135911561347035
63,-0.180337661124231,-0.135159868655908,0.493769446586797,-0.794001338441729,0.493769446563872,-0.794001338421351,-0.180645475498847,-0.135221904322725
