"Freq [GHz]","re(St(P1,P1)) []","im(St(P1,P1)) []","re(St(P1,P2)) []","im(St(P1,P2)) []","re(St(P2,P1)) []","im(St(P2,P1)) []","re(St(P2,P2)) []","im(St(P2,P2)) []"
0,0.00813212474531611,0,0.991883012335165,0,0.991882991234888,0,0.00813210230683126,0
0.5,0.00872425093683304,0.00132127590585185,0.991216617571201,-0.00914365913329718,0.991216616668922,-0.00914366040384884,0.00872454496833441,0.00131981925952651
1,0.00920364675512531,0.0019748257698744,0.990547478050944,-0.0176046555238187,0.990547478602084,-0.0176046558711516,0.00920438111087485,0.00197150051711148
1.5,0.00953736639937475,0.00250354029847166,0.989882239287644,-0.0261219159503714,0.989882239667895,-0.0261219163355637,0.00953849685323416,0.00249828670401797
2,0.00975264023323152,0.00300062990244143,0.98914187926573,-0.0344559037166992,0.989141879504649,-0.0344559040754202,0.00975405170560162,0.00299325713638154
2.5,0.00991273967609807,0.00350882191373358,0.988374567463662,-0.0426617126007081,0.988374567600632,-0.0426617129038505,0.00991431574544421,0.00349926670688561
3,0.0100511517215804,0.00403251919973702,0.987590059715707,-0.0507864884674101,0.987590059783419,-0.0507864887077076,0.0100528120167627,0.00402076325417067
3.5,0.010184278071629,0.00456869772315738,0.986781009729428,-0.0588604870524119,0.986781009751052,-0.05886048723284,0.0101859681104859,0.00455473389157657
4,0.010320453043031,0.0051137370423735,0.985935502087176,-0.0669001183668172,0.985935502078251,-0.0669001184941891,0.0103221333704451,0.00509755834450587
4.5,0.010464156024139,0.00566465996065091,0.985042243445713,-0.0749128870823137,0.985042243416601,-0.074912887164432,0.0104657953803819,0.0056462563729891
5,0.0106179274892845,0.00621918225143236,0.984092067771401,-0.0829011437071978,0.984092067729169,-0.0829011437517684,0.0106194988085205,0.00619854000587594
5.5,0.0107832760834551,0.00677555702996369,0.98307800265096,-0.0908644209487628,0.98307800260064,-0.0908644209630838,0.0107847541154641,0.00675265869579622
6,0.0109611313899092,0.00733242333549722,0.981994904855975,-0.0988007764619914,0.98199490480136,-0.0988007764529097,0.0109624912259457,0.00730724811998229
6.5,0.0111520819931607,0.0078886924628554,0.980839043240291,-0.106707537035117,0.980839043184431,-0.10670753700912,0.0111532981028581,0.0078612165483305
7,0.0113565067228679,0.00844346814232022,0.97960774443798,-0.114581703708844,0.979607744383498,-0.114581703672122,0.0113575522884471,0.008413665006334
7.5,0.011574650109227,0.00899599138603291,0.978299120745087,-0.122420169723848,0.978299120694371,-0.122420169682385,0.0115754965386613,0.00896383209377971
8,0.0118066673866911,0.00954560229135382,0.976911869737749,-0.130219836205651,0.976911869693086,-0.130219836165284,0.0118072839386026,0.00951105576324762
8.5,0.0120526522043127,0.0100917133288476,0.975445129259558,-0.137977672211387,0.975445129223214,-0.137977672177843,0.0120530056853912,0.0100547465893115
9,0.0123126541609571,0.0106337904233071,0.973898373027515,-0.145690744608659,0.973898373001787,-0.145690744587591,0.01231270867249,0.0105943688368466
9.5,0.0125866901604984,0.0111713393718387,0.972271335386648,-0.153356231702659,0.972271335373905,-0.15335623169966,0.0125864068797198,0.0111294268714985
10,0.0128747519047301,0.0117038959629383,0.970563956810834,-0.160971428225105,0.970563956813533,-0.160971428245721,0.0128740888921467,0.0116594552751437
10.5,0.0131964044540774,0.0122092495651618,0.968902479631262,-0.168716059012183,0.968902479631013,-0.168716059031929,0.0131952715472058,0.012162486180701
11,0.0135300806253232,0.0127039181677002,0.9671784332603,-0.176425660785425,0.967178433257203,-0.176425660804174,0.0135284444842987,0.0126548212194644
11.5,0.0138753322422548,0.0131876082156444,0.965393364378911,-0.184100217057353,0.96539336437308,-0.184100217074993,0.0138731583799982,0.0131361671205159
12,0.0142317055239822,0.0136600495620063,0.963548730528675,-0.191739799952621,0.963548730520234,-0.191739799969056,0.0142289583184086,0.0136062540989901
12.5,0.014598742512145,0.0141209952954062,0.961645897458498,-0.199344557577472,0.961645897447578,-0.199344557592621,0.0145953852236382,0.0140648356813928
13,0.0149759824506052,0.0145702214731402,0.959686137940599,-0.206914701903897,0.959686137927339,-0.206914701917696,0.0149719772444134,0.0145116884359409
13.5,0.0153629631113337,0.0150075267661975,0.957670631883608,-0.214450497303384,0.957670631868151,-0.214450497315778,0.0153582710845208,0.01494661161456
14,0.0157592220610254,0.0154327320232697,0.955600467567982,-0.221952249830789,0.955600467550474,-0.221952249841744,0.0157538032735935,0.0153694267135738
14.5,0.016164297863786,0.015845679760899,0.953476643831516,-0.229420297327693,0.953476643812104,-0.229420297337183,0.0161581113735795,0.0157799769603573
15,0.0165777312160788,0.0162462335872329,0.951300073039547,-0.236855000386699,0.95130007301838,-0.236855000394712,0.0165707351170733,0.0161781267333729
15.5,0.0169990660109003,0.0166342775667756,0.949071584684319,-0.244256734194213,0.949071584661542,-0.244256734200749,0.0169912174744765,0.0165637609231031
16,0.0174278503289518,0.0170097155336495,0.946791929470189,-0.251625881248868,0.946791929445947,-0.251625881253934,0.0174191056477614,0.016936784241385
16.5,0.0178636373552992,0.0173724703607012,0.94446178375492,-0.258962824936269,0.944461783729357,-0.258962824939884,0.0178539519893386,0.0172971204865282
17,0.0183059862207292,0.0177224831916654,0.942081754231637,-0.266267943927593,0.942081754204889,-0.266267943929786,0.0182953148452398,0.017644711771486
17.5,0.0187544627676475,0.0180597126433868,0.939652382750472,-0.27354160735964,0.939652382722674,-0.273541607360441,0.018742759322493,0.0179795177220896
18,0.0192086402410038,0.0183841339848274,0.937174151193138,-0.280784170746797,0.937174151164418,-0.28078417074625,0.019195857981165,0.0183015146521095
18.5,0.0196680999052241,0.0186957382992354,0.934647486327151,-0.287995972570753,0.934647486297636,-0.287995972568902,0.0196541914521006,0.0186106947215605
19,0.0201324315886885,0.0189945316355753,0.932072764579121,-0.295177331491126,0.932072764548929,-0.295177331488022,0.0201173489818962,0.0189070650843501
19.5,0.0206012341576874,0.0192805341548432,0.929450316678074,-0.302328544119374,0.929450316647318,-0.30232854411507,0.0205849289070634,0.0191906470309451
20,0.0210741159221807,0.0195537792765761,0.92678043213027,-0.309449883298819,0.926780432099059,-0.309449883293373,0.0210565390597494,0.01946147513135
20.5,0.021550694976029,0.0198143128303541,0.924063363496228,-0.316541596835269,0.924063363464664,-0.316541596828741,0.0215317971076776,0.0197195963832415
21,0.0220305994746103,0.0200621922167652,0.921299330448798,-0.323603906625085,0.921299330416977,-0.323603906617537,0.0220103308312722,0.0199650693697211
21.5,0.0225134678529842,0.0202974855817759,0.918488523598116,-0.330637008130609,0.91848852356613,-0.330637008122103,0.0224917783411304,0.0201979634306448
22,0.0229989489879076,0.0205202710080927,0.915631108075197,-0.33764107015624,0.915631108043129,-0.337641070146841,0.0229757882391873,0.0204183578511228
22.5,0.0234867023071575,0.0207306357266381,0.91272722687088,-0.344616234882096,0.912727226838812,-0.344616234871867,0.023462019727037,0.0206263410703174
23,0.0239763978496793,0.0209286753508748,0.909777003930935,-0.351562618115908,0.90977700389894,-0.351562618104915,0.0239501426649578,0.0208220099132648
23.5,0.0244677162801304,0.0211144931362941,0.90678054701138,-0.358480309727549,0.906780546979528,-0.358480309715854,0.0244398375852324,0.0210054688480676
24,0.0249603488613941,0.0212881992670633,0.903737950300683,-0.3653693742342,0.903737950269037,-0.365369374221866,0.0249307956633354,0.0211768292703725
24.5,0.0254539973886053,0.0214499101713281,0.900649296817464,-0.372229851507672,0.900649296786083,-0.37222985149476,0.025422718650616,0.0213362088167948
25,0.0259483740881948,0.0215997478665746,0.89751466059379,-0.379061757578693,0.89751466056273,-0.379061757565265,0.0259153187718839,0.0214837307084335
25.5,0.0264432014853603,0.0217378393358425,0.894334108655165,-0.385865085516046,0.894334108624475,-0.38586508550216,0.0264083185914408,0.0216195231255192
26,0.026938212243285,0.0218643159355405,0.891107702808945,-0.392639806361289,0.891107702778672,-0.392639806347003,0.0269014508508152,0.0217437186137739
26.5,0.0274331489773021,0.0219793128351953,0.887835501253264,-0.399385870102421,0.887835501223448,-0.399385870087791,0.0273944582814475,0.0218564535228754
27,0.02792776404708,0.0220829684893034,0.884517560018636,-0.406103206672192,0.884517559989316,-0.406103206657271,0.0278870933953946,0.021957867477169
27.5,0.0284218193297475,0.0221754241411862,0.8811539342543,-0.412791726958897,0.88115393422551,-0.412791726943738,0.0283791182569942,0.0220481028785194
28,0.0289150859767419,0.022256823358586,0.87774467937108,-0.41945132381944,0.877744679342851,-0.419451323804092,0.0288703042382724,0.0221273044410315
28.5,0.029407344156986,0.0223273116005451,0.874289852052194,-0.426081873086071,0.874289852024554,-0.426081873070581,0.0293604317607182,0.0221956187571817
29,0.0298983827888614,0.022387035814973,0.87078951114293,-0.432683234559787,0.870789511115903,-0.432683234544201,0.0298492900258863,0.0222531938947426
29.5,0.0303879992632569,0.0224361440661693,0.8672437184296,-0.439255252984627,0.867243718403207,-0.43925525296899,0.0303366767371231,0.0223001790237668
30,0.0308759991598246,0.0224747851914486,0.863652539317608,-0.445797758998295,0.863652539291868,-0.445797758982648,0.0308223978145469,0.022336724072771
30.5,0.0313621959584054,0.0225031084859526,0.860016043417851,-0.452310570055484,0.860016043392781,-0.452310570039866,0.0313062671052546,0.0223629794131834
31,0.0318464107474281,0.0225212634146024,0.856334305050096,-0.458793491321194,0.85633430502571,-0.458793491305644,0.0317881060905461,0.0223790955710169
31.5,0.0323284719309252,0.0225293993501487,0.852607403671352,-0.465246316532019,0.852607403647661,-0.465246316516571,0.0322677435918336,0.0223852229647019
32,0.0328082149356655,0.0225276653361792,0.84883542423667,-0.471668828824017,0.848835424213684,-0.471668828808705,0.032745015476718,0.0223815116679369
32.5,0.0332854819197495,0.0225162098739312,0.84501845749924,-0.478060801526334,0.845018457476965,-0.478060801511189,0.0332197643665884,0.0223681111964013
33,0.0337601214838785,0.0224951807317356,0.84115660025608,-0.484421998920151,0.841156600234525,-0.484421998905205,0.0336918393469547,0.022345170317142
33.5,0.0342319883863754,0.0224647247759079,0.837249955545134,-0.490752176962926,0.837249955524302,-0.490752176948206,0.0341610956815869,0.0223128368794453
34,0.0347009432629056,0.0224249878218873,0.833298632799029,-0.49705108397818,0.833298632778921,-0.49705108396371,0.0346273945314132,0.0222712576659921
34.5,0.0351668523517321,0.0223761145044494,0.829302747960339,-0.503318461311345,0.829302747940957,-0.503318461297152,0.0350906026790038,0.0222205782631131
35,0.0356295872252261,0.022318248165822,0.825262423562747,-0.509554043952378,0.825262423544093,-0.509554043938485,0.0355505922593708,0.0221609429489686
35.5,0.036089024528247,0.0222515307605512,0.821177788782071,-0.515757561125995,0.82117778876414,-0.515757561112423,0.0360072404976816,0.0220924945984957
36,0.036545045723918,0.0221761027760018,0.817048979460754,-0.521928736850504,0.817048979443545,-0.521928736837272,0.0364604294544198,0.0220153746040003
36.5,0.0369975368472236,0.0220921031673897,0.812876138109104,-0.528067290466311,0.812876138092613,-0.528067290453438,0.0369100457784171,0.0219297228102971
37,0.0374463882667801,0.0219996693062933,0.808659413886182,-0.534172937135231,0.808659413870405,-0.534172937122733,0.037355980468098,0.0218356774633206
37.5,0.0378914944550526,0.0218989369416173,0.804398962563006,-0.540245388311764,0.804398962547937,-0.540245388299657,0.037798128641218,0.0217333751712049
38,0.0383327537672229,0.0217900401720267,0.80009494647043,-0.546284352187545,0.800094946456063,-0.546284352175845,0.0382363893132889,0.0216229508768203
38.5,0.0387700682288518,0.0216731114289037,0.795747534433832,-0.552289534110167,0.795747534420159,-0.552289534098885,0.0386706651848351,0.0215045378408353
39,0.0392033433324232,0.0215482814689273,0.791356901696503,-0.558260636977569,0.791356901683516,-0.558260636966718,0.0391008624375654,0.021378267634394
39.5,0.0396324878427998,0.0214156793754162,0.786923229833452,-0.564197361609191,0.786923229821143,-0.564197361598782,0.0395268905394895,0.0212442701405507
40,0.0400574136115855,0.0212754325676202,0.782446706657119,-0.570099407095041,0.78244670664548,-0.570099407085084,0.0399486620589675,0.021102673563637
40.5,0.0404780354003456,0.021127666817182,0.777927526116367,-0.575966471123822,0.777927526105387,-0.575966471114325,0.0403660924876435,0.020953604445799
41,0.0408942707125909,0.0209725062710421,0.77336588818992,-0.581798250291214,0.773365888179588,-0.581798250282185,0.0407791000721675,0.020797187689956
41.5,0.0413060396344183,0.0208100734800991,0.768761998775332,-0.587594440389377,0.768761998765638,-0.587594440380824,0.041187605654594,0.0206335465885058
42,0.0417132646836567,0.0206404894329714,0.764116069574405,-0.59335473667871,0.764116069565339,-0.593354736670638,0.041591532521304,0.0204628028571207
42.5,0.0421158706673541,0.020463873594264,0.759428317975886,-0.599078834142827,0.759428317967436,-0.599078834135241,0.0419908062602857,0.020285076673029
43,0.0425137845474181,0.0202803439467598,0.754698966936167,-0.604766427727723,0.754698966928322,-0.604766427720628,0.0423853546265796,0.0201004867172113
43.5,0.0429069353142032,0.0200900170370164,0.749928244858626,-0.610417212566003,0.749928244851374,-0.610417212559403,0.0427751074156885,0.0199091502199853
44,0.0432952538678326,0.0198930080238687,0.74511638547216,-0.616030884187046,0.745116385465489,-0.616030884180943,0.0431599963447238,0.019711183009485
44.5,0.0436786729070195,0.0196894307293807,0.740263627709398,-0.621607138713915,0.740263627703295,-0.621607138708312,0.0435399549410664,0.0195066995625688
45,0.0440571268251534,0.0194793976918204,0.735370215585016,-0.627145673047782,0.735370215579469,-0.627145673042681,0.0439149184382957,0.0192958130577474
45.5,0.0444305516134048,0.0192630202202704,0.730436398074509,-0.632646185040608,0.730436398069506,-0.63264618503601,0.044284823679143,0.01907863542972
46,0.0447988847706069,0.0190404084505045,0.725462428993746,-0.638108373656767,0.725462428989272,-0.638108373652673,0.0446496090252215,0.018855277425177
46.5,0.0451620652196459,0.0188116714018056,0.720448566879557,-0.64353193912427,0.720448566875601,-0.643531939120679,0.0450092142732744,0.0186258486595203
47,0.0455200332301272,0.0185769170344143,0.715395074871603,-0.648916583076203,0.715395074868153,-0.648916583073116,0.0453635805776912,0.0183904576742069
47.5,0.0458727303470475,0.0183362523073285,0.710302220595704,-0.654262008682985,0.710302220592744,-0.654262008680399,0.0457126503790325,0.018149211994434
48,0.0462200993252284,0.0180897832362034,0.705170276048778,-0.659567920775953,0.705170276046298,-0.659567920773869,0.0460563673383154,0.0179022181869102
48.5,0.0465620840692599,0.0178376149511206,0.699999517485562,-0.664834025962846,0.699999517483547,-0.664834025961261,0.0463946762768052,0.0176495819174838
49,0.0468986295787072,0.0175798517540081,0.694790225307171,-0.670060032735627,0.694790225305609,-0.670060032734539,0.0467275231210644,0.0173914080084195
49.5,0.0472296818983347,0.0173165971755335,0.689542683951629,-0.675245651571135,0.689542683950506,-0.675245651570542,0.0470548548530182,0.0171278004951318
50,0.0475551880731154,0.0170479540312908,0.684257181786409,-0.680390595024983,0.684257181785713,-0.680390595024881,0.0473766194647968,0.0168588626822081
50.5,0.0478750961077851,0.0167740244771313,0.678934011003049,-0.685494577819109,0.678934011002766,-0.685494577819496,0.0476927659181163,0.01658469719857
51,0.0481893549307174,0.0164949100635034,0.673573467513878,-0.690557316923364,0.673573467513996,-0.690557316924237,0.0480032441079745,0.0163054060516304
51.5,0.0484979143618946,0.0162107117886742,0.668175850850877,-0.695578531631496,0.668175850851382,-0.69557853163285,0.0483080048304398,0.0160210906803376
52,0.0488007250847691,0.0159215301507408,0.662741464066683,-0.700557943631854,0.662741464067564,-0.700557943633685,0.0486069997543113,0.0157318520069906
52.5,0.0490977386217876,0.015627465198314,0.657270613637758,-0.705495277073145,0.657270613639,-0.705495277075449,0.0489001813964466,0.0154377904877365
53,0.0493889073133936,0.015328616579817,0.651763609369693,-0.710390258625527,0.651763609371284,-0.7103902586283,0.0491875031005519,0.0151390061616691
53.5,0.0496741843003059,0.0150250835913154,0.646220764304663,-0.715242617537316,0.646220764306592,-0.715242617540552,0.0494689190192396,0.0148355986984606
54,0.0499535235088779,0.0147169652228183,0.640642394631005,-0.720052085687577,0.640642394633258,-0.720052085691272,0.0497443840991633,0.0145276674444632
54.5,0.0502268796393702,0.0144043602030083,0.63502881959489,-0.724818397634833,0.635028819597455,-0.72481839763898,0.0500138540690484,0.0142153114672362
55,0.0504942081569476,0.0140873670423532,0.62938036141408,-0.72954129066212,0.629380361416945,-0.729541290666716,0.0502772854304462,0.0138986295984547
55.5,0.0507554652852395,0.013766084074561,0.623697345193733,-0.734220504818625,0.623697345196886,-0.734220504823663,0.0505346354510371,0.0135777204751648
56,0.0510106080023027,0.0134406094963653,0.617980098844223,-0.738855782958071,0.617980098847652,-0.738855782963546,0.0507858621603281,0.0132526825793651
56.5,0.0512595940388275,0.0131110414056079,0.612228953000944,-0.743446870774077,0.612228953004637,-0.743446870779983,0.051030924347586,0.0129236142758917
57,0.0515023818784449,0.0127774778376116,0.606444240946062,-0.747993516832648,0.606444240950007,-0.747993516838978,0.0512697815618604,0.0125906138485933
57.5,0.0517389307599865,0.0124400167998356,0.600626298532182,-0.752495472601964,0.600626298536368,-0.752495472608713,0.0515023941139506,0.0122537795347896
58,0.051969200681568,0.0120987563048041,0.59477546410788,-0.756952492479637,0.594775464112295,-0.756952492486799,0.0517287230801883,0.0119132095580128
58.5,0.052193152406361,0.0117537944013182,0.588892078445079,-0.761364333817573,0.588892078449713,-0.761364333825141,0.0519487303078977,0.0115690021590283
59,0.0524107474699341,0.0114052292039479,0.582976484668216,-0.765730756944574,0.582976484673057,-0.765730756952542,0.0521623784224209,0.0112212556251457
59.5,0.0526219481890442,0.0110531589208188,0.577029028185163,-0.770051525186829,0.5770290281902,-0.770051525195189,0.0523696308355774,0.0108700683178259
60,0.0528267176717643,0.0106976818797001,0.571050056619872,-0.774326404886388,0.571050056625095,-0.774326404895135,0.0525704517554574,0.0105155386985985
60.5,0.0530250198288412,0.0103388965524138,0.56503991974669,-0.77855516541777,0.565039919752088,-0.778555165426896,0.0527648061974376,0.0101577653533029
61,0.0532168193861855,0.00997690157758013,0.558998969426325,-0.782737579202773,0.558998969431887,-0.782737579212272,0.0529526599963167,0.0097968470146737
61.5,0.053402081898389,0.00961179578171845,0.552927559543398,-0.786873421723626,0.552927559549114,-0.78687342173349,0.0531339798194759,0.00943288258328695
62,0.0535807737631874,0.00924367819872213,0.546826045945574,-0.790962471534549,0.546826045951435,-0.790962471544772,0.053308733180973,0.00906597114689006
62.5,0.0537528622367712,0.00887264808773763,0.540694786384208,-0.795004510271834,0.540694786390203,-0.795004510282408,0.0534768884564817,0.00869621199814113
63,0.053918315449872,0.00849880494946709,0.534534140456491,-0.79899932266252,0.53453414046261,-0.798999322673438,0.0536384148989953,0.00832370465077853
63.5,0.0540771024245313,0.00812224854091775,0.528344469549036,-0.802946696531741,0.528344469555271,-0.802946696542996,0.0537932826552149,0.00794854885424989
64,0.0542291930914985,0.00774307888863307,0.522126136782906,-0.806846422808838,0.522126136789246,-0.806846422820423,0.0539414627825455,0.00757084460682561
