"Freq [GHz]","re(St(P1,P1)) []","im(St(P1,P1)) []","re(St(P1,P2)) []","im(St(P1,P2)) []","re(St(P2,P1)) []","im(St(P2,P1)) []","re(St(P2,P2)) []","im(St(P2,P2)) []"
0,0.00383674167147774,0,0.996176075714175,0,0.996176075379481,0,0.00383674094547359,0
0.5,0.00416745582956679,0.0013963589499788,0.995797094198728,-0.00450501823425142,0.995797094156956,-0.00450501830269801,0.00416743074034542,0.00139634624015628
1,0.00449456155766015,0.00236844219896426,0.995361197992398,-0.00857398846609669,0.995361197994832,-0.00857398837771228,0.00449452011848805,0.0023684531042214
1.5,0.00458027988436349,0.00316075241299529,0.995050872039883,-0.0127189624856747,0.995050872061409,-0.0127189623789832,0.00458024454932371,0.00316076292635259
2,0.00462614823108254,0.00402312605921651,0.994688384905642,-0.0167433164256039,0.994688384941652,-0.0167433163181485,0.00462611193929874,0.00402313609954064
2.5,0.00466357398910322,0.00491846597081746,0.99430711388567,-0.0206584595765626,0.994307113929071,-0.0206584594800958,0.00466353342432413,0.00491847730549466
3,0.00470096288687305,0.00583266211289413,0.993925486804592,-0.0244862163710007,0.993925486849072,-0.0244862162913151,0.00470091588489119,0.00583267688907796
3.5,0.00474133708907454,0.00675955788854132,0.993550021828143,-0.0282494118829604,0.993550021869486,-0.0282494118215428,0.00474128192928402,0.00675957852615383
4,0.00478603156223745,0.00769623687697774,0.99318013004055,-0.0319673628259025,0.993180130076587,-0.0319673627817103,0.00478596673289244,0.00769626609614171
4.5,0.0048357445379752,0.0086412909837108,0.992811945326918,-0.0356547289862572,0.992811945356966,-0.035654728957061,0.00483566864636042,0.00864133183924842
5,0.00489090293298244,0.00959409070441808,0.992440638817623,-0.0393219394992403,0.992440638841879,-0.0393219394824218,0.0048908146681339,0.00959414661478419
5.5,0.00495180937264683,0.0105544431065301,0.992061567284046,-0.0429760986258536,0.992061567303148,-0.042976098618837,0.00495170748994367,0.0105545178782815
6,0.00501870831584661,0.0115224176706352,0.991670725387793,-0.046621879526354,0.991670725402541,-0.0466218795268247,0.00501859163184659,0.011522515520646
6.5,0.00509181861292785,0.0124982516248666,0.991264844104302,-0.050262247039071,0.991264844115503,-0.0502622470450262,0.00509168600556187,0.0124983772017702
7,0.00517135084871911,0.0134822957663827,0.990841335289105,-0.053898993261047,0.990841335297496,-0.0538989932708214,0.00517120126066506,0.0134824541723368
7.5,0.00525751729013757,0.0144749821840948,0.990398184644247,-0.0575331170946916,0.990398184650473,-0.0575331171069111,0.00525734973434899,0.0144751789974835
8,0.00535053803721386,0.0154768044470002,0.989933839638336,-0.0611650868052562,0.989933839642941,-0.0611650868188072,0.00535035160410557,0.0154770457465903
8.5,0.00545064514456139,0.0164883052059688,0.989447110487894,-0.0647950192429638,0.989447110491329,-0.0647950192569562,0.00545043901064568,0.0164885975968456
9,0.00555808563069926,0.0175100683786305,0.988937089039269,-0.0684228012671966,0.988937089041905,-0.0684228012809092,0.00555785906861334,0.0175104190202404
9.5,0.00567312387606816,0.018542714268956,0.988403084838014,-0.0720481716448775,0.988403084840156,-0.0720481716577446,0.00567287626602558,0.0185431309054724
10,0.00579604369631054,0.019586896629006,0.987844575769435,-0.0756707761101838,0.987844575771333,-0.0756707761217594,0.00579577453905517,0.0195873876223116
10.5,0.00596853873908693,0.0205523722020793,0.987319091234732,-0.0793016249930005,0.987319091235979,-0.0793016250046126,0.0059682826921591,0.0205529045446458
11,0.00614919756219751,0.0215158464032852,0.986780164144728,-0.0829175192425309,0.986780164145344,-0.0829175192541385,0.00614895591049719,0.0215164224455195
11.5,0.00633798534555671,0.0224772305367615,0.986228600227854,-0.0865189098821793,0.986228600227864,-0.0865189098937504,0.00633775946144896,0.0224778527159968
12,0.00653486587194796,0.0234364367888054,0.985665125257439,-0.0901062826903605,0.985665125256863,-0.0901062827018579,0.00653465721826707,0.0234371076260329
12.5,0.00673980155552023,0.0243933782592025,0.985090387024325,-0.0936801484281045,0.985090387023191,-0.0936801484395025,0.00673961168844837,0.0243941003557122
13,0.00695275347117701,0.0253479689915057,0.984504958223909,-0.097241034053769,0.984504958222241,-0.0972410340650396,0.00695258404298382,0.0253487450254459
13.5,0.00717368138478917,0.0263001240022214,0.983909340049716,-0.100789474946723,0.983909340047541,-0.100789474957841,0.00717353414643043,0.0263009567250592
14,0.00740254378419937,0.0272497593088561,0.983303966304988,-0.10432600813076,0.983303966302332,-0.104326008141706,0.00740242058777911,0.0272506515417579
14.5,0.00763929791096198,0.0281967919568129,0.982689207865345,-0.107851166463637,0.982689207862234,-0.107851166474396,0.00763920071204775,0.0281977465869567
15,0.00788389979278481,0.0291411400451254,0.982065377348249,-0.111365473740828,0.982065377344709,-0.111365473751384,0.00788383065257887,0.0291421600219475
15.5,0.0081363042766063,0.0300827227509952,0.981432733867367,-0.114869440648978,0.981432733863423,-0.114869440659318,0.0081362653639675,0.0300838110823669
16,0.00839646506227382,0.0310214603531378,0.980791487771397,-0.118363561496416,0.980791487767075,-0.118363561506531,0.00839645865559155,0.0310226201014916
16.5,0.00866433473676635,0.0319572742538785,0.980141805286754,-0.121848311644053,0.980141805282077,-0.121848311653929,0.00866436322568459,0.0319585085322918
17,0.00893986480891597,0.0328900870000415,0.979483813001446,-0.12532414555895,0.97948381299644,-0.125324145568585,0.00893993069590401,0.0328913989682627
17.5,0.00922300574457464,0.0338198223025876,0.978817602143294,-0.128791495414343,0.978817602137979,-0.12879149542373,0.00922311164634756,0.033821215163043
18,0.0095137070021805,0.0347464050549942,0.978143232619294,-0.132250770163118,0.978143232613692,-0.132250770172254,0.00951385565096943,0.0347478820487561
18.5,0.00981191706867734,0.0356697613503862,0.977460736794518,-0.135702355016248,0.97746073678865,-0.13570235502513,0.0098121113133411,0.0356713257531198
19,0.0101175834957248,0.0365898184973936,0.97677012299851,-0.13914661126302,0.976770122992396,-0.139146611271646,0.0101178263027152,0.0365914736152888
19.5,0.0104306529361649,0.0375065050347616,0.976071378754943,-0.142583876375595,0.976071378748601,-0.142583876383965,0.0104309473903408,0.0375082542004517
20,0.0107510711806928,0.0384197507446924,0.975364473736484,-0.146014464346408,0.975364473729932,-0.146014464354523,0.0107514204859772,0.0384215973131696
20.5,0.0110787831946723,0.039329486664915,0.974649362451573,-0.149438666212739,0.974649362444828,-0.1494386662206,0.0110791906745693,0.0393314340094486
21,0.0114137331550666,0.0402356450995174,0.9739259866734,-0.152856750728406,0.973925986666478,-0.152856750736016,0.0114142022530198,0.0402376966075724
21.5,0.0117558644874241,0.0411381596285167,0.973194277623896,-0.156268965147873,0.973194277616812,-0.156268965155232,0.0117563987670347,0.041140318697702
22,0.0121051199028728,0.0420369651161994,0.972454157927272,-0.159675536092969,0.972454157920041,-0.159675536100081,0.0121057230479727,0.0420392351502117
22.5,0.0124614414350899,0.0429319977182079,0.971705543348635,-0.163076670476906,0.971705543341269,-0.163076670483775,0.0124621172496676,0.0429343821228216
23,0.0128247704771874,0.0438231948874446,0.97094834433369,-0.166472556464297,0.970948344326203,-0.166472556470926,0.012825522885177,0.0438256970665187
23.5,0.0131950478184788,0.0447104953787338,0.970182467365571,-0.169863364449515,0.970182467357975,-0.169863364455908,0.0131958808634083,0.0447131187302556
24,0.0135722136810797,0.0455938392523132,0.969407816154542,-0.173249248038854,0.969407816146847,-0.173249248045015,0.0135731315255863,0.0455965871644883
24.5,0.0139562077563068,0.0464731678761448,0.968624292675782,-0.176630345024745,0.968624292667999,-0.176630345030678,0.0139572146815154,0.0464760437235241
25,0.0143469692408252,0.0473484239270814,0.967831798069766,-0.180006778342668,0.967831798061905,-0.180006778348379,0.0143480696456013,0.0473514310667431
25.5,0.0147444368725122,0.0482195513908725,0.967030233418913,-0.183378657003452,0.967030233410984,-0.183378657008944,0.0147456352725867,0.0482226931586589
26,0.0151485489660006,0.0490864955610868,0.966219500413294,-0.186746076995372,0.966219500405304,-0.186746077000649,0.0151498499929701,0.0490897752678943
26.5,0.0155592434478548,0.0499492030369277,0.965399501917255,-0.190109122151982,0.965399501909213,-0.190109122157049,0.0155606518480639,0.0499526239650647
27,0.0159764578913565,0.050807621719966,0.964570142447893,-0.193467864982812,0.964570142439806,-0.193467864987676,0.0159779785246635,0.0508111871195758
27.5,0.0164001295508555,0.0516617008098603,0.963731328575363,-0.196822367465061,0.96373132856724,-0.196822367469724,0.0164017673892862,0.0516654138954169
28,0.0168301953956619,0.0525113907990353,0.962882969254168,-0.20017268179531,0.962882969246013,-0.20017268179978,0.0168319555219541,0.0525152547459058
28.5,0.0172665921434381,0.0533566434663806,0.962024976093661,-0.203518851100915,0.962024976085483,-0.203518851105193,0.0172684797494837,0.0533606614074762
29,0.0177092562930723,0.0541974118699813,0.961157263575255,-0.206860910111283,0.961157263567058,-0.206860910115377,0.0177112766782574,0.0542015868924783
29.5,0.0181581241569956,0.0550336503389215,0.960279749223029,-0.21019888578971,0.960279749214819,-0.210198885793622,0.0181602827264452,0.0550379854810732
30,0.01861313189292,0.0558653144641752,0.959392353733768,-0.213532797926719,0.959392353725551,-0.213532797930454,0.0186154341556499,0.0558698127122046
30.5,0.0190742155349708,0.0566923610886276,0.958495001071813,-0.216862659696149,0.958495001063592,-0.216862659699713,0.0190766671019531,0.056697025373712
31,0.0195413110241895,0.0575147482962493,0.957587618533495,-0.220188478175416,0.957587618525276,-0.220188478178812,0.0195439176063364,0.057519581491595
31.5,0.0200143542383884,0.0583324354004675,0.956670136785437,-0.223510254831444,0.956670136777224,-0.223510254834676,0.0200171216444545,0.0583374403184775
32,0.0204932810213282,0.0591453829317408,0.955742489880468,-0.226827985973937,0.955742489872264,-0.226827985977011,0.0204962151557364,0.059150562321274
32.5,0.0209780272112038,0.0599535526243984,0.954804615254491,-0.230141663177623,0.954804615246302,-0.230141663180541,0.020981134071809,0.059958909168133
33,0.0214685286684248,0.060756907402763,0.953856453707254,-0.233451273675157,0.953856453699082,-0.233451273677924,0.021471814344204,0.0607624437146463
33.5,0.0219647213026641,0.0615554113665759,0.952897949369564,-0.236756800722364,0.952897949361412,-0.236756800724985,0.021968191971349,0.0615611299893859
34,0.0224665410991683,0.0623490297757967,0.951929049659255,-0.240058223937444,0.951929049651126,-0.240058223939921,0.0224702030248216,0.0623549331787943
34.5,0.0229739241443131,0.0631377290347608,0.950949705227848,-0.243355519615761,0.950949705219745,-0.243355519618099,0.02297778367485,0.0631438196114436
35,0.0234868066503892,0.0639214766757705,0.949959869899647,-0.246648661021748,0.949959869891573,-0.246648661023951,0.0234908702150553,0.0639277567417329
35.5,0.0240051249796163,0.0647002413421238,0.948959500604773,-0.249937618659427,0.948959500596732,-0.249937618661499,0.0240093990864153,0.0647067131330179
36,0.0245288156673626,0.0654739927706385,0.947948557307421,-0.253222360522952,0.947948557299413,-0.253222360524894,0.0245333069004519,0.065480658440233
36.5,0.0250578154445774,0.0662427017736704,0.946927002930475,-0.256502852328551,0.946927002922504,-0.256502852330367,0.025062530461623,0.0662495633920162
37,0.0255920612594173,0.0670063402207088,0.945894803277457,-0.259779057729119,0.945894803269524,-0.259779057730815,0.0255970067889214,0.0670133997724012
37.5,0.0261314902980697,0.0677648810195166,0.944851926952613,-0.263050938512717,0.944851926944721,-0.263050938514294,0.0261366731366682,0.0677721404020692
38,0.0266760400047634,0.0685182980969203,0.943798345279885,-0.266318454786061,0.943798345272035,-0.266318454787523,0.0266814670145037,0.0685257591192308
38.5,0.0272256481009687,0.0692665663792136,0.942734032221339,-0.269581565144144,0.942734032213533,-0.269581565145494,0.0272313262065655,0.0692742307601335
39,0.0277802526037801,0.0700096617722539,0.941658964295578,-0.272840226826931,0.941658964287818,-0.272840226828172,0.0277861887898604,0.0700175311392617
39.5,0.0283397918434915,0.0707475611412631,0.940573120496572,-0.27609439586411,0.940573120488859,-0.276094395865246,0.0283459931518232,0.0707556370292333
40,0.0289042044803488,0.071480242290364,0.939476482213246,-0.279344027208768,0.939476482205581,-0.279344027209799,0.0289106780070647,0.071488526140433
40.5,0.0294734295204958,0.0722076839418817,0.938369033150147,-0.282589074860799,0.938369033142533,-0.282589074861731,0.0294801824133152,0.0722161771004162
41,0.0300474063311153,0.0729298657154513,0.937250759249419,-0.285829491980832,0.937250759241857,-0.285829491981666,0.0300544457865604,0.0729385694331091
41.5,0.0306260746547574,0.0736467681069453,0.936121648614284,-0.289065230995359,0.936121648606774,-0.289065230996098,0.0306334079153763,0.0736556835378293
42,0.0312093746228742,0.0743583724672583,0.934981691434187,-0.29229624369375,0.934981691426731,-0.292296243694397,0.0312170089744694,0.0743675006681661
42.5,0.0317972467685603,0.0750646609809684,0.933830879911731,-0.295522481317754,0.93383087990433,-0.295522481318311,0.0318051895374248,0.0750740029107348
43,0.0323896320385071,0.0757656166449237,0.932669208191491,-0.298743894644049,0.932669208184146,-0.298743894644519,0.0323978905886744,0.0757751731638492
43.5,0.0329864718041762,0.0764612232467465,0.931496672290771,-0.301960434060385,0.931496672283483,-0.30196043406077,0.0329950535346838,0.076470995116116
44,0.0335877078722026,0.0771514653433167,0.930313270032351,-0.305172049635788,0.93031327002512,-0.305172049636091,0.0335966202143784,0.0771614532250036
44.5,0.0341932824940438,0.0778363282392298,0.929119000979247,-0.308378691185286,0.929119000972075,-0.308378691185509,0.0342025329088047,0.0778465326953854
45,0.0348031383748688,0.0785157979652729,0.927913866371507,-0.311580308329583,0.927913866364394,-0.311580308329729,0.0348127343500491,0.0785262194580965
45.5,0.0354172186817118,0.0791898612569371,0.926697869065012,-0.314776850550043,0.92669786905796,-0.314776850550113,0.0354271677294163,0.0792005001485294
46,0.0360354670508968,0.0798585055329804,0.925471013472306,-0.317968267239367,0.925471013465314,-0.317968267239364,0.0360457767048806,0.0798693620852704
46.5,0.0366578275947468,0.0805217188740837,0.924233305505387,-0.321154507748273,0.924233305498458,-0.321154507748199,0.036668505407825,0.0805327932488353
47,0.0372842449075853,0.081179490001593,0.922984752520479,-0.3243355214285,0.922984752513611,-0.324335521428356,0.0372952984490763,0.081190782260484
47.5,0.0379146640710491,0.0818318082563974,0.92172536326469,-0.327511257672399,0.921725363257886,-0.327511257672189,0.0379261009242518,0.0818433183611684
48,0.0385490306587249,0.0824786635779411,0.920455147824573,-0.33068166594939,0.920455147817832,-0.330681665949115,0.0385608584184303,0.0824903913906163
48.5,0.0391872907401179,0.0831200464833974,0.919174117576493,-0.333846695839508,0.919174117569815,-0.33384669583917,0.0391995170101612,0.0831319917665703
49,0.0398293908839752,0.0837559480470214,0.917882285138784,-0.337006297064267,0.917882285132171,-0.337006297063868,0.0398420232748259,0.083768110464207
49.5,0.0404752781609726,0.0843863598797037,0.916579664325634,-0.340160419515055,0.916579664319085,-0.340160419514597,0.040488324287364,0.0843987389957499
50,0.0411249001457812,0.0850112741087303,0.915266270102639,-0.343309013279223,0.915266270096155,-0.343309013278708,0.0411383676243863,0.0850238693902894
50.5,0.0417782049185343,0.085630683357774,0.913942118543982,-0.346452028664076,0.913942118537564,-0.346452028663505,0.0417921013656792,0.0856434941738369
51,0.0424351410656987,0.0862445807271315,0.912607226791184,-0.349589416218889,0.912607226784832,-0.349589416218265,0.0424494740951252,0.0862576063496079
51.5,0.0430956576803773,0.0868529597742169,0.911261613013356,-0.352721126755132,0.911261613007069,-0.352721126754457,0.0431104349010529,0.0868661993785764
52,0.0437597043620569,0.0874558144943239,0.909905296368918,-0.355847111365018,0.909905296362698,-0.355847111364293,0.0437749333760232,0.0874692671602822
52.5,0.0444272312158116,0.0880531393016771,0.908538296968727,-0.3589673214385,0.908538296962573,-0.358967321437725,0.0444429196160884,0.0880668040139337
53,0.0450981888509822,0.0886449290107801,0.907160635840546,-0.362081708678844,0.907160635834459,-0.362081708678023,0.0451143442195167,0.0886588046597953
53.5,0.0457725283793506,0.0892311788180635,0.905772334894826,-0.365190225116884,0.905772334888806,-0.365190225116018,0.0457891582850137,0.0892452642008882
54,0.0464502014128195,0.0898118842838599,0.904373416891728,-0.368292823124047,0.904373416885776,-0.368292823123136,0.0464673134094549,0.0898261781049974
54.5,0.0471311600606201,0.0903870413147029,0.902963905409356,-0.371389455424246,0.902963905403471,-0.371389455423294,0.0471487616851403,0.0904015421870144
55,0.047815356926058,0.090956646145964,0.901543824813132,-0.374480075104733,0.901543824807315,-0.374480075103741,0.0478334556965918,0.090971352591608
55.5,0.0485027451028228,0.0915206953248349,0.900113200226288,-0.377564635625978,0.900113200220539,-0.377564635624946,0.0485213485169112,0.0915356057762435
56,0.0491932781708635,0.0920791856936621,0.898672057501413,-0.380643090830642,0.898672057495731,-0.380643090829573,0.0492123937037098,0.0920942984945458
56.5,0.0498869101918646,0.0926321143736488,0.897220423193015,-0.383715394951735,0.897220423187401,-0.383715394950629,0.0499065452946313,0.0926474277800328
57,0.050583595704322,0.0931794787489129,0.895758324531066,-0.386781502619987,0.895758324525519,-0.386781502618847,0.0506037578024814,0.0931949909302002
57.5,0.0512832897182489,0.093721276450928,0.894285789395474,-0.389841368870511,0.894285789389995,-0.389841368869338,0.0513039862099818,0.0937369854909923
58,0.0519859477095158,0.0942575053433411,0.892802846291456,-0.392894949148809,0.892802846286045,-0.392894949147603,0.0520071859641622,0.0942734092416345
58.5,0.0526915256138509,0.0947881635071688,0.891309524325765,-0.395942199316148,0.891309524320422,-0.395942199314913,0.0527133129704108,0.0948042601798609
59,0.0533999798205104,0.095313249226386,0.88980585318374,-0.398983075654389,0.889805853178465,-0.398983075653124,0.0534223235861933,0.0953295365075161
59.5,0.0541112671656355,0.0958327609739051,0.888291863107139,-0.402017534870259,0.888291863101931,-0.402017534868966,0.0541341746144605,0.0958492366165542
60,0.0548253449253144,0.096346697397949,0.886767584872734,-0.405045534099157,0.886767584867595,-0.405045534097838,0.0548488232967612,0.0963633590754263
60.5,0.0555421708083633,0.096855057308819,0.885233049771619,-0.408067030908489,0.885233049766547,-0.408067030907145,0.055566227306068,0.0968719026158661
61,0.0562617029488369,0.0973578396660654,0.883688289589209,-0.411081983300585,0.883688289584204,-0.411081983299217,0.0562863447393402,0.097374866120068
61.5,0.0569838998982932,0.0978550435660569,0.882133336585908,-0.414090349715214,0.882133336580971,-0.414090349713822,0.0570091341098345,0.0978722486082717
62,0.0577087206178179,0.0983466682299534,0.880568223478404,-0.417092089031743,0.880568223473534,-0.417092089030329,0.0577345543391761,0.0983640492267395
62.5,0.0584361244698277,0.0988327129920773,0.878992983421571,-0.420087160570949,0.878992983416768,-0.420087160569516,0.0584625647492094,0.0988502672361384
63,0.059166071209667,0.0993131772886935,0.877407649990954,-0.423075524096514,0.877407649986218,-0.423075524095061,0.0591931250536401,0.099330902000325
63.5,0.0598985209770069,0.099788060647188,0.875812257165809,-0.42605713981622,0.87581225716114,-0.426057139814749,0.0599261953494802,0.0998059529755285
64,0.0606334342870711,0.100257362675652,0.874206839312683,-0.429031968382878,0.87420683930808,-0.42903196838139,0.060661736108317,0.100275419699936
