"Freq [GHz]","re(St(P1,P1)) []","im(St(P1,P1)) []","re(St(P1,P2)) []","im(St(P1,P2)) []","re(St(P2,P1)) []","im(St(P2,P1)) []","re(St(P2,P2)) []","im(St(P2,P2)) []"
0,0.00289482783233552,0,0.997115939462674,0,0.997115937032504,0,0.002894831446838,0
0.5,0.00321681743059088,0.000690494196113889,0.9967098757798,-0.00470408479910844,0.996709875890687,-0.00470408501327313,0.00321673267926315,0.000690703785082292
1,0.00350583974413965,0.000952706765303901,0.996211391124266,-0.00894803555490142,0.996211391230165,-0.00894803601190119,0.00350559939490935,0.000953222983412161
1.5,0.0033387463994341,0.00132367722284243,0.995866162857359,-0.0132741378598205,0.995866162944161,-0.0132741384234123,0.00333866979754482,0.00132479063523405
2,0.00318005072741023,0.00163302392090614,0.995434064738014,-0.0174619125646238,0.995434064799796,-0.0174619131430198,0.00317994751675066,0.00163478855452581
2.5,0.003046838061743,0.00190580197470425,0.994947927909864,-0.0215115464888349,0.994947927944644,-0.021511547013489,0.00304657043362155,0.00190816120631965
3,0.0029413870802486,0.00216294063341849,0.994434001763666,-0.0254387660534263,0.994434001773596,-0.0254387664856424,0.002940891333572,0.00216580891947871
3.5,0.00285986160872476,0.00241851214429367,0.99391005320883,-0.029266134583267,0.993910053198869,-0.029266134909804,0.00285912398288657,0.00242181698403243
4,0.00279702235332913,0.00268139164483472,0.993386140163961,-0.0330167653102418,0.993386140140122,-0.0330167655349332,0.00279605373282399,0.00268508441322801
4.5,0.00274800532472019,0.00295735642052009,0.992866534106434,-0.0367109608120408,0.992866534074451,-0.0367109609480334,0.00274682553979355,0.00296141043006237
5,0.00270873373788461,0.00325059359692048,0.992351725139673,-0.04036502824761,0.992351725104279,-0.040365028311788,0.00270736370612368,0.00325499921640926
5.5,0.00267583125723281,0.00356463242267324,0.991840028402025,-0.0439913246267132,0.99184002836673,-0.0439913246363055,0.00267428965037575,0.00356939273919288
6,0.00264639567544034,0.00390290573877472,0.991328696397638,-0.0475988342703833,0.991328696364798,-0.0475988342412457,0.00264469783586874,0.00390803353597491
6.5,0.00261775300308131,0.00426910713886564,0.990814613702603,-0.0511938790040265,0.990814613673607,-0.0511938789498831,0.0026159108699606,0.00427462310505433
7,0.0025872168513692,0.00466744935680019,0.990294692775278,-0.0547807751866678,0.990294692750776,-0.0547807751189993,0.00258523928924237,0.00467338127488937
7.5,0.00255184266582975,0.00510288698551964,0.989766076143659,-0.0583623731363749,0.989766076123758,-0.0583623730645506,0.00254973592000662,0.00510926970927006
8,0.00250815172067298,0.00558134240883756,0.98922622200808,-0.0619404727856852,0.989226221992516,-0.0619404727172261,0.00250591988462767,0.00558821853116953
8.5,0.00245178931345036,0.00610996119397633,0.988672924169977,-0.0655161322807816,0.988672924158233,-0.0655161322216511,0.00244943476512527,0.00611738242329452
9,0.00237706761232609,0.00669741658682455,0.988104297771519,-0.0690898919211893,0.988104297762922,-0.0690898918760698,0.0023745913996911,0.00670544596901124
9.5,0.00227632066488853,0.00735427773921948,0.987518749339806,-0.0726619343344694,0.987518749333593,-0.0726619343070087,0.00227372280948923,0.0073629930191057
10,0.00213896064313057,0.00809344783934396,0.986914941477063,-0.0762321979735372,0.986914941472423,-0.0762321979665481,0.00213624027406079,0.00810294648443577
10.5,0.0022102445229496,0.00849290452141815,0.986340080765647,-0.0797998298788754,0.986340080761367,-0.0797998298718356,0.00220760419256022,0.00850288198563298
11,0.00228500636506165,0.00889159550053975,0.985759169698656,-0.0833492389127422,0.985759169694728,-0.0833492389056758,0.00228245159702883,0.0089020525371577
11.5,0.00236324689009115,0.00928948376543115,0.985172947507617,-0.0868817189876383,0.985172947504027,-0.0868817189805622,0.00236078345502674,0.00930042121290064
12,0.0024449670051947,0.00968653223930183,0.984581989971687,-0.0903985278772499,0.984581989968423,-0.09039852787018,0.00244260093577298,0.0096979510299704
12.5,0.00253016782778903,0.0100827037801441,0.983986727767637,-0.0939008741847749,0.983986727764688,-0.0939008741777254,0.00252790543435086,0.0100946049498818
13,0.00261885071097395,0.0104779611816985,0.983387464331483,-0.0973899078379583,0.983387464328836,-0.0973899078309417,0.00261669859764362,0.0104903458804619
13.5,0.00271101727077934,0.0108722671752677,0.982784392836581,-0.10086671360065,0.982784392834223,-0.100866713593684,0.00270898235209566,0.0108851366787013
14,0.00280666941532569,0.0112655844323655,0.982177612023106,-0.104332307108397,0.982177612021024,-0.104332307101486,0.00280475893340769,0.0112789401545594
14.5,0.00290580937599683,0.0116578755684431,0.981567140720012,-0.107787632970017,0.981567140718194,-0.107787632963172,0.00290403091824495,0.0116717190759026
15,0.00300843974075127,0.0120491031477568,0.980952930984391,-0.111233564522294,0.980952930982825,-0.111233564515522,0.00300680125809506,0.0120634361747474
15.5,0.00311456348967321,0.0124392296895621,0.980334879846855,-0.114670904874625,0.980334879845529,-0.114670904867936,0.00311307331536067,0.0124540541549201
16,0.0032241840328907,0.0128282176757897,0.979712839698106,-0.118100388931091,0.979712839697007,-0.11810038892449,0.00322285090181637,0.0128435357013519
16.5,0.0033373052509881,0.0132160295604473,0.979086627384137,-0.121522686126128,0.979086627383254,-0.121522686119619,0.00333613831954373,0.0132318434912349
17,0.00345393153803292,0.013602627780879,0.978456032098334,-0.124938403655259,0.978456032097657,-0.124938403648846,0.00345294040446367,0.0136189402072051
17.5,0.00357406784735456,0.0139879747712297,0.977820822170596,-0.128348090022754,0.977820822170113,-0.128348090016442,0.00357326257259033,0.0140047885529015
18,0.00369771974020582,0.0143720329783132,0.977180750858707,-0.131752238763939,0.977180750858408,-0.131752238757734,0.00369711086912564,0.0143893512711131
18.5,0.00382489343744016,0.0147547648802235,0.976535561247333,-0.135151292230404,0.976535561247209,-0.135151292224305,0.00382449202051466,0.0147725911648728
19,0.00395559587433733,0.0151361330080331,0.975884990356694,-0.138545645352351,0.975884990356735,-0.138545645346363,0.00395541348958309,0.0151544711218614
19.5,0.00408983475870039,0.0155160999709283,0.975228772557299,-0.141935649313944,0.975228772557496,-0.141935649308066,0.00408988353386036,0.015534954142487
20,0.00422761863236001,0.0158946284852672,0.9745666423801,-0.145321615095129,0.974566642380444,-0.145321615089362,0.00422791126719885,0.0159140033721386
20.5,0.00436895693617997,0.0162716814079515,0.973898336803618,-0.148703816847845,0.9738983368041,-0.148703816842191,0.00436950672476941,0.0162915821380252
21,0.00451386007868998,0.0166472217747082,0.973223597091564,-0.152082495085818,0.973223597092178,-0.152082495080279,0.00451468093151861,0.0166676539912358
21.5,0.00466233950840406,0.0170212128438343,0.972542170246559,-0.155457859676171,0.972542170247295,-0.155457859670746,0.00466344597413088,0.0170421827545515
22,0.00481440778990266,0.0173936181460248,0.971853810137932,-0.158830092627982,0.971853810138785,-0.15883009262267,0.00481581507652215,0.0174151325767009
22.5,0.00497007868370761,0.0177644015410539,0.971158278354541,-0.162199350678079,0.971158278355502,-0.162199350672881,0.00497180267886077,0.0177864679938038
23,0.00512936722994084,0.0181335272820453,0.970455344826941,-0.165565767678341,0.970455344828005,-0.165565767673258,0.00513142452005882,0.0181561539987976
23.5,0.00529228983572122,0.0185009600882271,0.969744788257381,-0.168929456791433,0.969744788258541,-0.168929456786461,0.00529469772362473,0.0185241561197329
24,0.00545886436618725,0.0188666652271188,0.969026396390729,-0.172290512503867,0.969026396391978,-0.172290512499009,0.00546164088671752,0.0188904405079122
24.5,0.00562911023897636,0.0192306086072138,0.968299966154742,-0.175649012466453,0.968299966156075,-0.175649012461705,0.00563227417215184,0.0192549740369667
25,0.00580304852189564,0.0195927568822794,0.967565303693926,-0.179005019172935,0.967565303695337,-0.179005019168298,0.00580661940300617,0.0196177244139717
25.5,0.00598070203341886,0.0199530775685535,0.966822224317554,-0.182358581487857,0.966822224319038,-0.182358581483329,0.00598470015939095,0.0199786603039245
26,0.00616209544553423,0.0203115391761961,0.966070552379288,-0.185709736034692,0.966070552380841,-0.185709736030272,0.00616654187678894,0.0203377514689147
26.5,0.0063472553883111,0.0206681113564731,0.965310121103046,-0.189058508455058,0.965310121104662,-0.189058508450746,0.00635217194522311,0.0206949689234754
27,0.00653621055538439,0.0210227650662675,0.964540772367419,-0.19240491454944,0.964540772369094,-0.192404914545235,0.00654161980832629,0.0210502851076937
27.5,0.00672899180935993,0.0213754727516462,0.963762356458897,-0.195748961309331,0.963762356460626,-0.195748961305229,0.00673491706117113,0.0214036740797625
28,0.0069256322858971,0.0217262085523005,0.962974731802417,-0.199090647850176,0.962974731804196,-0.199090647846176,0.00693209754546464,0.0217551117297754
28.5,0.0071261674949587,0.022074948528807,0.962177764676263,-0.202429966253892,0.962177764678089,-0.202429966249995,0.00713319744041663,0.0221045760166225
29,0.0073306354173962,0.0224216709147638,0.961371328917108,-0.205766902329101,0.961371328918976,-0.205766902325303,0.00733825534726607,0.0224520472299767
29.5,0.00753907659464981,0.022766356395906,0.960555305619871,-0.209101436296665,0.960555305621777,-0.209101436292967,0.00754731236504702,0.0227975082793312
30,0.0077515342089457,0.023108988418417,0.959729582836231,-0.212433543407465,0.959729582838173,-0.212433543403862,0.00776041215474649,0.023140945012194
30.5,0.00796805415086921,0.0234495535286259,0.958894055274821,-0.215763194498813,0.958894055276794,-0.215763194495306,0.00797760098850053,0.0234823465633915
31,0.00818868507062587,0.0237880417463052,0.958048624005519,-0.219090356495363,0.95804862400752,-0.219090356491951,0.00819892777992037,0.0238217057375214
31.5,0.00841347840871814,0.0241244469736894,0.957193196169732,-0.222414992859853,0.957193196171759,-0.222414992856533,0.00842444409098703,0.0241590194263086
32,0.00864248840103043,0.0244587674421921,0.956327684698103,-0.225737063998527,0.956327684700153,-0.225737063995297,0.00865420411029211,0.0244942890625459
32.5,0.00887577205255374,0.0247910061985608,0.955452008036713,-0.229056527625677,0.955452008038782,-0.229056527622537,0.00888826459659608,0.0248275211118865
33,0.00911338907314707,0.0251211716318303,0.954566089882572,-0.2323733390913,0.954566089884658,-0.232373339088249,0.00912668478087159,0.0251587276033671
33.5,0.0093554017677881,0.0254492780419511,0.953669858928903,-0.235687451675522,0.953669858931004,-0.235687451672556,0.00936952621909298,0.0254879266988852
34,0.00960187487278974,0.0257753462502808,0.952763248620559,-0.238998816853047,0.952763248622672,-0.238998816850166,0.00961685258710121,0.0258151433011451
34.5,0.00985287532844054,0.0260994042512499,0.95184619691973,-0.242307384530625,0.951846196921851,-0.242307384527827,0.00986872940790778,0.0261404096985287
35,0.010108471977423,0.026421487903324,0.950918646081958,-0.24561310326023,0.950918646084088,-0.245613103257512,0.01012522370082,0.0264637662440854
35.5,0.0103687351773427,0.0267416416560504,0.94998054244241,-0.248915920430339,0.949980542444545,-0.248915920427701,0.0103864035408515,0.0267852620643314
36,0.010633736314663,0.0270599193081138,0.949031836212216,-0.252215782437541,0.949031836214353,-0.252215782434981,0.0106523375160113,0.0271049557916223
36.5,0.0109035472064214,0.0273763847892752,0.948072481284675,-0.255512634840404,0.948072481286814,-0.255512634837923,0.0109230940693643,0.0274229163116295
37,0.0111782393753745,0.0276911129564643,0.947102435051053,-0.258806422497405,0.94710243505319,-0.258806422494998,0.0111987407122683,0.0277392235147989
37.5,0.0114578831837434,0.0280041903913286,0.946121658225649,-0.262097089690501,0.946121658227784,-0.262097089688167,0.0114793430950275,0.0280539690376005
38,0.0117425468106331,0.0283157161830359,0.945130114679825,-0.265384580235804,0.945130114681955,-0.265384580233543,0.0117649639214814,0.0283672569758457
38.5,0.0120322950586325,0.0286258026762156,0.944127771284622,-0.268668837582639,0.944127771286746,-0.268668837580448,0.0120556616948997,0.0286792045484781
39,0.0123271879762212,0.0289345761594928,0.943114597761618,-0.271949804902143,0.943114597763734,-0.271949804900021,0.0123514892841516,0.0289899426858777
39.5,0.0126272792845573,0.0292421774652549,0.942090566541668,-0.275227425166491,0.942090566543775,-0.275227425164438,0.012652492301605,0.0292996165121771
40,0.0129326146002676,0.0295487624461959,0.941055652631143,-0.278501641219656,0.941055652633238,-0.278501641217669,0.0129587072878323,0.0296083856862768
40.5,0.0132432294501595,0.0298545022889318,0.940009833485329,-0.281772395840573,0.940009833487412,-0.281772395838651,0.0132701597030623,0.0299164245615213
41,0.0135591470795593,0.0301595836197981,0.938953088888625,-0.285039631799473,0.938953088890693,-0.285039631797614,0.0135868617316758,0.0302239221195089
41.5,0.0138803760634252,0.030464208353211,0.937885400841181,-0.288303291908063,0.937885400843234,-0.288303291906265,0.0139088099139907,0.0305310816296529
42,0.0142069077386707,0.0307685932289878,0.936806753451672,-0.291563319064188,0.936806753453708,-0.291563319062452,0.0142359826292267,0.0308381199832666
42.5,0.0145387134872738,0.0310729689823823,0.93571713283585,-0.294819656291527,0.935717132837868,-0.29481965628985,0.0145683374648682,0.0311452666496335
43,0.0148757419127882,0.0313775790898314,0.934616527020591,-0.298072246774805,0.934616527022589,-0.298072246773186,0.0149058085205906,0.0314527622023519
43.5,0.0152179159675363,0.0316826780351582,0.933504925853117,-0.301321033891016,0.933504925855096,-0.301321033889453,0.0152483037090995,0.0317608563676952
44,0.0155651301037654,0.0319885290460731,0.932382320915127,-0.304565961237018,0.932382320917085,-0.30456596123551,0.0155957021313053,0.0320698055536912
44.5,0.015917247538684,0.0322954012597705,0.931248705441549,-0.307806972653892,0.931248705443483,-0.307806972652438,0.0159478516184166,0.0323798698293691
45,0.0162740977397575,0.0326035662900346,0.930104074243658,-0.311044012248398,0.930104074245569,-0.311044012246996,0.0163045665478798,0.0326913093389352
45.5,0.0166354742517038,0.0329132941869275,0.928948423636322,-0.314277024411797,0.928948423638209,-0.314277024410446,0.016665626052445,0.0330043801555642
46,0.0170011329989224,0.0332248488040141,0.92778175136913,-0.317505953836337,0.927781751370991,-0.317505953835037,0.0170307727505439,0.0333193296041723
46.5,0.0173707912048982,0.0335384826170613,0.926604056561186,-0.32073074552963,0.92660405656302,-0.320730745528377,0.0173997121301258,0.0336363911113922
47,0.0177441270717293,0.0338544310714912,0.925415339639359,-0.323951344827125,0.925415339641166,-0.323951344825919,0.0177721127155019,0.0339557786732461
47.5,0.0181207803565968,0.034172906572278,0.924215602279795,-0.327167697402899,0.924215602281574,-0.327167697401739,0.0181476071361437,0.0342776810650687
48,0.0185003539661395,0.0344940922676007,0.923004847352491,-0.330379749278916,0.92300484735424,-0.3303797492778,0.0185257941966406,0.0346022559521435
48.5,0.0188824166633986,0.0348181358137629,0.921783078868769,-0.333587446832923,0.921783078870489,-0.333587446831852,0.0189062420175243,0.0349296240906758
49,0.0192665069447833,0.0351451433406531,0.920550301931475,-0.336790736805131,0.920550301933164,-0.336790736804101,0.0192884922775516,0.0352598638342105
49.5,0.0196521380970956,0.03547517386096,0.91930652268774,-0.339989566303788,0.919306522689398,-0.339989566302799,0.0196720655404057,0.0355930061773846
50,0.0200388043887081,0.0358082343790562,0.918051748284179,-0.343183882809791,0.918051748285805,-0.343183882808842,0.0200564675946678,0.0359290305740665
50.5,0.0204259882873996,0.0361442759539685,0.916785986824351,-0.346373634180413,0.916785986825944,-0.346373634179503,0.0204411966784774,0.0362678617581211
51,0.0208131685341823,0.0364831909529482,0.915509247328381,-0.349558768652248,0.915509247329941,-0.349558768651374,0.0208257514035124,0.0366093677708617
51.5,0.02119982884243,0.0368248116969032,0.914221539694613,-0.352739234843464,0.914221539696139,-0.352739234842627,0.021209639141312,0.0369533593594995
52,0.0215854669400226,0.0371689106470028,0.912922874663156,-0.355914981755438,0.912922874664648,-0.355914981754636,0.0215923845932268,0.0372995908568576
52.5,0.0219696036341814,0.0375152022154117,0.91161326378125,-0.359085958773824,0.911613263782706,-0.359085958773055,0.0219735382377022,0.0376477625871561
53,0.0223517915584143,0.0378633462064313,0.910292719370313,-0.362252115669144,0.910292719371734,-0.362252115668408,0.0223526843385352,0.0379975247699822
53.5,0.0227316232615842,0.0382129528127235,0.908961254494606,-0.365413402596939,0.908961254495991,-0.365413402596234,0.022729448207154,0.038348482819901
54,0.0231087383216074,0.0385635890110432,0.907618882931391,-0.368569770097523,0.90761888293274,-0.368569770096849,0.0231035024410055,0.0387002038683568
54.5,0.0234828292097553,0.0389147861295396,0.906265619142525,-0.37172116909541,0.906265619143836,-0.371721169094766,0.0234745719071786,0.0390522242731484
55,0.023853645692911,0.0392660483000742,0.904901478247395,-0.374867550898431,0.904901478248668,-0.374867550897813,0.023842437301946,0.0394040578338162
55.5,0.0242209976356712,0.0396168614688954,0.903526475997114,-0.378008867196576,0.90352647599835,-0.378008867195986,0.024206937188221,0.0397552044022522
56,0.0245847561457243,0.0399667026201718,0.902140628749932,-0.381145070060623,0.90214062875113,-0.381145070060059,0.0245679684882884,0.0401051585685821
56.5,0.0249448530881041,0.0403150488702089,0.900743953447756,-0.38427611194054,0.900743953448916,-0.384276111940001,0.0249254854827733,0.0404534181128455
57,0.0253012790702323,0.0406613861142595,0.899336467593752,-0.387401945663724,0.899336467594872,-0.387401945663208,0.0252794974332398,0.0407994919413355
57.5,0.0256540800648558,0.0410052169495405,0.897918189230948,-0.390522524433071,0.897918189232029,-0.390522524432579,0.0256300650006953,0.0411429072693585
58,0.0260033528880386,0.0413460676528812,0.896489136921795,-0.393637801824926,0.896489136922837,-0.393637801824454,0.0259772956726048,0.0414832158652707
58.5,0.0263492397821013,0.0416834940541366,0.895049329728624,-0.396747731786899,0.895049329729626,-0.396747731786449,0.0263213384353881,0.0418199992291808
59,0.0266919223683267,0.0420170862116781,0.893598787194957,-0.399852268635598,0.893598787195919,-0.399852268635168,0.0266623779378506,0.0421528726389905
59.5,0.0270316152325311,0.0423464718590618,0.892137529327621,-0.402951367054266,0.892137529328543,-0.402951367053854,0.0270006283850237,0.0424814880522395
60,0.0273685593905916,0.042671318648425,0.890665576579623,-0.406044982090347,0.890665576580504,-0.406044982089952,0.0273363273838508,0.042805535901436
60.5,0.0277030158539288,0.0429913352632924,0.889182949833749,-0.409133069153,0.88918294983459,-0.409133069152622,0.027669729935032,0.0431247458607228
61,0.0280352594802692,0.0433062715097627,0.887689670386841,-0.412215584010557,0.887689670387641,-0.412215584010195,0.028001102732341,0.0434388866919382
61.5,0.0283655732563734,0.0436159175199282,0.886185759934723,-0.415292482787941,0.886185759935481,-0.415292482787593,0.0283307188949288,0.0437477652980419
62,0.0286942431198108,0.0439201022153937,0.884671240557731,-0.418363721964052,0.884671240558448,-0.418363721963718,0.0286588532221952,0.0440512251221983
62.5,0.0290215533890302,0.044218691183022,0.883146134706837,-0.421429258369133,0.883146134707513,-0.421429258368811,0.0289857780269439,0.0443491440327107
63,0.0293477828367343,0.0445115841112899,0.881610465190305,-0.424489049182113,0.881610465190939,-0.424489049181803,0.0293117595722702,0.0446414318290391
63.5,0.0296732014122291,0.0447987119257022,0.880064255160876,-0.427543051927938,0.880064255161468,-0.427543051927639,0.0296370551119733,0.0449280274940178
