"Freq [GHz]","re(St(P1,P1)) []","im(St(P1,P1)) []","re(St(P1,P2)) []","im(St(P1,P2)) []","re(St(P2,P1)) []","im(St(P2,P1)) []","re(St(P2,P2)) []","im(St(P2,P2)) []"
0,0.00355226131509312,0,0.996458676250768,0,0.996458674373571,0,0.00355226342577453,0
0.5,0.00394181976858476,0.000560139723166486,0.996029471876163,-0.00436411824071214,0.996029471326032,-0.00436411756502864,0.00394175533944008,0.000560355463864681
1,0.00432875838581381,0.000625321486499075,0.995560972216946,-0.00822357501760607,0.995560972108517,-0.00822357530667972,0.00432862117007105,0.00062584163825008
1.5,0.00452209426604711,0.000508362717084765,0.995222947753675,-0.012150154564285,0.9952229475774,-0.0121501548830665,0.00452199847758905,0.000509486945666993
2,0.0046144672670998,0.000419692801145288,0.994862963433075,-0.0159440316950388,0.99486296322902,-0.0159440319874555,0.00461443015015206,0.000421282312927929
2.5,0.00466771323285364,0.00035917211347325,0.994516124653787,-0.0196356429949667,0.99451612446069,-0.0196356432360076,0.00466772394534942,0.000361173696713735
3,0.0047042052031534,0.000318265934613038,0.994192725197701,-0.0232572542488754,0.994192725039475,-0.0232572544333394,0.00470426091738219,0.000320653411087335
3.5,0.00473299008320183,0.00029092614620474,0.993889572015368,-0.0268338124329865,0.99388957190124,-0.0268338125648526,0.00473309681756895,0.000293682740403867
4,0.00475813907286327,0.000273395929458076,0.993598521772145,-0.0303821742517982,0.993598521701428,-0.0303821743382784,0.00475831006105665,0.00027650930700851
4.5,0.00478162960991169,0.000263347145224913,0.993310889694575,-0.0339130396372411,0.99331088966134,-0.0339130396861957,0.00478188409526581,0.000266808296835563
5,0.00480446198807716,0.000259303125281107,0.993019174083053,-0.0374330085170982,0.993019174079341,-0.0374330085361301,0.00480482435826124,0.000263106529510893
5.5,0.00482713969506543,0.000260299973392719,0.992717465372071,-0.0409460898919782,0.992717465389756,-0.0409460898880827,0.00482763873048375,0.000264444200595904
6,0.00484989529140067,0.000265689123246204,0.992401327659912,-0.0444546793986298,0.992401327691637,-0.0444546793781164,0.00485056339649281,0.000270177562788021
6.5,0.00487280505053245,0.000275019688725564,0.992067523229491,-0.047960164134043,0.992067523269031,-0.0479601641025127,0.00487367740920308,0.000279861257338254
7,0.00489585116973013,0.000287966356870228,0.991713730769834,-0.051463293196953,0.991713730812146,-0.0514632931593013,0.00489696480777235,0.00029317611334001
7.5,0.0049189576315134,0.000304283972523578,0.99133830754483,-0.0549644066286366,0.991338307585952,-0.0549644065890824,0.00492035039222416,0.00030988359460693
8,0.00494201206009737,0.000323778254266216,0.990940104427493,-0.0584635793061103,0.990940104464392,-0.0584635792682739,0.00494372151258204,0.000329796350362344
8.5,0.00496487974978321,0.000346286564085752,0.990518327937666,-0.0619607131899498,0.99051832796807,-0.0619607131568838,0.00496694205677284,0.000352758804036846
9,0.004987413106746,0.000371665128851006,0.990072439679618,-0.0654555975875031,0.990072439701855,-0.0654555975617566,0.00498986188241235,0.000378634186859017
9.5,0.00500945827710242,0.000399780514509729,0.989602083980564,-0.0689479491504086,0.989602083993432,-0.0689479491341105,0.00501232346637903,0.000407295825207044
10,0.00503085996695696,0.000430503971485585,0.989107036184621,-0.0724374387400557,0.989107036187278,-0.0724374387349469,0.00503416677699542,0.000438621306702913
10.5,0.00508179343109383,0.000437430602572064,0.988647203203218,-0.0759088762624494,0.988647203206123,-0.0759088762570412,0.00508546435428703,0.000446045998978128
11,0.00513454413710301,0.000442389041003466,0.988177906113204,-0.0793676873290581,0.988177906116379,-0.079367687323372,0.00513860702159408,0.000451511579884212
11.5,0.0051890283500583,0.000445322548582539,0.987699733422091,-0.0828145445703239,0.987699733425555,-0.0828145445643838,0.005193512052375,0.000454960851177688
12,0.00524516085221349,0.000446178630454597,0.987213177658112,-0.0862501207540758,0.987213177661884,-0.0862501207479003,0.00525009520192588,0.000456340778496767
12.5,0.00530285519047979,0.0004449090489409,0.986718643201152,-0.0896750793239791,0.986718643205245,-0.0896750793176002,0.0053082709486138,0.000455602509579656
13,0.00536202392009927,0.000441469821376828,0.986216454425062,-0.0930900667607357,0.986216454429489,-0.093090066754173,0.00536795273185914,0.00045270137695308
13.5,0.00542257884348107,0.000435821202753317,0.985706863880763,-0.0964957065963459,0.985706863885531,-0.0964957065896277,0.00542905318583442,0.000447596885835289
14,0.00548443124317105,0.000427927653760207,0.985190060309358,-0.0998925948957892,0.985190060314474,-0.0998925948889431,0.00549148436789437,0.000440252687803344
14.5,0.00554749210805561,0.00041775779502462,0.984666176327945,-0.103281297015903,0.984666176333412,-0.103281297008954,0.00555515798085546,0.000430636540945883
15,0.00561167235197302,0.000405284348416579,0.984135295677002,-0.106662345455354,0.984135295682822,-0.106662345448328,0.00561998558830426,0.000418720257276739
15.5,0.00567688302400217,0.000390484066221219,0.983597459956897,-0.110036238620025,0.983597459963069,-0.110036238612946,0.00568587882221601,0.000404479638195454
16,0.00574303550978625,0.000373337649142158,0.983052674812598,-0.113403440342169,0.983052674819118,-0.113403440335062,0.00575274958222716,0.000387894398854449
16.5,0.00581004172333773,0.000353829654008209,0.982500915550535,-0.116764380008134,0.982500915557398,-0.116764380001021,0.00582051022601299,0.000368948082248188
17,0.00587781428887876,0.000331948392168435,0.981942132190688,-0.120119453166611,0.98194213219789,-0.120119453159515,0.00588907375029764,0.000347627963964925
17.5,0.00594626671233472,0.000307685819489478,0.981376253971002,-0.1234690225065,0.981376253978532,-0.123469022499441,0.00595835396209821,0.0003239249484559
18,0.00601531354220625,0.000281037418931263,0.980803193331168,-0.126813419109775,0.980803193339021,-0.126813419102775,0.00602826563990259,0.000297833457731489
18.5,0.00608487051961677,0.000252002076598146,0.980222849409331,-0.130152943899943,0.980222849417493,-0.130152943893017,0.00609872468454294,0.000269351313352928
19,0.00615485471740667,0.000220581952228738,0.979635111089067,-0.133487869220219,0.97963511109753,-0.133487869213387,0.00616964825962017,0.000238479612626907
19.5,0.00622518466824551,0.000186782345002801,0.979039859635795,-0.136818440487875,0.979039859644546,-0.136818440481152,0.00624095492138287,0.000205222599853894
20,0.0062957804817597,0.000150611555508995,0.978436970961879,-0.140144877881653,0.978436970970905,-0.140144877875053,0.00631256473805576,0.000169587533432658
20.5,0.00636656395078571,0.000112080744783416,0.977826317558795,-0.143467378028306,0.977826317568083,-0.143467378021843,0.0063843993986573,0.000131584549706965
21,0.00643745864687996,7.12037911321239E-005,0.977207770132956,-0.14678611566207,0.977207770142493,-0.146786115655756,0.00645638231141424,9.12265242449806E-005
21.5,0.00650839000529747,2.79971455805494E-005,0.976581198979537,-0.150101245237265,0.97658119898931,-0.150101245231112,0.00652843869193123,4.85289313725268E-005
22,0.00657928539967058,-1.75203134027413E-005,0.975946475126064,-0.153412902479673,0.975946475136059,-0.153412902473689,0.00660049564131834,3.50970260587502E-006
22.5,0.00665007420670213,-6.53274251587455E-005,0.975303471274859,-0.15672120586662,0.975303471285061,-0.156721205860817,0.00667248221453109,-4.38109153062527E-005
23,0.00672068786118249,-0.000115400891510742,0.974652062570655,-0.16002625802932,0.974652062581051,-0.160026258023704,0.00674432947920536,-9.3410502131519E-005
23.5,0.00679105990169745,-0.000167715420231751,0.97399212721707,-0.163328147073789,0.973992127227645,-0.163328147068366,0.00681597056531116,-0.000145264605116324
24,0.006861126007423,-0.000222243866782268,0.973323546963055,-0.166626947818878,0.973323546973796,-0.166626947813656,0.00688734070597183,-0.000199346878606566
24.5,0.00693082402639714,-0.000278957373849309,0.972646207478042,-0.169922722951712,0.972646207488933,-0.169922722946695,0.00695837726982462,-0.000255629221857401
25,0.00700009399572193,-0.000337825508213374,0.971959998632317,-0.173215524102051,0.971959998643347,-0.173215524097243,0.00702901978531245,-0.000314081914559949
25.5,0.00706887815410687,-0.000398816394609369,0.971264814697112,-0.176505392838143,0.971264814708266,-0.17650539283355,0.00709920995731367,-0.000374673749721666
26,0.00713712094722868,-0.00046189684617115,0.970560554477063,-0.179792361587206,0.970560554488329,-0.179792361582829,0.0071688916765314,-0.000437372163487382
26.5,0.00720476902634001,-0.000527032491208335,0.969847121386068,-0.183076454484221,0.96984712139743,-0.18307645448006,0.00723801102206476,-0.000502143361633234
27,0.00727177124059386,-0.000594187896028053,0.969124423476046,-0.186357688152978,0.969124423487493,-0.186357688149037,0.00730651625759146,-0.00056895244242483
27.5,0.00733807862353467,-0.000663326683596477,0.968392373426878,-0.189636072423427,0.968392373438397,-0.189636072419706,0.00737435782159965,-0.000637763515606515
28,0.00740364437420024,-0.000734411647857147,0.967650888504564,-0.19291161098948,0.967650888516144,-0.19291161098598,0.00744148831208363,-0.000708539817340981
28.5,0.00746842383328022,-0.000807404863553796,0.966899890493682,-0.196184302011333,0.966899890505311,-0.196184302008052,0.00750786246614185,-0.000781243820903388
29,0.00753237445475768,-0.000882267791468827,0.966139305609317,-0.199454138666294,0.966139305620983,-0.199454138663233,0.00757343713488245,-0.000855837343028298
29.5,0.00759545577346335,-0.000958961378970002,0.965369064392873,-0.202721109651942,0.965369064404563,-0.2027211096491,0.00763817125405436,-0.000932281645779742
30,0.0076576293689341,-0.00103744615584755,0.96458910159547,-0.205985199645305,0.964589101607174,-0.205985199642678,0.0077020258107891,-0.00101053753390445
30.5,0.00771885882598577,-0.00111768232539244,0.963799356052103,-0.209246389721498,0.963799356063811,-0.209246389719086,0.00776496380684849,-0.00109056544759634
31,0.00777910969236395,-0.00119962985074817,0.962999770549177,-0.212504657735139,0.962999770560877,-0.212504657732939,0.00782695021874463,-0.00117232555067748
31.5,0.00783834943383521,-0.00128324853653483,0.962190291687635,-0.215759978667551,0.96219029169932,-0.215759978665561,0.0078879519550874,-0.00125577781418684
32,0.00789654738707357,-0.00136849810580664,0.961370869743523,-0.219012324942647,0.961370869755182,-0.219012324940862,0.00794793781150727,-0.00134088209539529
32.5,0.00795367471064329,-0.00145533827240785,0.960541458527477,-0.222261666714154,0.9605414585391,-0.222261666712573,0.00800687842346409,-0.00142759821232108
33,0.00800970433441062,-0.00154372880880471,0.959702015244398,-0.225507972126602,0.959702015255977,-0.225507972125221,0.00806474621726933,-0.00151588601377517
33.5,0.0080646109076582,-0.00163362960948321,0.95885250035432,-0.228751207552383,0.958852500365847,-0.228751207551196,0.00812151535959782,-0.00160570544502381
34,0.00811837074617289,-0.00172500075002979,0.957992877435267,-0.23199133780694,0.957992877446732,-0.231991337805946,0.00817716170577126,-0.00169701660916965
34.5,0.00817096177857063,-0.00181780254200348,0.957123113048749,-0.235228326344042,0.957123113060146,-0.235228326343235,0.00823166274706832,-0.0017897798243327
35,0.00822236349207656,-0.00191199558372945,0.956243176608409,-0.238462135432864,0.956243176619729,-0.23846213543224,0.00828499755730494,-0.00188395567676114
35.5,0.00827255687799233,-0.00200754080715271,0.955353040252177,-0.241692726318546,0.955353040263414,-0.2416927263181,0.00833714673890296,-0.00197950506997691
36,0.00832152437704164,-0.0021043995208776,0.954452678718247,-0.244920059367636,0.954452678729393,-0.244920059367364,0.00838809236866445,-0.00207638927009413
36.5,0.00836924982477977,-0.00220253344955568,0.953542069225039,-0.248144094199851,0.953542069236087,-0.248144094199747,0.00843781794343207,-0.00217456994743137
37,0.00841571839723804,-0.00230190476974368,0.952621191355303,-0.251364789807301,0.952621191366247,-0.251364789807361,0.00848630832582337,-0.00227400921456278
37.5,0.00846091655695064,-0.00240247614241329,0.951690026944433,-0.254582104662387,0.951690026955268,-0.254582104662606,0.00853354969019171,-0.00237466966094413
38,0.00850483199950408,-0.00250421074223262,0.950748559973001,-0.257795996815326,0.950748559983721,-0.257795996815698,0.0085795294689634,-0.00247651438425711
38.5,0.00854745360072906,-0.00260707228378787,0.949796776463513,-0.261006423982282,0.949796776474112,-0.261006423982802,0.00862423629948894,-0.00257950701861143
39,0.00858877136465352,-0.0027110250448934,0.948834664381339,-0.264213343624944,0.948834664391812,-0.264213343625608,0.00866765997151875,-0.0026836117597584
39.5,0.00862877637230619,-0.00281603388712504,0.94786221353975,-0.267416713022299,0.947862213550093,-0.267416713023101,0.0087097913754221,-0.00278879338743576
40,0.00866746073145913,-0.00292206427374975,0.946879415508974,-0.270616489335351,0.94687941551918,-0.270616489336284,0.00875062245123553,-0.00289501728502062
40.5,0.00870481752738278,-0.00302908228516463,0.945886263529155,-0.273812629665374,0.945886263539222,-0.273812629666435,0.008790146138629,-0.00300224945660088
41,0.0087408407746834,-0.00313705463201464,0.944882752427139,-0.27700509110633,0.944882752437061,-0.277005091107512,0.00882835632786455,-0.00311045654161579
41.5,0.00877552537026943,-0.00324594866610406,0.943868878536909,-0.280193830791938,0.943868878546683,-0.280193830793236,0.00886524781181181,-0.00321960582720005
42,0.00880886704749678,-0.00335573238926434,0.942844639623598,-0.283378805937911,0.942844639633221,-0.283378805939319,0.00890081623906508,-0.00332966525837453
42.5,0.00884086233152975,-0.00346637446025944,0.941810034810912,-0.28655997387976,0.941810034820381,-0.286559973881274,0.00893505806822814,-0.00344060344617869
43,0.00887150849594864,-0.00357784419991902,0.940765064511842,-0.289737292106612,0.940765064521153,-0.289737292108225,0.00896797052337922,-0.00355238967392091
43.5,0.00890080352061956,-0.00369011159456467,0.939709730362537,-0.292910718291344,0.939709730371686,-0.292910718293051,0.00899955155077103,-0.00366499390162045
44,0.00892874605084854,-0.00380314729788234,0.938644035159197,-0.296080210317415,0.938644035168183,-0.296080210319211,0.00902979977676815,-0.00377838676879549
44.5,0.00895533535783033,-0.0039169226313287,0.937567982797869,-0.299245726302657,0.937567982806688,-0.299245726304535,0.00905871446705581,-0.00389253959567903
45,0.00898057130039021,-0.00403140958319814,0.936481578216997,-0.30240722462031,0.936481578225648,-0.302407224622266,0.00908629548712037,-0.00400742438300172
45.5,0.00900445428802349,-0.00414658080644315,0.935384827342636,-0.305564663917551,0.935384827351116,-0.30556466391958,0.00911254326401051,-0.00412301381042135
46,0.00902698524522588,-0.00426240961533941,0.934277737036167,-0.308718003131729,0.934277737044475,-0.308718003133826,0.00913745874938676,-0.00423928123371176
46.5,0.0090481655771022,-0.0043788699811167,0.933160315044434,-0.31186720150453,0.933160315052567,-0.311867201506688,0.00916104338384199,-0.00435620068081466
47,0.00906799713625284,-0.0044959365265993,0.932032569952171,-0.315012218594219,0.932032569960129,-0.315012218596434,0.00918329906250454,-0.00447374684681678
47.5,0.00908648219090252,-0.00461358451998639,0.93089451113661,-0.318153014286178,0.93089451114439,-0.318153014288444,0.00920422810189436,-0.00459189508797775
48,0.00910362339427417,-0.00473178986781919,0.929746148724176,-0.32128954880185,0.929746148731777,-0.321289548804161,0.0092238332080341,-0.00471062141485712
48.5,0.00911942375517133,-0.00485052910722561,0.928587493549164,-0.324421782706247,0.928587493556586,-0.3244217827086,0.00924211744579001,-0.00482990248464321
49,0.00913388660975412,-0.00496977939751053,0.927418557114301,-0.327549676914156,0.927418557121542,-0.327549676916546,0.00925908420942428,-0.00494971559274404
49.5,0.00914701559448172,-0.0050895185111528,0.926239351553103,-0.330673192695142,0.926239351560164,-0.330673192697562,0.00927473719434363,-0.00507003866371813
50,0.00915881462019685,-0.00520972482427529,0.925049889593952,-0.333792291677451,0.925049889600831,-0.333792291679898,0.00928908037001397,-0.0051908502415996
50.5,0.00916928784731863,-0.00533037730665953,0.92385018452578,-0.336906935850944,0.923850184532477,-0.336906935853412,0.00930211795402097,-0.00531212947970294
51,0.00917843966212556,-0.00545145551132631,0.922640250165326,-0.340017087569093,0.92264025017184,-0.340017087571578,0.00931385438724897,-0.00543385612993652
51.5,0.00918627465409244,-0.00557293956377869,0.921420100825848,-0.343122709550174,0.921420100832181,-0.343122709552671,0.00932429431015652,-0.0055560105317054
52,0.00919279759424968,-0.00569481015090756,0.920189751287252,-0.346223764877685,0.920189751293401,-0.34622376488019,0.00933344254010904,-0.00567857360043988
52.5,0.00919801341454179,-0.00581704850965159,0.918949216767545,-0.34932021700009,0.918949216773512,-0.349320217002597,0.00934130404975608,-0.00580152681580004
53,0.00920192718814611,-0.0059396364154134,0.917698512895571,-0.35241202972992,0.917698512901356,-0.352412029732426,0.0093478839464074,-0.00592485220961492
53.5,0.00920454411072985,-0.00606255617029383,0.916437655684959,-0.355499167242313,0.916437655690562,-0.355499167244813,0.00935318745239455,-0.00604853235357039
54,0.00920586948260671,-0.00618579059117441,0.915166661509215,-0.358581594073017,0.915166661514637,-0.358581594075507,0.00935721988637556,-0.00617255034671738
54.5,0.00920590869176752,-0.00630932299767339,0.91388554707793,-0.361659275115924,0.913885547083172,-0.3616592751184,0.00935998664556154,-0.00629688980280863
55,0.00920466719775076,-0.00643313720001903,0.912594329414028,-0.364732175620167,0.912594329419089,-0.364732175622625,0.00936149318882923,-0.00642153483752295
55.5,0.00920215051632972,-0.00655721748685889,0.911293025832014,-0.367800261186817,0.911293025836896,-0.367800261189253,0.00936174502069559,-0.00654647005557862
56,0.00919836420497433,-0.00668154861302561,0.909981653917188,-0.370863497765215,0.909981653921892,-0.370863497767626,0.00936074767612277,-0.00667168053779643
56.5,0.00919331384907301,-0.00680611578730561,0.90866023150576,-0.373921851648983,0.908660231510287,-0.373921851651363,0.00935850670612071,-0.00679715182811624
57,0.0091870050488741,-0.00693090466019775,0.907328776665839,-0.37697528947172,0.907328776670189,-0.376975289474067,0.00935502766412777,-0.0069228699205961
57.5,0.00917944340712623,-0.00705590131171063,0.905987307679257,-0.380023778202437,0.905987307683432,-0.380023778204747,0.0093503160931323,-0.00704882124642237
58,0.00917063451738298,-0.00718109223920949,0.904635843024183,-0.383067285140741,0.904635843028185,-0.38306728514301,0.00934437751350969,-0.00717499266095079
58.5,0.00916058395295466,-0.00730646434530868,0.903274401358503,-0.386105777911779,0.903274401362332,-0.386105777914005,0.00933721741155458,-0.00730137143078258
59,0.0091492972564704,-0.00743200492585738,0.901903001503921,-0.389139224461,0.901903001507579,-0.389139224463178,0.00932884122866728,-0.00742794522091672
59.5,0.00913677993003298,-0.00755770165800262,0.900521662430761,-0.392167593048705,0.900521662434249,-0.392167593050833,0.00931925435118908,-0.00755470208196996
60,0.00912303742593651,-0.00768354258835502,0.899130403243435,-0.395190852244448,0.899130403246755,-0.395190852246523,0.00930846210083564,-0.00768163043749492
60.5,0.00910807513792761,-0.0078095161212659,0.897729243166548,-0.398208970921272,0.897729243169701,-0.39820897092329,0.0092964697257315,-0.00780871907139558
61,0.00909189839298158,-0.00793561100722595,0.896318201531616,-0.401221918249817,0.896318201534604,-0.401221918251776,0.00928328239199361,-0.00793595711547024
61.5,0.00907451244357493,-0.00806181633138126,0.894897297764375,-0.404229663692294,0.8948972977672,-0.40422966369419,0.00926890517586842,-0.00806333403706416
