"Freq [GHz]","re(St(P1,P1)) []","im(St(P1,P1)) []","re(St(P1,P2)) []","im(St(P1,P2)) []","re(St(P2,P1)) []","im(St(P2,P1)) []","re(St(P2,P2)) []","im(St(P2,P2)) []"
0,0.00316923704099281,0,0.996842210530303,0,0.996842206513975,0,0.00316922760643479,0
0.5,0.00355570178695075,0.000319473354608135,0.996405064297782,-0.00444833881632434,0.996405064826796,-0.0044483386251315,0.00355556068227969,0.000320062168640334
1,0.00392822067020759,0.000139953253206926,0.995917851228867,-0.00838349844886821,0.995917851394829,-0.00838349825658469,0.00392793769990618,0.00014132618580831
1.5,0.0040274327168035,-0.000246066439924419,0.995602566715192,-0.0124135888399266,0.995602566889641,-0.0124135886120058,0.00402655757303094,-0.000244103914223359
2,0.00405825193842091,-0.000556918956156949,0.995239052014771,-0.0163092655339909,0.995239052185459,-0.0163092653102765,0.00405719618701639,-0.000554102179474825
2.5,0.00406530034111441,-0.000829364807501065,0.994861588538067,-0.0200860405512557,0.99486158869283,-0.0200860403572207,0.00406424228864921,-0.000825654731301029
3,0.00406100147596078,-0.00107893282416427,0.994487981436171,-0.0237702417473464,0.994487981567352,-0.0237702415942316,0.00406003352233597,-0.00107432312010758
3.5,0.00404985233544064,-0.00131271124194399,0.994123689030929,-0.0273881838147503,0.994123689135893,-0.0273881837038807,0.00404903051737193,-0.0013071992177025
4,0.0040338020736046,-0.00153419046538339,0.993767262405698,-0.0309613970852904,0.993767262485389,-0.0309613970124847,0.00403316380569674,-0.0015277723832714
4.5,0.00401381944430623,-0.00174517445207378,0.993414338228446,-0.0345057270627915,0.993414338285719,-0.0345057270215463,0.004013390725774,-0.00173784540136168
5,0.0039904457470068,-0.00194661747100611,0.99305988603907,-0.0380321064695579,0.99305988607747,-0.038032106452917,0.0039902444715012,-0.00193837211903691
5.5,0.00396401913414524,-0.00213902593940318,0.992699238969216,-0.0415477448460067,0.992699238992255,-0.0415477448475219,0.00396405682196788,-0.00212985936890142
6,0.00393477578854551,-0.00232266642217027,0.992328451388426,-0.0450572148682227,0.992328451399255,-0.0450572148822932,0.00393505864092125,-0.00231257487467573
6.5,0.00390289945193656,-0.00249767974422177,0.991944339194337,-0.0485632922642747,0.991944339195636,-0.0485632922862624,0.00390342910452124,-0.00248666123327723
7,0.00386854721051821,-0.00266414629062517,0.991544394812586,-0.0520675568445625,0.991544394806565,-0.0520675568707141,0.00386932135142248,-0.00265220108295949
7.5,0.00383186348989617,-0.00282212434987805,0.991126668224923,-0.0555708053937209,0.99112666821338,-0.0555708054210466,0.00383287641474195,-0.00280925532140408
8,0.00379298778975667,-0.00297167278754884,0.990689652280579,-0.0590733289536907,0.990689652264963,-0.0590733289798422,0.00379423092334541,-0.00295788566336697
8.5,0.00375205889520602,-0.00311286421555224,0.990232185297578,-0.0625750966223873,0.990232185279056,-0.0625750966455341,0.00375352128909157,-0.00309816770421456
9,0.00370921700526639,-0.00324579219932897,0.989753373037003,-0.0660758764182994,0.989753373016516,-0.0660758764370248,0.00371088581112344,-0.00323019803264835
9.5,0.00366460458281048,-0.00337057463478985,0.989252528010446,-0.0695753143106792,0.98925252798876,-0.069575314323898,0.00366646549765459,-0.00335409752523042
10,0.00361836640175806,-0.00348735463262884,0.98872912295856,-0.0730729856211818,0.988729122936302,-0.0730729856280679,0.00362040408011843,-0.00347001216084131
10.5,0.00360459810782665,-0.0036530706919633,0.988240110266584,-0.0765358301552634,0.988240110243902,-0.0765358301606227,0.00360668061996094,-0.00363389174548079
11,0.00359118645078582,-0.0038179679453183,0.98774438921581,-0.0799847546499004,0.987744389192885,-0.0799847546537587,0.00359344877302525,-0.00379690336822769
11.5,0.00357824070760804,-0.00398210871456861,0.987242475987929,-0.0834207738675437,0.987242475964928,-0.0834207738699346,0.00358082478827471,-0.00395912444677382
12,0.00356586597509673,-0.00414556702455116,0.986734761035236,-0.0868448654714111,0.986734761012311,-0.0868448654723855,0.00356891874430615,-0.00412064501420684
12.5,0.00355416191047503,-0.00430842834062695,0.986221524510222,-0.0902579609091578,0.98622152448751,-0.0902579609087812,0.00355783315975694,-0.00428156717977846
13,0.00354322147495384,-0.00447078915665866,0.985702951023255,-0.0936609390952352,0.985702951000878,-0.0936609390935796,0.00354766164733494,-0.00444200441842835
13.5,0.00353312970063679,-0.00463275642907224,0.985179143453136,-0.0970546224399236,0.985179143431202,-0.0970546224370716,0.00353848763606907,-0.00460208069117396
14,0.00352396250252829,-0.00479444685594377,0.98465013564083,-0.100439774801083,0.984650135619429,-0.10043977479712,0.00353038318664606,-0.00476192940262621
14.5,0.00351578555824897,-0.00495598600347602,0.984115903880156,-0.103817100974263,0.984115903859366,-0.103817100969275,0.00352340792421471,-0.00492169220608574
15,0.00350865327829303,-0.00511750728606053,0.983576377182941,-0.107187247382344,0.983576377162829,-0.10718724737642,0.0035176081117545,-0.00508151767095466
15.5,0.00350260788915274,-0.00527915081010732,0.983031446342728,-0.110550803673005,0.983031446323347,-0.110550803666233,0.00351301588496533,-0.00524155983124075
16,0.00349767865041004,-0.00544106209553874,0.982480971853489,-0.113908304977993,0.982480971834883,-0.113908304970462,0.00350964866673023,-0.00540197663753084
16.5,0.00349388122488165,-0.00560339069279614,0.981924790760773,-0.117260234630865,0.981924790742973,-0.117260234622661,0.00350750877557651,-0.00556292833806094
17,0.00349121721817393,-0.00576628871642804,0.98136272253475,-0.120607027178119,0.981362722517782,-0.120607027169323,0.00350658323829819,-0.00572457581693353
17.5,0.00348967390058196,-0.005929909319347,0.980794574059965,-0.123949071552333,0.980794574043845,-0.123949071543028,0.00350684381221725,-0.00588707891918094
18,0.00348922412032712,-0.00609440513403925,0.980220143837067,-0.127286714304732,0.980220143821805,-0.12728671429499,0.00350824721757556,-0.00605059479312287
18.5,0.00348982641271055,-0.00625992670854503,0.979639225488823,-0.13062026281895,0.979639225474423,-0.130620262808844,0.00351073557545202,-0.00621527628027208
19,0.00349142530506852,-0.00642662096576929,0.979051610657522,-0.133949988447926,0.979051610643982,-0.133949988437525,0.0035142370416565,-0.00638127038194991
19.5,0.00349395181269382,-0.00659462971431113,0.978457091374331,-0.137276129532218,0.978457091361644,-0.137276129521585,0.00351866662236824,-0.00654871682954372
20,0.00349732411618538,-0.00676408823811325,0.977855461973876,-0.140598894271353,0.977855461962032,-0.140598894260548,0.00352392715312451,-0.00671774678270332
20.5,0.00350144840632718,-0.00693512399000484,0.977246520619903,-0.14391846343011,0.977246520608889,-0.14391846341919,0.00352991041923695,-0.00688848167590939
21,0.0035062198786609,-0.00710785541168946,0.976630070500498,-0.147234992869893,0.976630070490296,-0.147234992858908,0.00353649839294631,-0.00706103222991317
21.5,0.00351152385660924,-0.00728239089916194,0.976005920744341,-0.150548615901501,0.976005920734933,-0.150548615890499,0.00354356456072186,-0.00723549764000486
22,0.00351723701939294,-0.00745882792866581,0.975373887102972,-0.153859445460261,0.975373887094337,-0.153859445449285,0.00355097531308063,-0.00741196494831886
22.5,0.00352322870921018,-0.0076372523539856,0.974733792438038,-0.157167576107859,0.974733792430155,-0.157167576096952,0.00355859136916717,-0.00759050860279009
23,0.0035293622912014,-0.00781773788144902,0.974085467047147,-0.160473085867685,0.97408546703999,-0.160473085856881,0.00356626920902095,-0.00777119020089678
23.5,0.00353549653961135,-0.00800034572442465,0.973428748857095,-0.163776037901909,0.973428748850642,-0.163776037891243,0.00357386248793171,-0.00795405841207497
24,0.00354148702427431,-0.00818512443498465,0.972763483509047,-0.167076482039746,0.972763483503272,-0.167076482029247,0.00358122340936798,-0.00813914906914315
24.5,0.0035471874729878,-0.00837210990626636,0.972089524356462,-0.170374456166662,0.972089524351339,-0.170374456156359,0.00358820403560459,-0.00832648541582559
25,0.00355245108739516,-0.00856132553562539,0.971406732393368,-0.173669987484572,0.971406732388872,-0.173669987474487,0.00359465751818666,-0.00851607849504488
25.5,0.00355713179257619,-0.00875278253564549,0.970714976127753,-0.176963093652926,0.970714976123857,-0.176963093643082,0.00360043923360326,-0.00870792766077955
26,0.00356108540348429,-0.00894648037770374,0.970014131412424,-0.180253783820336,0.970014131409103,-0.180253783810754,0.00360540781291685,-0.00890202119508476
26.5,0.00356417069454401,-0.00914240735105265,0.969304081243637,-0.183542059555971,0.969304081240866,-0.183542059546665,0.00360942605740217,-0.0090983370113249
27,0.00356625036200178,-0.00934054121922934,0.968584715536004,-0.186827915689442,0.968584715533757,-0.186827915680429,0.00361236173546223,-0.00929684342469717
27.5,0.00356719187187149,-0.00954084995518434,0.9678559308807,-0.19011134106743,0.967855930878954,-0.190111341058721,0.00361408825903575,-0.00949749997159577
28,0.00356686818943686,-0.009743292536462,0.967117630292732,-0.19339231923463,0.96711763029146,-0.193392319226239,0.00361448524041724,-0.00970025826033449
28.5,0.00356515838916421,-0.00994781978247472,0.966369722951907,-0.196670829046157,0.966369722951087,-0.196670829038091,0.00361343893269439,-0.00990506283704207
29,0.0035619481464928,-0.010154375216743,0.965612123941326,-0.199946845217863,0.965612123940935,-0.199946845210128,0.00361084255902228,-0.0101118520520678
29.5,0.00355713011521036,-0.0103628959384143,0.964844753986355,-0.203220338820598,0.96484475398637,-0.203220338813204,0.00360659653746886,-0.0103205589139446
30,0.00355060419603859,-0.0105733134888042,0.964067539196514,-0.206491277723843,0.964067539196913,-0.206491277716792,0.00360060860942663,-0.0105311119197555
30.5,0.00354227770354909,-0.0107855547005467,0.963280410812098,-0.209759626993703,0.96328041081286,-0.209759626987,0.00359279388037798,-0.0107434358526053
31,0.00353206543966911,-0.0109995425186629,0.962483304956978,-0.213025349249785,0.962483304958083,-0.213025349243432,0.00358307478235198,-0.0109574525386553
31.5,0.00351988968283917,-0.0112151967847143,0.961676162398635,-0.21628840498506,0.961676162400063,-0.216288404979057,0.00357138096762433,-0.0111730815579221
32,0.00350568010232272,-0.0114324349770349,0.96085892831619,-0.219548752852434,0.960858928317922,-0.219548752846782,0.00355764914317114,-0.0113902409046314
32.5,0.0034893736073498,-0.0116511729016668,0.960031552076962,-0.222806349921353,0.96003155207898,-0.22280634991605,0.00354182285517485,-0.011608847594367
33,0.00347091414070122,-0.0118713253303104,0.959193987021884,-0.226061151907528,0.959193987024169,-0.226061151902575,0.00352385223244295,-0.0118288182165744
33.5,0.00345025242604141,-0.0120928065829276,0.958346190259927,-0.229313113378439,0.958346190262465,-0.229313113373833,0.00350369369709425,-0.0120500694320707
34,0.00342734567786929,-0.0123155310540337,0.957488122471615,-0.232562187937159,0.957488122474388,-0.232562187932895,0.00348130965019866,-0.0122725184162067
34.5,0.00340215728237908,-0.0125394136826764,0.95661974772153,-0.235808328386617,0.956619747724524,-0.235808328382694,0.00345666813940548,-0.0124960832491001
35,0.00337465645683693,-0.0127643703672033,0.955741033279704,-0.239051486876398,0.955741033282904,-0.23905148687281,0.00342974251483696,-0.0127206832550089
35.5,0.00334481789438607,-0.012990318326517,0.954851949451681,-0.242291615033778,0.954851949455073,-0.24229161503052,0.00340051107880451,-0.0129462392934037
36,0.00331262140041971,-0.0132171764102402,0.953952469417024,-0.245528664080653,0.953952469420594,-0.24552866407772,0.00336895673418869,-0.0131726740046543
36.5,0.0032780515259172,-0.0134448653606283,0.953042569075976,-0.248762584937791,0.953042569079713,-0.248762584935179,0.00333506663560973,-0.0133999120135053
37,0.00324109720239019,-0.0136733080294129,0.952122226903992,-0.251993328317709,0.952122226907883,-0.251993328315412,0.00329883184687141,-0.0136278800936518
37.5,0.00320175138238871,-0.0139024295529446,0.951191423813806,-0.255220844807329,0.951191423817841,-0.25522084480534,0.00326024700754551,-0.0138565072967936
38,0.00316001068883881,-0.0141321574891786,0.950250143024736,-0.25844508494147,0.950250143028904,-0.258445084939782,0.0032193100109959,-0.0140857250495328
38.5,0.0031158750758683,-0.0143624219200029,0.949298369938884,-0.261665999268102,0.949298369943175,-0.261665999266709,0.00317602169563869,-0.0143154672214054
39,0.00306934750321797,-0.0145931555224299,0.948336092023902,-0.264883538406212,0.948336092028307,-0.264883538405106,0.00313038555078843,-0.0145456701672328
39.5,0.00302043362582738,-0.0148242936120566,0.947363298702016,-0.268097653097041,0.947363298706527,-0.268097653096215,0.00308240743802485,-0.0147762727468428
40,0.00296914149973782,-0.0150557741620274,0.946379981244985,-0.271308294249342,0.946379981249593,-0.271308294248789,0.00303209532869431,-0.0150072163249879
40.5,0.00291548130505637,-0.0152875378006385,0.94538613267468,-0.274515412979311,0.945386132679377,-0.274515412979025,0.00297945905783858,-0.0152384447541689
41,0.00285946508639889,-0.0155195277904416,0.944381747668999,-0.277718960645697,0.944381747673777,-0.277718960645669,0.0029245100946142,-0.0154699043428137
41.5,0.00280110651093918,-0.0157516899915569,0.943366822472822,-0.280918888880598,0.943366822477676,-0.28091888888082,0.00286726132904003,-0.015701543811079
42,0.00274042064394386,-0.0159839728116691,0.942341354813738,-0.284115149616385,0.942341354818662,-0.28411514961685,0.00280772687476022,-0.0159333142363558
42.5,0.00267742374148944,-0.0162163271449569,0.941305343822272,-0.287307695109137,0.941305343827259,-0.287307695109838,0.00274592188735423,-0.0161651689903111
43,0.00261213305989122,-0.016448706302006,0.940258789956364,-0.290496477958954,0.94025878996141,-0.290496477959882,0.00268186239763624,-0.016397063669183
43.5,0.00254456668124708,-0.0166810659325274,0.939201694929865,-0.293681451127456,0.939201694934965,-0.293681451128604,0.00261556515929667,-0.0166289560187789
44,0.00247474335442627,-0.0169133639425183,0.938134061644821,-0.296862567952754,0.93813406164997,-0.296862567954115,0.00254704751018897,-0.0168608058555157
44.5,0.00240268235072727,-0.017145560407321,0.937055894127321,-0.300039782162161,0.937055894132516,-0.300039782163726,0.00247632724652291,-0.0170925749846531
45,0.00232840333343276,-0.0173776174818046,0.93596719746672,-0.303213047882852,0.935967197471958,-0.303213047884614,0.00240342250920095,-0.0173242271167318
45.5,0.00225192624041015,-0.0176094993088407,0.934867977758034,-0.306382319650706,0.934867977763311,-0.306382319652657,0.00232835168154555,-0.0175557277830829
46,0.00217327117894867,-0.0178411719269422,0.933758242047326,-0.309547552417491,0.933758242052638,-0.309547552419625,0.00225113329764026,-0.0177870442511585
46.5,0.00209245833197708,-0.018072603177949,0.932637998279914,-0.312708701556578,0.93263799828526,-0.312708701558888,0.00217178596054557,-0.0180181454403263
47,0.00200950787486026,-0.0183037626153972,0.931507255251242,-0.31586572286732,0.93150725525662,-0.315865722869798,0.00209032826965738,-0.0182490018386481
47.5,0.00192443990196028,-0.0185346214141862,0.930366022560254,-0.319018572578248,0.93036602256566,-0.319018572580886,0.00200677875649902,-0.018479585421102
48,0.00183727436220638,-0.0187651522819867,0.929214310565133,-0.32216720734918,0.929214310570567,-0.322167207351972,0.00192115582828617,-0.0187098695695975
48.5,0.00174803100291782,-0.0189953293728025,0.928052130341272,-0.325311584272381,0.928052130346733,-0.325311584275319,0.0018334777186032,-0.0189398289950835
49,0.0016567293211851,-0.0192251282029827,0.926879493641348,-0.32845166087285,0.926879493646833,-0.328451660875929,0.00174376244459712,-0.0191694396619881
49.5,0.00156338852214599,-0.019454525569919,0.925696412857372,-0.331587395107837,0.925696412862882,-0.33158739511105,0.00165202777011086,-0.0193986787151395
50,0.0014680274835201,-0.0196834994736219,0.924502900984627,-0.334718745365658,0.92450290099016,-0.334718745368998,0.00155829117421624,-0.0196275244093338
50.5,0.00137066472582559,-0.0199120290412873,0.923298971587357,-0.337845670463884,0.923298971592913,-0.337845670467345,0.00146256982464582,-0.0198559560415992
51,0.00127131838771966,-0.0201400944549464,0.922084638766136,-0.340968129646971,0.922084638771716,-0.340968129650548,0.00136488055566125,-0.0200839538862407
51.5,0.00117000620596208,-0.0203676768822483,0.920859917126811,-0.344086082583397,0.920859917132413,-0.344086082587082,0.00126523984991056,-0.0203114991326723
52,0.0010667454995279,-0.020594758410371,0.919624821750931,-0.347199489362325,0.919624821756556,-0.347199489366114,0.00116366382388994,-0.0205385738260357
52.5,0.000961553157430795,-0.0208213219830629,0.918379368167593,-0.350308310489886,0.91837936817324,-0.350308310493772,0.00106016821662885,-0.0207651608105874
53,0.000854445629865475,-0.0210473513407685,0.91712357232661,-0.353412506885085,0.917123572332281,-0.353412506889065,0.00095476838126024,-0.0209912436758148
53.5,0.000745438922295671,-0.0212728309637902,0.915857450572953,-0.356512039875392,0.915857450578647,-0.356512039879459,0.000847479279168895,-0.0212168067052183
54,0.000634548592148898,-0.0214977460184065,0.914581019622371,-0.359606871192041,0.914581019628088,-0.35960687119619,0.000738315476424833,-0.021441834827709
54.5,0.000521789747828461,-0.0217220823058746,0.913294296538157,-0.362696962965064,0.913294296543899,-0.36269696296929,0.000627291142248465,-0.0216663135715298
55,0.000407177049742025,-0.0219458262142274,0.911997298708975,-0.365782277718112,0.911997298714742,-0.365782277722411,0.000514420049262776,-0.0218902290206371
55.5,0.000290724713107648,-0.022168964672749,0.910690043827707,-0.368862778363052,0.9106900438335,-0.368862778367419,0.000399715575324366,-0.0221135677734385
56,0.000172446512310076,-0.0223914851090574,0.909372549871265,-0.371938428194395,0.909372549877084,-0.371938428198826,0.000283190706732772,-0.022336316903816
56.5,5.23557865916846E-005,-0.0226133754086579,0.908044835081318,-0.375009190883554,0.908044835087165,-0.375009190888044,0.000164858042640048,-0.0225584639243226
57,-6.95345531037672E-005,-0.0228346238768768,0.906706917945884,-0.378075030472962,0.906706917951759,-0.378075030477507,4.47298005044616E-005,-0.0227799967514788
57.5,-0.000193212016301458,-0.0230552192030749,0.905358817181755,-0.381135911370062,0.905358817187659,-0.38113591137466,-7.71821775586989E-005,-0.0230009036730605
58,-0.000318664524336376,-0.0232751504270097,0.904000551717703,-0.384191798341192,0.904000551723636,-0.384191798345837,-0.00020086641765843,-0.0232211733172978
58.5,-0.000445880400984533,-0.0234944069072625,0.902632140678434,-0.387242656505354,0.902632140684397,-0.387242656510044,-0.000326311806356894,-0.0234407946238857
59,-0.000574848362524694,-0.0237129782916143,0.901253603369259,-0.390288451327919,0.901253603375253,-0.39028845133265,-0.000453507582352963,-0.0236597568167152
59.5,-0.000705557507325594,-0.0239308544892836,0.899864959261436,-0.393329148614244,0.899864959267462,-0.393329148619012,-0.000582443327712456,-0.023878049378256
60,-0.000837997305054239,-0.0241480256448974,0.898466227978167,-0.39636471450322,0.898466227984226,-0.396364714508023,-0.000713108958723785,-0.0240956620254735
60.5,-0.000972157585591327,-0.0243644821141398,0.897057429281204,-0.399395115460785,0.897057429287296,-0.399395115465619,-0.000845494716465223,-0.0243125846872345
61,-0.00110802852773251,-0.0245802144409555,0.895638583058056,-0.402420318273363,0.895638583064181,-0.402420318278227,-0.000979591157132143,-0.0245288074830943
61.5,-0.0012456006477371,-0.0247952133362352,0.89420970930974,-0.405440290041286,0.8942097093159,-0.405440290046176,-0.00111538914220199,-0.0247443207034073
62,-0.00138486478777222,-0.0250094696578889,0.8927708281391,-0.408454998172164,0.892770828145295,-0.408454998177078,-0.00125287982846878,-0.0249591147906709
