"Freq [GHz]","re(St(P1,P1)) []","im(St(P1,P1)) []","re(St(P1,P2)) []","im(St(P1,P2)) []","re(St(P2,P1)) []","im(St(P2,P1)) []","re(St(P2,P2)) []","im(St(P2,P2)) []"
0,0.00382774322929436,0,0.996183860712335,0,0.996183860130259,0,0.00382774270576647,0
0.5,0.00421960875026883,0.000738375884857589,0.995756759818967,-0.00430649424060192,0.99575676021891,-0.0043064949852365,0.00421953731084557,0.000738626320469393
1,0.00459945118995009,0.000983359139322459,0.995307018309465,-0.00811193804634058,0.995307018613094,-0.00811193832688772,0.0045992756788813,0.000983950769377628
1.5,0.00482246427309718,0.00109053962410144,0.994973603147937,-0.0119795932487072,0.994973603311362,-0.0119795935410671,0.00482215740356651,0.00109148103626211
2,0.00494227655499735,0.00119391628480159,0.994627192513054,-0.0157204367045303,0.994627192574466,-0.0157204369545774,0.00494186440995925,0.00119526018419336
2.5,0.00501540011708279,0.00131494597712845,0.99430018422826,-0.019368991427708,0.994300184230204,-0.0193689916180517,0.00501490490441547,0.00131670443839482
3,0.00506713956190641,0.0014520712133681,0.993999416164023,-0.0229576859048279,0.993999416137419,-0.0229576860385237,0.00506657172644864,0.00145424380805181
3.5,0.00510893503030019,0.00160132628449539,0.993719387486124,-0.0265094839581881,0.993719387449331,-0.0265094840455831,0.00510829738478336,0.00160390940999378
4,0.00514636049852868,0.00175952401464663,0.993450861060452,-0.0300387604686367,0.993450861022948,-0.0300387605208812,0.00514565140743173,0.00176251355111035
4.5,0.00518235355215069,0.00192442679798432,0.993184796571746,-0.0335540335367668,0.993184796537728,-0.0335540335634867,0.00518156870464415,0.00192781879612802
5,0.00521857746533971,0.00209450084515339,0.992913672614122,-0.037060249227169,0.992913672584927,-0.037060249236001,0.0052177108207152,0.00209829164526809
5.5,0.00525603734239288,0.00226869039645017,0.992631672363613,-0.0405602672486491,0.992631672339164,-0.0405602672454588,0.00525508163639632,0.00227287659223308
6,0.00529537867743146,0.00244626029326156,0.992334468587451,-0.0440557372193151,0.992334468567046,-0.0440557372085468,0.00529432569443111,0.00245083866429319
6.5,0.00533704121492984,0.00262669246470537,0.992018917243224,-0.0475475960343257,0.992018917225947,-0.0475475960193439,0.00533588193105672,0.00263165991324499
7,0.00538134263221424,0.0028096183212849,0.991682772063605,-0.0510363482825209,0.99168277204853,-0.0510363482658853,0.00538006728438178,0.00281497182184864
7.5,0.00542852625079626,0.00299477413068949,0.991324451535562,-0.0545222266100058,0.991324451521846,-0.054522226593658,0.00542712436113657,0.00300051069272911
8,0.00547878939534163,0.00318197106367002,0.9909428595334,-0.0580052861728024,0.99094285952031,-0.0580052861582381,0.00547724976743358,0.0031880877054844
8.5,0.00553230089139545,0.00337107470476639,0.99053725139542,-0.0614854625265373,0.990537251382341,-0.0614854625149022,0.00553061158764567,0.00337756843671055
9,0.00558921223792108,0.00356199076597896,0.99010713562811,-0.0649626087157609,0.990107135614533,-0.0649626087079334,0.00558736054354303,0.00356885858129097
9.5,0.00564966497535435,0.00375465493572946,0.989652202487211,-0.0684365200802404,0.98965220247272,-0.0684365200769026,0.00564763735218887,0.00376189380777259
10,0.00571379570005648,0.00394902553196008,0.989172272408779,-0.0719069514703463,0.989172272393034,-0.0719069514720152,0.00571157773213038,0.00395663241708188
10.5,0.00579541641632286,0.00412754039445939,0.988726806675339,-0.0753671297855663,0.988726806659449,-0.0753671297869944,0.00579299559883784,0.00413551865025763
11,0.00588013676516891,0.00430352519449251,0.98827098980323,-0.0788153084414009,0.988270989787226,-0.0788153084425804,0.00587750050664093,0.00431187481778572
11.5,0.00596784870554617,0.00447691168808362,0.987805417104282,-0.0822520280594619,0.987805417088195,-0.0822520280603856,0.00596498416071178,0.00448563293805648
12,0.00605844282324308,0.00464763739161889,0.987330601521902,-0.0856778404722602,0.987330601505756,-0.085677840472929,0.00605533690588095,0.00465673081249385
12.5,0.00615180868328413,0.00481564555407665,0.986846978835717,-0.0890932998573142,0.986846978819538,-0.0890932998577263,0.0061484480808216,0.00482511199642666
13,0.00624783517263111,0.00498088510592076,0.986354913390133,-0.0924989552739275,0.986354913373946,-0.0924989552740847,0.00624420636235845,0.00499072574646586
13.5,0.00634641083159948,0.00514331058597151,0.985854704111016,-0.0958953445183921,0.985854704094844,-0.0958953445183015,0.00634250009832038,0.00515352694575544
14,0.00644742417258251,0.00530288204780671,0.985346590615886,-0.0992829891902556,0.98534659059975,-0.0992829891899225,0.00644321762751632,0.00531347600867793
14.5,0.00655076398483745,0.00545956494718336,0.984830759261937,-0.102662390849093,0.984830759245857,-0.102662390848527,0.00654624758559311,0.00547053876648818
15,0.00665631962429639,0.00561333001214415,0.984307349011713,-0.106034028135443,0.984307348995707,-0.106034028134653,0.00665147919573161,0.0056246863356062
15.5,0.00676398128750638,0.00576415309744949,0.983776457027514,-0.109398354729922,0.983776457011598,-0.109398354728916,0.0067588025432873,0.00577589497018938
16,0.00687364026900861,0.00591201502501715,0.98323814393255,-0.112755798029098,0.983238143916738,-0.11275579802789,0.00686810883368827,0.0059241459006989
16.5,0.00698518920160131,0.00605690141199799,0.982692438699246,-0.116106758424484,0.982692438683552,-0.116106758423081,0.0069792906330442,0.0060694251601392
17,0.00709852227912582,0.00619880248823312,0.98213934314345,-0.119451609080398,0.982139343127885,-0.119451609078813,0.00709224209110988,0.00621172339965792
17.5,0.00721353546154342,0.00633771290464447,0.981578836017754,-0.12279069611713,0.981578836002328,-0.122790696115375,0.00720685914637558,0.00635103569514506
18,0.0073301266622272,0.00647363153415981,0.981010876708347,-0.12612433911666,0.981010876693069,-0.126124339114746,0.00732303971322525,0.00648736134642025
18.5,0.0074481959175272,0.00660656126675718,0.98043540854811,-0.129452831878857,0.980435408532986,-0.129452831876796,0.00744068385122296,0.00662070367057943
19,0.00756764553877635,0.00673650880003418,0.979852361764553,-0.132776443366377,0.979852361749589,-0.13277644336418,0.00755969391671407,0.00675106979096896
19.5,0.0076883802470426,0.00686348442673124,0.979261656085167,-0.136095418785821,0.97926165607037,-0.136095418783502,0.00767997469704956,0.00687847042316481
20,0.00781030729100626,0.00698750182051722,0.978663203025099,-0.139409980761392,0.978663203010471,-0.139409980758956,0.00780143352783116,0.00700291965934241
20.5,0.00793333654844036,0.00710857782128693,0.978056907883168,-0.142720330564901,0.978056907868714,-0.14272033056236,0.0079239803936665,0.00712443475220859
21,0.00805738061186231,0.00722673222107906,0.977442671472472,-0.146026649372749,0.977442671458195,-0.146026649370115,0.00804752801300777,0.00724303589969377
21.5,0.00818235485896412,0.00734198755170512,0.976820391611247,-0.149329099526369,0.976820391597148,-0.149329099523652,0.00817199190770075,0.00735874603144859
22,0.00830817750849969,0.00745436887503725,0.976189964398666,-0.152627825777579,0.976189964384746,-0.152627825774786,0.0082972904579382,0.00747159059808
22.5,0.00843476966236584,0.00756390357681003,0.975551285298893,-0.155922956504646,0.975551285285153,-0.155922956501787,0.00842334494334399,0.00758159736404762
23,0.00856205533459964,0.00767062116472284,0.974904250055128,-0.159214604888356,0.974904250041567,-0.159214604885439,0.00855007957095255,0.00768879620493168
23.5,0.00868996146810566,0.00777455307156272,0.974248755453703,-0.162502870040337,0.974248755440322,-0.162502870037368,0.00867742149088255,0.00779321890985241
24,0.008818417939882,0.00787573246386453,0.973584699956576,-0.165787838078434,0.973584699943374,-0.165787838075421,0.00880530080049338,0.00789489898950935
24.5,0.00894735755555964,0.00797419405671107,0.972911984218838,-0.169069583145748,0.972911984205815,-0.169069583142698,0.00893365053785167,0.00799387149047126
25,0.00907671603406282,0.00806997393506137,0.972230511506245,-0.172348168371647,0.972230511493399,-0.172348168368567,0.0090624066653105,0.00809017281608915
25.5,0.00920643198317397,0.00816310938195963,0.971540188026175,-0.175623646774274,0.971540188013505,-0.17562364677117,0.00919150804401098,0.00818384055437971
26,0.00933644686680773,0.00825363871393314,0.970840923183978,-0.17889606210506,0.970840923171482,-0.178896062101936,0.00932089640010156,0.00827491331318253
26.5,0.0094667049647485,0.0083416011237798,0.970132629775314,-0.182165449636453,0.970132629762992,-0.182165449633313,0.00945051628344448,0.00836343056279487
27,0.00959715332561564,0.00842703653090071,0.969415224123849,-0.185431836894703,0.969415224111697,-0.185431836891552,0.00958031501957168,0.00844943248622831
27.5,0.00972774171376245,0.00850998543927561,0.96868862617251,-0.188695244339862,0.968688626160528,-0.188695244336706,0.00971024265561465,0.00853295983716995
28,0.0098584225508275,0.00859048880312008,0.967952759535544,-0.191955685995471,0.967952759523728,-0.191955685992313,0.00984025190091209,0.00861405380571467
28.5,0.0099891508525812,0.00866858790022729,0.967207551517629,-0.19521317003057,0.967207551505979,-0.195213170027414,0.00997029806296149,0.00869275589181262
29,0.0101198841617316,0.00874432421293969,0.966452933105555,-0.198467699296732,0.966452933094069,-0.19846769929358,0.0101003389793566,0.00876910778642603
29.5,0.0102505824772537,0.00881773931665331,0.965688838937176,-0.201719271822892,0.96568883892585,-0.201719271819748,0.01023033494631,0.00884315126026003
30,0.0103812081808426,0.0088888747757494,0.96491520725176,-0.204967881270672,0.964915207240594,-0.204967881267539,0.0103602486443317,0.00891492805996075
30.5,0.0105117259610039,0.0089577720467946,0.964131979825269,-0.208213517352871,0.96413197981426,-0.20821351734975,0.0104900450615934,0.00898447981163342
31,0.0106421027352765,0.0090244723888282,0.963339101893589,-0.211456166217702,0.963339101882736,-0.211456166214596,0.0106196914154784,0.00905184793146852
31.5,0.0107723075710582,0.00908901678054308,0.962536522066314,-0.214695810801244,0.962536522055615,-0.214695810798154,0.0107491570727766,0.00911707354330193
32,0.010902311605455,0.00915144584413197,0.961724192233292,-0.217932431150464,0.961724192222745,-0.217932431147394,0.0108784134689483,0.00918019740285159
32.5,0.0110320879645436,0.00921179977558895,0.960902067465816,-0.221166004719049,0.96090206745542,-0.221166004715998,0.0110074340268556,0.00924125982845458
33,0.0111616116824159,0.00927011828119229,0.960070105914044,-0.224396506638118,0.960070105903797,-0.224396506635089,0.0111361940753124,0.00930030063797371
33.5,0.0112908596203157,0.00932644051993714,0.959228268701985,-0.227623909963828,0.959228268691885,-0.227623909960822,0.0112646707677813,0.00935735909168622
34,0.0114198103861856,0.00938080505164884,0.95837651982117,-0.230848185903678,0.958376519811216,-0.230848185900695,0.0113928430015183,0.0094124738408552
34.5,0.0115484442548722,0.00943324979051829,0.957514826023951,-0.234069304023234,0.957514826014142,-0.234069304020276,0.0115206913374195,0.00946568288172767
35,0.0116767430892389,0.00948381196378012,0.956643156717169,-0.237287232434878,0.956643156707503,-0.237287232431945,0.0116481979208184,0.00951702351468775
35.5,0.0118046902623923,0.00953252807529381,0.955761483856856,-0.240501937970049,0.955761483847332,-0.240501937967143,0.0117753464034346,0.00956653230829763
36,0.0119322705812151,0.00957943387373383,0.954869781844456,-0.243713386336335,0.954869781835074,-0.243713386333456,0.0119021218666661,0.00961424506795949
36.5,0.0120594702113593,0.00962456432514647,0.953968027424994,-0.246921542260684,0.953968027415752,-0.246921542257832,0.0120285107463811,0.0096601968089336
37,0.012186276603853,0.00966795358961137,0.953056199587494,-0.250126369619899,0.953056199578391,-0.250126369617075,0.012154500759352,0.0097044217334572
37.5,0.0123126784234274,0.00970963500176403,0.952134279467924,-0.253327831559468,0.952134279458959,-0.253327831556672,0.0122800808314472,0.00974695321170693
38,0.0124386654786764,0.00974964105490495,0.951202250254826,-0.256525890601735,0.951202250246,-0.256525890598966,0.0124052410276817,0.00978782376635978
38.5,0.0125642286541277,0.00978800338851338,0.950260097097797,-0.259720508744291,0.950260097089108,-0.259720508741551,0.012529972484208,0.00982706506051589
39,0.0126893598442885,0.00982475277886352,0.949307807018875,-0.262911647549441,0.949307807010322,-0.26291164754673,0.012654267342311,0.00986470788874705
39.5,0.012814051889725,0.00985991913258499,0.94834536882692,-0.266099268225478,0.948345368818503,-0.266099268222795,0.0127781186844567,0.00990078217104795
40,0.0129382985152126,0.00989353148292471,0.947372773034995,-0.269283331700471,0.947372773026713,-0.269283331697817,0.0129015204724383,0.00993531694948868
40.5,0.0130620942699777,0.00992561798849523,0.946390011780738,-0.272463798689224,0.946390011772592,-0.272463798686599,0.0130244674876304,0.00996834038733452
41,0.0131854344700523,0.00995620593434277,0.945397078749728,-0.27564062975395,0.945397078741717,-0.275640629751354,0.0131469552733811,0.00999987977047723
41.5,0.0133083151427448,0.00998532173512356,0.944393969101778,-0.278813785359227,0.944393969093901,-0.278813785356661,0.0132689800795305,0.0100299615109489
42,0.01343073297322,0.0100129909402271,0.943380679400122,-0.281983225921715,0.943380679392381,-0.281983225919178,0.0133905388090608,0.0100586111523731
42.5,0.0135526852531793,0.0100392382406633,0.942357207543426,-0.285148911855069,0.942357207535819,-0.285148911852562,0.0135116289668566,0.0100858533771637
43,0.0136741698316197,0.0100640874775744,0.941323552700544,-0.28831080361048,0.941323552693071,-0.288310803608002,0.0136322486105602,0.0101117120153318
43.5,0.0137951850676515,0.0100875616521994,0.940279715247961,-0.291468861713179,0.940279715240623,-0.29146886171073,0.0137523963034937,0.0101362100547289
44,0.0139157297853361,0.0101096829371663,0.939225696709823,-0.294623046795296,0.939225696702619,-0.294623046792876,0.013872071069612,0.0101593696526026
44.5,0.0140358032305093,0.0101304726889662,0.938161499700475,-0.29777331962534,0.938161499693406,-0.297773319622949,0.0139912723504563,0.010181212148318
45,0.0141554050295617,0.010149951461498,0.937087127869424,-0.300919641134612,0.93708712786249,-0.300919641132252,0.0141099999640619,0.0102017580771314
45.5,0.0142745351501175,0.0101681390205464,0.936002585848634,-0.304061972440799,0.936002585841835,-0.304061972438468,0.0142282540657798,0.0102210271848926
46,0.0143931938635778,0.0101850543591135,0.934907879202068,-0.307200274868993,0.934907879195405,-0.307200274866691,0.0143460351109631,0.0102390384435693
46.5,0.0145113817094738,0.0102007157134689,0.933803014377395,-0.310334509970345,0.933803014370866,-0.310334509968073,0.0144633438194731,0.0102558100674917
47,0.0146290994615845,0.0102151405798476,0.932687998659758,-0.313464639538565,0.932687998653365,-0.313464639536323,0.0145801811419489,0.0102713595302188
47.5,0.0147463480957659,0.0102283457316998,0.931562840127551,-0.316590625624436,0.931562840121295,-0.316590625622225,0.014696548227794,0.0102857035819506
48,0.0148631287594381,0.0102403472373982,0.930427547610081,-0.319712430548527,0.930427547603961,-0.319712430546346,0.0148124463948205,0.0102988582673791
48.5,0.0149794427426816,0.0102511604783613,0.929282130647081,-0.322830016912218,0.929282130641097,-0.322830016910067,0.0149278771005105,0.0103108389439477
49,0.0150952914508866,0.0102608001674771,0.928126599449949,-0.325943347607233,0.928126599444102,-0.325943347605114,0.015042841914822,0.0103216603003893
49.5,0.0152106763789025,0.0102692803677991,0.926960964864682,-0.32905238582376,0.926960964858973,-0.329052385821672,0.0151573424945042,0.0103313363755411
50,0.0153255990866387,0.0102766145114404,0.925785238336401,-0.332157095057293,0.925785238330829,-0.332157095055236,0.0152713805588559,0.0103398805773234
50.5,0.0154400611760582,0.0102828154186123,0.924599431875409,-0.335257439114305,0.924599431869975,-0.33525743911228,0.0153849578668828,0.0103473057018761
51,0.0155540642695177,0.0102878953167609,0.923403558024719,-0.338353382116845,0.923403558019422,-0.338353382114852,0.0154980761957958,0.0103536239527611
51.5,0.0156676099893977,0.0102918658597537,0.922197629828975,-0.341444888506142,0.922197629823816,-0.341444888504183,0.0156107373208004,0.0103588469602169
52,0.0157806999389829,0.0102947381470708,0.920981660804724,-0.344531923045317,0.920981660799704,-0.34453192304339,0.0157229429961311,0.0103629858004124
52.5,0.0158933356845273,0.0102965227429768,0.919755664911957,-0.347614450821251,0.919755664907076,-0.347614450819359,0.0158346949372707,0.0103660510146513
53,0.0160055187384755,0.010297229695627,0.918519656526879,-0.350692437245704,0.918519656522137,-0.350692437243845,0.0159459948043237,0.0103680526285277
53.5,0.0161172505437748,0.010296868556074,0.917273650415851,-0.353765848055723,0.917273650411248,-0.353765848053899,0.0160568441864763,0.0103690001709553
54,0.0162285324592485,0.0102954483971662,0.916017661710443,-0.356834649313422,0.91601766170598,-0.356834649311634,0.0161672445875142,0.0103689026930864
54.5,0.0163393657459767,0.0102929778322849,0.914751705883569,-0.359898807405171,0.914751705879245,-0.359898807403419,0.0162771974123449,0.0103677687870665
55,0.0164497515546451,0.0102894650339329,0.913475798726635,-0.362958289040231,0.913475798722451,-0.362958289038516,0.0163867039544867,0.0103656066046252
55.5,0.0165596909138179,0.010284917752114,0.912189956327668,-0.366013061248923,0.912189956323624,-0.366013061247245,0.0164957653844742,0.0103624238754556
56,0.0166691847191025,0.0102793433325259,0.910894195050386,-0.369063091380315,0.910894195046482,-0.369063091378676,0.0166043827391549,0.0103582279254006
56.5,0.0167782337231573,0.0102727487345202,0.909588531514162,-0.372108347099513,0.909588531510397,-0.372108347097912,0.016712556911824,0.0103530256944
57,0.0168868385265115,0.0102651405488325,0.908272982574842,-0.375148796384557,0.908272982571217,-0.375148796382997,0.0168202886431671,0.0103468237541986
57.5,0.0169949995691608,0.0102565250150664,0.906947565306395,-0.378184407522984,0.906947565302909,-0.378184407521464,0.0169275785129757,0.0103396283258097
58,0.0171027171229053,0.0102469080389196,0.90561229698334,-0.381215149108052,0.905612296979993,-0.381215149106572,0.0170344269325982,0.0103314452967074
58.5,0.017209991284392,0.0102362952091435,0.904267195063935,-0.384240990034685,0.904267195060727,-0.384240990033247,0.0171408341380958,0.0103222802377534
59,0.0173168219688391,0.0102246918142335,0.902912277174089,-0.387261899495146,0.902912277171019,-0.387261899493752,0.0172468001840693,0.010312138419849
59.5,0.0174232089043987,0.0102121028588344,0.901547561091961,-0.390277846974467,0.90154756108903,-0.390277846973117,0.0173523249381293,0.0103010248302955
60,0.0175291516271469,0.0101985330798642,0.900173064733238,-0.39328880224565,0.900173064730446,-0.393288802244344,0.0174574080759785,0.0102889441888738
60.5,0.0176346494766558,0.0101839869623519,0.898788806137043,-0.396294735364672,0.898788806134388,-0.396294735363412,0.0175620490770815,0.0102759009636249
61,0.0177397015921323,0.010168468754973,0.897394803452454,-0.399295616665298,0.897394803449935,-0.399295616664084,0.0176662472208899,0.0102618993863357
61.5,0.0178443069090948,0.0101519824853042,0.895991074925626,-0.402291416753728,0.895991074923243,-0.40229141675256,0.0177700015836071,0.0102469434677361
62,0.0179484641565622,0.0101345319747665,0.894577638887467,-0.405282106503087,0.894577638885219,-0.405282106501967,0.0178733110354553,0.010231037012377
62.5,0.0180521718547375,0.010116120853281,0.893154513741869,-0.408267657047785,0.893154513739755,-0.408267657046714,0.0179761742384377,0.0102141836332275
63,0.0181554283131564,0.0100967525736169,0.891721717954456,-0.411248039777742,0.891721717952477,-0.411248039776721,0.0180785896445558,0.0101963867659527
