"Freq [GHz]","re(St(P1,P1)) []","im(St(P1,P1)) []","re(St(P1,P2)) []","im(St(P1,P2)) []","re(St(P2,P1)) []","im(St(P2,P1)) []","re(St(P2,P2)) []","im(St(P2,P2)) []"
0,0.00290633904913307,0,0.997103037938359,0,0.997103046218399,0,0.00290634884456153,0
0.5,0.00324468659929522,0.000421046763321442,0.996691045292884,-0.0045946542550368,0.99669104450458,-0.00459465194128938,0.00324465222023917,0.000420927632859502
1,0.00356208480634379,0.000392229835625812,0.996196452391136,-0.0087148691090988,0.996196452188485,-0.00871486927871956,0.00356196060540981,0.000391979468147952
1.5,0.00354598753873603,0.000600719180621212,0.99587360608558,-0.0129233955559975,0.995873605932285,-0.0129233957616925,0.00354617223322862,0.000600113463146812
2,0.00352654574322919,0.000829757493413297,0.995473345273634,-0.0169957449040616,0.995473345168413,-0.0169957451110427,0.00352735940480997,0.000828413069328349
2.5,0.00350898762528562,0.00110065304998486,0.995027278403446,-0.0209353600145619,0.995027278337526,-0.0209353601985356,0.0035111169200519,0.00109774540339203
3,0.00350720145640793,0.00146637549015338,0.994559457799585,-0.024760502982847,0.994559457761897,-0.0247605031315423,0.00351238000394183,0.00145974672341254
3.5,0.003575101072399,0.00210367706970338,0.994085130274823,-0.028494915798646,0.994085130255251,-0.0284949159091621,0.00358923953816559,0.00208496804157576
4,0.00423408694372407,0.00414567784452657,0.993612087925028,-0.0321616321136418,0.99361208791566,-0.032161632188771,0.00429374831186902,0.00402710804506512
4.5,0.00470409408336003,-0.00616597040726496,0.99314288761752,-0.0357800517135072,0.993142887612724,-0.0357800517587545,0.00518961834345166,-0.00616767832416087
5,0.00300958985515898,-0.000818582758222774,0.992676903546357,-0.0393652001279179,0.992676903542379,-0.039365200149577,0.0030216140259034,-0.000829126110559741
5.5,0.00292873007295724,6.24024160504888E-005,0.992211843128286,-0.0429280898383482,0.992211843122734,-0.0429280898424587,0.00292517933560443,6.183750403288E-005
6,0.00286327083482685,0.000458722722342486,0.991744724730435,-0.0464764743317225,0.991744724721863,-0.0464764743235921,0.0028564955028183,0.00046045449249732
6.5,0.00279258621148815,0.000701637392300114,0.991272445632016,-0.050015632752908,0.991272445619599,-0.0500156327369918,0.00278460213595233,0.0007040331861905
7,0.00271735648342109,0.000873683941621906,0.990792078413502,-0.0535490406014443,0.990792078396808,-0.0535490405813572,0.00270873271161975,0.000876206948927205
7.5,0.00263914943176746,0.00100531361275102,0.990301002991507,-0.0570788925477608,0.990301002970345,-0.0570788925263894,0.00263010645881878,0.00100773518598984
8,0.00255922144624132,0.00111050944043534,0.989796946325737,-0.0606064898217813,0.989796946300066,-0.0606064898013905,0.00254986952919212,0.00111271408129365
8.5,0.0024785299273693,0.0011967084193838,0.98927797424769,-0.064132518781955,0.989277974217549,-0.0641325187643211,0.0024689381269497,0.0011986310575427
9,0.00239781550061213,0.00126832596473037,0.988742461224122,-0.0676572475884951,0.988742461189595,-0.0676572475749806,0.00238803540690991,0.00126992785044333
9.5,0.00231766051631399,0.00132822438107461,0.988189052256382,-0.0711806634602175,0.988189052217569,-0.071180663451873,0.00230773527178263,0.00132948244323838
10,0.00223852659853035,0.00137839822420105,0.987616624258193,-0.0747025677381457,0.987616624215201,-0.0747025677357698,0.00222849450834112,0.00137929976429252
10.5,0.002296695166628,0.00144505530318018,0.987077128947262,-0.0781824678334706,0.987077128904498,-0.0781824678274425,0.00230548776886913,0.00147725689332745
11,0.00235842094366484,0.00151188729461449,0.986534859000595,-0.0816468158012329,0.98653485895843,-0.0816468157917267,0.0023831681970074,0.00157753364142188
11.5,0.00242376859576271,0.00157903621980626,0.98599013315274,-0.0850971061079626,0.9859901331115,-0.0850971060951853,0.00246134769538442,0.00167994521674775
12,0.00249279132936631,0.00164666480765074,0.985443115230217,-0.0885347281844862,0.985443115190179,-0.0885347281686624,0.00253986008944185,0.0017843001016864
12.5,0.00256552723654063,0.00171495672691524,0.984893841018282,-0.0919609620033839,0.984893840979682,-0.0919609619847499,0.00261856041569503,0.00189040271494978
13,0.00264199524269867,0.00178411625785468,0.984342242249026,-0.0953769773018509,0.984342242212058,-0.0953769772806501,0.0026973239677123,0.00199805578755186
13.5,0.00272219071938648,0.00185436726175681,0.98378816766383,-0.098783835545972,0.98378816762865,-0.0987838355224513,0.00277604515807162,0.00210706244842473
14,0.00280608086521997,0.00192595130317041,0.983231401238375,-0.102182493876462,0.983231401205108,-0.102182493850869,0.002854636248982,0.00221722802378643
14.5,0.00289360000496171,0.00199912478664377,0.982671677746579,-0.105573810413429,0.982671677715315,-0.105573810386,0.00293302599800119,0.00232836156122751
15,0.00298464500782596,0.00207415499018104,0.982108695891532,-0.108958550422889,0.982108695862336,-0.108958550393855,0.00301115825885834,0.0024402770943448
15.5,0.00307907107775496,0.00215131491512111,0.981542129256328,-0.112337392957136,0.98154212922924,-0.112337392926722,0.0030889905709747,0.00255279466720992
16,0.00317668821518265,0.00223087692895696,0.980971635333208,-0.11571093767393,0.980971635308248,-0.115710937642342,0.0031664927652451,0.00266574114005724
16.5,0.0032772586847761,0.00231310525430972,0.980396862881965,-0.119079711616363,0.980396862859135,-0.119079711583802,0.00324364560801832,0.00277895079854451
17,0.00338049583877862,0.00239824745232076,0.979817457852936,-0.12244417579748,0.979817457832221,-0.122444175764131,0.00332043950017101,0.00289226578918855
17.5,0.00348606463259675,0.00248652515689463,0.979233068089519,-0.125804731483156,0.979233068070893,-0.125804731449195,0.003396873243738,0.00300553640295576
18,0.00359358412108299,0.00257812442889049,0.97864334700274,-0.12916172610518,0.978643346986164,-0.129161726070766,0.00347295288472705,0.00311862122804429
18.5,0.00370263213626564,0.00267318620435208,0.978047956387517,-0.132515458765837,0.978047956372944,-0.132515458731123,0.00354869063751097,0.00323138719150817
19,0.00381275222031729,0.00277179739332611,0.977446568528247,-0.135866185317147,0.977446568515621,-0.135866185282268,0.00362410389353757,0.00334370950787655
19.5,0.00392346272758781,0.00287398323016053,0.976838867720729,-0.139214123013953,0.976838867709989,-0.139214122979034,0.00369921431490475,0.00345547155110015
20,0.00403426782935198,0.00297970146898097,0.976224551318719,-0.142559454751214,0.9762245513098,-0.142559454716372,0.00377404701166571,0.0035665646646228
20.5,0.00414466997326912,0.00308883895030432,0.9756033303967,-0.145902332903598,0.975603330389533,-0.145902332868936,0.0038486298003968,0.00367688792253196
21,0.00425418318891185,0.00320121093541292,0.974974930105718,-0.149242882790224,0.974974930100229,-0.149242882755836,0.00392299254059272,0.003786347853171
21.5,0.0043623465140698,0.00331656342235753,0.974339089786408,-0.152581205790271,0.974339089782523,-0.152581205756243,0.00399716654476384,0.00389485813512325
22,0.0044687367629638,0.00343457843825234,0.973695562892314,-0.155917382136355,0.973695562889959,-0.155917382102763,0.00407118405765944,0.00400233927391902
22.5,0.0045729798785607,0.0035548820718776,0.973044116767259,-0.159251473412728,0.973044116766358,-0.159251473379641,0.00414507779977338,0.00410871826670034
23,0.00467476020775673,0.00367705479598257,0.972384532312592,-0.16258352478478,0.972384532313068,-0.162583524752257,0.00421888057019607,0.0042139282607816
23.5,0.00477382720001823,0.00380064345703302,0.971716603573449,-0.165913566985115,0.971716603575227,-0.165913566953212,0.00429262490387247,0.00431790821106359
24,0.0048699992372136,0.00392517420165195,0.971040137267615,-0.169241618080064,0.97104013727062,-0.169241618048829,0.00436634277844772,0.00442060254036569
24.5,0.00496316452856266,0.00405016557462679,0.970354952275914,-0.172567685038832,0.970354952280073,-0.172567685008303,0.00444006536604075,0.00452196080589795
25,0.00505327922251389,0.00417514106264516,0.969660879109187,-0.175891765125716,0.969660879114427,-0.175891765095931,0.00451382282552668,0.00462193737445205
25.5,0.00514036307247664,0.00429964046032083,0.968957759363795,-0.179213847134177,0.968957759370044,-0.179213847105165,0.00458764413113436,0.00472049110825967
26,0.00522449312861409,0.00442322958247443,0.968245445174922,-0.182533912479752,0.968245445182112,-0.182533912451539,0.00466155693347095,0.00481758506300034
26.5,0.00530579600475004,0.0045455080170429,0.967523798674881,-0.185851936167248,0.967523798682944,-0.185851936139854,0.0047355874493348,0.00491318619897463
27,0.00538443928847654,0.00466611478496137,0.966792691461845,-0.189167887646103,0.966792691470715,-0.189167887619545,0.00480976037699365,0.00500726510614991
27.5,0.0054606226313389,0.00478473192874196,0.966052004083059,-0.19248173156639,0.966052004092674,-0.192481731540683,0.00488409883385393,0.00509979574343955
28,0.00553456898705146,0.00490108617764307,0.965301625535444,-0.195793428446633,0.96530162554574,-0.195793428421785,0.00495862431373945,0.00519075519238932
28.5,0.00560651637331949,0.0050149489279594,0.964541452785594,-0.199102935263401,0.964541452796511,-0.199102935239418,0.00503335666124305,0.00528012342520645
29,0.00567671043082052,0.00512613483095592,0.963771390310475,-0.202410205971604,0.963771390321957,-0.202410205948491,0.0051083140608682,0.00536788308691971
29.5,0.00574539795285112,0.00523449930198039,0.96299134965953,-0.205715191963384,0.96299134967152,-0.205715191941142,0.00518351303888864,0.00545401929135902
30,0.00581282146936057,0.00533993525826926,0.962201249038479,-0.209017842472634,0.962201249050923,-0.209017842451261,0.00525896847609869,0.00553851943052086
30.5,0.005879214894776,0.00544236936728204,0.961401012914749,-0.212318104931431,0.961401012927597,-0.212318104910926,0.00533469362978301,0.00562137299680954
31,0.00594480019219362,0.00554175804941304,0.960590571644213,-0.21561592528387,0.960590571657415,-0.215615925264225,0.00541070016345147,0.00570257141765529
31.5,0.00600978496699933,0.00563808343485306,0.959769861118708,-0.218911248262246,0.959769861132215,-0.218911248243453,0.0054869981830275,0.00578210790187006
32,0.00607436087900609,0.00573134942942399,0.958938822433676,-0.222204017629924,0.958938822447444,-0.222204017611977,0.00556359627833913,0.00585997729720056
32.5,0.0061387027511402,0.00582157800186378,0.958097401575171,-0.225494176394757,0.958097401589155,-0.225494176377644,0.00564050156889262,0.00593617595841422
33,0.00620296825155642,0.00590880576771546,0.957245549125388,-0.228781666996432,0.957245549139547,-0.22878166698014,0.00571771975304097,0.00601070162536077
33.5,0.00626729803205012,0.00599308091350803,0.956383219985864,-0.232066431470798,0.956383220000157,-0.232066431455316,0.00579525515975449,0.00608355331035648
34,0.00633181621616197,0.00607446047999516,0.955510373117445,-0.235348411593807,0.955510373131836,-0.23534841157912,0.005873110802327,0.00615473119436549
34.5,0.00639663114343714,0.00615300800408414,0.95462697129615,-0.238627549007455,0.954626971310601,-0.238627548993548,0.00595128843340592,0.00622423653132387
35,0.006461836290307,0.00622879150552369,0.953732980884027,-0.24190378532979,0.953732980898503,-0.241903785316647,0.00602978860085007,0.00629207156013378
35.5,0.00652751130190171,0.00630188179515145,0.952828371614164,-0.245177062250842,0.952828371628633,-0.245177062238445,0.00610861070396501,0.00635823942374159
36,0.00659372308200734,0.00637235107609468,0.951913116389008,-0.248447321616102,0.951913116403438,-0.248447321604435,0.00618775304973568,0.00642274409481503
36.5,0.00666052689998498,0.00644027180657436,0.950987191091182,-0.251714505498993,0.950987191105543,-0.251714505488037,0.00626721290874599,0.00648559030754892
37,0.00672796748348287,0.00650571579242221,0.950050574406044,-0.254978556263612,0.950050574420308,-0.254978556253348,0.00634698657049926,0.00654678349511872
37.5,0.00679608007424837,0.00656875347826014,0.949103247655235,-0.258239416618869,0.949103247669375,-0.258239416609279,0.00642706939792043,0.00660632973236508
38,0.00686489143130237,0.00662945340820653,0.948145194640537,-0.261497029665022,0.948145194654529,-0.261497029656086,0.00650745588085028,0.00666423568331265
38.5,0.00693442077132145,0.00668788182936964,0.947176401497367,-0.26475133893349,0.947176401511186,-0.264751338925187,0.00658813968837002,0.00672050855312945
39,0.00700468064044341,0.00674410241414813,0.946196856557286,-0.268002288420728,0.946196856570908,-0.268002288413039,0.00666911371983714,0.00677515604417223
39.5,0.00707567771508577,0.00679817608016919,0.94520655021894,-0.271249822616859,0.945206550232346,-0.271249822609763,0.00675037015452884,0.00682818631580284
40,0.00714741353184933,0.00685016088944557,0.944205474826881,-0.274493886529662,0.94420547484005,-0.274493886523137,0.00683190049981858,0.00687960794764009
40.5,0.00721988514837396,0.00690011201091534,0.943193624557746,-0.277734425704477,0.94319362457066,-0.277734425698503,0.00691369563782351,0.00692942990597878
41,0.00729308573826498,0.00694808173293882,0.942170995313312,-0.28097138624049,0.942170995325955,-0.280971386235047,0.00699574587048962,0.00697766151310542
41.5,0.00736700512401689,0.00699411951441653,0.941137584619979,-0.284204714803827,0.941137584632332,-0.284204714798894,0.00707804096308229,0.00702431241925949
42,0.00744163025229955,0.00703827206512764,0.94009339153424,-0.287434358637847,0.94009339154629,-0.2874343586334,0.00716057018607102,0.00706939257700934
42.5,0.00751694561622279,0.00708058344750917,0.939038416553769,-0.290660265570938,0.9390384165655,-0.290660265566959,0.00724332235540592,0.00711291221782684
43,0.00759293362920166,0.00712109519353543,0.937972661533731,-0.293882384022144,0.937972661545131,-0.293882384018611,0.00732628587119427,0.00715488183069368
43.5,0.00766957495493648,0.00715984643154277,0.936896129607988,-0.297100663004862,0.936896129619047,-0.297100663001755,0.00740944875478611,0.00719531214250657
44,0.00774684879785464,0.00719687401890257,0.935808825114874,-0.30031505212884,0.93580882512558,-0.300315052126138,0.00749279868429636,0.00723421410017555
44.5,0.00782473315807175,0.00723221267726593,0.934710753527236,-0.303525501600701,0.934710753537578,-0.303525501598383,0.0075763230285818,0.00727159885420958
45,0.0079032050546804,0.00726589512786036,0.933601921386467,-0.306731962223144,0.933601921396438,-0.306731962221189,0.0076600088797123,0.00730747774368945
45.5,0.00798224072084697,0.00729795222486351,0.932482336240281,-0.309934385393016,0.932482336249871,-0.309934385391405,0.00774384308395992,0.00734186228247657
46,0.00806181577390341,0.00732841308539944,0.931352006583964,-0.313132723098364,0.931352006593168,-0.313132723097076,0.00782781227135082,0.00737476414655114
46.5,0.00814190536332216,0.00735730521506217,0.930210941804907,-0.316326927914624,0.930210941813718,-0.316326927913639,0.00791190288381138,0.00740619516235475
47,0.00822248429918143,0.00738465462824478,0.929059152130188,-0.31951695300003,0.9290591521386,-0.319516952999328,0.00799610120196087,0.00743616729607832
47.5,0.00830352716345062,0.00741048596271932,0.927896648577023,-0.322702752090361,0.927896648585032,-0.322702752089923,0.00808039337057415,0.00746469264375382
48,0.00838500840617856,0.00743482258820816,0.926723442905896,-0.325884279493113,0.926723442913498,-0.325884279492919,0.00816476542277533,0.00749178342211354
48.5,0.00846690242845038,0.00745768670877101,0.925539547576208,-0.329061490081153,0.9255395475834,-0.329061490081185,0.00824920330298928,0.00751745196010511
49,0.00854918365375212,0.00747909945902014,0.92434497570429,-0.332234339285947,0.924344975711068,-0.332234339286187,0.00833369288871033,0.00754171069103671
49.5,0.00863182658919892,0.00749908099418994,0.923139741023608,-0.335402783090415,0.923139741029973,-0.335402783090843,0.00841822001110953,0.00756457214524198
50,0.00871480587792284,0.00751765057425935,0.921923857847078,-0.338566778021448,0.921923857853027,-0.338566778022049,0.00850277047454723,0.00758604894325754
50.5,0.00879809634374318,0.00753482664226413,0.9206973410313,-0.341726281142173,0.920697341036834,-0.341726281142927,0.008587330075009,0.00760615378942076
51,0.0088816730291183,0.00755062689707975,0.919460205942649,-0.344881250043961,0.919460205947768,-0.344881250044851,0.00867188461752438,0.00762489946587031
51.5,0.00896551122726585,0.00756506836089788,0.91821246842508,-0.348031642838248,0.918212468429785,-0.348031642839257,0.00875641993260179,0.00764229882690581
52,0.00904958650919535,0.00757816744166928,0.916954144769556,-0.351177418148197,0.916954144773848,-0.35117741814931,0.00884092189171193,0.00765836479364457
52.5,0.00913387474635252,0.00758993999080504,0.915685251685006,-0.354318535100206,0.915685251688888,-0.354318535101406,0.00892537642187241,0.00767311034898044
53,0.00921835212943856,0.00760040135639373,0.914405806270726,-0.35745495331532,0.914405806274199,-0.357454953316591,0.00900976951936133,0.00768654853278283
53.5,0.00930299518393163,0.00760956643222199,0.913115825990123,-0.360586632900539,0.913115825993191,-0.360586632901866,0.00909408726259481,0.00769869243732324
54,0.00938778078275632,0.00761744970285938,0.91181532864576,-0.363713534440068,0.911815328648426,-0.363713534441436,0.00917831582421286,0.00770955520290628
54.5,0.00947268615648933,0.00762406528506743,0.91050433235559,-0.366835618986501,0.910504332357858,-0.366835618987897,0.00926244148239791,0.00771915001367951
55,0.00955768890143566,0.00762942696578706,0.909182855530341,-0.369952848051977,0.909182855532216,-0.369952848053385,0.00934645063146716,0.00772749009360307
55.5,0.00964276698588695,0.00763354823693607,0.907850916851982,-0.373065183599288,0.907850916853469,-0.373065183600695,0.00943032979176417,0.00773458870256483
56,0.00972789875480279,0.00763644232723926,0.906508535253203,-0.376172588033001,0.906508535254307,-0.376172588034394,0.00951406561888335,0.00774045913262356
56.5,0.0098130629331441,0.00763812223131333,0.905155729897866,-0.379275024190556,0.905155729898593,-0.379275024191923,0.00959764491225779,0.00774511470436545
57,0.00989823862806027,0.00763860073620348,0.903792520162373,-0.382372455333359,0.903792520162728,-0.382372455334687,0.00968105462314023,0.00774856876337493
57.5,0.00998340533008102,0.00763789044555097,0.902418925617896,-0.38546484513791,0.902418925617887,-0.385464845139186,0.00976428186199935,0.00775083467678561
58,0.0100685429134782,0.00763600380158103,0.901034966013438,-0.388552157686924,0.901034966013072,-0.388552157688138,0.00984731390536192,0.00775192582992346
58.5,0.010153631635906,0.0076329531050725,0.899640661259677,-0.39163435746049,0.89964066125896,-0.39163435746163,0.00993013820212907,0.00775185562302982
59,0.0102386521374382,0.00762875053345091,0.898236031413544,-0.394711409327245,0.898236031412482,-0.394711409328302,0.0100127423793834,0.00775063746804761
59.5,0.0103235854390956,0.00762340815716511,0.896821096663516,-0.397783278535592,0.896821096662119,-0.397783278536555,0.0100951142477175,0.00774828478547795
60,0.01040841294094,0.0076169379544675,0.895395877315586,-0.400849930704939,0.895395877313861,-0.400849930705798,0.0101772418061027,0.00774481100129232
60.5,0.0104931164198079,0.00760935182473355,0.893960393779867,-0.403911331816987,0.893960393777822,-0.403911331817734,0.0102591132463229,0.00774022954390485
61,0.0105776780267466,0.00760066160041517,0.892514666557809,-0.406967448207051,0.892514666555453,-0.406967448207677,0.0103407169569882,0.00773455384119437
61.5,0.0106620802841916,0.00759087905775768,0.891058716230002,-0.410018246555429,0.891058716227344,-0.410018246555925,0.0104220415271584,0.00772779731756845
62,0.0107463060829466,0.00758001592636393,0.889592563444541,-0.413063693878809,0.889592563441588,-0.41306369387917,0.0105030757495815,0.00771997339108998
62.5,0.0108303386789895,0.00756808389769503,0.888116228905909,-0.416103757521734,0.888116228902672,-0.41610375752195,0.0105838086235818,0.00771109547063431
