"Freq [GHz]","re(St(P1,P1)) []","im(St(P1,P1)) []","re(St(P1,P2)) []","im(St(P1,P2)) []","re(St(P2,P1)) []","im(St(P2,P1)) []","re(St(P2,P2)) []","im(St(P2,P2)) []"
0,0.00386750626728372,0,0.99614306150761,0,0.996143050171668,0,0.00386749388337648,0
0.5,0.0042702948910005,0.000743885289764989,0.995660456840731,-0.00579710716159809,0.995660461924579,-0.00579710710997716,0.00427024011233357,0.000744050411665143
1,0.00462370038823678,0.000974966595638449,0.995109322399905,-0.011054980428618,0.995109324301058,-0.0110549832097639,0.00462355181254281,0.00097534908563901
1.5,0.00444305223000185,0.00114762302795057,0.994656256539169,-0.0164062392421265,0.994656257404923,-0.0164062425534581,0.00444264804936267,0.00114879952436198
2,0.00435251800688796,0.00131630757240941,0.994120042231387,-0.021604890010579,0.994120042217363,-0.0216048932790649,0.00435181018888997,0.00131790803914811
2.5,0.00430573497527575,0.00150250931242724,0.993549416521258,-0.0266622101701834,0.993549415940764,-0.0266622130267464,0.00430480734158412,0.00150439648638034
3,0.00428111229598827,0.0017070043140297,0.992973658775899,-0.0316030310569833,0.992973657947915,-0.0316030333358412,0.00428003359956541,0.00170913889195035
3.5,0.00426860010011598,0.00192799238585017,0.992405143301518,-0.0364542257178258,0.992405142471148,-0.0364542273942838,0.00426741485857463,0.00193037102964055
4,0.00426310539337171,0.00216420016663221,0.991845121655028,-0.0412389315537229,0.99184512097512,-0.0412389326797982,0.00426184129512386,0.00216683344537216
4.5,0.0042617464108381,0.00241518758048542,0.991288946889448,-0.0459749282233428,0.991288946433566,-0.0459749288832558,0.00426042050551012,0.0024180922803172
5,0.00426266489517424,0.00268121362715235,0.990729603643652,-0.0506750439999895,0.990729603428328,-0.0506750442853896,0.00426128740801213,0.00268441016056187
5.5,0.00426446878943176,0.00296309050538746,0.990159711857655,-0.0553482067271087,0.990159711863276,-0.0553482067255313,0.00426304531582611,0.00296660223218481
6,0.00426594173850448,0.0032620876715157,0.989572500379003,-0.0600004969487653,0.989572500565865,-0.0600004967393568,0.00426447445164735,0.00326594100253441
6.5,0.00426586916775751,0.00357988124968056,0.988962182220124,-0.0646359923958757,0.98896218253948,-0.0646359920485189,0.00426435741222087,0.00358410612309346
7,0.00426291365460441,0.00391853669391384,0.988324018447555,-0.0692573831873435,0.988324018848661,-0.0692573827631557,0.00426135412203854,0.00392316728070963
7.5,0.00425550594413437,0.00428051514340133,0.987654238281059,-0.0738663997807869,0.987654238715324,-0.0738663993330428,0.00425389251924191,0.00428559074494395
8,0.00424173178949305,0.00466869685568483,0.986949905342458,-0.078464104722606,0.986949905765635,-0.0784641042976597,0.00424005508391034,0.00467426300321527
8.5,0.00421919995757536,0.00508641679988564,0.986208774796112,-0.0830510906576665,0.986208775169242,-0.0830510902957924,0.00421744649446493,0.00509252658946302
9,0.00418487758396918,0.005537507762293,0.98542916150798,-0.0876276154827034,0.985429161797564,-0.0876276152188007,0.00418302854242253,0.00554422347215677
9.5,0.00413487728614825,0.006026345008042,0.984609826633111,-0.0921936957290939,0.984609826810854,-0.0921936955932958,0.00413290665031935,0.00603374005178825
10,0.00406417665175277,0.00655788316164596,0.983749883845653,-0.0967491721253886,0.983749883887987,-0.0967491721435882,0.00406204852337069,0.00656604442715025
10.5,0.00415369020336701,0.0068765079771973,0.982962443924965,-0.101288812192878,0.982962443966542,-0.101288812216198,0.00415129653191954,0.00688503848542421
11,0.00424748683928317,0.00719379280125754,0.982163110132141,-0.105806974357326,0.982163110172449,-0.105806974385564,0.00424481485665797,0.0072026854081102
11.5,0.00434555608079595,0.00750967800364855,0.981352609437926,-0.110305218514883,0.981352609476508,-0.110305218547782,0.00434259311769983,0.00751892485995942
12,0.00444788730370489,0.00782410462904481,0.980531477025676,-0.114785036577463,0.980531477062127,-0.114785036614738,0.00444462081533895,0.00783369712463733
12.5,0.00455446978646376,0.00813701445278836,0.979700081415686,-0.119247839729354,0.979700081449657,-0.119247839770686,0.00455088738256167,0.00814694315711062
13,0.00466529276047232,0.00844835004160549,0.978858648190939,-0.123694950039676,0.978858648222136,-0.123694950084731,0.00466138224028761,0.00845860464081882
13.5,0.00478034546236468,0.00875805481966419,0.978007281946058,-0.128127595669356,0.978007281974234,-0.128127595717788,0.00477609485525354,0.00876862405025491
14,0.00489961718810598,0.00906607314066843,0.977145986247335,-0.132546908972909,0.977145986272292,-0.132546909024368,0.00489501480043518,0.00907694471958242
14.5,0.00502309734866466,0.00937235036665784,0.976274681519859,-0.136953926872364,0.976274681541443,-0.136953926926501,0.00501813181783704,0.0093835109180862
15,0.00515077552691648,0.00967683295427513,0.975393220872745,-0.141349592963459,0.975393220890844,-0.141349593019931,0.00514543588341379,0.00968826793321442
15.5,0.00528264153539888,0.00997946854930509,0.97450140394053,-0.145734760896814,0.974501403955065,-0.145734760955285,0.00527691727381326,0.00999116216216667
16,0.00541868547438522,0.0102802060903793,0.973598988863202,-0.150110198654621,0.97359898887413,-0.150110198714767,0.00541256663451996,0.0102921412129611
16.5,0.00555889778966207,0.0105789959228222,0.972685702553994,-0.154476593414157,0.9726857025613,-0.154476593475668,0.0055523750488787,0.0105911540161072
17,0.00570326932921722,0.0108757899236305,0.971761249417202,-0.158834556751942,0.971761249420897,-0.158834556814523,0.00569633410730935,0.0108881509480172
17.5,0.00585179139790404,0.0111705416386929,0.970825318681618,-0.163184629996127,0.970825318681735,-0.163184630059497,0.00584443597587908,0.0111830839674356
18,0.0060044558089177,0.0114632064334175,0.969877590511487,-0.167527289580085,0.969877590508078,-0.167527289643982,0.00599667346318797,0.0114759067662384
18.5,0.00616125493072167,0.0117537416579085,0.968917741048628,-0.171862952287958,0.968917741041763,-0.171862952352136,0.00615304008427014,0.0117665749360305
19,0.00632218172776222,0.0120421068279719,0.967945446528243,-0.176191980313461,0.967945446518005,-0.176191980377689,0.00631353011996488,0.0120550461520739
19.5,0.00648722979302058,0.0123282638231661,0.966960386598291,-0.180514686077987,0.966960386584774,-0.180514686142057,0.00647813866986002,0.0123412803760887
20,0.00665639337008664,0.0126121771030845,0.965962246959104,-0.184831336773515,0.965962246942414,-0.184831336837226,0.00664686169653675,0.0126252400795663
20.5,0.00682966736205842,0.0128938139430885,0.96495072142686,-0.189142158610858,0.964950721407108,-0.189142158674033,0.00681969605842031,0.0129068904891563
21,0.00700704732408572,0.0131731446904615,0.963925513511971,-0.19344734076543,0.963925513489276,-0.193447340827904,0.00699663952802457,0.0131861998557268
21.5,0.00718852943591405,0.0134501430419052,0.962886337591802,-0.197747039021221,0.962886337566288,-0.197747039082843,0.00717769079182293,0.013463139748497
22,0.0073741104501989,0.0137247863429466,0.961832919746378,-0.202041379119974,0.961832919718172,-0.20204137918061,0.00736284942733595,0.0137376853755402
22.5,0.00756378761177817,0.0139970559095173,0.960764998316151,-0.206330459826947,0.960764998285383,-0.206330459886472,0.00755211585230903,0.0140098159315656
23,0.00775755854243643,0.014266937371429,0.959682324232253,-0.210614355727528,0.959682324199053,-0.210614355785833,0.00774549124009039,0.0142795149735604
23.5,0.00795542108501407,0.0145344210368692,0.958584661162102,-0.214893119770847,0.958584661126603,-0.214893119827835,0.00794297739445515,0.0145467708241895
24,0.00815737310003894,0.0147995022761669,0.957471785506624,-0.219166785577405,0.957471785468957,-0.219166785632988,0.00814457657624257,0.0148115770021433
24.5,0.00836341220735104,0.01506218192207,0.956343486279537,-0.223435369528064,0.956343486239832,-0.223435369582164,0.00835029127325093,0.0150739326775302
25,0.008573535464588,0.0153224666824847,0.955199564894249,-0.227698872651592,0.955199564852637,-0.227698872704143,0.00856012390391203,0.0153338431491752
25.5,0.00878773897382851,0.0155803695600198,0.954039834879617,-0.231957282327429,0.954039834836225,-0.231957282378374,0.00877407644439615,0.0155913203389584
26,0.00900601740731199,0.015835910270827,0.95286412154218,-0.236210573819637,0.952864121497135,-0.236210573868927,0.00899214996805225,0.0158463832963782
26.5,0.00922836344301425,0.0160891156530136,0.951672261589411,-0.240458711657091,0.951672261542836,-0.240458711704685,0.00921434408552535,0.0160990587040521
27,0.00945476710100079,0.0163400200522914,0.95046410272588,-0.24470165087404,0.950464102677896,-0.244701650919903,0.00944065627363194,0.0163493813719522
27.5,0.00968521497214181,0.0165886656696541,0.94923950323204,-0.248939338124154,0.949239503182766,-0.248939338168261,0.00967108108127812,0.0165973947048095
28,0.00991968933194659,0.016835102852623,0.947998331533484,-0.253171712680154,0.947998331483036,-0.253171712722484,0.0099056092014847,0.0168431511232672
28.5,0.0101581671342534,0.0170793903080904,0.946740465766944,-0.25739870733018,0.946740465715433,-0.257398707370717,0.010144226400186,0.0170867124150047
29,0.0104006188823489,0.0173215952111843,0.945465793348052,-0.261620249181055,0.945465793295588,-0.26162024921979,0.0103869122950784,0.0173281499874813
29.5,0.0106470073790592,0.0175617931809577,0.94417421054476,-0.265836260377734,0.944174210491448,-0.265836260414663,0.0106336389816912,0.0175675449890504
30,0.0108972863625186,0.0178000680903085,0.942865622059451,-0.270046658747374,0.942865622005394,-0.270046658782499,0.0108843695092102,0.0178049882604165
30.5,0.0111513990409265,0.0180365116747823,0.941539940622029,-0.274251358375671,0.941539940567328,-0.274251358408995,0.011139056215743,0.0180405800740122
31,0.0114092765476172,0.0182712229030773,0.940197086595675,-0.278450270122353,0.940197086540423,-0.278450270153885,0.011397638941742,0.0182744296153419
31.5,0.0116708363472574,0.0185043070716606,0.938836987596442,-0.282643302082114,0.938836987540733,-0.282643302111866,0.011660043151361,0.0185066541582075
32,0.011935980634784,0.0187358745875994,0.937459578127509,-0.286830359996575,0.937459578071432,-0.286830360024563,0.0119261780045458,0.0187373778858508
32.5,0.0122045947804674,0.018966039407917,0.936064799228526,-0.291011347622355,0.936064799172168,-0.291011347648598,0.0121959344373685,0.0189667303130352
33,0.0124765458867104,0.0191949171113055,0.934652598140284,-0.295186167059803,0.934652598083727,-0.295186167084322,0.0124691833240085,0.0191948442709777
33.5,0.0127516815341263,0.019422622589208,0.933222927984691,-0.299354719046477,0.933222927928014,-0.299354719069297,0.0127457738099666,0.0194218534285759
34,0.0130298288049175,0.0196492673587181,0.931775747459901,-0.303516903219051,0.931775747403182,-0.303516903240198,0.0130255319213616,0.0196478893402738
34.5,0.0133107936794631,0.0198749565193377,0.930311020550321,-0.307672618346922,0.930311020493632,-0.307672618366424,0.0133082595678266,0.0198730780335956
35,0.0135943609056286,0.0200997853992366,0.928828716251086,-0.311821762540501,0.928828716194496,-0.311821762558389,0.0135937340646801,0.0200975361777698
35.5,0.013880294438217,0.0203238359634808,0.927328808306581,-0.3159642334368,0.92732880825016,-0.315964233453107,0.0138817083014341,0.0203213669082702
36,0.0141683385365834,0.0205471730852185,0.925811274962506,-0.320099928364713,0.925811274906316,-0.320099928379471,0.014171911676166,0.0205446554189952
36.5,0.0144582195905543,0.0207698408092689,0.924276098730919,-0.324228744492093,0.924276098675022,-0.324228744505338,0.0144640518968487,0.0207674644718159
37,0.0147496487178488,0.020991858763054,0.922723266167743,-0.328350578956538,0.922723266112198,-0.328350578968307,0.0147578177201653,0.0209898300088986
37.5,0.0150423251403569,0.0212132188895757,0.921152767662149,-0.332465328981579,0.921152767607011,-0.33246532899191,0.0150528826553594,0.0212117570826793
38,0.0153359403031299,0.02143388268786,0.91956459723724,-0.336572891979802,0.919564597182561,-0.336572891988734,0.0153489096065709,0.0214332163370361
38.5,0.0156301826513375,0.0216537791451541,0.917958752361499,-0.340673165644254,0.917958752307331,-0.340673165651826,0.0156455563646707,0.0216541412769595
39,0.0159247429301555,0.021872803529885,0.916335233770431,-0.344766048029364,0.91633523371682,-0.344766048035615,0.0159424817934773,0.0218744265492226
39.5,0.0162193198252349,0.0220908171840966,0.914694045297854,-0.348851437622462,0.914694045244846,-0.348851437627434,0.0162393524914096,0.0220939274215453
40,0.0165136257219229,0.0223076484092624,0.91303519371634,-0.352929233406889,0.913035193663978,-0.352929233410625,0.0165358496549762,0.0223124605925678
40.5,0.0168073923346213,0.0225230944824981,0.911358688586281,-0.356999334917544,0.911358688534605,-0.356999334920085,0.0168316758319576,0.0225298063926431
41,0.0171003759475642,0.022736924775252,0.909664542113108,-0.361061642289685,0.909664542062156,-0.361061642291074,0.0171265612354412,0.022745712351192
41.5,0.0173923620173234,0.0229488848792379,0.90795276901219,-0.365116056301656,0.907952768961998,-0.365116056301935,0.0174202692989585,0.0229598980178916
42,0.0176831689159816,0.0231587015807713,0.906223386380992,-0.369162478412185,0.906223386331593,-0.369162478411399,0.0177126011886036,0.0231720608408241
42.5,0.0179726506402707,0.0233660884711564,0.904476413578049,-0.373200810792812,0.904476413529473,-0.373200810791003,0.0180033990479964,0.0233818828337149
43,0.0182606983722263,0.0235707519425736,0.902711872108366,-0.377230956355939,0.902711872060644,-0.377230956353151,0.0182925478307802,0.0235890377141192
43.5,0.0185472408453581,0.0237723972997317,0.90092978551489,-0.381252818778972,0.900929785468047,-0.381252818775247,0.018579975665282,0.0237931981698363
44,0.0188322435405918,0.0239707347188254,0.899130179275644,-0.385266302524939,0.899130179229707,-0.385266302520322,0.0188656527878622,0.0239940429140066
44.5,0.0191157068017581,0.0241654848062116,0.897313080706255,-0.389271312859959,0.897313080661247,-0.389271312854493,0.019149589166393,0.0241912632187948
45,0.0193976630155566,0.0243563835467024,0.895478518867495,-0.393267755867883,0.895478518823436,-0.393267755861611,0.0194318310054282,0.0243845686689161
45.5,0.0196781730415888,0.0245431864809538,0.893626524477577,-0.397255538462388,0.893626524434487,-0.397255538455354,0.0197124563746442,0.0245736919429029
46,0.0199573221020498,0.0247256720075606,0.891757129828918,-0.4012345683968,0.891757129786814,-0.401234568389046,0.019991570229323,0.024758392504278
46.5,0.0202352153477454,0.024903643762767,0.889870368709082,-0.405204754271869,0.88987036866798,-0.405204754263437,0.0202692990963154,0.0249384591590696
47,0.0205119733088442,0.0250769320841076,0.887966276325688,-0.409166005541696,0.887966276285602,-0.40916600553263,0.0205457856836139,0.0251137115038389
47.5,0.0207877274179817,0.0252453946100913,0.886044889235022,-0.413118232518032,0.886044889195965,-0.413118232508372,0.0208211836407559,0.0252840003446838
48,0.0210626157636749,0.0254089161036857,0.884106245274152,-0.417061346373067,0.884106245236133,-0.417061346362856,0.0210956526559077,0.025449207209735
48.5,0.0213367791972368,0.0255674076118484,0.88215038349633,-0.420995259140911,0.882150383459359,-0.42099525913019,0.021369354028954,0.0256092431045126
49,0.0216103578800937,0.0257208050868163,0.880177344109498,-0.42491988371786,0.880177344073583,-0.424919883706669,0.021642446812894,0.0257640466720355
49.5,0.0218834883236077,0.0258690675984923,0.878187168417706,-0.428835133861598,0.878187168382853,-0.428835133849978,0.0219150845721081,0.0259135819196108
50,0.0221563009422993,0.026012175262746,0.876179898765285,-0.432740924189423,0.876179898731498,-0.432740924177412,0.0221874127681729,0.026057835664551
50.5,0.0224289181152675,0.0261501269998841,0.874155578483609,-0.436637170175602,0.874155578450893,-0.43663717016324,0.0224595667533192,0.0261968148345024
51,0.0227014527301502,0.0262829382229629,0.872114251840304,-0.440523788147951,0.872114251808658,-0.440523788135276,0.022731670328821,0.0263305437374163
51.5,0.0229740071692815,0.0264106385389503,0.870055963990749,-0.444400695283695,0.870055963960177,-0.444400695270746,0.0230038348102542,0.0264590613938772
52,0.0232466726882677,0.026533269528463,0.867980760931775,-0.448267809604705,0.867980760902274,-0.448267809591518,0.0232761585328169,0.026582419002367
52.5,0.0235195291324005,0.0266508826532506,0.86588868945739,-0.452125049972153,0.865888689428957,-0.452125049958764,0.0235487267266928,0.0267006775875442
53,0.0237926449352162,0.0267635373254513,0.86377979711646,-0.455972336080651,0.863779797089095,-0.455972336067098,0.0238216116934503,0.0268139058634996
53.5,0.0240660773452676,0.0268712991595266,0.861654132172225,-0.45980958845193,0.861654132145922,-0.459809588438247,0.0240948732185782,0.0269221783287921
54,0.0243398728309172,0.0269742384168365,0.859511743563533,-0.463636728428088,0.859511743538286,-0.46363672841431,0.0243685591613751,0.0270255735978542
54.5,0.0246140676179915,0.0270724286441127,0.857352680867722,-0.467453678164464,0.857352680843525,-0.467453678150623,0.0246427061706136,0.027124172964022
55,0.0248886883208279,0.0271659455004435,0.855176994265059,-0.471260360622159,0.855176994241904,-0.471260360608289,0.0249173404820398,0.0272180591826827
55.5,0.0251637526331455,0.0272548657626175,0.85298473450464,-0.475056699560253,0.852984734482519,-0.475056699546386,0.0251924787612938,0.0273073154585161
56,0.025439270050909,0.0273392664955038,0.85077595287169,-0.478842619527733,0.850775952850593,-0.478842619513901,0.0254681289629026,0.0273920246180556
56.5,0.0257152426047329,0.027419224372262,0.848550701156176,-0.482618045855169,0.848550701136093,-0.482618045841401,0.0257442911823904,0.0274722684475595
57,0.0259916655842151,0.0274948151283385,0.84630903162269,-0.486382904646145,0.846309031603608,-0.486382904632471,0.0260209584841483,0.0275481271759741
57.5,0.0262685282408293,0.0275661131331629,0.844050996981507,-0.490137122768489,0.844050996963414,-0.490137122754938,0.0262981176924943,0.027619679083394
58,0.0265458144596583,0.0276331910639704,0.841776650360787,-0.493880627845301,0.841776650343671,-0.493880627831901,0.0265757501373241,0.0276870002165872
58.5,0.0268235033932616,0.0276961196670822,0.839486045279852,-0.497613348245806,0.839486045263699,-0.497613348232584,0.0268538323489962,0.0277501641946012
59,0.0271015700534836,0.0277549675931372,0.83717923562349,-0.501335213076044,0.837179235608284,-0.501335213063026,0.0271323366996695,0.0278092420891802
59.5,0.0273799858589707,0.027809801294058,0.834856275617229,-0.50504615216941,0.834856275602955,-0.505046152156621,0.0274112319902861,0.027864302366392
60,0.0276587191377305,0.0278606849708477,0.832517219803558,-0.508746096077054,0.832517219790199,-0.508746096064519,0.0276904839839152,0.0279154108776055
60.5,0.0279377355852377,0.0279076805626544,0.830162123019026,-0.512434976058163,0.830162123006566,-0.512434976045905,0.0279700558872384,0.0279626308895465
61,0.0282169986794621,0.0279508477687914,0.827791040372197,-0.516112724070118,0.827791040360618,-0.516112724058158,0.0282499087827325,0.0280060231446788
61.5,0.0284964700548035,0.0279902440965593,0.825404027222413,-0.519779272758544,0.825404027211697,-0.519779272746904,0.0285300020145787,0.0280456459445068
62,0.0287761098373238,0.028025924928813,0.823001139159345,-0.523434555447264,0.823001139149473,-0.523434555435965,0.0288102935316294,0.0280815552496211
62.5,0.0290558769439113,0.0280579436061544,0.820582431983275,-0.527078506128158,0.820582431974228,-0.52707850611722,0.0290907401908575,0.0281138047913717
63,0.0293357293481231,0.0280863515195094,0.818147961686107,-0.530711059450933,0.818147961677865,-0.530711059440373,0.0293712980247447,0.0281424461909966
63.5,0.029615624315479,0.0281111982095653,0.815697784433052,-0.534332150712814,0.815697784425594,-0.534332150702651,0.0296519224759602,0.0281675290828198
