"Freq [GHz]","re(St(P1,P1)) []","im(St(P1,P1)) []","re(St(P1,P2)) []","im(St(P1,P2)) []","re(St(P2,P1)) []","im(St(P2,P1)) []","re(St(P2,P2)) []","im(St(P2,P2)) []"
0,0.00476690295346316,0,0.995246302103624,0,0.995246339211008,0,0.00476693528156602,0
0.5,0.00514521230956433,0.00169099102641113,0.994804934664067,-0.00580381453305279,0.994804941192818,-0.00580380349387966,0.00514512924080535,0.00169126323196878
1,0.00549527254012361,0.00291015032175679,0.994302056705997,-0.0111195798296961,0.99430206060747,-0.0111195741141756,0.00549507695387774,0.00291081474127353
1.5,0.0055475696733982,0.00394476476797934,0.993867502830213,-0.0165072589947712,0.993867508509229,-0.0165072524894612,0.0055474442371839,0.00394596476068898
2,0.00558995609213042,0.00506436872855431,0.993361051487238,-0.0217531747724404,0.993361058247277,-0.0217531686801369,0.00558989508073715,0.00506605516466685
2.5,0.00563602845678357,0.00622055589290049,0.992828539574346,-0.0268742038976466,0.992828546481749,-0.02687419885061,0.00563604069463342,0.00622270732216279
3,0.00568925997347547,0.00739732485753919,0.992294514764223,-0.0318973200734991,0.992294521027393,-0.0318973162394034,0.00568935805045845,0.00739992729159766
3.5,0.00575093403733407,0.00858817531750056,0.991767050496921,-0.0368483450802923,0.991767055609458,-0.0368483423707442,0.00575113186914944,0.00859121705981991
4,0.00582168219618318,0.00979021545832026,0.991244532967999,-0.0417475365726681,0.991244536698896,-0.0417475348046565,0.00582199426839058,0.00979368524955504
4.5,0.00590190634273546,0.0110021726505813,0.99072086793959,-0.0466092065414667,0.990720870266331,-0.0466092055239073,0.00590234742370721,0.0110060588450587
5,0.00599192318347863,0.0122235927278265,0.990188588596936,-0.051442869590943,0.990188589634357,-0.0514428691576345,0.00599250819776098,0.0122278828626863
5.5,0.00609202214559212,0.0134544751413541,0.98964042181335,-0.0562546181500299,0.989640421756739,-0.0562546181647594,0.00609276611016873,0.0134591556756405
6,0.00620249171993981,0.0146950907126806,0.989069946448361,-0.061048255038699,0.989069945533094,-0.0610482553893705,0.00620340970736233,0.0147001468461809
6.5,0.00632363289383386,0.0159458839851379,0.988471782398822,-0.0658261024977476,0.988471780873537,-0.0658261030882752,0.00632474000710082,0.015951299515744
7,0.0064557668373707,0.0172074180051975,0.987841562749163,-0.0705895401352619,0.987841560858734,-0.0705895408787676,0.00645707818950758,0.0172131752042901
7.5,0.00659923987884692,0.0184803417991253,0.987175819931827,-0.0753393485809202,0.987175817907129,-0.0753393493951382,0.00660077057353747,0.0184864212939058
8,0.00675442716443841,0.0197653706583427,0.986471848774436,-0.0800759240786393,0.986471846826657,-0.0800759248833876,0.0067561922755548,0.0197717513146065
8.5,0.00692173569030075,0.0210632739925094,0.98572757419265,-0.0847994109665358,0.985727572510657,-0.0847994116827318,0.00692375023892405,0.0210699327937842
9,0.00710160706979152,0.0223748678369642,0.984941434151096,-0.0895097832991807,0.984941432900789,-0.0895097838488335,0.00710388599761608,0.0223817797572208
9.5,0.00729452024016808,0.0237010103275841,0.984112280579246,-0.0942068955250903,0.984112279904181,-0.0942068958318565,0.00729707837834051,0.0237081481953911
10,0.00750099423289474,0.0250425991318739,0.983239297507581,-0.0988905145560057,0.983239297530363,-0.0988905145459693,0.00750384626535544,0.0250499334843033
10.5,0.00777625935509893,0.0262708381839087,0.982424450278776,-0.103583537080252,0.982424450300062,-0.103583537060845,0.00777930937006047,0.0262784953420607
11,0.00806458350226326,0.0274956069320491,0.981590854757581,-0.108254908864632,0.981590854778341,-0.108254908835932,0.00806783961518801,0.0275035806873549
11.5,0.00836591444011234,0.028716746272301,0.980739470551463,-0.112905651586451,0.980739470572607,-0.112905651548644,0.00836938455169946,0.0287250301723008
12,0.00868019759980465,0.0299340979509775,0.979871103508161,-0.117536786573131,0.979871103530536,-0.117536786526501,0.0086838893873146,0.0299426853065166
12.5,0.00900737609041431,0.0311475046017029,0.978986418438961,-0.122149319638023,0.978986418463336,-0.122149319582927,0.00901129699917576,0.0311563884944657
13,0.00934739071186762,0.0323568097822684,0.978085952322128,-0.126744228863055,0.978085952349197,-0.126744228799919,0.00935154794698261,0.0323659830726264
13.5,0.00970017996831996,0.0335618580112835,0.977170127551411,-0.131322455050312,0.977170127581789,-0.131322454979614,0.00970458048657814,0.033571313346469
14,0.0100656800819731,0.0347624948046512,0.976239264891629,-0.135884894539332,0.97623926492585,-0.135884894461588,0.010070330583976,0.0347722246272499
14.5,0.010443825007299,0.0359585667118667,0.975293595889927,-0.140432394080539,0.975293595928451,-0.140432393996294,0.01044873192982,0.0359685632686353
15,0.0108345464456799,0.0371499213521509,0.974333274565927,-0.14496574746273,0.974333274609137,-0.144965747372549,0.0108397159542558,0.0371601767031486
15.5,0.0112377738604336,0.0383364074503851,0.973358388266351,-0.149485693609829,0.973358388314562,-0.149485693514284,0.0112432118422138,0.0383469134784313
16,0.0116534344922295,0.039517874872915,0.972368967620447,-0.153992915885442,0.972368967673904,-0.153992915785106,0.0116591465490785,0.0395286232933567
16.5,0.0120814533748591,0.0406941746631757,0.97136499557243,-0.158488042370711,0.971364995631318,-0.158488042266156,0.0120874448167452,0.0407051570339738
17,0.0125217533513771,0.0418651590771715,0.970346415497769,-0.162971646908963,0.970346415562215,-0.162971646800752,0.0125280291900396,0.0418763668093014
17.5,0.0129742550905773,0.0430306816188319,0.969313138432521,-0.167444250738558,0.9693131385026,-0.167444250627236,0.0129808200334981,0.0430421059869999
18,0.013438877103801,0.0441905970752261,0.968265049460695,-0.171906324561818,0.968265049536432,-0.171906324447916,0.0134457355484933,0.0442022292288904
18.5,0.0139155357620672,0.0453447615516778,0.967202013314847,-0.176358290922479,0.967202013396226,-0.176358290806505,0.0139226917906936,0.0453565925263857
19,0.0144041453135126,0.0464930325067838,0.966123879251098,-0.180800526786187,0.966123879338063,-0.180800526668628,0.0144116026878447,0.0465050532358071
19.5,0.014904617901132,0.0476352687873582,0.96503048526235,-0.185233366238223,0.965030485354813,-0.185233366119543,0.0149123800578709,0.0476474701136342
20,0.0154168635807979,0.048771330663306,0.963921661693624,-0.189657103229673,0.963921661791464,-0.189657103110308,0.0154249336272757,0.0487837033516818
20.5,0.0159407903395742,0.0499010798624853,0.962797234321722,-0.194071994317944,0.962797234424794,-0.194071994198308,0.0159491710498447,0.0499136146122545
21,0.0164763041142947,0.0510243796055445,0.961657026958536,-0.198478261359911,0.961657027066671,-0.198478261240389,0.0164849979256364,0.0510370670632729
21.5,0.0170233088104084,0.0521410946407741,0.960500863633515,-0.202876094126421,0.960500863746524,-0.202876094007373,0.0170323178202584,0.0521539254134209
22,0.017581706321086,0.0532510912790181,0.95932857040664,-0.207265652815375,0.959328570524319,-0.207265652697135,0.0175910322844248,0.0532640559473261
22.5,0.0181513965465893,0.0543542374286456,0.958139976858805,-0.21164707044771,0.958139976980935,-0.211647070330588,0.0181610408737896,0.0543673265608164
23,0.0187322774138907,0.0554504026306462,0.956934917302056,-0.216020455136173,0.956934917428407,-0.216020455020454,0.0187422411690631,0.0554636067962773
23.5,0.0193242448965534,0.0565394580938592,0.955713231747809,-0.22038589222135,0.955713231878141,-0.220385892107293,0.0193345287963991,0.0565527678781457
24,0.0199271930348716,0.0576212767304107,0.954474766667015,-0.224743446272853,0.954474766801083,-0.224743446160698,0.0199377974480738,0.0576346827485898
24.5,0.0205410139562783,0.0586957331913507,0.953219375572401,-0.229093162956401,0.953219375709953,-0.229093162846362,0.0205519389034504,0.0587092261033952
25,0.0211655978960249,0.0597627039025901,0.951946919449291,-0.233435070769452,0.951946919590072,-0.233435070661723,0.0211768430502429,0.0597762744281247
25.5,0.0218008332181537,0.0608220671011397,0.950657267058287,-0.237769182649666,0.950657267202037,-0.237769182544421,0.0218123979060966,0.0608357060345768
26,0.022446606436766,0.0618737028717309,0.949350295130095,-0.24209549746146,0.949350295276557,-0.242095497358856,0.0224584896404963,0.0618874010976045
26.5,0.0231028022376237,0.0629174931838521,0.948025888470153,-0.246414001366686,0.948025888619068,-0.246414001266856,0.0231150025970258,0.0629312416923424
27,0.0237693035000939,0.0639533219292772,0.946683939988328,-0.250724669085841,0.946683940139438,-0.250724668988905,0.0237818193160068,0.0639671118318927
27.5,0.0244459913194712,0.0649810749601187,0.945324350666843,-0.255027465056505,0.945324350819893,-0.255027464962565,0.0244588205575443,0.0649948975055383
28,0.0251327450297217,0.0660006401274975,0.943947029477772,-0.25932234449568,0.943947029632509,-0.259322344404822,0.0251458853250184,0.0660144867175256
28.5,0.0258294422266738,0.0670119073208606,0.942551893259774,-0.26360925437267,0.942551893415948,-0.263609254284967,0.0258428908890638,0.0670257695264882
29,0.0265359587917259,0.0680147685080519,0.941138866562331,-0.267888134298944,0.941138866719696,-0.267888134214454,0.0265497128120861,0.0680286380855866
29.5,0.0272521689161052,0.0690091177761594,0.939707881464513,-0.272158917341219,0.939707881622827,-0.272158917259985,0.0272662249733737,0.0690229866833973
30,0.027977945125762,0.0699948513732593,0.93825887737422,-0.27642153076364,0.938258877533246,-0.276421530685698,0.027992299594869,0.070008711785664
30.5,0.0287131583069585,0.0709718677510847,0.936791800812885,-0.280675896704733,0.936791800972392,-0.280675896630104,0.0287278072676726,0.0709857120779362
31,0.0294576777326437,0.0719400676087276,0.935306605189873,-0.284921932794346,0.935306605349634,-0.284921932723039,0.0294726169793672,0.0719538885092008
31.5,0.0302113710897022,0.0728993539374274,0.933803250570047,-0.289159552715569,0.933803250729841,-0.289159552647586,0.0302265961422478,0.0729131443365474
32,0.0309741045071915,0.0738496320665349,0.932281703437443,-0.293388666716203,0.932281703597056,-0.293388666651537,0.0309896106225732,0.0738633851709749
32.5,0.0317457425856713,0.0747908097107151,0.930741936457437,-0.29760918207408,0.930741936616659,-0.297609182012711,0.0317615247709442,0.0748045190243665
33,0.0325261484277702,0.0757227970184748,0.929183928239367,-0.301821003520161,0.929183928397996,-0.301821003462066,0.0325422014539526,0.0757364563577378
33.5,0.0333151836701236,0.0766455066220808,0.927607663101223,-0.306024033623089,0.927607663259062,-0.306024033568233,0.0333315020872284,0.0766591101308116
34,0.0341127085168516,0.0775588536889364,0.926013130837662,-0.310218173138541,0.92601313099452,-0.310218173086886,0.0341292866700589,0.0775723958529755
34.5,0.0349185817747454,0.0784627559744868,0.924400326492368,-0.314403321326474,0.924400326648061,-0.314403321277972,0.0349354138217454,0.0784762316356979
35,0.0357326608903668,0.0793571338767081,0.922769250135553,-0.318579376239093,0.922769250289904,-0.318579376193692,0.0357497408198909,0.0793705382464369
35.5,0.0365548019892626,0.0802419104922327,0.921119906647183,-0.322746234982139,0.921119906800021,-0.322746234939782,0.0365721236408301,0.0802552391641069
36,0.0373848599175288,0.0811170116741571,0.919452305506381,-0.326903793951866,0.919452305657541,-0.32690379391249,0.0374024170024241,0.0811302606361193
36.5,0.0382226882859871,0.081982366091564,0.917766460587302,-0.331051949049871,0.917766460736623,-0.331051949013407,0.0382404744094765,0.0819955317370475
37,0.039068139517231,0.082837905290774,0.916062389961687,-0.33519059587776,0.916062390109017,-0.335190595844135,0.0390861482020264,0.0828509844288949
37.5,0.0399210648958457,0.0836835637583322,0.914340115708207,-0.33931962991345,0.914340115853401,-0.33931962988259,0.0399392896068198,0.0836965536229959
38,0.0407813146221235,0.0845192789857174,0.912599663728617,-0.343438946670753,0.912599663871534,-0.343438946642576,0.0407997487922585,0.0845321772435048
38.5,0.0416487378696114,0.0853449915357301,0.910841063570702,-0.347548441843729,0.910841063711209,-0.347548441818151,0.0416673749271685,0.0853577962924317
39,0.0425231828468552,0.086160645110505,0.909064348257944,-0.351648011437177,0.909064348395913,-0.351648011414114,0.0425420162437382,0.0861733549161652
39.5,0.0434044968637343,0.0869661866210404,0.907269554125784,-0.355737551884514,0.907269554261092,-0.355737551863876,0.0434235201050054,0.086978800473367
40,0.0442925264028,0.0877615662581444,0.905456720664348,-0.35981696015413,0.905456720796881,-0.359816960135825,0.0443117330772916,0.0877740836041232
40.5,0.0451871171960447,0.0885467375646031,0.903625890367458,-0.363886133845301,0.903625890497105,-0.363886133829235,0.0452065010080071,0.0885591583001664
41,0.0460881143075737,0.0893216575083912,0.901777108587753,-0.367944971274531,0.901777108714408,-0.367944971260609,0.0461076691092651,0.0893339819759693
41.5,0.0469953622226407,0.0900862865566504,0.899910423397714,-0.37199337155322,0.899910423521281,-0.371993371541344,0.0470150820477674,0.0900985155404432
42,0.0479087049435598,0.0908405887501432,0.898025885456405,-0.376031234657385,0.89802588557679,-0.376031234647457,0.0479285840414344,0.0908527234689369
42.5,0.0488279860929912,0.0915845317777918,0.89612354788169,-0.380058461490169,0.896123547998807,-0.380058461482088,0.0488480189632707,0.0915965738751473
43,0.0497530490251297,0.0923180870508883,0.894203466127748,-0.384074953937742,0.894203466241514,-0.384074953931407,0.0497732304529671,0.0923300385825397
43.5,0.0506837369453212,0.0930412297764538,0.892265697867645,-0.388080614919192,0.892265697977983,-0.3880806149145,0.0507040620367349,0.0930530931947312
44,0.0516198930386405,0.0937539390291602,0.890310302880766,-0.39207534843092,0.890310302987606,-0.392075348427769,0.0516403572558828,0.0937657171642871
44.5,0.0525613606079477,0.0944561978211425,0.888337342944908,-0.396059059586021,0.888337343048184,-0.396059059584307,0.0525819598046274,0.0944678938592518
45,0.0535079832219377,0.0951479931689373,0.886346881732805,-0.400031654649073,0.886346881832456,-0.400031654648692,0.0535287136776161,0.0951596106266547
45.5,0.0544596048736579,0.0958293161566744,0.884338984712914,-0.403993041066742,0.884338984808884,-0.40399304106759,0.0544804633276124,0.0958408588521502
46,0.0554160701499528,0.0965001619945488,0.882313719054253,-0.407943127494551,0.882313719146492,-0.407943127496525,0.0554370538337692,0.0965116340148305
46.5,0.0563772244122263,0.0971605300715027,0.88027115353512,-0.411881823820142,0.880271153623582,-0.411881823823136,0.0563983310808463,0.0971719357361638
47,0.0573429139888633,0.097810424000906,0.878211358455496,-0.415809041183322,0.878211358540139,-0.415809041187234,0.0573641419496844,0.097821767821881
47.5,0.0583129863795626,0.0984498516579277,0.876134405552977,-0.41972469199317,0.876134405633766,-0.419724691997896,0.0583343345191586,0.09846113829554
48,0.0592872904717404,0.0990788252071635,0.874040367922065,-0.423628689942442,0.874040367998969,-0.423628689947877,0.0593087582797391,0.0990900594223707
48.5,0.060265676769043,0.0996973611189566,0.87192931993666,-0.4275209500195,0.87192932000965,-0.427520950025545,0.0602872643586722,0.0997085477218886
49,0.0612479976318692,0.100305480172755,0.869801337175597,-0.431401388517974,0.869801337244652,-0.431401388524525,0.0612697057566569,0.100316623967679
49.5,0.0622341075296273,0.100903207445705,0.867656496351099,-0.435269923044326,0.867656496416201,-0.435269923051283,0.0622559375957301,0.100914313172605
50,0.063223863304284,0.101490572284615,0.865494875239998,-0.439126472523502,0.865494875301135,-0.439126472530765,0.0632458173778953,0.101501644557647
50.5,0.0642171244445178,0.102067608259293,0.863316552617599,-0.442970957202813,0.863316552674758,-0.442970957210283,0.0642392052538117,0.102078651502456
51,0.065213753369572,0.102634353095233,0.861121608194053,-0.446803298654191,0.861121608247232,-0.446803298661771,0.0652359643006385,0.102645371475672
51.5,0.0662136157216165,0.103190848583534,0.858910122553152,-0.450623419774947,0.858910122602349,-0.45062341978254,0.0662359608078562,0.103201845942974
52,0.0672165806651382,0.103737140465948,0.856682177093395,-0.454431244787142,0.856682177138613,-0.454431244794655,0.0672390645696105,0.103748120250852
52.5,0.0682225211915469,0.10427327829292,0.854437853971249,-0.458226699235692,0.854437854012497,-0.45822669924303,0.0682451491818149,0.104284243484078
53,0.0692313144268597,0.104799315252599,0.8521772360465,-0.462009709985276,0.852177236083787,-0.462009709992347,0.0692540923419079,0.104810268294897
53.5,0.0702428419399328,0.105315307968808,0.849900406829584,-0.465780205216173,0.849900406862925,-0.465780205222888,0.0702657761488259,0.105326250702088
54,0.0712569900483512,0.105821316266188,0.847607450430836,-0.469538114419078,0.84760745046025,-0.469538114425348,0.0712800874003805,0.10583224985815
54.5,0.072273650118691,0.106317402900884,0.845298451511548,-0.473283368388987,0.845298451537058,-0.473283368394724,0.0722969178848574,0.106328327783094
55,0.0732927188574742,0.106803633255446,0.842973495236773,-0.477015899218212,0.842973495258405,-0.477015899223332,0.0733161646632886,0.106814549063567
55.5,0.0743140985887568,0.107280074996924,0.840632667229789,-0.480735640288596,0.840632667247572,-0.480735640293018,0.0743377303384811,0.107290980516383
56,0.0753376975139303,0.10774679769757,0.838276053528158,-0.484442526262984,0.838276053542126,-0.484442526266626,0.0753615233065356,0.107757690815895
56.5,0.0763634299489752,0.108203872418063,0.835903740541317,-0.488136493075985,0.835903740551506,-0.488136493078769,0.0763874579862841,0.108214750085159
57,0.0773912165341221,0.108651371253702,0.833515815009624,-0.491817477924105,0.833515815016074,-0.491817477925954,0.0774154550217842,0.108662229451334
57.5,0.0784209844106435,0.109089366844682,0.831112363964813,-0.495485419255265,0.831112363967569,-0.495485419256106,0.0784454414528066,0.109100200566423
58,0.0794526673593545,0.109517931852286,0.8286934746918,-0.499140256757766,0.828693474690906,-0.499140256757528,0.0794773508480939,0.1095287350951
58.5,0.0804862058953206,0.109937138403572,0.826259234691769,-0.502781931348729,0.826259234687277,-0.502781931347342,0.0805111233961155,0.109947904172145
59,0.0815215473133418,0.110347057508017,0.823809731646523,-0.506410385162039,0.823809731638484,-0.506410385159437,0.0815467059480894,0.110357777832781
59.5,0.0825586456789245,0.110747758450404,0.821345053384014,-0.510025561535845,0.821345053372484,-0.510025561531964,0.0825840520081887,0.110758424420056
60,0.0835974617597845,0.111139308165173,0.818865287845031,-0.513627404999621,0.818865287830069,-0.513627404994399,0.0836231216661625,0.111149909974263
60.5,0.084637962893368,0.111521770598325,0.816370523051002,-0.517215861260834,0.816370523032671,-0.517215861254214,0.084663881468005,0.111532297610246
61,0.0856801227864899,0.111895206063866,0.813860847072862,-0.520790877191238,0.813860847051225,-0.520790877183163,0.0857063042209158,0.111905646889283
61.5,0.0867239212439807,0.112259670602586,0.811336348000949,-0.524352400812813,0.811336347976074,-0.524352400803231,0.0867503687295071,0.112270013193022
62,0.0877693438241473,0.112615215351697,0.808797113915908,-0.52790038128338,0.808797113887864,-0.527900381272241,0.0877960594611168,0.112625447107665
62.5,0.0888163814199737,0.112961885934521,0.806243232860543,-0.531434768881903,0.806243232829404,-0.531434768869161,0.0888433661391126,0.112971993827187
63,0.0898650297662005,0.113299721879833,0.803674792812617,-0.534955514993512,0.803674792778457,-0.534955514979121,0.0898922832642595,0.113309692584867
63.5,0.0909152888737932,0.113628756080852,0.80109188165854,-0.538462572094236,0.801091881621437,-0.538462572078157,0.0909428095654978,0.113638576122704
64,0.0919671623947603,0.113949014303872,0.798494587167937,-0.541955893735504,0.798494587127971,-0.541955893717699,0.0919949473828767,0.113958670208389
