"Freq [GHz]","re(St(P1,P1)) []","im(St(P1,P1)) []","re(St(P1,P2)) []","im(St(P1,P2)) []","re(St(P2,P1)) []","im(St(P2,P1)) []","re(St(P2,P2)) []","im(St(P2,P2)) []"
0,0.00532033091201356,0,0.994692676627892,0,0.99469323833182,0,0.00532068434461053,0
0.5,0.00568643543982716,0.00188020001558442,0.994272333339335,-0.005745135835312,0.994272385366674,-0.00574506507506456,0.00568606011209027,0.00188082359030872
1,0.0060333800995771,0.0033087682748274,0.9937970602974,-0.0110256777054047,0.993796972085114,-0.011025681500783,0.00603277488674081,0.00331019824316314
1.5,0.00617502324480945,0.00456559145891333,0.993379215586119,-0.0163670326757916,0.993379131398603,-0.0163670351455671,0.00617376874548725,0.0045678681953909
2,0.00626214560478733,0.00588030625493197,0.992899795350308,-0.021573554411324,0.992899718846466,-0.0215735546050055,0.00626047870370794,0.00588361792376446
2.5,0.00633944103593187,0.00722681182489993,0.992401857250331,-0.0266666112433374,0.9924017914339,-0.0266666095193653,0.00633743691813926,0.00723117909411819
3,0.00642002169178424,0.00859231678657224,0.991905847391369,-0.031674690919731,0.991905793941969,-0.031674688238656,0.00641768971757672,0.00859773892930171
3.5,0.00650878893828377,0.00997061032831326,0.991416431467092,-0.0366226777334173,0.991416390781387,-0.0366226750247467,0.00650611103015297,0.0099770876329206
4,0.00660794461357939,0.0113585233001867,0.990929960725442,-0.0415286957658711,0.990929932248498,-0.041528693632138,0.0066048899382527,0.0113660604536001
4.5,0.00671864322873161,0.0127543920805557,0.990439501039865,-0.0464046763880885,0.990439483607537,-0.0464046750675067,0.00671517437043634,0.0127629982238329
5,0.00684158372965826,0.0141573560484414,0.989937513798506,-0.051257979942485,0.98993750589716,-0.0512579793934975,0.00683765953952764,0.0141670443330453
5.5,0.00697725172283437,0.0155670119358762,0.989417046249524,-0.0560929254068645,0.989417046190996,-0.0560929254229601,0.00697282873940597,0.0155777991186907
6,0.00712602947579644,0.0169832319388128,0.988872139862082,-0.0609119238046452,0.988872145896865,-0.0609119241163611,0.00712106267743151,0.0169951380938045
6.5,0.00728825024705448,0.0184060623027555,0.988297879242201,-0.0657162332546237,0.988297889632592,-0.0657162336047108,0.00728269346925159,0.0184191106359854
7,0.00746422709200234,0.0198356639321391,0.987690298252016,-0.0705064335330325,0.987690311320001,-0.0705064337244581,0.00745803326652272,0.0198498806751353
7.5,0.00765426913000089,0.0212722761275952,0.987046243835423,-0.0752827133848282,0.987046257994179,-0.0752827133063674,0.00764739042460227,0.0212876904882826
8,0.00785869129403743,0.0227161936402052,0.986363239821031,-0.080045039500968,0.986363253595139,-0.0800450391361851,0.00785107919463002,0.0227328377965392
8.5,0.008077820533402,0.0241677516988785,0.985639365957248,-0.0847932532158442,0.985639377994638,-0.0847932526407682,0.00806942589188808,0.0241856608250339
9,0.00831200001414353,0.0256273159752922,0.984873155771553,-0.089527124182025,0.984873164849151,-0.0895271235557908,0.00830277307548205,0.0256465282935796
9.5,0.00856159215836061,0.0270952756972549,0.984063512286769,-0.0942463790655381,0.984063517311276,-0.0942463786172159,0.00855148257505442,0.027115832551257
10,0.00882698099913837,0.0285720388210464,0.983209639174887,-0.0989507161576197,0.983209639179847,-0.0989507161715344,0.00881593783833054,0.0285939847669145
10.5,0.00915749961219461,0.0299679546871916,0.98241015421526,-0.10364049465182,0.982410154218927,-0.103640494666799,0.00914581365583698,0.0299910855267638
11,0.00950339274543555,0.0313591841698599,0.981593513523644,-0.108311729054368,0.981593513525921,-0.10831172907023,0.00949103082945886,0.0313835127910984
11.5,0.00986455770519673,0.0327455265563992,0.980760172609485,-0.112965590995894,0.980760172610305,-0.112965591012459,0.00985148644990971,0.0327710664734564
12,0.0102408879641228,0.0341267840660606,0.979910445672432,-0.117603171586859,0.979910445671756,-0.117603171603947,0.0102270737735008,0.0341535494198215
12.5,0.0106322732784552,0.0355027619400152,0.979044528666409,-0.122225475650459,0.979044528664223,-0.122225475667895,0.010617682340508,0.0355307674984156
13,0.0110385998081845,0.0368732685263025,0.978162520181558,-0.12683341933856,0.978162520177866,-0.126833419356172,0.0110231980964195,0.0369025296844088
13.5,0.0114597502398147,0.0382381153596194,0.977264440018813,-0.131427830364902,0.977264440013642,-0.131427830382534,0.0114435035158068,0.0382686481394416
14,0.0118956039114799,0.0395971172358718,0.976350245460686,-0.136009450196528,0.97635024545408,-0.136009450214034,0.0118784777285394,0.0396289382858934
14.5,0.0123460369401413,0.0409500922814359,0.975419845330864,-0.140578937651449,0.975419845322877,-0.140578937668693,0.0123279966480886,0.0409832188758386
15,0.0128109223506164,0.0422968620170945,0.974473111992448,-0.145136873451282,0.974473111983149,-0.145136873468142,0.012791933101654,0.0423313120546562
15.5,0.0132901302061624,0.0436372514166292,0.973509891467437,-0.149683765368406,0.973509891456903,-0.149683765384776,0.0132701569618354,0.0436730434192665
16,0.0137835277403612,0.0449710889599984,0.972530011874635,-0.154220053686228,0.972530011862949,-0.154220053702012,0.0137625352795979,0.045008242070967
16.5,0.0142909794900457,0.0462982066811937,0.971533290384918,-0.158746116758075,0.971533290372169,-0.15874611677319,0.0142689324182577,0.0463367406628912
17,0.0148123474290067,0.0476184402106945,0.970519538885824,-0.163262276505852,0.970519538872103,-0.163262276520232,0.0147892101882325,0.0476583754420794
17.5,0.0153474911022312,0.0489316288126118,0.969488568534959,-0.167768803744556,0.96948856852036,-0.167768803758141,0.0153232279823017,0.0489729862862212
18,0.015896267760417,0.0502376154165174,0.968440193366158,-0.172265923254696,0.968440193350778,-0.172265923267439,0.0158708429111131,0.0502804167350606
18.5,0.0164585324945255,0.0515362466440288,0.967374233095443,-0.176753818552692,0.967374233079373,-0.176753818564559,0.0164319099387028,0.0515805140165595
19,0.0170341383701233,0.0528273728302011,0.966290515256655,-0.1812326363309,0.96629051523999,-0.181232636341867,0.0170062820177746,0.0528731290678528
19.5,0.0176229365612933,0.054110848039806,0.9651888767802,-0.185702490555053,0.965188876763026,-0.185702490565101,0.017593810224506,0.054158116551096
20,0.0182247764838676,0.0553865300785661,0.964069165112857,-0.190163466218832,0.964069165095264,-0.190163466227955,0.0181943438926523,0.0554353348642482
20.5,0.0188395059277834,0.056654280499461,0.962931238962614,-0.194615622763754,0.962931238944686,-0.194615622771952,0.0188077307467221,0.0567046461469416
21,0.0194669711883313,0.0579139646041664,0.961774968739795,-0.199058997178349,0.961774968721611,-0.199058997185627,0.0194338170340123,0.0579659162814716
21.5,0.0201070171960996,0.0591654514397857,0.960600236754709,-0.203493606794364,0.960600236736345,-0.203493606800734,0.0200724476552937,0.0592190148890874
22,0.020759487645417,0.0604086137909632,0.959406937222273,-0.207919451799951,0.959406937203801,-0.207919451805431,0.0207234662939484,0.0604638153216637
22.5,0.0214242251210978,0.0616433281675022,0.958194976115664,-0.21233651749084,0.958194976097149,-0.212336517495452,0.0213867155433652,0.0617001946488904
23,0.022101071223319,0.0628694747876437,0.956964270903882,-0.216744776280696,0.956964270885387,-0.216744776284466,0.0220620370324194,0.0629280336411253
23.5,0.022789866690451,0.0640869375571316,0.955714750201933,-0.2211441894915,0.955714750183517,-0.221144189494459,0.0227492715488556,0.0641472167480344
24,0.0234904515196852,0.065295604044207,0.954446353357162,-0.225534708943979,0.954446353338876,-0.225534708946157,0.0234482591604165,0.0653576320731954
24.5,0.0242026650853012,0.0664953654507094,0.953159029990875,-0.229916278367063,0.953159029972768,-0.229916278368496,0.0241588393335632,0.0665591713447919
25,0.0249263462544319,0.0676861165793947,0.951852739510745,-0.234288834644149,0.95185273949286,-0.234288834644874,0.0248808510496411,0.0677517298825601
25.5,0.0256613335002009,0.0688677557976867,0.95052745060641,-0.238652308912618,0.950527450588788,-0.238652308912674,0.0256141329183607,0.068935206561179
26,0.0264074650120915,0.070040184997981,0.949183140738157,-0.243006627531802,0.949183140720832,-0.243006627531227,0.0263585232884679,0.0701095037702211
26.5,0.0271645788034566,0.0712033095546987,0.947819795626449,-0.247351712933224,0.947819795609451,-0.247351712932058,0.0271138603554906,0.0712745273708872
27,0.027932512816041,0.0723570382782361,0.946437408748359,-0.251687484365782,0.946437408731716,-0.251687484364067,0.0278799822664564,0.0724301866496426
27.5,0.0287111050214392,0.0735012833660047,0.945035980845522,-0.256013858547271,0.945035980829257,-0.256013858545048,0.028656727221486,0.0735763942689713
28,0.0295001935193986,0.074635960350717,0.943615519447071,-0.260330750232606,0.943615519431202,-0.260330750229912,0.0294439335721829,0.0747130662154041
28.5,0.030299616632889,0.0757609880461008,0.942176038410067,-0.264638072708021,0.942176038394612,-0.2646380727049,0.0302414399167366,0.0758401217449762
29,0.0311092129998737,0.0768762884902161,0.940717557479191,-0.268935738219631,0.940717557464161,-0.268935738216122,0.0310490851916816,0.0769574833263431
29.5,0.0319288216617295,0.0779817868865367,0.939240101866807,-0.273223658343834,0.939240101852214,-0.273223658339974,0.0318667087602491,0.0780650765816555
30,0.0327582821482647,0.0790774115429971,0.937743701854086,-0.277501744306247,0.937743701839935,-0.277501744302075,0.0326941504972697,0.0791628302254441
30.5,0.0335974345592892,0.0801630938091362,0.936228392413397,-0.281769907255201,0.936228392399692,-0.281769907250754,0.033531250870585,0.0802506760016175
31,0.0344461196427203,0.0812387680115505,0.934694212851965,-0.286028058495116,0.934694212838709,-0.286028058490429,0.0343778510189414,0.0813285486187969
31.5,0.0353041788691861,0.0823043713877909,0.933141206476479,-0.290276109684535,0.93314120646367,-0.290276109679643,0.0352337928263411,0.0823963856841254
32,0.0361714545031243,0.083359844018895,0.931569420278194,-0.294513973003067,0.931569420265831,-0.294513972998003,0.0360989189928445,0.0834541276357303
32.5,0.0370477896703614,0.0844051287606942,0.929978904637932,-0.298741561291017,0.929978904626009,-0.298741561285813,0.0369730731018055,0.0845017176739951
33,0.0379330284221779,0.0854401711740851,0.928369713050267,-0.302958788165062,0.928369713038777,-0.302958788159747,0.0378560996835604,0.0855391016918152
33.5,0.0388270157958644,0.0864649194543887,0.926741901866139,-0.307165568112966,0.926741901855076,-0.307165568107569,0.0387478442755613,0.0865662282039721
34,0.0397295978717853,0.0874793243599843,0.925095530053075,-0.311361816569982,0.925095530042428,-0.31136181656453,0.0396481534789844,0.087583048275804
34.5,0.0406406218269697,0.088483339140333,0.923430658972171,-0.315547449979305,0.92343065896193,-0.315547449973824,0.0405568750118279,0.0885895154512981
35,0.0415599359852591,0.0894769194635743,0.921747352170999,-0.319722385838651,0.921747352161152,-0.319722385833163,0.0414738577585312,0.0895855856807719
35.5,0.0424873898640417,0.0904600233438049,0.920045675191575,-0.323886542734826,0.920045675182108,-0.323886542729356,0.0423989518161553,0.0905712172482624
36,0.0434228342176143,0.0914326110681896,0.918325695392544,-0.328039840367927,0.918325695383446,-0.328039840362493,0.043332008537155,0.091546370698786
36.5,0.0443661210772176,0.0923946451240423,0.916587481784788,-0.332182199566608,0.916587481776042,-0.33218219956123,0.0442728805687985,0.0925110087655641
37,0.0453171037877906,0.0933460901259917,0.914831104879607,-0.336313542295717,0.9148311048712,-0.336313542290412,0.0452214218892795,0.0934650962973806
37.5,0.0462756370414962,0.0942869127433597,0.913056636548749,-0.340433791657433,0.913056636540664,-0.340433791652219,0.0461774878405812,0.0944086001861602
38,0.0472415769080838,0.0952170816278779,0.911264149895507,-0.344542871886894,0.91126414988773,-0.344542871881783,0.0471409351581493,0.0953414892949087
38.5,0.0482147808621402,0.0961365673418383,0.909453719136193,-0.348640708343211,0.909453719128706,-0.348640708338217,0.048111621997435,0.0962637343861036
39,0.0491951078072981,0.0970453422867973,0.907625419491282,-0.352727227496643,0.907625419484069,-0.352727227491777,0.0490894079573849,0.0971753080506639
39.5,0.0501824180974765,0.0979433806329383,0.905779327085604,-0.356802356912614,0.905779327078649,-0.356802356907886,0.0500741541009351,0.0980761846375835
40,0.0511765735552122,0.0988306582491701,0.903915518856943,-0.36086602523318,0.903915518850231,-0.3608660252286,0.0510657229725949,0.0989663401843291
40.5,0.0521774374871676,0.0997071526340779,0.902034072472473,-0.364918162156465,0.902034072465985,-0.36491816215204,0.0520639786131852,0.0998457523480968
41,0.0531848746968847,0.100572842847799,0.90013506625246,-0.368958698414521,0.900135066246183,-0.368958698410257,0.0530687865718217,0.10071440033801
41.5,0.0541987514948674,0.101427709444905,0.898218579100736,-0.372987565750031,0.898218579094651,-0.372987565745933,0.0540800139152116,0.101572264848335
42,0.0552189357060665,0.10227173440837,0.896284690441415,-0.377004696892193,0.896284690435508,-0.377004696888265,0.0550975292343545,0.102419327992796
42.5,0.0562452966748607,0.103104901084698,0.89433348016142,-0.38101002553208,0.894333480155675,-0.381010025528325,0.0561212026487276,0.103255573240055
43,0.0572777052676018,0.103927194120268,0.892365028558365,-0.385003486297753,0.892365028552767,-0.385003486294173,0.0571509058080407,0.104080985350428
43.5,0.0583160338728201,0.104738599398974,0.890379416293386,-0.388985014729339,0.890379416287922,-0.388985014725934,0.0581865118916461,0.104895550313882
44,0.0593601563991719,0.105539103981195,0.88837672434855,-0.392954547254272,0.888376724343204,-0.392954547251044,0.0592278956056925,0.105699255289394
44.5,0.0604099482712069,0.106328696044161,0.886357033988449,-0.39691202116286,0.886357033983208,-0.396912021159806,0.0602749331781085,0.106492088545696
45,0.0614652864230575,0.107107364823765,0.884320426725687,-0.400857374584307,0.884320426720538,-0.400857374581426,0.0613275023515019,0.107274039403469
45.5,0.0625260492901207,0.107875100557855,0.882266984289907,-0.404790546463317,0.882266984284838,-0.404790546460607,0.0623854823740672,0.108045098179022
46,0.0635921167988226,0.108631894431042,0.88019678860008,-0.408711476537366,0.880196788595078,-0.408711476534824,0.0634487539885833,0.108805256129496
46.5,0.0646633703545617,0.109377738521079,0.878109921739783,-0.412620105314717,0.878109921734837,-0.412620105312338,0.0645171994195924,0.10955450539962
47,0.0657396928279,0.110112625746806,0.876006465935198,-0.416516374053248,0.876006465930297,-0.416516374051029,0.0655907023588472,0.110292838970053
47.5,0.0668209685391029,0.110836549817729,0.873886503535606,-0.42040022474013,0.873886503530741,-0.420400224738064,0.0666691479491121,0.111020250607346
48,0.0679070832410967,0.111549505185217,0.87175011699615,-0.424271600072396,0.87175011699131,-0.424271600070481,0.0677524227664009,0.111736734815512
48.5,0.0689979241009447,0.112251486995358,0.869597388862645,-0.428130443438429,0.869597388857821,-0.428130443436658,0.068840414800744,0.112442286789275
49,0.0700933796799074,0.112942491043492,0.867428401758274,-0.431976698900373,0.867428401753459,-0.431976698898739,0.0699330134355597,0.113136902368956
49.5,0.0711933399121816,0.113622513730409,0.865243238371961,-0.43581031117748,0.865243238367147,-0.435810311175976,0.0710301094257196,0.11382057799705
50,0.0722976960823933,0.114291552020243,0.863041981448267,-0.439631225630402,0.863041981443447,-0.439631225629022,0.0721315948743844,0.114493310676473
50.5,0.0734063408019215,0.114949603400065,0.860824713778666,-0.443439388246407,0.860824713773833,-0.443439388245145,0.0732373632086957,0.115155097930503
51,0.0745191679841378,0.115596665841161,0.858591518194038,-0.447234745625517,0.858591518189188,-0.447234745624364,0.0743473091543979,0.115805937764402
51.5,0.0756360728186294,0.116232737762015,0.856342477558271,-0.451017244967552,0.856342477553398,-0.451017244966501,0.07546132870947,0.116445828628723
52,0.0767569517444913,0.116857817992976,0.854077674762824,-0.454786834060055,0.854077674757924,-0.4547868340591,0.0765793191168421,0.117074769384305
52.5,0.0778817024227514,0.117471905742618,0.851797192722168,-0.458543461267089,0.851797192717237,-0.458543461266221,0.0777011788362754,0.117692759268937
53,0.0790102237080049,0.118075000565771,0.84950111436998,-0.462287075518861,0.849501114365015,-0.462287075518073,0.0788268075154677,0.118299797865688
53.5,0.0801424156193313,0.118667102333229,0.847189522656005,-0.466017626302165,0.847189522651004,-0.466017626301448,0.0799561059604695,0.118895885072899
54,0.0812781793105533,0.119248211203099,0.844862500543496,-0.469735063651604,0.844862500538456,-0.469735063650951,0.0810889761054671,0.119481021075801
54.5,0.0824174170399183,0.119818327593804,0.842520131007154,-0.473439338141563,0.842520131002074,-0.473439338140967,0.0822253209820094,0.120055206319781
55,0.083560032139254,0.120377452158699,0.840162497031492,-0.47713040087891,0.840162497026371,-0.477130400878363,0.0833650446877375,0.120618441485238
55.5,0.0847059289826693,0.120925585762292,0.837789681609559,-0.480808203496375,0.837789681604398,-0.48080820349587,0.0845080523546846,0.121170727464038
56,0.0858550129548632,0.121462729458063,0.835401767741964,-0.484472698146597,0.835401767736762,-0.484472698146126,0.0856542501172086,0.121712065337544
56.5,0.0870071904190932,0.121988884467823,0.83299883843613,-0.488123837496785,0.832998838430888,-0.488123837496342,0.0868035450796126,0.122242456356178
57,0.0881623686848733,0.122504052162636,0.830580976705757,-0.491761574723982,0.830580976700477,-0.491761574723558,0.0879558452835187,0.122761901920531
57.5,0.0893204559754464,0.123008234045245,0.828148265570414,-0.495385863510876,0.828148265565096,-0.495385863510465,0.0891110596750437,0.123270403563953
58,0.0904813613950918,0.123501431733984,0.825700788055241,-0.498996658042151,0.825700788049888,-0.498996658041747,0.0902690980718395,0.123767962936629
58.5,0.0916449948963232,0.123983646948169,0.82323862719072,-0.502593913001322,0.823238627185335,-0.502593913000918,0.0914298711300426,0.124254581791099
59,0.0928112672470172,0.124454881494913,0.820761866012473,-0.506177583568044,0.820761866007057,-0.506177583567634,0.0925932903111899,0.124730261969204
59.5,0.0939800899975338,0.12491513725735,0.818270587561061,-0.509747625415848,0.818270587555619,-0.509747625415426,0.0937592678491466,0.125195005390418
60,0.0951513754478691,0.125364416184246,0.815764874881764,-0.513303994710284,0.815764874876299,-0.513303994709845,0.0949277167170922,0.125648814041546
60.5,0.0963250366148861,0.125802720280945,0.813244811024308,-0.51684664810744,0.813244811018824,-0.516846648106977,0.0960985505946158,0.126091689967756
61,0.0975009871996724,0.126230051601649,0.810710479042518,-0.520375542752801,0.81071047903702,-0.520375542752311,0.0972716838349573,0.126523635264912
61.5,0.0986791415550586,0.126646412242972,0.808161961993894,-0.523890636280441,0.808161961988386,-0.523890636279918,0.0984470314324398,0.126944652073179
62,0.0998594146533489,0.127051804338758,0.805599342939067,-0.527391886812487,0.805599342933554,-0.527391886811927,0.0996245089901351,0.127354742571871
62.5,0.101041722054289,0.127446230056113,0.803022704941147,-0.530879252958872,0.803022704935633,-0.530879252958271,0.100804032687794,0.127753908975501
63,0.102225979873326,0.127829691592639,0.800432131064932,-0.534352693817314,0.800432131059424,-0.534352693816669,0.10198551925009,0.128142153531013
63.5,0.103412104750177,0.128202191174819,0.797827704375985,-0.53781216897352,0.797827704370487,-0.537812168972826,0.103168885915199,0.128519478516159
64,0.104600013817755,0.12856373105753,0.79520950793955,-0.541257638501586,0.795209507934069,-0.541257638500842,0.104354050403756,0.128885886238976
64.5,0.105789624671478,0.128914313524647,0.792577624819319,-0.544689062964568,0.79257762481386,-0.54468906296377,0.105540930888218,0.12924137903836
