"Freq [GHz]","re(St(P1,P1)) []","im(St(P1,P1)) []","re(St(P1,P2)) []","im(St(P1,P2)) []","re(St(P2,P1)) []","im(St(P2,P1)) []","re(St(P2,P2)) []","im(St(P2,P2)) []"
0,0.00482663256229898,0,0.995187551976414,0,0.995187568056281,0,0.0048266377912114,0
0.5,0.00534746602106395,1.99472196236172E-005,0.994626532686333,-0.00568017133853616,0.994626532650742,-0.00568016894166234,0.00534720662938071,2.0883231552915E-005
1,0.00583059581840573,-0.000613973815926983,0.994054397440621,-0.0107039918280236,0.994054397617013,-0.0107039924438617,0.00582997876852787,-0.000611749425260655
1.5,0.00614035982642136,-0.00138023089873229,0.993578678705845,-0.0157239003361553,0.99357867860147,-0.0157239008526844,0.00613938622845822,-0.00137655139733894
2,0.00631287398918978,-0.00218959975418542,0.993140954577697,-0.0205991965513874,0.993140954350933,-0.0205991969133414,0.00631170088109378,-0.00218428698712714
2.5,0.00640863526030344,-0.00299190941741401,0.992752810490128,-0.0254039895553468,0.992752810235976,-0.0254039897903304,0.00640741436698455,-0.00298491105796472
3,0.00646234020362435,-0.00377941613220223,0.992397723012894,-0.0301789111471447,0.992397722773409,-0.0301789112952466,0.00646118468101697,-0.00377072702033132
3.5,0.00649165347643699,-0.00455392321379655,0.992056646401188,-0.0349419125351176,0.992056646190984,-0.0349419126279429,0.00649064833516633,-0.00454355183357436
4,0.00650575302809919,-0.00531861854650728,0.991714621159088,-0.0396995137165082,0.991714620980901,-0.0396995137753695,0.0065049662384471,-0.00530657579334459
4.5,0.00650964268392684,-0.00607632089666055,0.991361006251482,-0.0444531089314868,0.991361006103467,-0.0444531089699378,0.00650913220451699,-0.00606261669590502
5,0.00650618971786709,-0.00682924634605619,0.990988388992208,-0.0492019672288624,0.990988388871072,-0.0492019672552964,0.00650600759683639,-0.00681388885471179
5.5,0.00649711154469701,-0.00757909867279771,0.990591554137161,-0.0539445776490481,0.990591554039402,-0.053944577668565,0.006497306317792,-0.00756209429190235
6,0.00648347559961859,-0.00832719805830706,0.990166745841993,-0.0586792334599302,0.990166745764327,-0.058679233475516,0.00648409373167214,-0.00830855166578459
6.5,0.00646596494911345,-0.00907458754006107,0.989711180845662,-0.0634042758432258,0.98971118078514,-0.0634042758565698,0.00646705173292794,-0.00905430275177999
7,0.00644502589029616,-0.00982211126440458,0.989222735505081,-0.0681181865265481,0.989222735459092,-0.0681181865385083,0.00644662603044521,-0.00980019066633009
7.5,0.00642095336235693,-0.0105704700489833,0.988699745332075,-0.0728196140801751,0.988699745298294,-0.0728196140910828,0.00642311137101892,-0.0105469153890709
8,0.00639394218693612,-0.0113202605834024,0.988140875789386,-0.0775073718448827,0.988140875765722,-0.0775073718547592,0.00639670266463166,-0.0112950729263517
8.5,0.00636411880476473,-0.0120720032335688,0.987545038066993,-0.0821804245417912,0.987545038051543,-0.0821804245504714,0.00636752664892482,-0.0120451830850508
9,0.00633156149215108,-0.0128261619717414,0.986911333363561,-0.0868378711813653,0.986911333354584,-0.0868378711885853,0.00633566205950509,-0.0127977093787859
9.5,0.00629631355937754,-0.0135831588485216,0.986239015351708,-0.091478927603541,0.986239015347584,-0.0914789276090016,0.00630115279834031,-0.0135530734816944
10,0.00625839215266311,-0.0143433846499752,0.985527464324022,-0.0961029100307815,0.985527464323238,-0.0961029100341779,0.00626401671605492,-0.0143116658718263
10.5,0.00620991822669237,-0.0150824706105199,0.984846236827539,-0.10077130790153,0.98484623682674,-0.100771307905332,0.00621577877886148,-0.0150485678926815
11,0.00615765011793562,-0.0158243815053982,0.984141510152225,-0.105425026455257,0.984141510151379,-0.105425026459472,0.00616381948400963,-0.0157882354592811
11.5,0.00610140951952859,-0.0165691672818902,0.983414028012987,-0.11006426108836,0.983414028012062,-0.110064261092991,0.0061079664974043,-0.016530721396899
12,0.00604101529171114,-0.017316868049174,0.982664478952825,-0.114689246524978,0.98266447895179,-0.114689246530021,0.0060480443932967,-0.0172760692022607
12.5,0.00597628404160294,-0.018067514022361,0.981893496001544,-0.119300249536312,0.981893496000368,-0.119300249541766,0.0059838751917064,-0.0180243129587767
13,0.00590703069789761,-0.0188211255034938,0.981101657129474,-0.123897562130365,0.981101657128128,-0.123897562136217,0.00591527889409227,-0.0187754772852706
13.5,0.00583306907799447,-0.0195777128984513,0.980289486374097,-0.128481495269325,0.980289486372553,-0.128481495275565,0.00584207401504741,-0.0195295773175737
14,0.00575421244517904,-0.0203372767686201,0.979457455521323,-0.13305237315001,0.979457455519553,-0.133052373156628,0.00576407810787544,-0.0202866187221797
14.5,0.00567027405364529,-0.0210998079158866,0.97860598622996,-0.137610528063731,0.97860598622794,-0.13761052807071,0.00568110828200041,-0.0210465977410284
15,0.00558106767930329,-0.021865287499518,0.9777354524966,-0.142156295836112,0.977735452494306,-0.142156295843435,0.00559298171028906,-0.0218095012663206
15.5,0.00548640813447045,-0.0226336871832258,0.976846183368172,-0.146690011834418,0.976846183365584,-0.146690011842068,0.0054995161244779,-0.0225753069441748
16,0.00538611176472345,-0.0234049693107581,0.975938465820074,-0.151212007519918,0.975938465817172,-0.151212007527874,0.00540053029700696,-0.0233439833058235
16.5,0.00527999692637045,-0.0241790871081151,0.975012547728639,-0.155722607515149,0.975012547725406,-0.15572260752339,0.00529584450772708,-0.0241154899249376
17,0.00516788444315949,-0.0249559849105783,0.974068640877283,-0.160222127150814,0.974068640873705,-0.160222127159319,0.00518528099403912,-0.0248897775996282
17.5,0.00504959804104992,-0.0257355984125267,0.973106923945797,-0.164710870453501,0.973106923941859,-0.164710870462247,0.005068664383216,-0.0256667885575097
18,0.00492496476001894,-0.0265178549381067,0.972127545441561,-0.169189128533926,0.972127545437254,-0.16918912854289,0.00494582210575198,-0.0264464566822755
18.5,0.00479381534206597,-0.0273026737307474,0.971130626540013,-0.1736571783349,0.971130626535327,-0.17365717834406,0.00481658478874426,-0.0272287077601243
19,0.0046559845947538,-0.0280899662594805,0.970116263809242,-0.178115281698897,0.97011626380417,-0.178115281708228,0.00468078662846305,-0.028013459744308
19.5,0.0045113117297774,-0.0288796365400965,0.969084531800276,-0.182563684716627,0.969084531794811,-0.182563684726108,0.0045382657413949,-0.0288006230361733
20,0.00435964067621483,-0.0296715814691355,0.968035485490297,-0.187002617320046,0.968035485484436,-0.187002617329653,0.0043888644931685,-0.0295901007809225
20.5,0.00420082036828673,-0.0304656911687635,0.966969162570931,-0.191432293085637,0.966969162564672,-0.191432293095348,0.00423242980494157,-0.0303817891764062
21,0.00403470500756198,-0.0312618493406451,0.965885585577751,-0.195852909216601,0.965885585571093,-0.195852909226394,0.00406881343691806,-0.031175577793281
21.5,0.0038611542997127,-0.0320599336269471,0.96478476386045,-0.200264646675247,0.964784763853394,-0.2002646466851,0.00389787224881899,-0.0319713499048118
22,0.00368003366603226,-0.0328598159766993,0.963666695395795,-0.204667670439853,0.963666695388341,-0.204667670449747,0.0037194684372294,-0.0327689828247273
22.5,0.00349121443005784,-0.0336613630157863,0.962531368447508,-0.209062129862908,0.96253136843966,-0.20906212987282,0.00353346974987812,-0.0335683482514852
23,0.00329457397974287,-0.0344644364189488,0.961378763078826,-0.213448159110403,0.961378763070589,-0.213448159120315,0.0033397496769858,-0.0343693126174345
23.5,0.00308999590572553,-0.0352688932822045,0.960208852524596,-0.217825877664247,0.960208852515975,-0.217825877674141,0.00313818761995377,-0.035171737441325
24,0.0028773701163107,-0.03607458649428,0.959021604430542,-0.222195390872358,0.959021604421543,-0.222195390882215,0.0029286690377136,-0.0359754796827834
24.5,0.0026565929299085,-0.0368813651056077,0.957816981967877,-0.226556790532934,0.957816981958506,-0.226556790542734,0.00271108557119587,-0.0367803920973158
25,0.00242756714567455,-0.0376890746936529,0.956594944831586,-0.23091015550155,0.956594944821852,-0.23091015551128,0.00248533514640098,-0.0375863235905678
25.5,0.00219020209321519,-0.0384975577233733,0.955355450130865,-0.235255552311348,0.955355450120776,-0.235255552320992,0.00225132205667133,-0.038393119570594
26,0.00194441366223275,-0.0393066539016944,0.954098453179988,-0.239593035798225,0.954098453169551,-0.239593035807768,0.00200895702479326,-0.0392006222969599
26.5,0.00169012431305809,-0.0401162005250333,0.952823908197753,-0.243922649724252,0.952823908186979,-0.243922649733679,0.00175815724563966,-0.0400086712255994
27,0.00142726306901536,-0.04092603281893,0.951531768923286,-0.248244427393872,0.951531768912184,-0.24824442740317,0.00149884641009151,-0.0408171033484099
27.5,0.00115576549162127,-0.0417359842690281,0.950221989155639,-0.252558392258389,0.950221989144219,-0.252558392267545,0.00123095471103124,-0.0416257535266604
28,0.000875573639611216,-0.0425458869426247,0.948894523224223,-0.25686455850524,0.948894523212497,-0.256864558514243,0.00095441883223224,-0.0424344548173381
28.5,0.000586636012829933,-0.0433555718002028,0.94754932639666,-0.261162931629338,0.947549326384637,-0.261162931638178,0.000669181920990303,-0.0432430387916787
29,0.000288907481975242,-0.0441648689963827,0.946186355230193,-0.265453508984424,0.946186355217885,-0.265453508993091,0.000375193545384345,-0.044051335845158
29.5,-1.76507947627913E-005,-0.0449736081698329,0.94480556787238,-0.269736280312974,0.944805567859797,-0.269736280321457,7.24096370350868E-005,-0.0448591754983441
30,-0.000333071467174095,-0.0457816187217497,0.943406924316311,-0.274011228253665,0.943406924303464,-0.274011228261957,-0.000239207579721679,-0.0456663866880302
30.5,-0.000657381099609278,-0.0465887300826198,0.941990386615203,-0.278278328825842,0.941990386602105,-0.278278328833933,-0.000559689671349506,-0.0464727980481929
31,-0.000990600287693988,-0.0473947719669836,0.940555919060791,-0.282537551890719,0.940555919047452,-0.282537551898604,-0.000889062090411008,-0.0472782381803507
31.5,-0.0013327437842236,-0.0481995746160861,0.939103488329548,-0.286788861589382,0.93910348831598,-0.286788861597052,-0.00122734428175303,-0.0480825359129975
32,-0.00168382063330014,-0.0490029690282567,0.937633063600419,-0.291032216757818,0.937633063586634,-0.291032216765267,-0.00157454979868216,-0.0488855205498056
32.5,-0.00204383431181732,-0.049804787177,0.936144616647388,-0.295267571319431,0.936144616633397,-0.295267571326655,-0.00193068642826294,-0.0496870221064221
33,-0.00241278287740893,-0.0506048622167796,0.934638121909889,-0.299494874655597,0.934638121895703,-0.29949487466259,-0.00229575632486551,-0.0504868715356479
33.5,-0.00279065912203591,-0.0514030286765761,0.933113556543769,-0.303714071954964,0.9331135565294,-0.303714071961721,-0.00266975615113141,-0.0512849009409537
34,-0.00317745073039222,-0.052199122641295,0.931570900455251,-0.307925104542226,0.931570900440708,-0.307925104548745,-0.00305267722553099,-0.0520809437782308
34.5,-0.00357314044236862,-0.0529929819211676,0.930010136320076,-0.312127910187211,0.930010136305372,-0.312127910193487,-0.0034445056757158,-0.0528748350458026
35,-0.00397770621883953,-0.0537844462093509,0.92843124958979,-0.316322423395125,0.928431249574936,-0.316322423401155,-0.00384522259690578,-0.0536664114627332
35.5,-0.00439112141007514,-0.0545733572279026,0.926834228486927,-0.320508575678822,0.926834228471933,-0.320508575684605,-0.00425480421455876,-0.0544555116355117
36,-0.00481335492612534,-0.0553595588624038,0.925219063990637,-0.324686295813988,0.925219063975515,-0.32468629581952,-0.00467322205061949,-0.0552419762132295
36.5,-0.00524437140855177,-0.0561428972854745,0.923585749814166,-0.328855510078099,0.923585749798925,-0.32885551008338,-0.00510044309266111,-0.0560256480314223
37,-0.0056841314029295,-0.0569232210694994,0.921934282375398,-0.333016142474052,0.92193428236005,-0.33301614247908,-0.00553642996527914,-0.0568063722447505
37.5,-0.00613259153157719,-0.057700381288855,0.92026466076157,-0.337168114939272,0.920264660746124,-0.337168114944046,-0.0059811411031106,-0.0575839964487475
38,-0.00658970466599867,-0.0584742316119731,0.918576886689109,-0.341311347541162,0.918576886673574,-0.341311347545682,-0.00643453092490526,-0.0583583707908613
38.5,-0.00705542009857735,-0.0592446283835846,0.916870964459449,-0.34544575865966,0.916870964443836,-0.345445758663925,-0.00689655000808698,-0.0591293480710693
39,-0.00752968371308538,-0.0600114306975046,0.915146900911578,-0.349571265157699,0.915146900895897,-0.349571265161709,-0.00736714526330345,-0.0598967838323574
39.5,-0.00801243815359864,-0.0607745004603002,0.913404705371963,-0.35368778254028,0.913404705356222,-0.353687782544036,-0.00784626010845979,-0.0606605364413408
40,-0.0085036229914689,-0.0615337024462288,0.911644389602434,-0.35779522510288,0.911644389586643,-0.357795225106382,-0.0083338346417996,-0.0614204671593681
40.5,-0.00900317488999897,-0.0622889043438186,0.909865967746527,-0.361893506069859,0.909865967730695,-0.361893506073108,-0.00882980581361037,-0.0621764402044325
41,-0.00951102776653656,-0.0630399767944416,0.908069456274723,-0.365982537723482,0.908069456258859,-0.365982537726479,-0.00933410759615105,-0.0629283228042135
41.5,-0.010027112951695,-0.0637867934232941,0.906254873928964,-0.370062231524202,0.906254873913076,-0.37006223152695,-0.0098466711514662,-0.0636759852406246
42,-0.0105513593454825,-0.064529230863128,0.904422241666756,-0.374132498222726,0.904422241650854,-0.374132498225225,-0.010367424996741,-0.0644193008861975
42.5,-0.0110836935700894,-0.0652671687711079,0.902571582605176,-0.378193247964419,0.902571582589267,-0.378193247966672,-0.0108962951669026,-0.065158146232666
43,-0.0116240401191769,-0.0660004898391795,0.90070292196498,-0.382244390386564,0.900702921949072,-0.382244390388573,-0.011433205374202,-0.0658924009121189
43.5,-0.0121723215034758,-0.0667290797982891,0.89881628701505,-0.386285834708935,0.898816286999151,-0.386285834710701,-0.0119780771645254,-0.0666219477110646
44,-0.012728458392564,-0.0674528274168273,0.896911707017342,-0.390317489818125,0.896911707001459,-0.390317489819651,-0.0125308300702235,-0.0673466725777812
44.5,-0.0132923697527003,-0.0681716244936348,0.894989213172479,-0.394339264346075,0.89498921315662,-0.394339264347364,-0.0130913817592611,-0.0680664646233067
45,-0.0138639729806104,-0.0688853658459228,0.893048838566109,-0.398351066743165,0.89304883855028,-0.39835106674422,-0.0136596481805216,-0.0687812161164172
45.5,-0.0144431840331508,-0.0695939492924242,0.891090618116133,-0.402352805346252,0.891090618100342,-0.402352805347076,-0.0142355437051169,-0.069490822472946
46,-0.0150299175527763,-0.070297275632117,0.889114588520889,-0.406344388441988,0.889114588505143,-0.406344388442583,-0.0148189812635812,-0.0701951822397886
46.5,-0.0156240869887763,-0.0709952486188246,0.887120788208333,-0.410325724325746,0.887120788192639,-0.410325724326116,-0.015409872478843,-0.0708941970739339
47,-0.0162256047142414,-0.071687774931996,0.885109257286302,-0.414296721356452,0.885109257270665,-0.4142967213566,-0.0160081277948886,-0.0715877717168441
47.5,-0.0168343821387466,-0.0723747641439658,0.883080037493862,-0.418257288007599,0.883080037478288,-0.418257288007528,-0.0166136566010542,-0.0722758139645132
48,-0.0174503298167466,-0.0730561286839713,0.881033172153793,-0.422207332914701,0.881033172138289,-0.422207332914416,-0.0172263673518908,-0.0729582346335158
48.5,-0.0180733575516918,-0.0737317837992055,0.878968706126221,-0.426146764919441,0.878968706110793,-0.426146764918945,-0.017846167682577,-0.0736349475233562
49,-0.018703374495886,-0.0744016475131632,0.876886685763401,-0.430075493110725,0.876886685748053,-0.43007549311002,-0.0184729645198467,-0.074305869375402
49.5,-0.0193402892461179,-0.0750656405815322,0.874787158865653,-0.433993426862859,0.874787158850392,-0.433993426861952,-0.0191066641884441,-0.0749709198287067
50,-0.0199840099351012,-0.0757236864458788,0.872670174638467,-0.437900475871062,0.872670174623297,-0.437900475869954,-0.0197471725130977,-0.0756300213729895
50.5,-0.0206344443187715,-0.0763757111853403,0.870535783650742,-0.441796550184454,0.87053578363567,-0.44179655018315,-0.0203943949160408,-0.0762830992990291
51,-0.0212914998595004,-0.0770216434665629,0.868384037794169,-0.445681560236737,0.868384037779198,-0.445681560235241,-0.021048236510104,-0.07693008164675
51.5,-0.0219550838052849,-0.0776614144920817,0.866214990243719,-0.449555416874704,0.866214990228855,-0.449555416873021,-0.0217086021874304,-0.0775708991512314
52,-0.0226251032649802,-0.0782949579473453,0.864028695419249,-0.453418031384716,0.864028695404495,-0.453418031382849,-0.0223753967038436,-0.0782054851868796
52.5,-0.0233014652796495,-0.0789222099465781,0.861825208948169,-0.457269315517303,0.861825208933531,-0.457269315515256,-0.0230485247589461,-0.0788337757099882
53,-0.0239840768901086,-0.0795431089776459,0.85960458762918,-0.461109181510002,0.859604587614661,-0.46110918150778,-0.023727891071998,-0.0794557091999124
53.5,-0.0246728452007475,-0.0801575958461158,0.857366889397033,-0.464937542108555,0.857366889382638,-0.464937542106162,-0.0244134004536526,-0.0800712265990378
54,-0.0253676774397186,-0.0807656136186454,0.855112173288299,-0.468754310586576,0.85511217327403,-0.468754310584016,-0.0251049578736344,-0.0806802712517738
54.5,-0.0260684810155646,-0.0813671075658733,0.852840499408114,-0.472559400763795,0.852840499393976,-0.472559400761073,-0.0258024685244213,-0.0812827888427206
55,-0.0267751635704028,-0.0819620251049376,0.850551928897882,-0.476352727022964,0.850551928883878,-0.476352727020083,-0.0265058378810443,-0.0818787273342159
55.5,-0.0274876330297305,-0.0825503157417709,0.848246523903898,-0.480134204325516,0.848246523890033,-0.480134204322482,-0.0272149717570728,-0.0824680369034101
56,-0.0282057976489625,-0.0831319310132745,0.845924347546875,-0.483903748226072,0.845924347533151,-0.483903748222888,-0.027929776356895,-0.0830506698790232
56.5,-0.0289295660567963,-0.0837068244295166,0.843585463892328,-0.487661274885848,0.843585463878748,-0.487661274882519,-0.0286501583243848,-0.0836265806779521
57,-0.0296588472954888,-0.0842749514160422,0.841229937921817,-0.491406701085057,0.841229937908383,-0.491406701081588,-0.0293760247880546,-0.0841957257418431
57.5,-0.0303935508581549,-0.0848362692564083,0.838857835504988,-0.49513994423436,0.838857835491705,-0.495139944230755,-0.0301072834028019,-0.0847580634737717
58,-0.0311335867231766,-0.0853907370350349,0.836469223372423,-0.498860922385426,0.836469223359293,-0.49886092238169,-0.0308438423883416,-0.0853135541751547
58.5,-0.0318788653858179,-0.0859383155804586,0.834064169089231,-0.50256955424066,0.834064169076255,-0.502569554236797,-0.0315856105644415,-0.0858621599829923
59,-0.0326292978871514,-0.0864789674090822,0.831642741029386,-0.506265759162162,0.831642741016568,-0.506265759158176,-0.032332497383058,-0.0864038448075679
59.5,-0.0333847958403776,-0.0870126566694748,0.829205008350784,-0.509949457179944,0.829205008338125,-0.509949457175839,-0.033084412957473,-0.0869385742706816
60,-0.0341452714546453,-0.0875393490873164,0.826751040970967,-0.513620568999477,0.82675104095847,-0.513620568995258,-0.0338412680885573,-0.0874663156445286
60.5,-0.0349106375564591,-0.0880590119110305,0.824280909543527,-0.51727901600859,0.824280909531194,-0.517279016004262,-0.0346029742882373,-0.0879870377912864
61,-0.0356808076087681,-0.0885716138581782,0.821794685435142,-0.520924720283774,0.821794685422974,-0.520924720279341,-0.0353694438002951,-0.0885007111035082
61.5,-0.0364556957278271,-0.0890771250626577,0.819292440703227,-0.524557604595915,0.819292440691226,-0.524557604591381,-0.036140589618589,-0.0890073074453768
62,-0.0372352166979218,-0.089575517022764,0.816774248074186,-0.528177592415507,0.816774248062354,-0.528177592410877,-0.0369163255028089,-0.0895068000948921
62.5,-0.0380192859840439,-0.0900667625501497,0.81424018092223,-0.531784607917363,0.814240180910568,-0.531784607912641,-0.0376965659918601,-0.0899991636870512
