"Freq [GHz]","re(St(P1,P1)) []","im(St(P1,P1)) []","re(St(P1,P2)) []","im(St(P1,P2)) []","re(St(P2,P1)) []","im(St(P2,P1)) []","re(St(P2,P2)) []","im(St(P2,P2)) []"
0,0.00499635190965364,0,0.995019978232449,0,0.995019976689946,0,0.00499634772546642,0
0.5,0.00572335878870689,-0.00159191652705459,0.994241364429293,-0.00671246161715899,0.994241364403479,-0.00671246148968052,0.00572317574578562,-0.00159147869252507
1,0.00631675151821653,-0.00407478522904725,0.993523265702279,-0.012539331023838,0.99352326570747,-0.0125393310396191,0.00631622608890225,-0.00407374586403719
1.5,0.00665116956920286,-0.00672545630457932,0.992985781818774,-0.0181907153910501,0.992985781811147,-0.0181907154167327,0.0066501746133163,-0.0067237265759168
2,0.00679951756890418,-0.00940441455039931,0.992559935463586,-0.0238011820779214,0.992559935445517,-0.0238011821031279,0.00679797679840632,-0.00940189086343679
2.5,0.00684697705104931,-0.0120689550125981,0.99216217454534,-0.0294163212352316,0.992162174521543,-0.0294163212561251,0.00684482308217049,-0.0120655538919401
3,0.00683319730994114,-0.0147185587283794,0.991752722801975,-0.0350366600220049,0.991752722776249,-0.0350366600374983,0.00683037046047907,-0.0147142013040167
3.5,0.0067756084190691,-0.0173584192143164,0.991314406015428,-0.0406559366412882,0.991314405990641,-0.0406559366514383,0.00677205950583648,-0.0173530295846369
4,0.00668202881810664,-0.0199928310448865,0.990840125492369,-0.0462686047683931,0.990840125470659,-0.046268604773763,0.00667771911996784,-0.0199863381811909
4.5,0.00655607227062038,-0.0226245183942293,0.990327272672743,-0.0518708242333812,0.990327272655674,-0.0518708242348502,0.00655097165456375,-0.0226168579078898
5,0.00639947883040559,-0.0252549892448339,0.989775235550707,-0.057460203177838,0.98977523553929,-0.0574602031764577,0.00639356326654372,-0.0252461042108649
5.5,0.00621315344563023,-0.0278849502650189,0.989184241078006,-0.0630353884450159,0.989184241072749,-0.0630353884419126,0.00620640262007388,-0.0278747911742947
6,0.00599763776688578,-0.0305146198289243,0.988554804310807,-0.0685957181758834,0.9885548043117,-0.0685957181721228,0.00599003310791923,-0.0305031439518562
6.5,0.00575332296383335,-0.0331439384101984,0.987887469563943,-0.0741409618372337,0.987887469570524,-0.074140961833761,0.00574484616477067,-0.0331311088469963
7,0.005480541591532,-0.0357727021864314,0.987182698148314,-0.0796711351970192,0.987182698159686,-0.0796711351945607,0.00547117359527327,-0.0357584868092342
7.5,0.00517960319543409,-0.0384006441613103,0.986440830765188,-0.0851863731706484,0.986440830780099,-0.0851863731696518,0.00516932355787603,-0.0383850145793296
8,0.004850804699295,-0.0410274810170783,0.98566208704966,-0.0906868456143037,0.985662087066543,-0.0906868456148811,0.0048395912394068,-0.04101041163654
8.5,0.00449443048215148,-0.0436529383333397,0.984846582115518,-0.0961727041869267,0.984846582132565,-0.0961727041888398,0.00448225913591305,-0.0436344055432052
9,0.00411074911552811,-0.0462767625947933,0.983994349255707,-0.101644051149455,0.983994349270923,-0.101644051152089,0.00409759392684261,-0.0462567440838662
9.5,0.00370000981387308,-0.0488987254412026,0.983105363134499,-0.107100923238832,0.983105363145761,-0.107100923241197,0.00368584301206965,-0.0488771996383406
10,0.00326243975079077,-0.0515186235986533,0.982179560738935,-0.112543285567718,0.982179560744035,-0.112543285568443,0.00324723187859788,-0.0514955692213244
10.5,0.00277873115801164,-0.0540492736160907,0.981200089835301,-0.117992594013107,0.981200089840316,-0.117992594013555,0.00276765902176557,-0.0540351268284818
11,0.0022749318638684,-0.0565747146329727,0.980184292913287,-0.12342289085121,0.980184292918249,-0.123422890851375,0.00226693406682177,-0.0565707304872163
11.5,0.00175150480386266,-0.0590951204481343,0.979132899189162,-0.12883432095024,0.979132899194104,-0.128834320950133,0.0017452905387555,-0.0591025063016346
12,0.00120890562471487,-0.0616107491325391,0.978046567782467,-0.13422705016627,0.978046567787419,-0.13422705016589,0.00120294127600928,-0.0616306297676257
12.5,0.000647570813169462,-0.0641219505494117,0.976925891241326,-0.139601256882215,0.976925891246316,-0.139601256881568,0.000640070456760067,-0.0641553272198081
13,6.7903106565903E-005,-0.066629172994487,0.975771399712066,-0.144957124684739,0.975771399717123,-0.144957124683842,5.6824586280757E-005,-0.0666768763012895
13.5,-0.000529746057578606,-0.069132968297791,0.974583565543105,-0.150294836144934,0.97458356554825,-0.150294836143797,-0.000546697516536909,-0.0691956051555769
14,-0.00114509718501876,-0.0716339945604281,0.973362808142568,-0.155614567642976,0.973362808147823,-0.155614567641614,-0.0011704556283535,-0.0717118900056839
14.5,-0.00177796641664896,-0.0741330155308724,0.972109498938466,-0.160916485159431,0.972109498943852,-0.160916485157864,-0.00181447973571358,-0.0742261507621613
15,-0.00242829196756944,-0.0766308954746462,0.970823966318488,-0.166200740944996,0.970823966324018,-0.166200740943236,-0.0024788820601308,-0.0767388442961279
15.5,-0.00309616266615753,-0.0791285882895565,0.969506500452285,-0.171467470975093,0.969506500457978,-0.171467470973166,-0.00316386907922223,-0.0792504550331499
16,-0.00378184750980182,-0.0816271196047182,0.968157357922534,-0.176716793094774,0.9681573579284,-0.176716793092695,-0.00386975299733289,-0.081761482578032
16.5,-0.00448582464263364,-0.0841275607232124,0.966776766111114,-0.181948805761672,0.966776766117162,-0.181948805759462,-0.00459696198436488,-0.0842724261778258
17,-0.00520880760987857,-0.0866309935760903,0.965364927304186,-0.187163587299392,0.965364927310423,-0.187163587297074,-0.00534604837670932,-0.086783765977291
17.5,-0.00595176621785914,-0.0891384663940817,0.963922022494077,-0.192361195580132,0.963922022500509,-0.192361195577721,-0.00611769393670358,-0.089295941221601
18,-0.00671593892049249,-0.0916509405971757,0.962448214867676,-0.197541668062334,0.962448214874307,-0.197541668059848,-0.00691271121736631,-0.0918093258124291
18.5,-0.00750283348088915,-0.0941692304391184,0.960943652980138,-0.202705022117021,0.960943652986967,-0.202705022114486,-0.00773204010024758,-0.0943242019162174
19,-0.00831421284746675,-0.0966939381560739,0.959408473619794,-0.207851255584127,0.959408473626824,-0.207851255581559,-0.00857673868725289,-0.0968407326366636
19.5,-0.00915206384933814,-0.099225388622596,0.957842804375511,-0.212980347507532,0.957842804382739,-0.212980347504948,-0.00944796794820812,-0.0993589350682091
20,-0.0100185475150065,-0.101763568615209,0.956246765921321,-0.218092259004827,0.956246765928744,-0.218092259002242,-0.0103469698605661,-0.101878655303493
20.5,-0.0109159315201394,-0.104308076481464,0.954620474035769,-0.223186934234239,0.954620474043384,-0.223186934231673,-0.0112750392163708,-0.104399547131746
21,-0.011846507325182,-0.106858088070046,0.952964041374823,-0.228264301427131,0.952964041382624,-0.228264301424596,-0.012233489786762,-0.106921056193367
21.5,-0.0128124966996837,-0.109412344019083,0.951277579017851,-0.233324273959938,0.951277579025831,-0.23332427395745,-0.0132236160792621,-0.109442411214336
22,-0.0138159541857689,-0.111969161879113,0.949561197806281,-0.238366751443985,0.949561197814434,-0.238366751441558,-0.0142466524354677,-0.111962623616412
22.5,-0.014858673247702,-0.114526474196218,0.947815009494119,-0.24339162081585,0.947815009502438,-0.243391620813494,-0.0153037316268367,-0.114480496294477
23,-0.015942104082352,-0.11708189091198,0.946039127728773,-0.248398757414452,0.946039127737249,-0.24839875741218,-0.0163958453473494,-0.116994641708621
23.5,-0.0170672901886018,-0.119632781694823,0.944233668879668,-0.253388026034068,0.944233668888293,-0.253388026031892,-0.0175238090240664,-0.119503508720209
24,-0.0182348288963016,-0.122176371580112,0.942398752731054,-0.258359281945092,0.942398752739817,-0.25835928194302,-0.0186882331476227,-0.122005416891894
24.5,-0.0194448584389639,-0.124709841958889,0.940534503054172,-0.263312371876458,0.940534503063065,-0.263312371874501,-0.0198895028773869,-0.124498596359914
25,-0.0206970712695678,-0.127230428728623,0.938641048072757,-0.268247134955499,0.938641048081769,-0.268247134953663,-0.0211277670479222,-0.126981230951709
25.5,-0.0219907506538817,-0.129735510284243,0.936718520834636,-0.273163403602401,0.936718520843759,-0.273163403600694,-0.0224029369703884,-0.129451502016907
26,-0.0233248255394205,-0.13222267975215,0.93476705950098,-0.278061004377698,0.934767059510202,-0.278061004376124,-0.0237146946748032,-0.131907630484652
26.5,-0.0246979375340755,-0.134689798082892,0.932786807563644,-0.282939758782113,0.932786807572954,-0.282939758780681,-0.0250625095658171,-0.134347914937775
27,-0.0261085135838513,-0.137135026913074,0.930777913999975,-0.287799484008935,0.930777914009363,-0.287799484007649,-0.0264456619384926,-0.136770763955469
27.5,-0.0275548384880925,-0.139556842132656,0.928740533373453,-0.292639993649544,0.92874053338291,-0.292639993648408,-0.0278632714669895,-0.139174721550872
28,-0.0290351224958334,-0.14195403061822,0.926674825887622,-0.297461098353354,0.926674825897139,-0.29746109835237,-0.0293143286523374,-0.141558485141041
28.5,-0.0305475606129167,-0.144325673520009,0.924580957399919,-0.302262606443561,0.924580957409483,-0.302262606442731,-0.0307977272802243,-0.143920916063015
29,-0.0320903816656621,-0.146671119845725,0.92245909940125,-0.307044324490501,0.922459099410852,-0.307044324489829,-0.0323122961587637,-0.146261043136036
29.5,-0.0336618864265213,-0.148989953972663,0.920309428966452,-0.311806057844497,0.920309428976083,-0.311806057843986,-0.0338568287295584,-0.14857806013256
30,-0.0352604751015989,-0.151281960286056,0.918132128680188,-0.316547611130171,0.918132128689837,-0.31654761112982,-0.035430109520671,-0.150871318247565
30.5,-0.0368846651717719,-0.153547087530638,0.915927386542199,-0.32126878870427,0.915927386551857,-0.321268788704079,-0.0370309367903109,-0.15314031475366
31,-0.0385331009840605,-0.155785414796591,0.913695395855413,-0.325969395079071,0.91369539586507,-0.325969395079041,-0.0386581410585847,-0.155384679018077
31.5,-0.040204556655912,-0.157997120428699,0.911436355099909,-0.330649235313385,0.911436355109557,-0.330649235313515,-0.0403105995175893,-0.157604156964032
32,-0.0418979338431031,-0.160182454602185,0.90915046779535,-0.33530811537315,0.909150467804981,-0.335308115373438,-0.0419872465357618,-0.159798594911495
32.5,-0.0436122557926731,-0.162341715874511,0.906837942354178,-0.339945842463524,0.906837942363781,-0.339945842463971,-0.0436870806290741,-0.161967923557576
33,-0.0453466589076584,-0.164475231702241,0.9044989919275,-0.344562225334358,0.904498991937067,-0.34456222533496,-0.0454091683651867,-0.164112142676
33.5,-0.0471003828303306,-0.166583342694792,0.9021338342454,-0.349157074560777,0.902133834254925,-0.349157074561534,-0.0471526457069971,-0.166231306944297
34,-0.0488727598328565,-0.16866639024563,0.899742691453088,-0.353730202800587,0.899742691462562,-0.353730202801496,-0.048916717301233,-0.16832551315647
34.5,-0.050663204105735,-0.170724707116145,0.897325789944159,-0.358281425030069,0.897325789953574,-0.358281425031127,-0.0507006541876659,-0.170394888953315
35,-0.0524712013638059,-0.17275861053015,0.894883360192,-0.362810558759674,0.894883360201349,-0.362810558760878,-0.0525037903559229,-0.172439583103593
35.5,-0.0542962990497756,-0.174768397351768,0.89241563658028,-0.367317424231007,0.892415636589557,-0.367317424232354,-0.054325518518494,-0.174459757295631
36,-0.0561380973052303,-0.176754340953835,0.889922857233259,-0.371801844596441,0.889922857242457,-0.371801844597928,-0.0561652854072326,-0.176455579347944
36.5,-0.0579962407958121,-0.178716689428699,0.887405263846573,-0.376263646082569,0.887405263855685,-0.37626364608419,-0.0580225868409806,-0.178427217715285
37,-0.0598704114166536,-0.18065566484159,0.88486310151903,-0.38070265813865,0.884863101528051,-0.380702658140404,-0.059896962757242,-0.180374837149416
37.5,-0.0617603218619822,-0.182571463274473,0.882296618585889,-0.385118713571129,0.882296618594812,-0.385118713573011,-0.0617879923525243,-0.182298595368169
38,-0.0636657100151422,-0.184464255452669,0.87970606645395,-0.3895116486652,0.879706066462771,-0.389511648667206,-0.063695289434995,-0.184198640588892
38.5,-0.0655863340984858,-0.186334187786138,0.877091699438819,-0.393881303294344,0.877091699447533,-0.393881303296468,-0.0656184980591755,-0.186075109790302
39,-0.067521968513984,-0.188181383691833,0.874453774604546,-0.398227521018714,0.874453774613146,-0.398227521020952,-0.0675572884853872,-0.187928127578225
39.5,-0.0694724003023501,-0.190005945092558,0.871792551605862,-0.402550149173127,0.871792551614344,-0.402550149175477,-0.0695113534854355,-0.189757805543801
40,-0.0714374261494707,-0.191807954012035,0.86910829253317,-0.406849038945421,0.869108292541531,-0.406849038947876,-0.0714804050001564,-0.191564242016509
40.5,-0.0734168498723284,-0.193587474205655,0.866401261760397,-0.41112404544585,0.866401261768632,-0.411124045448404,-0.0734641711427397,-0.193347522127841
41,-0.0754104803215264,-0.195344552782252,0.863671725795824,-0.41537502776812,0.863671725803928,-0.415375027770772,-0.0754623935336143,-0.195107718114131
41.5,-0.0774181296432664,-0.19707922178495,0.860919953135926,-0.419601849042705,0.860919953143898,-0.419601849045448,-0.0774748249473435,-0.196844889798786
42,-0.079439611849541,-0.198791499708947,0.85814621412229,-0.423804376482916,0.858146214130125,-0.423804376485744,-0.0795012272487616,-0.198559085204431
42.5,-0.0814747416511845,-0.200481392941809,0.855350780801633,-0.427982481424241,0.855350780809329,-0.42798248142715,-0.0815413695939502,-0.200250341254641
43,-0.0835233335140742,-0.202148897117656,0.852533926788913,-0.432136039357454,0.852533926796467,-0.432136039360439,-0.0835950268713949,-0.201918684532807
43.5,-0.0855852009038643,-0.203793998380981,0.849695927133555,-0.436264929955846,0.849695927140963,-0.436264929958903,-0.0856619783589888,-0.203564132072264
44,-0.0876601556894274,-0.205416674559099,0.846837058188749,-0.440369037097036,0.846837058196011,-0.440369037100159,-0.087742006573736,-0.205186692157551
44.5,-0.0897480076793075,-0.207016896244482,0.843957597483829,-0.444448248879687,0.843957597490941,-0.444448248882871,-0.0898348962923312,-0.206786365121213
45,-0.0918485642692544,-0.208594627789911,0.841057823599688,-0.448502457635471,0.841057823606649,-0.448502457638711,-0.0919404337224693,-0.208363144124445
45.5,-0.0939616301821672,-0.210149828220424,0.83813801604718,-0.452531559936614,0.838138016053989,-0.452531559939905,-0.0940584058064978,-0.209917015913037
46,-0.0960870072845758,-0.211682452066704,0.83519845514851,-0.456535456599281,0.835198455155165,-0.456535456602617,-0.0961885996406969,-0.211447961542499
46.5,-0.098224494466264,-0.213192450124934,0.832239421921526,-0.460514052683089,0.832239421928026,-0.460514052686466,-0.0983308019952445,-0.212955957068345
47,-0.10037388757174,-0.214679770148285,0.829261197966898,-0.464467257486994,0.829261197973242,-0.464467257490408,-0.10048479892151,-0.214440974199049
47.5,-0.102534979374041,-0.216144357475195,0.826264065358129,-0.468394984541775,0.826264065364316,-0.468394984545221,-0.102650375434817,-0.215902980910429
48,-0.10470755958292,-0.217586155599441,0.82324830653434,-0.472297151599341,0.82324830654037,-0.472297151602813,-0.104827315262243,-0.21734194202117
48.5,-0.106891414880725,-0.219005106686826,0.820214204195806,-0.476173680619047,0.820214204201679,-0.476173680622541,-0.107015400646265,-0.218757819729892
49,-0.109086328980443,-0.220401152043042,0.81716204120216,-0.48002449775123,0.817162041207874,-0.480024497754741,-0.109214412196211,-0.220150574114726
49.5,-0.11129208270126,-0.221774232536964,0.814092100473247,-0.483849533318105,0.814092100478804,-0.483849533321628,-0.111424128780509,-0.221520163596693
50,-0.113508454057805,-0.223124288983368,0.811004664892562,-0.487648721792215,0.811004664897962,-0.487648721795746,-0.113644327453631,-0.222866545368485
50.5,-0.115735218359896,-0.224451262488736,0.807900017213234,-0.491422001772569,0.807900017218476,-0.491422001776103,-0.115874783412441,-0.224189675790376
51,-0.117972148320175,-0.225755094763532,0.804778439966495,-0.495169315958611,0.804778439971581,-0.495169315962143,-0.118115269977366,-0.225489510755104
51.5,-0.120219014167473,-0.227035728404045,0.801640215372608,-0.498890611122159,0.801640215377537,-0.498890611125688,-0.120365558594444,-0.226766006023585
52,-0.122475583764143,-0.22829310714664,0.798485625254182,-0.502585838077451,0.798485625258957,-0.50258583808097,-0.122625418854835,-0.228019117533331
52.5,-0.124741622725912,-0.229527176096956,0.795314950951865,-0.506254951649364,0.795314950956486,-0.506254951652869,-0.124894618528863,-0.229248801681399
53,-0.127016894543107,-0.230737881936447,0.792128473242328,-0.509897910639993,0.792128473246796,-0.509897910643481,-0.127172923612101,-0.230455015583627
53.5,-0.129301160702293,-0.231925173108327,0.788926472258537,-0.513514677793633,0.788926472262853,-0.513514677797099,-0.129460098381322,-0.231637717311887
54,-0.131594180807593,-0.233088999984894,0.785709227412243,-0.517105219760284,0.785709227416409,-0.517105219763725,-0.131755905458489,-0.23279686611092
54.5,-0.133895712701068,-0.234229315017924,0.782477017318668,-0.520669507057778,0.782477017322686,-0.52066950706119,-0.134060105881219,-0.23393242259632
55,-0.136205512581723,-0.235346072873738,0.779230119723341,-0.524207514032597,0.779230119727212,-0.524207514035977,-0.13637245917839,-0.235044348935062
55.5,-0.138523335122744,-0.236439230554342,0.775968811431035,-0.527719218819487,0.775968811434761,-0.527719218822831,-0.138692723449745,-0.236132609009931
56,-0.140848933586722,-0.237508747505922,0.772693368236789,-0.531204603299926,0.772693368240372,-0.53120460330323,-0.141020655448551,-0.237197168569103
56.5,-0.143182059938646,-0.238554585715848,0.76940406485896,-0.534663653059536,0.769404064862401,-0.534663653062798,-0.143356010666498,-0.238237995362
57,-0.145522464956527,-0.239576709799228,0.766101174874276,-0.538096357344497,0.766101174877579,-0.538096357347714,-0.145698543420145,-0.239255059262527
57.5,-0.147869898339558,-0.240575087075939,0.762784970654862,-0.541502709017046,0.762784970658028,-0.541502709020214,-0.148048006938358,-0.240248332380665
58,-0.150224108813751,-0.241549687638998,0.759455723307187,-0.5448827045101,0.759455723310219,-0.544882704513217,-0.150404153450246,-0.241217789163329
58.5,-0.152584844235028,-0.24250048441501,0.756113702612921,-0.548236343781098,0.756113702615821,-0.54823634378416,-0.152766734273205,-0.242163406485329
59,-0.154951851689761,-0.243427453217412,0.752759176971652,-0.551563630265085,0.752759176974422,-0.551563630268091,-0.155135499900734,-0.243085163731223
59.5,-0.157324877592781,-0.2443305727931,0.749392413345439,-0.55486457082713,0.749392413348083,-0.554864570830077,-0.157510200089761,-0.243983042868755
60,-0.159703667782879,-0.24520982486301,0.746013677205177,-0.558139175714087,0.746013677207697,-0.558139175716973,-0.159890583947224,-0.244857028514529
60.5,-0.162087967615861,-0.246065194157176,0.742623232478723,-0.561387458505801,0.74262323248112,-0.561387458508622,-0.16227640001578,-0.245707107992528
61,-0.164477522055192,-0.246896668444686,0.739221341500773,-0.564609436065761,0.739221341503052,-0.564609436068517,-0.164667396358432,-0.246533271386024
61.5,-0.166872075760296,-0.247704238558981,0.735808264964458,-0.567805128491285,0.735808264966621,-0.567805128493973,-0.167063320642019,-0.24733551158336
62,-0.169271373172558,-0.248487898418835,0.732384261874619,-0.570974559063245,0.732384261876669,-0.570974559065864,-0.169463920219418,-0.248113824318094
62.5,-0.171675158599134,-0.249247645045392,0.728949589502743,-0.574117754195421,0.728949589504683,-0.574117754197969,-0.17186894221045,-0.248868208203908
63,-0.174083176294575,-0.249983478575533,0.725504503343529,-0.577234743383469,0.725504503345362,-0.577234743385943,-0.174278133581376,-0.249598664764663
63.5,-0.17649517054039,-0.25069540227186,0.722049257073062,-0.580325559153601,0.72204925707479,-0.580325559156001,-0.176691241223003,-0.25030519845997
