"Freq [GHz]","re(St(P1,P1)) []","im(St(P1,P1)) []","re(St(P1,P2)) []","im(St(P1,P2)) []","re(St(P2,P1)) []","im(St(P2,P1)) []","re(St(P2,P2)) []","im(St(P2,P2)) []"
0,0.00383601530541,0,0.996176015061792,0,0.996176014916273,0,0.00383600932076433,0
0.5,0.00427268112641599,0.000246884011719573,0.995671845632707,-0.00572389465969181,0.995671845334591,-0.00572389442253041,0.00427253931480465,0.000247276361292847
1,0.0046600704845261,-5.90879546393808E-005,0.995119040213645,-0.0108761414111527,0.995119039896046,-0.0108761412507761,0.00465965864502138,-5.8142513552184E-005
1.5,0.00471069448761519,-0.000575283658921677,0.994671787353639,-0.0161198466152186,0.99467178711922,-0.0161198464320336,0.00471048139686658,-0.000573455998875261
2,0.00471382411242516,-0.000996912973374009,0.99416286177857,-0.0212092636980508,0.994162861618282,-0.0212092635253853,0.00471348801718641,-0.000994358997239431
2.5,0.00469885797944869,-0.00137521889756442,0.993640450566037,-0.0261675495009612,0.993640450461315,-0.0261675493566678,0.00469824693489151,-0.00137196086667757
3,0.00467350109926201,-0.00172805927703479,0.993127471805948,-0.0310266233766718,0.993127471738573,-0.0310266232659995,0.00467251485929943,-0.00172409113937277
3.5,0.0046405943710317,-0.00206283852512001,0.99262899902642,-0.0358149781307162,0.992628998982437,-0.035814978051647,0.00463915527273651,-0.00205814461486042
4,0.00460149271094501,-0.00238291995859719,0.99214062357013,-0.0405538702316548,0.992140623540168,-0.0405538701791031,0.00459953666033153,-0.00237748021029383
4.5,0.00455700323548403,-0.00268987623905836,0.991654193451344,-0.0452577491832926,0.991654193429599,-0.045257749151455,0.00455447647626572,-0.00268366831753397
5,0.00450770494676256,-0.00298441714676478,0.991160921737666,-0.0499359511406734,0.991160921720747,-0.0499359511241551,0.00450456277057931,-0.00297741767096582
5.5,0.00445407348723803,-0.00326681986817512,0.990652784980919,-0.0545943445999431,0.990652784966954,-0.0545943445941521,0.00445027963994105,-0.00325900530631351
6,0.00439653421522257,-0.00353714690269413,0.990123004545499,-0.0592365630933394,0.990123004533515,-0.0592365630945277,0.00439206053762131,-0.00352849431401658
6.5,0.00433548574444731,-0.00379536380186973,0.989566096262801,-0.0638648318537287,0.989566096252343,-0.0638648318588997,0.00433031186174371,-0.00378585148053734
7,0.00427131024798499,-0.00404140565195021,0.988977743863225,-0.0684804919570352,0.988977743854124,-0.0684804919638609,0.00426542323164547,-0.00403101368879089
7.5,0.00420437748212332,-0.00427521546728293,0.988354618431314,-0.0730843231708693,0.988354618423549,-0.0730843231775218,0.00419777145602018,-0.00426392623183514
8,0.00413504574707957,-0.00449676626915974,0.987694197472117,-0.0776767404202054,0.987694197465744,-0.0776767404252832,0.00412772143247131,-0.00448456481083781
8.5,0.00406366137408021,-0.00470607321828975,0.986994604174778,-0.0822579134579478,0.986994604169886,-0.0822579134603796,0.00405562557915529,-0.00469294758541672
9,0.00399055756650307,-0.00490319944618456,0.986254472477248,-0.0868278407302183,0.986254472473935,-0.0868278407291765,0.00398182263166091,-0.0048891409231917
9.5,0.00391605304207293,-0.00508825778527644,0.985472837205301,-0.0913863961599857,0.985472837203667,-0.0913863961548556,0.00390663625443105,-0.00507326105034522
10,0.00384045072131961,-0.0052614097927437,0.984649046227326,-0.0959333599201138,0.984649046227466,-0.0959333599104308,0.00383037371239797,-0.00524547299989564
10.5,0.00380581138771285,-0.00551898255661332,0.983897200463814,-0.100468902255253,0.983897200464462,-0.100468902245133,0.00379650924086017,-0.00550355170451056
11,0.00376984743867609,-0.00577579576430587,0.983131603103633,-0.104984608579016,0.983131603104816,-0.1049846085685,0.00376124781112216,-0.00576104221262419
11.5,0.00373261580254455,-0.00603182698413285,0.982352998779665,-0.109481778489428,0.982352998781407,-0.109481778478561,0.00372462950091418,-0.00601792445312554
12,0.00369417692882446,-0.00628705672398588,0.981561963419125,-0.113961669278389,0.981561963421442,-0.113961669267214,0.00368669700280191,-0.00627418008946101
12.5,0.00365459481491938,-0.00654146880805673,0.980758923937182,-0.11842548293445,0.980758923940086,-0.118425482923015,0.00364749568569184,-0.0065297927535708
13,0.00361393700657671,-0.00679505078661968,0.979944177267593,-0.12287435684304,0.979944177271094,-0.122874356831391,0.00360707364602267,-0.00678474830346598
13.5,0.00357227456641726,-0.00704779437929437,0.979117908336021,-0.127309357624271,0.979117908340119,-0.127309357612451,0.00356548174564424,-0.00703903510573767
14,0.0035296820043367,-0.00729969595150992,0.978280206719445,-0.131731477574093,0.978280206724143,-0.13173147756215,0.00352277363298102,-0.00729264434400978
14.5,0.0034862371629571,-0.00755075702326957,0.977431081846154,-0.136141633217404,0.977431081851445,-0.136141633205376,0.00347900574361655,-0.00754557035421133
15,0.00344202105074543,-0.00780098480835001,0.976570476677219,-0.14054066553403,0.976570476683096,-0.140540665521963,0.00343423727597014,-0.00779781098716104
15.5,0.00339711761493672,-0.00805039278107822,0.975698279875215,-0.144929341474809,0.975698279881666,-0.144929341462735,0.00338853013724363,-0.00804936799861844
16,0.00335161344591875,-0.00829900126647765,0.974814336512295,-0.149308356441019,0.974814336519308,-0.149308356428979,0.00334194885429934,-0.00830024746643598
16.5,0.00330559740451204,-0.00854683804828449,0.973918457401182,-0.153678337453728,0.97391845740874,-0.153678337441753,0.00329456044364958,-0.00855046023381734
17,0.00325916016340952,-0.0087939389874867,0.973010427152062,-0.15803984678821,0.97301042716015,-0.158039846776333,0.0032464342342288,-0.00880002237691402
17.5,0.00321239365417708,-0.00904034864238312,0.972090011068692,-0.162393385892113,0.972090011077289,-0.162393385880363,0.00319764163620734,-0.0090489556941713
18,0.00316539041162572,-0.00928612087895786,0.971156961000399,-0.166739399443594,0.971156961009485,-0.166739399431999,0.00314825584872147,-0.00929728821360598
18.5,0.00311824280812428,-0.00953131945835306,0.970211020265212,-0.171078279437984,0.970211020274767,-0.171078279426569,0.00309835149912183,-0.00954505471317502
19,0.00307104217161819,-0.00977601858571076,0.969251927754464,-0.17541036921835,0.969251927764464,-0.175410369207135,0.00304800420625187,-0.00979229724770825
19.5,0.00302387778281965,-0.0100203034025625,0.968279421322155,-0.17973596738774,0.968279421332579,-0.179735967376749,0.00299729006029403,-0.0100390656745613
20,0.00297683574927463,-0.010264270402446,0.967293240554102,-0.184055331558945,0.967293240564926,-0.184055331548195,0.00294628501206987,-0.0102854181681402
20.5,0.00292999775689451,-0.0105080277474117,0.966293129002993,-0.188368681912122,0.966293129014194,-0.188368681901628,0.00289506416527474,-0.0105314217116939
21,0.00288343970306384,-0.010751695461158,0.965278835966548,-0.192676204542109,0.965278835978102,-0.192676204531888,0.00284370096611064,-0.0107771525526439
21.5,0.00283723021960633,-0.0109954054732211,0.964250117877257,-0.1969780545862,0.96425011788914,-0.196978054576264,0.00279226628618215,-0.0110226966057065
22,0.00279142909873914,-0.0112393014877892,0.963206739363939,-0.201274359129869,0.963206739376129,-0.201274359120229,0.00274082739641884,-0.0112681497859146
22.5,0.00274608564055129,-0.0114835386508352,0.962148474037748,-0.205565219893058,0.96214847405022,-0.205565219883724,0.00268944683222544,-0.0115136182516702
23,0.00270123694637536,-0.0117282829903278,0.961075105048248,-0.20985071570332,0.96107510506098,-0.2098507156943,0.0026381811530839,-0.0117592185362199
23.5,0.00265690618859576,-0.0119737106066222,0.959986425448958,-0.214130904764662,0.959986425461928,-0.214130904755963,0.00258707960347954,-0.0120050775444684
24,0.00261310089359346,-0.0122200065937843,0.958882238406128,-0.218405826732645,0.958882238419314,-0.218405826724272,0.00253618268627692,-0.0122513323911448
24.5,0.00256981128043238,-0.0124673636778749,0.957762357279595,-0.222675504607348,0.957762357292974,-0.222675504599307,0.00248552066448432,-0.0124981300561142
25,0.00252700870318029,-0.0127159805649968,0.95662660560022,-0.226939946456273,0.956626605613771,-0.226939946448566,0.00243511201268909,-0.012745626833234
25.5,0.00248464424897366,-0.0129660600002541,0.955474816964637,-0.23119914697944,0.95547481697834,-0.231199146972068,0.00238496184508841,-0.0129939875509124
26,0.00244264754669576,-0.0132178065485702,0.954306834864773,-0.23545308892871,0.954306834878607,-0.235453088921676,0.00233506035289677,-0.0132433845454236
26.5,0.00240092584196405,-0.0134714241192349,0.953122512466751,-0.239701744393067,0.953122512480698,-0.239701744386372,0.00228538128963124,-0.013493996372433
27,0.00235936339267229,-0.0137271132677568,0.951921712351411,-0.243945075961006,0.95192171236545,-0.243945075954646,0.0022358805481057,-0.0137460062479744
27.5,0.00231782123521868,-0.0139850683206255,0.950704306226559,-0.248183037770647,0.950704306240672,-0.248183037764624,0.00218649487747896,-0.0139996002175589
28,0.00227613736464949,-0.0142454743801521,0.949470174619326,-0.252415576457509,0.949470174633494,-0.25241557645182,0.00213714079203392,-0.014254965060855
28.5,0.00223412736219086,-0.0145085042771551,0.94821920655551,-0.256642632009187,0.948219206569717,-0.25664263200383,0.00208771372503347,-0.0145122859495834
29,0.00219158549114767,-0.014774315547929,0.946951299231493,-0.260864138535533,0.946951299245722,-0.260864138530505,0.00203808748062295,-0.0147717438873203
29.5,0.00214828626741814,-0.0150430475181464,0.94566635768328,-0.265080024962234,0.945666357697514,-0.26508002495753,0.00198811403394539,-0.0150335129716377
30,0.00210398649428345,-0.0153148185792495,0.944364294456279,-0.269290215655071,0.944364294470503,-0.269290215650686,0.00193762372408207,-0.0152977575306685
30.5,0.00205842773371062,-0.0155897237421543,0.943045029278729,-0.273494630981481,0.943045029292928,-0.273494630977412,0.00188642587609206,-0.0155646291971807
31,0.00201133916884721,-0.015867832548335,0.941708488741008,-0.277693187815527,0.941708488755167,-0.277693187811769,0.00183430987718713,-0.0158342639928779
31.5,0.00196244079588431,-0.0161491874095221,0.940354605982571,-0.281885799991751,0.940354605996676,-0.281885799988298,0.00178104671831181,-0.0161067795030374
32,0.00191144686895062,-0.0164338024346911,0.938983320387813,-0.28607237871297,0.938983320401851,-0.286072378709816,0.00172639099647953,-0.016382272226134
32.5,0.00185806951014333,-0.0167216627871825,0.937594577291803,-0.29025283291654,0.93759457730576,-0.290252832913679,0.00167008335586638,-0.0166608151840681
33,0.00180202238901928,-0.0170127245964791,0.936188327696543,-0.29442706960321,0.936188327710407,-0.294427069600635,0.00161185332773417,-0.0169424558756197
33.5,0.001743024372379,-0.0173069154294501,0.934764527998162,-0.298594994132293,0.934764528011922,-0.298594994129998,0.00155142251178336,-0.0172272146485788
34,0.00168080304622742,-0.0176041353057623,0.933323139725276,-0.302756510486518,0.93332313973892,-0.302756510484496,0.0014885080255686,-0.0175150835547011
34.5,0.00161509801737347,-0.0179042582229123,0.931864129288571,-0.306911521509593,0.931864129302088,-0.306911521507836,0.0014228261352508,-0.0178060257366175
35,0.00154566391180438,-0.0182071341389434,0.93038746774155,-0.311059929119217,0.930387467754929,-0.311059929117718,0.0013540959711324,-0.0180999753777684
35.5,0.00147227300013686,-0.0185125913464019,0.928893130552298,-0.31520163449801,0.92889313056553,-0.315201634496761,0.00128204322586584,-0.0183968382262683
36,0.001394717396213,-0.0188204391601023,0.927381097386032,-0.319336538264567,0.927381097399108,-0.319336538263562,0.0012064037324413,-0.0186964926824948
36.5,0.00131281079226514,-0.0191304708342459,0.925851351898138,-0.323464540626661,0.925851351911048,-0.32346454062589,0.00112692682311544,-0.0189987914193437
37,0.00122638971202843,-0.0194424666215933,0.924303881537373,-0.327585541518358,0.924303881550109,-0.327585541517814,0.0010433783791981,-0.0193035634847454
37.5,0.00113531428062724,-0.0197561968884266,0.92273867735888,-0.331699440722689,0.922738677371433,-0.331699440722364,0.000955543494436717,-0.0196106168193344
38,0.00103946852620196,-0.0200714252037917,0.921155733846611,-0.335806137981321,0.921155733858974,-0.335806137981207,0.000863228690853035,-0.0199197411089986
38.5,0.000938760242302827,-0.0203879113291556,0.919555048744792,-0.339905533092531,0.919555048756957,-0.33990553309262,0.00076626364423793,-0.0202307108830169
39,0.000833120451544822,-0.0207054140446354,0.917936622898008,-0.343997525998667,0.917936622909969,-0.343997525998951,0.000664502395914812,-0.0205432887640347
39.5,0.00072250251961764,-0.0210236937594899,0.91630046009953,-0.348082016864152,0.91630046011128,-0.348082016864621,0.000557824046743649,-0.0208572287761122
40,0.000606880974411972,-0.0213425148668209,0.914646566947468,-0.35215890614496,0.914646566959,-0.352158906145607,0.000446132947535371,-0.0211722796212266
40.5,0.000486250087787798,-0.021661647814871,0.912974952708378,-0.356228094650455,0.912974952719687,-0.356228094651271,0.000329358416179926,-0.0214881878424531
41,0.000360622277775946,-0.0219808708790197,0.911285629187932,-0.360289483598323,0.911285629199014,-0.360289483599299,0.00020745402522232,-0.0218047008026074
41.5,0.000230026386971949,-0.0222999716294778,0.909578610608299,-0.364342974663308,0.909578610619147,-0.364342974664438,8.03965138276297E-005,-0.0221215694198191
42,9.45058891269057E-005,-0.0226187480990443,0.907853913491855,-0.368388470020365,0.907853913502465,-0.368388470021639,-5.1815615005002E-005,-0.0224385506152065
42.5,-4.58829291652973E-005,-0.0229370096631898,0.906111556550912,-0.372425872382786,0.90611155656128,-0.372425872384195,-0.000189163747556786,-0.0227554094418556
43,-0.000191072770746703,-0.0232545776509403,0.904351560583118,-0.376455085035805,0.904351560593238,-0.376455085037341,-0.000331610997851117,-0.0230719208778074
43.5,-0.000340987079651134,-0.0235712857095736,0.902573948372212,-0.380476011866119,0.902573948382082,-0.380476011867775,-0.000479104168585709,-0.0233878712782174
44,-0.000495541714369607,-0.0238869799492152,0.900778744593862,-0.384488557387755,0.900778744603479,-0.384488557389521,-0.000631575775927651,-0.0237030594927943
44.5,-0.00065464652103514,-0.0242015188950284,0.898965975726268,-0.388492626764612,0.89896597573563,-0.388492626766482,-0.000788946085432785,-0.0240172976636954
45,-0.00081820679086847,-0.0245147732751865,0.897135669965286,-0.392488125830045,0.897135669974388,-0.392488125832009,-0.000951125113308138,-0.024330411726261
45.5,-0.000986124591614623,-0.0248266256722827,0.895287857143803,-0.396474961103743,0.895287857152643,-0.396474961105793,-0.00111801455478378,-0.0246422416402041
46,-0.00115829996743499,-0.0251369700645694,0.893422568655129,-0.400453039806207,0.893422568663706,-0.400453039808335,-0.00128950960903795,-0.0249526413822425
46.5,-0.00133463200572892,-0.0254457112815809,0.891539837380181,-0.404422269871036,0.891539837388492,-0.404422269873233,-0.001465500677584,-0.025261478732951
47,-0.0015150197726565,-0.0257527643964683,0.889639697618223,-0.408382559955248,0.889639697626267,-0.408382559957509,-0.00164587491999446,-0.0255686348908954
47.5,-0.00169936312178726,-0.0260580540749604,0.887722185020993,-0.412333819447836,0.887722185028768,-0.41233381945015,-0.00183051765712627,-0.0258740039463308
48,-0.00188756338227625,-0.0263615138983153,0.88578733652998,-0.416275958476703,0.885787336537485,-0.416275958479064,-0.00201931361746155,-0.0261774922449765
48.5,-0.00207952393439964,-0.0266630856751449,0.88383519031672,-0.420208887914179,0.883835190323955,-0.420208887916579,-0.00221214802679293,-0.0264790176700245
49,-0.00227515068124595,-0.0269627187545707,0.8818657857259,-0.424132519381219,0.881865785732864,-0.424132519383651,-0.00240890754521589,-0.0267785088677328
49.5,-0.00247435242585725,-0.0272603693508955,0.87987916322113,-0.42804676525042,0.879879163227822,-0.428046765252876,-0.00260948105827724,-0.0270759044388891
50,-0.00267704116331974,-0.0275559998879626,0.87787536433323,-0.431951538647992,0.877875364339651,-0.431951538650465,-0.00281376033130343,-0.027371152115369
50.5,-0.00288313229721288,-0.0278495783694539,0.875854431610888,-0.435846753454754,0.875854431617037,-0.435846753457235,-0.00302164053736081,-0.0276642079379055
51,-0.00309254478952026,-0.0281410777798083,0.873816408573554,-0.439732324306261,0.873816408579433,-0.439732324308745,-0.00323302067021641,-0.0279550354483162
51.5,-0.00330520125267408,-0.0284304755189997,0.871761339666459,-0.443608166592165,0.871761339672066,-0.443608166594645,-0.00344780385404259,-0.0282436049067412
52,-0.00352102799183018,-0.028717752873227,0.869689270217608,-0.447474196454841,0.869689270222946,-0.447474196457308,-0.00366589756162761,-0.0285298925420048
52.5,-0.00373995500485214,-0.0290028945225675,0.867600246396687,-0.451330330787383,0.867600246401758,-0.451330330789832,-0.00388721375254003,-0.028813879841076
53,-0.00396191594683443,-0.0292858880858389,0.865494315175737,-0.455176487231021,0.86549431518054,-0.455176487233445,-0.00411166894218057,-0.0290955528817373
53.5,-0.00418684806530728,-0.0295667237022383,0.863371524291514,-0.459012584171999,0.863371524296051,-0.459012584174393,-0.004339184211956,-0.029374901710987
54,-0.00441469211161427,-0.0298453936488366,0.861231922209452,-0.462838540737988,0.861231922213725,-0.462838540740343,-0.00456968517000783,-0.0296519197703795
54.5,-0.00464539223332128,-0.0301218919925937,0.859075558089129,-0.466654276794049,0.859075558093139,-0.46665427679636,-0.00480310187109623,-0.0299266033684408
55,-0.0048788958519051,-0.0303962142753047,0.856902481751168,-0.470459712938218,0.856902481754918,-0.470459712940479,-0.00503936870334487,-0.0301989511994227
55.5,-0.00511515352941971,-0.0306683572296582,0.854712743645491,-0.474254770496719,0.854712743648983,-0.474254770498924,-0.00527842424870723,-0.0304689639070149
56,-0.00535411882731013,-0.030938318524505,0.852506394820852,-0.478039371518859,0.852506394824088,-0.478039371521003,-0.00552021112317025,-0.0307366436911229
56.5,-0.00559574816008462,-0.0312060965373299,0.850283486895596,-0.481813438771624,0.850283486898579,-0.4818134387737,-0.00576467580192397,-0.0310019939554735
57,-0.0058400006461351,-0.0314716901519472,0.848044072029569,-0.485576895733998,0.8480440720323,-0.485576895736001,-0.00601176843400131,-0.031265018993568
57.5,-0.00608683795760534,-0.0317350985794383,0.845788202897121,-0.489329666591046,0.845788202899606,-0.489329666592971,-0.00626144265020911,-0.031525723710383
58,-0.0063362241708918,-0.0319963212004043,0.843515932661168,-0.493071676227759,0.843515932663407,-0.4930716762296,-0.00651365536756721,-0.0317841133771305
58.5,-0.00658812561905803,-0.0322553574266953,0.841227314948221,-0.496802850222699,0.841227314950219,-0.496802850224452,-0.00676836659293778,-0.0320401934164354
59,-0.00684251074718989,-0.03251220658085,0.838922403824383,-0.500523114841453,0.838922403826142,-0.500523114843113,-0.00702553922802579,-0.0322939692153067
59.5,-0.00709934997150269,-0.0327668677915837,0.836601253772227,-0.504232397029909,0.836601253773752,-0.504232397031471,-0.00728513887752247,-0.0325454459633853
60,-0.00735861554282191,-0.0330193399037768,0.834263919668537,-0.507930624407376,0.834263919669831,-0.507930624408837,-0.0075471336618001,-0.0327946285140728
60.5,-0.00762028141489041,-0.0332696214015055,0.831910456762865,-0.511617725259554,0.831910456763931,-0.511617725260908,-0.00781149403522446,-0.0330415212662627
61,-0.00788432311783482,-0.0335177103427863,0.829540920656866,-0.515293628531363,0.829540920657708,-0.515293628532607,-0.00807819261091453,-0.0332861280645609
61.5,-0.00815071763699338,-0.0337636043047861,0.827155367284373,-0.518958263819656,0.827155367284996,-0.518958263820784,-0.00834720399251876,-0.0335284521160166
62,-0.00841944329721722,-0.0340073003383813,0.824753852892192,-0.522611561365804,0.824753852892598,-0.522611561366814,-0.00861850461340341,-0.0337684959215447
