"Freq [GHz]","re(St(P1,P1)) []","im(St(P1,P1)) []","re(St(P1,P2)) []","im(St(P1,P2)) []","re(St(P2,P1)) []","im(St(P2,P1)) []","re(St(P2,P2)) []","im(St(P2,P2)) []"
0,0.00400747998776296,0,0.996005384862656,0,0.996005389388301,0,0.00400748451005484,0
0.5,0.00436626193476997,0.00126764507048449,0.995565330224608,-0.00586560406468806,0.99556533012872,-0.00586560345939446,0.00436618937607136,0.00126792775377282
1,0.00468080065959597,0.00208242903198297,0.995045619059749,-0.0112529469676872,0.995045619142577,-0.0112529472493605,0.00468060172752516,0.00208307559357834
1.5,0.0045372589999193,0.00283200529559124,0.994594559044883,-0.016717204627934,0.994594559037324,-0.0167172049691828,0.00453691022878111,0.00283339994403065
2,0.00447529586528983,0.00359062891427087,0.994050880463417,-0.0220364354549858,0.994050880380561,-0.0220364357986114,0.00447477866195811,0.00359254735431591
2.5,0.00445133093517036,0.00437001212114296,0.993461548203132,-0.0272169357143905,0.993461548075758,-0.0272169360208085,0.00445068868357179,0.00437237951582325
3,0.00444739510018977,0.00516835996756626,0.992857299344158,-0.0322791904304616,0.992857299204522,-0.0322791906794837,0.00444665889295726,0.005171155606158
3.5,0.00445573951568923,0.0059834493049955,0.992253397167959,-0.0372475429366208,0.992253397041426,-0.037247543122664,0.00445492697926486,0.00598667117616358
4,0.00447274313479928,0.00681410507388058,0.991653986804623,-0.0421442401470262,0.991653986707073,-0.0421442402732168,0.00447186324588689,0.00681775821149344
4.5,0.00449660233571403,0.00766004752814986,0.991056661334232,-0.0469871826182597,0.991056661272898,-0.0469871826919732,0.00449565880085534,0.00766414003958005
5,0.00452638975747877,0.00852162473863416,0.990455873983517,-0.0517897771942746,0.990455873959087,-0.0517897772243945,0.00452538298175442,0.00852616640936876
5.5,0.00456163823609634,0.00939962267556904,0.989845066690097,-0.0565616458330265,0.989845066698935,-0.0565616458285492,0.00456056644081915,0.00940462449729385
6,0.00460214302091,0.0102951477459552,0.989217827684811,-0.0613095128431196,0.989217827720776,-0.0613095128125636,0.0046010028815332,0.0103006217975015
6.5,0.0046478620269933,0.0112095576949685,0.988568430927523,-0.0660379903490318,0.988568430983299,-0.0660379903002193,0.00464664903849432,0.0112155171665114
7,0.00469886330079639,0.0121444229771015,0.987892022937415,-0.0707501874886471,0.987892023005406,-0.0707501874286827,0.00469757198339965,0.0121508822572336
7.5,0.00475529671137925,0.0131015074912186,0.987184626772159,-0.0754481535192477,0.987184626845044,-0.0754481534545501,0.00475392071867092,0.01310848228563
8,0.00481737884465877,0.014082762099032,0.986443062001706,-0.0801331899621873,0.986443062072753,-0.0801331898985369,0.00481591100885831,0.0140902695693823
8.5,0.00488538555372853,0.0150903270908351,0.985664834390708,-0.0848060675249211,0.985664834453924,-0.0848060674675102,0.00488381788787223,0.0150983860105898
9,0.004959649269896,0.0161265414041498,0.984848022512016,-0.0894671765669566,0.984848022562192,-0.0894671765204311,0.00495797293815559,0.0161351723320449
9.5,0.00504055953260263,0.0171939574029008,0.983991173778246,-0.0941166320886033,0.983991173810932,-0.0941166320570943,0.00503876479493381,0.017203182876492
10,0.00512856592474231,0.0182953606613978,0.98309321455272,-0.0987543477994057,0.983093214564177,-0.0987543477865698,0.00512664205893616,0.018305205414312
10.5,0.00531828837846469,0.0191955015837526,0.982261240843529,-0.103383292204087,0.982261240855677,-0.103383292190573,0.00531634268680284,0.0192058595175495
11,0.00551704491731993,0.0200935176689172,0.981415910182489,-0.107989453731147,0.981415910195375,-0.107989453717023,0.00551507748347278,0.0201043916803978
11.5,0.0057248037751574,0.0209893115548296,0.980558014866966,-0.112574399809341,0.980558014880629,-0.112574399794676,0.00572281485170247,0.0210007046367808
12,0.005941531642618,0.0218827864408166,0.979688149789429,-0.117139633984604,0.9796881498039,-0.117139633969468,0.00593952166019812,0.0218947016754458
12.5,0.00616719365491064,0.0227738461207023,0.978806737507011,-0.121686582150306,0.97880673752231,-0.121686582134775,0.00616516323163188,0.0227862866725879
13,0.00640175337820829,0.0236623950173418,0.977914052069455,-0.126216583227011,0.977914052085597,-0.126216583211153,0.00639970332930245,0.0236753641258525
13.5,0.00664517279450955,0.0245483382187612,0.977010241192278,-0.130730883544558,0.977010241209268,-0.130730883528445,0.00664310414229025,0.0245618391899018
14,0.00689741228480949,0.0254315815160964,0.976095346530684,-0.135230634232784,0.976095346548523,-0.135230634216486,0.00689532626895112,0.025445617713741
14.5,0.007158430610386,0.0263120314435712,0.975169321941781,-0.139716890997569,0.97516932196046,-0.139716890981151,0.00715632869856375,0.0263266062800183
15,0.00742818489199659,0.0271895953207548,0.974232049721898,-0.144190615737308,0.974232049741407,-0.144190615720835,0.00742606879092994,0.0272047122465438
15.5,0.00770663058677051,0.0280641812974003,0.973283354877336,-0.148652679534192,0.973283354897657,-0.148652679517723,0.00770450225370278,0.0280798437903278
16,0.00799372146252308,0.0289356984012001,0.972323017535358,-0.15310386663086,0.972323017556472,-0.153103866614452,0.007991583117194,0.0289519099544506
16.5,0.00828940956921889,0.0298040565888447,0.971350783632703,-0.157544879072869,0.971350783654582,-0.157544879056574,0.00828726370638144,0.0298208206981379
17,0.00859364520726227,0.0306691668008061,0.97036637403527,-0.161976341759825,0.970366374057889,-0.161976341743692,0.00859149460980405,0.0306864869504677
17.5,0.0089063768922665,0.031530941020359,0.969369492248698,-0.166398807702189,0.969369492272025,-0.166398807686264,0.00890422464499038,0.0315488206681867
18,0.00922755131588787,0.0323892923374274,0.968359830878057,-0.170812763326986,0.968359830902061,-0.170812763311313,0.00922540082003925,0.0324077348982215
18.5,0.00955711330229814,0.0332441350178936,0.967337076988435,-0.175218633714169,0.967337077013082,-0.175218633698784,0.00955496829090971,0.0332631438454962
19,0.00989500575978827,0.0340953845791749,0.966300916508354,-0.179616787677137,0.966300916533609,-0.179616787662076,0.00989287031392955,0.0341149629468251
19.5,0.0102411696269368,0.0349429578729286,0.965251037806366,-0.184007542626603,0.96525103783219,-0.184007542611895,0.010239048192973,0.0349631089517413
20,0.0105955438127265,0.0357867731759276,0.964187134558658,-0.1883911691774,0.964187134585018,-0.188391169163075,0.0105934412206909,0.0358075000112459
20.5,0.0109580651298961,0.0366267502903197,0.963108908012937,-0.192767895473899,0.963108908039795,-0.192767895459981,0.0109559866130966,0.036648055775665
21,0.0113286682207326,0.0374628106546466,0.962016068741584,-0.197137911222097,0.962016068768902,-0.197137911208609,0.0113266194367257,0.037484697502939
21.5,0.011707285474416,0.038294877467298,0.96090833796559,-0.201501371425682,0.960908337993331,-0.201501371412642,0.0117052725275002,0.0383173481789869
22,0.0120938469349066,0.0391228758242703,0.959785448520103,-0.205858399830457,0.959785448548229,-0.205858399817882,0.0120918764002875,0.0391459326519115
22.5,0.0124882801982503,0.0399467328735421,0.958647145522768,-0.210209092086259,0.958647145551243,-0.210209092074163,0.0124863591480657,0.0399703777823324
23,0.0128905102980236,0.0407663779886902,0.957493186797344,-0.214553518639056,0.957493186826132,-0.214553518627452,0.0128886463294225,0.0407906126123496
23.5,0.0133004595774984,0.0415817429649008,0.956323343097406,-0.218891727368054,0.956323343126471,-0.21889172735695,0.0132986608429815,0.0416065685561946
24,0.0137180475469059,0.0423927622411249,0.955137398168173,-0.22322374598387,0.955137398197481,-0.223223745973275,0.0137163227871739,0.0424181796161971
24.5,0.0141431907240105,0.0431993731527824,0.953935148678607,-0.227549584204504,0.953935148708121,-0.227549584194423,0.0141415493035605,0.0432253826283213
25,0.0145758024559624,0.0440015162203606,0.952716404050785,-0.231869235725756,0.952716404080474,-0.231869235716192,0.0145742544017138,0.0440281175424246
25.5,0.0150157927201816,0.044799135480206,0.951480986209201,-0.236182680002547,0.951480986239031,-0.236182679993505,0.0150143487634105,0.0448263277433225
26,0.0154630679017533,0.0455921788651634,0.950228729268783,-0.240489883856905,0.950228729298722,-0.240489883848385,0.0154617395236426,0.0456199604200525
26.5,0.0159175305445687,0.0463805986442531,0.948959479177274,-0.244790802927651,0.948959479207293,-0.244790802919651,0.0159163300256723,0.0464089669921894
27,0.0163790790731433,0.0471643519325056,0.947673093324828,-0.24908538297596,0.947673093354895,-0.24908538296848,0.0163780195470697,0.0471933036039369
27.5,0.0168476074818066,0.0479434012844975,0.946369440131347,-0.253373561059997,0.946369440161433,-0.253373561053033,0.0168467029933974,0.0479729316990467
28,0.0173230049876998,0.0487177153880765,0.945048398620174,-0.257655266590884,0.945048398650251,-0.257655266584433,0.0173222705559349,0.0487478186924559
28.5,0.0178051556438483,0.0494872698784776,0.943709857985045,-0.261930422281331,0.943709858015085,-0.261930422275387,0.0178046073296234,0.0495179387580835
29,0.0182939379085252,0.0502520482977207,0.942353717155869,-0.266198944997261,0.942353717185847,-0.266198944991819,0.0182935928873085,0.0502832737567556
29.5,0.018789224167239,0.0510120432299421,0.940979884367743,-0.270460746521978,0.940979884397632,-0.270460746517031,0.0187891008063986,0.051043814333757
30,0.0192908802041606,0.0517672576508081,0.939588276736627,-0.274715734241468,0.939588276766403,-0.274715734237008,0.0192909981444128,0.0517995612226978
30.5,0.0197987646207335,0.0525177065384521,0.938178819844344,-0.278963811758739,0.938178819873985,-0.278963811754758,0.0197991448606643,0.05255052680132
31,0.0203127282009771,0.0532634188054137,0.936751447334897,-0.283204879444296,0.936751447364379,-0.283204879440786,0.0203133931828358,0.053296736956421
31.5,0.0208326132258916,0.0540044396263362,0.935306100523542,-0.287438834929223,0.935306100552842,-0.287438834926175,0.0208335869197637,0.0540382333297362
32,0.021358252744174,0.0547408332559822,0.933842728019661,-0.29166557354667,0.93384272804876,-0.291665573544071,0.0213595607260164,0.0547750760356329
32.5,0.0218894698139572,0.0554726864575801,0.932361285364064,-0.295884988727024,0.932361285392941,-0.295884988724867,0.0218911393306075,0.0555073469659106
33,0.0224260767420515,0.0562001126946945,0.930861734681109,-0.300096972351489,0.930861734709744,-0.300096972349762,0.0224281367528709,0.0562351538288512
33.5,0.0229678743653395,0.0569232572829736,0.929344044345771,-0.304301415068314,0.929344044374146,-0.304301415067005,0.022970355545043,0.0569586351111138
34,0.0235146514468857,0.0576423037545415,0.927808188665613,-0.308498206575542,0.92780818869371,-0.30849820657464,0.0235175861266342,0.057677966205322
34.5,0.0240661843021842,0.0583574817618673,0.926254147577473,-0.312687235873682,0.926254147605276,-0.312687235873173,0.0240696063149742,0.0583933670173957
35,0.0246222368367365,0.0590690769450373,0.924681906358571,-0.316868391491406,0.924681906386063,-0.316868391491281,0.0246261812167259,0.059105111461244
35.5,0.0251825612772403,0.0597774433137981,0.92309145535164,-0.321041561687064,0.923091455378806,-0.321041561687308,0.0251870637382444,0.059813539371447
36,0.025746900034658,0.0604830188624954,0.921482789703651,-0.325206634628468,0.921482789730477,-0.32520663462907,0.0257519961164427,0.0605190715259458
36.5,0.0263149893789756,0.0611863453524526,0.91985590911763,-0.329363498553216,0.919855909144102,-0.329363498554163,0.026320713094804,0.0612222286812028
37,0.0268865659814946,0.0618880934735162,0.918210817617052,-0.333512041911522,0.918210817643156,-0.3335120419128,0.0268929477166975,0.0619236557934464
37.5,0.0274613779688072,0.0625890949421894,0.916547523322276,-0.337652153493371,0.916547523348,-0.337652153494967,0.0274684412525233,0.0626241529413685
38,0.0280392030578902,0.0632903835045777,0.914866038238482,-0.341783722541606,0.914866038263814,-0.341783722543507,0.028046959634527,0.0633247148788856
38.5,0.0286198778034425,0.0639932472541751,0.913166378054552,-0.345906638852354,0.913166378079481,-0.345906638854547,0.0286283201297206,0.06402658160703
39,0.0292033443044915,0.0646992950402461,0.91144856195237,-0.350020792864139,0.911448561976886,-0.350020792866609,0.0292124341354655,0.0647313027748564
39.5,0.0297897243869974,0.0654105397625133,0.909712612426,-0.354126075736784,0.909712612450093,-0.35412607573952,0.029799375406362,0.0654408188724207
40,0.0303794370652909,0.0661295003986524,0.907958555110242,-0.358222379421182,0.907958555133903,-0.358222379424168,0.0303894884448752,0.0661575615252432
40.5,0.0309733840823072,0.06685932132547,0.906186418618044,-0.362309596720835,0.906186418641263,-0.362309596724059,0.0309835602827736,0.0668845725386782
41,0.031573241897498,0.0676038989745267,0.904396234386312,-0.366387621346014,0.904396234409082,-0.366387621349461,0.0315830918444482,0.067625634095406
41.5,0.0321819176715301,0.0683679861748903,0.902588036529642,-0.37045634796128,0.902588036551956,-0.370456347964937,0.0321907238102122,0.0683853853351888
42,0.0328042501040466,0.0691572020879556,0.900761861701533,-0.374515672227033,0.900761861723384,-0.374515672230887,0.0328108957858099,0.0691693628251724
42.5,0.033448052809925,0.0699777895624318,0.898917748962667,-0.378565490835696,0.898917748984049,-0.378565490839734,0.0334508385269825,0.0699838245305147
43,0.0341255714503339,0.070835800551462,0.897055739655846,-0.382605701543069,0.897055739676753,-0.382605701547276,0.0341219862720049,0.0708350675259739
43.5,0.0348552558705777,0.0717351279903755,0.89517587728721,-0.386636203195329,0.895175877307638,-0.386636203199693,0.0348417621685142,0.0717276966424647
44,0.0356632158264016,0.0726735007451409,0.89327820741338,-0.39065689575213,0.893278207433322,-0.390656895756636,0.0356352316819666,0.0726609777741966
44.5,0.0365825100107433,0.0736356143882031,0.891362777534167,-0.394667680306165,0.89136277755362,-0.394667680310801,0.0365350021917253,0.0736223351725136
45,0.0376465518049861,0.0745841514553601,0.889429636990557,-0.39866845909956,0.889429637009517,-0.398668459104312,0.0375758576185622,0.0745782777922327
45.5,0.0388724168959338,0.0754542640806394,0.887478836867626,-0.402659135537398,0.887478836886092,-0.402659135542254,0.0387795224986869,0.0754673984735897
46,0.0402363400105871,0.0761636794341906,0.885510429902146,-0.406639614198673,0.885510429920114,-0.40663961420362,0.0401299986424918,0.0762071563444411
46.5,0.0416598912721484,0.0766471714371194,0.883524470394567,-0.410609800844898,0.883524470412034,-0.410609800849923,0.0415556941282217,0.0767255939451511
47,0.0430320998982539,0.0768981079416774,0.881521014125152,-0.414569602426626,0.881521014142117,-0.414569602431716,0.0429456546831196,0.0770054499445509
47.5,0.0442615578614572,0.0769770964317218,0.879500118274024,-0.418518927088052,0.879500118290486,-0.418518927093196,0.0442009501403959,0.0771001180338687
48,0.0453138308535369,0.0769760171384997,0.877461841344884,-0.422457684169921,0.877461841360842,-0.422457684175105,0.0452780960831524,0.0771016924980712
48.5,0.0462068665973401,0.0769735304407656,0.875406243092203,-0.426385784210864,0.875406243107656,-0.426385784216076,0.0461899170616351,0.0770937061486755
49,0.0469829672100182,0.0770153152665277,0.873333384451697,-0.430303138947332,0.873333384466646,-0.430303138952562,0.0469779711012966,0.0771268714208352
49.5,0.0476851598277721,0.0771179341141638,0.871243327473885,-0.434209661312271,0.871243327488331,-0.434209661317506,0.0476867459519046,0.0772208962753522
50,0.0483468470185968,0.0772805755139491,0.869136135260566,-0.438105265432621,0.86913613527451,-0.438105265437851,0.048351490274023,0.077376331658603
50.5,0.0489905505800637,0.0774948152080037,0.867011871904053,-0.441989866625786,0.867011871917494,-0.441989866630996,0.0489961944901492,0.077585065301318
51,0.0496301722802522,0.0777502651109828,0.864870602429,-0.445863381395144,0.864870602441942,-0.445863381400327,0.0496357331356236,0.0778365588188303
51.5,0.0502737254161995,0.0780371544612074,0.862712392736711,-0.449725727424701,0.862712392749156,-0.449725727429843,0.0502787027336908,0.0781207508176194
52,0.0509255033059827,0.078347217327762,0.860537309551748,-0.453576823572949,0.860537309563697,-0.453576823578041,0.0509297235299064,0.078429084597893
52.5,0.0515875587378407,0.0786738017008888,0.85834542037076,-0.45741658986602,0.858345420382217,-0.457416589871051,0.0515910207668415,0.0787546644203333
53,0.0522606422114425,0.0790116824153341,0.856136793413391,-0.461244947490178,0.856136793424358,-0.461244947495139,0.0522634290230344,0.0790920757258299
53.5,0.052944773756684,0.0793567985377578,0.853911497575159,-0.465061818783724,0.853911497585641,-0.465061818788603,0.0529470037588758,0.0794371156946007
54,0.0536395830307715,0.079706003365934,0.851669602382213,-0.468867127228348,0.851669602392214,-0.468867127233136,0.0536413843006938,0.0797865331830043
54.5,0.0543445078950778,0.0800568549851841,0.849411177947865,-0.472660797439989,0.849411177957388,-0.472660797444678,0.0543460052471859,0.0801378099607051
55,0.0550589081791488,0.0804074505925166,0.847136294930798,-0.47644275515924,0.847136294939848,-0.47644275516382,0.0550602172636928,0.0804889875427308
55.5,0.0557821291913195,0.0807562990820226,0.844845024494894,-0.480212927241328,0.844845024503476,-0.48021292724579,0.0557833543469404,0.0808385341149932
56,0.0565135357132439,0.0811022243698095,0.842537438270565,-0.483971241645713,0.842537438278684,-0.483971241650049,0.0565147697494167,0.0811852437113797
56.5,0.057252528826658,0.0814442924354277,0.840213608317548,-0.487717627425334,0.84021360832521,-0.487717627429535,0.0572538537340687,0.0815281602597726
57,0.0579985528957015,0.0817817562943992,0.837873607089071,-0.491452014715521,0.837873607096281,-0.491452014719579,0.0580000409440517,0.0818665204045443
57.5,0.0587510970344166,0.0821140143993874,0.835517507397332,-0.495174334722616,0.835517507404096,-0.495174334726524,0.0587528119741495,0.0821997103661265
58,0.0595096936081574,0.0824405790646013,0.83314538238024,-0.498884519712309,0.833145382386565,-0.498884519716058,0.0595116918345086,0.0825272332579177
58.5,0.0602739152580847,0.0827610523746019,0.830757305469347,-0.502582502997709,0.830757305475239,-0.502582503001294,0.0602762468732234,0.0828486841964279
59,0.0610433713073135,0.0830751076968981,0.828353350358917,-0.506268218927188,0.828353350364384,-0.506268218930601,0.06104608105764,0.0831637312351157
59.5,0.0618177040323726,0.0833824754077395,0.825933590976107,-0.509941602871994,0.825933590981155,-0.509941602875229,0.0618208321192696,0.0834721006684446
60,0.0625965850614805,0.0836829318016028,0.82349810145217,-0.513602591213652,0.823498101456807,-0.513602591216702,0.0626001678339948,0.0837735656322722
60.5,0.0633797120304622,0.0839762904198844,0.821046956094682,-0.517251121331182,0.821046956098916,-0.517251121334042,0.0633837825725989,0.0840679372046413
61,0.0641668055513365,0.0842623952287169,0.818580229360718,-0.520887131588126,0.818580229364556,-0.52088713159079,0.0641713941776833,0.0843550574145731
61.5,0.0649576065056358,0.084541115218645,0.81609799583095,-0.524510561319409,0.816097995834401,-0.524510561321873,0.0649627411785292,0.0846347937156642
62,0.0657518736512395,0.0848123401042533,0.813600330184642,-0.528121350818041,0.813600330187713,-0.528121350820299,0.0657575803314215,0.0849070345911398
62.5,0.066549381519741,0.0850759768797779,0.811087307175484,-0.531719441321668,0.811087307178184,-0.531719441323717,0.0665556844610097,0.0851716860381473
63,0.067349918576501,0.0853319470447729,0.808559001608255,-0.535304774998984,0.808559001610592,-0.535304775000819,0.067356840573345,0.0854286687393716
63.5,0.0681532856144276,0.0855801843572904,0.806015488316272,-0.53887729493601,0.806015488318256,-0.538877294937626,0.0681608482102875,0.0856779157750645
64,0.0689592943535888,0.0858206330046841,0.803456842139605,-0.542436945122247,0.803456842141245,-0.542436945123643,0.0689675180161602,0.0859193707623611
