"Freq [GHz]","re(St(P1,P1)) []","im(St(P1,P1)) []","re(St(P1,P2)) []","im(St(P1,P2)) []","re(St(P2,P1)) []","im(St(P2,P1)) []","re(St(P2,P2)) []","im(St(P2,P2)) []"
0,0.00626843453920856,0,0.99374478381651,0,0.993744782943395,0,0.00626842938731897,0
0.5,0.00675951303738032,0.00108828886167345,0.993203914190595,-0.00669577767814467,0.99320391366566,-0.00669577754107564,0.00675967358437646,0.00108729365664928
1,0.00717844067455431,0.00159651824887064,0.992669663334336,-0.0128019435915725,0.992669662862216,-0.0128019427599462,0.0071787427610488,0.00159424155572907
1.5,0.00744921840383483,0.00198893746397211,0.992185818275029,-0.018957087414833,0.992185818218402,-0.0189570866590465,0.00744961350315165,0.00198540713908635
2,0.00761345135010139,0.00236366478590888,0.99167547149364,-0.0249646139847606,0.991675471659562,-0.0249646134451904,0.00761376332502373,0.00235869717914028
2.5,0.00772908185749532,0.00275213697538312,0.991173664973594,-0.0308755758256023,0.991173665201245,-0.0308755755021277,0.0077291209400645,0.00274567505856282
3,0.00782459158192683,0.00315574591680523,0.99068344712505,-0.0367299051715495,0.990683447323168,-0.0367299050110486,0.00782419752811858,0.00314777798927146
3.5,0.00791344205649303,0.00357107656442146,0.990195575873382,-0.0425516158554959,0.990195576003111,-0.0425516158006989,0.00791247635257486,0.00356160384049886
4,0.0080023410627037,0.00399480308559319,0.989698595367138,-0.048353072672656,0.989698595419306,-0.0483530726783705,0.00800067760880285,0.00398382930407593
4.5,0.0080948548845694,0.00442437389072037,0.989182418761173,-0.0541396947264206,0.989182418741059,-0.0541396947613588,0.00809237409689301,0.0044119022523601
5,0.00819299633545456,0.00485791491739462,0.988639071586093,-0.0599131289775938,0.988639071505118,-0.0599131290217505,0.0081895816855786,0.00484394737942928
5.5,0.00829796137931926,0.00529404388825316,0.988062482813898,-0.065673087874476,0.988062482685561,-0.0656730879160072,0.00829349732798401,0.00527858121010638
6,0.00841049194933641,0.00573172035821568,0.987448067311522,-0.0714183482970441,0.987448067149572,-0.0714183483297184,0.00840486265493579,0.00571476237294899
6.5,0.00853106498471989,0.0061701404566632,0.986792340135755,-0.0771472788298491,0.986792339953473,-0.077147278851184,0.00852415344958501,0.00615168639611685
7,0.00865999598601375,0.00660866552809836,0.986092617186366,-0.0828581129883315,0.986092616996341,-0.0828581129982862,0.00865168345834644,0.00658871434839892
7.5,0.00879749829454657,0.00704677388396746,0.985346797863177,-0.0885490878198381,0.985346797677319,-0.0885490878199455,0.00878766382567092,0.00702532457834337
8,0.00894371835601304,0.00748402787462155,0.984553211668939,-0.0942185115296486,0.98455321149855,-0.0942185115223939,0.00893223845626068,0.00746107977365629
8.5,0.00909875741297622,0.00792005109979499,0.983710511140725,-0.0998647937650912,0.9837105109966,-0.0998647937534916,0.0090855057733592,0.00789560416285529
9,0.00926268524466245,0.00835451238797269,0.982817597296858,-0.105486456337268,0.982817597189376,-0.1054864563246,0.00924753250485744,0.00832856748995248
9.5,0.00943554909309896,0.00878711435492452,0.981873567593608,-0.111082133815881,0.981873567532802,-0.111082133805468,0.0094183626439843,0.00875967357200569
10,0.00961737958996237,0.00921758510645887,0.980877679382878,-0.116650569026044,0.980877679378486,-0.116650569021123,0.00959802340352758,0.00918865200362351
10.5,0.00982337742546772,0.00963169277093945,0.979927652020812,-0.122219107960486,0.979927652020408,-0.122219107951683,0.00980173396856601,0.0096014807883904
11,0.0100372893502249,0.0100395451137199,0.978952422435794,-0.127770582055011,0.978952422439644,-0.127770582043235,0.0100132421325934,0.0100080828128095
11.5,0.0102588552846582,0.0104409711782054,0.977952059500639,-0.133305952655636,0.977952059508855,-0.133305952641745,0.0102322875572184,0.0104082892553832
12,0.0104878120982021,0.0108358137888618,0.976926550269059,-0.138826055140446,0.976926550281624,-0.138826055125237,0.0104586069215531,0.0108019451339736
12.5,0.0107238944580962,0.0112239294434424,0.9758758231201,-0.144331607410816,0.975875823136893,-0.144331607395017,0.0106919347760902,0.0111889091923807
13,0.0109668356501654,0.0116051881486952,0.97479976650212,-0.149823219753195,0.974799766522932,-0.149823219737447,0.0109320043678965,0.0115690537300468
13.5,0.0112163683677732,0.0119794732033838,0.973698243844533,-0.155301405288198,0.973698243869091,-0.155301405273064,0.0111785484333197,0.0119422643787503
14,0.0114722254656827,0.0123466809327359,0.972571105204592,-0.160766590449075,0.972571105232576,-0.160766590435036,0.0114312999549062,0.0123084398305546
14.5,0.0117341406759844,0.0127067203785942,0.971418196182855,-0.166219125109557,0.97141819621391,-0.166219125097017,0.0116899928797129,0.0126674915213005
15,0.0120018492837867,0.0130595129496038,0.970239364589722,-0.171659292117447,0.970239364623475,-0.171659292106732,0.011954362796701,0.0130193432741006
15.5,0.0122750887607987,0.0134049920358943,0.969034465286557,-0.177087316091842,0.969034465322625,-0.177087316083211,0.0122241475713675,0.0133639309073161
16,0.0125535993554211,0.0137431025926307,0.967803363565035,-0.182503371415659,0.967803363603032,-0.182503371409304,0.0124990879362518,0.0137012018115015
16.5,0.0128371246383861,0.0140738006968495,0.966545937371495,-0.187907589406722,0.966545937411042,-0.18790758940278,0.0127789280363896,0.014031114499752
17,0.013125412003415,0.0143970530818227,0.965262078631296,-0.193300064685762,0.965262078672028,-0.193300064684317,0.0130634159292145,0.0143536381357947
17.5,0.0134182131227479,0.014712836653163,0.963951693882585,-0.198680860782045,0.96395169392415,-0.198680860783133,0.0133523040388003,0.0146687520440394
18,0.0137152843577512,0.0150211379906402,0.962614704389484,-0.204050015030706,0.962614704431554,-0.204050015034327,0.0136453495647073,0.0149764452056367
18.5,0.0140163871251716,0.0153219528395785,0.96125104587142,-0.209407542822649,0.961251045913686,-0.209407542828764,0.0139423148460185,0.0152767157444322
19,0.0143212882198508,0.0156152855954348,0.959860667957382,-0.214753441270092,0.95986066799956,-0.214753441278636,0.0142429676814582,0.0155695704064445
19.5,0.0146297600950366,0.0159011487849705,0.958443533450945,-0.220087692350094,0.958443533492775,-0.220087692360972,0.0145470816067528,0.0158550240363244
20,0.0149415811016157,0.0161795625472037,0.956999617473023,-0.225410265585589,0.95699961751427,-0.225410265598692,0.0148544361306187,0.0161330990539585
20.5,0.0152565356878075,0.0164505541170412,0.955528906534035,-0.230721120319608,0.955528906574491,-0.230721120334807,0.0151648169309658,0.0164038249341787
21,0.0155744145610391,0.0167141573142813,0.95403139757489,-0.236020207633763,0.954031397614369,-0.236020207650918,0.0154780160130698,0.0166672376922268
21.5,0.0158950148138239,0.0169704120403964,0.952507097006296,-0.241307471957364,0.952507097044639,-0.241307471976322,0.0157938318316002,0.0169233793774295
22,0.0162181400156126,0.0172193637852831,0.950956019768155,-0.246582852408737,0.950956019805223,-0.246582852429342,0.016112069378502,0.017172297577231
22.5,0.0165436002726391,0.0174610631458647,0.949378188424552,-0.251846283905829,0.949378188460229,-0.251846283927919,0.0164325402387916,0.0174140449334788
23,0.0168712122578383,0.0176955653582564,0.947773632305086,-0.257097698078806,0.947773632339278,-0.257097698102217,0.0167550626164011,0.0176486786726742
23.5,0.0172007992129642,0.0179229298448975,0.946142386699478,-0.262337024013519,0.946142386732109,-0.262337024038087,0.0170794613322069,0.0178762601515472
24,0.0175321909250226,0.018143219777901,0.944484492109537,-0.267564188851026,0.944484492140549,-0.26756418887659,0.017405567796417,0.0180968544192233
24.5,0.0178652236791325,0.018356501659589,0.942799993560324,-0.272779118265217,0.942799993589679,-0.272779118291619,0.0177332199574365,0.0183105297969077
25,0.0181997401899072,0.0185628449210267,0.941088939970738,-0.277981736837638,0.941088939998409,-0.277981736864722,0.0180622622293424,0.0185173574758954
25.5,0.018535589513394,0.0187623215391606,0.939351383582467,-0.283171968346095,0.939351383608444,-0.283171968373713,0.0183925454000277,0.0187174111344817
26,0.0188726269415652,0.0189550056730006,0.937587379445418,-0.288349735981329,0.937587379469704,-0.288349736009336,0.0187239265220232,0.0189107665742023
26.5,0.0192107138812842,0.0191409733190977,0.935796984957088,-0.293514962504098,0.935796984979696,-0.293514962532359,0.0190562687879349,0.0190975013756129
27,0.0195497177195899,0.0193203019864692,0.933980259452925,-0.298667570353216,0.933980259473879,-0.298667570381602,0.0193894413923671,0.0192776945737612
27.5,0.0198895116770718,0.0194930703909424,0.932137263844496,-0.303807481713632,0.93213726386383,-0.303807481742021,0.0197233193821017,0.0194514263532779
28,0.0202299746510114,0.019659358168796,0.930268060302141,-0.308934618552233,0.930268060319896,-0.308934618580511,0.0200577834962215,0.0196187777629557
28.5,0.0205709910498743,0.0198192456094608,0.928372711978743,-0.31404890262799,0.928372711994969,-0.314048902656053,0.0203927199977739,0.0197798304495558
29,0.0209124506206504,0.0199728134069614,0.926451282771306,-0.319150255481986,0.926451282786056,-0.319150255509736,0.0207280204984676,0.0199346664104894
29.5,0.0212542482704262,0.0201201424296666,0.924503837117083,-0.324238598412036,0.924503837130417,-0.324238598439383,0.0210635817777991,0.0200833677649392
30,0.0215962838835072,0.0202613135079042,0.92253043982116,-0.329313852435859,0.922530439833141,-0.329313852462722,0.0213993055979134,0.0202260165429402
30.5,0.0219384621352705,0.0203964072388609,0.920531155912495,-0.334375938246105,0.920531155923192,-0.334375938272412,0.0217350985153931,0.0203626944918329
31,0.0222806923038684,0.0205255038082151,0.918506050525629,-0.339424776159989,0.91850605053511,-0.339424776185674,0.0220708716910853,0.0204934828995125
31.5,0.0226228880808024,0.0206486828278598,0.91645518880541,-0.344460286065785,0.91645518881375,-0.344460286090791,0.0224065406989774,0.0206184624338204
32,0.0229649673812757,0.0207660231890612,0.914378635832283,-0.349482387368071,0.914378635839552,-0.349482387392347,0.0227420253350381,0.0207377129973967
32.5,0.0233068521551746,0.020877602930373,0.91227645656584,-0.354490998933195,0.912276456572114,-0.354490998956699,0.0230772494268583,0.020851313597317
33,0.0236484681994314,0.0209834991196209,0.910148715804546,-0.359486039036199,0.910148715809898,-0.359486039058893,0.0234121406448388,0.0209593422287979
33.5,0.0239897449724368,0.0210837877492409,0.90799547815966,-0.364467425310127,0.907995478164165,-0.364467425331982,0.0237466303155883,0.0210618757722532
34,0.0243306154111085,0.0211785436442742,0.905816808041604,-0.369435074698467,0.905816808045335,-0.369435074719459,0.0240806532381271,0.0211589899029894
34.5,0.0246710157511347,0.0212678403823119,0.90361276965712,-0.374388903411274,0.903612769660148,-0.374388903431385,0.0244141475034133,0.021250759012823
35,0.0250108853508567,0.0213517502246894,0.901383427015752,-0.379328826885354,0.90138342701815,-0.379328826904572,0.0247470543176409,0.0213372561429153
35.5,0.0253501665191865,0.0214303440582391,0.899128843944302,-0.384254759748804,0.899128843946139,-0.384254759767121,0.0250793178296997,0.0214185529271216
36,0.0256888043479043,0.021503691346942,0.896849084108044,-0.389166615790032,0.896849084109386,-0.389166615807448,0.0254108849631275,0.0214947195451891
36.5,0.0260267465485972,0.0215718600927928,0.894544211037593,-0.394064307931365,0.894544211038507,-0.39406430794788,0.0257417052528278,0.0215658246851176
37,0.0263639432945064,0.0216349168052727,0.892214288160461,-0.398947748207196,0.892214288161008,-0.398947748222817,0.026071730686778,0.021631935514062
37.5,0.0267003470674378,0.0216929264787791,0.889859378836397,-0.403816847746655,0.889859378836638,-0.403816847761393,0.0264009155529092,0.0216931176571378
38,0.0270359125099035,0.0217459525774359,0.887479546395746,-0.408671516760653,0.88747954639574,-0.408671516774522,0.0267292162912913,0.0217494351835343
38.5,0.0273705962825934,0.0217940570267059,0.885074854180108,-0.413511664533181,0.885074854179909,-0.413511664546197,0.0270565913517248,0.0218009505993648
39,0.0277043569272379,0.0218373002112474,0.882645365584694,-0.418337199416665,0.882645365584353,-0.418337199428848,0.0273830010568,0.0218477248466908
39.5,0.0280371547349255,0.02187574097851,0.880191144101822,-0.423148028831197,0.88019114410139,-0.42314802884257,0.0277084074704643,0.0218898173082086
40,0.0283689516198641,0.0219094366475405,0.877712253365088,-0.427944059267415,0.87771225336461,-0.427944059278004,0.0280327742720893,0.021927285817087
40.5,0.0286997109985895,0.0219384430225567,0.875208757193772,-0.432725196292816,0.875208757193292,-0.432725196302648,0.0283560666360303,0.0219601866714886
41,0.0290293976745706,0.0219628144108167,0.872680719637142,-0.437491344561271,0.8726807196367,-0.437491344570374,0.0286782511166311,0.0219885746533188
41.5,0.0293579777281714,0.0219826036443654,0.870128205018325,-0.442242407825505,0.870128205017959,-0.442242407833911,0.0289992955386081,0.0220125030507839
42,0.0296854184118885,0.0219978621052682,0.86755127797748,-0.446978288952314,0.867551277977223,-0.446978288960054,0.0293191688927465,0.0220320236843643
42.5,0.0300116880507729,0.0220086397539329,0.864950003514051,-0.451698889940295,0.864950003513935,-0.451698889947404,0.0296378412368036,0.022047186935807
43,0.0303367559479467,0.0220149851601927,0.862324447027904,-0.456404111939854,0.862324447027957,-0.456404111946364,0.0299552836015232,0.0220580417798126
43.5,0.0306605922950951,0.0220169455368018,0.859674674359195,-0.461093855275283,0.859674674359443,-0.46109385528123,0.030271467901639,0.0220646358180687
44,0.0309831680878163,0.0220145667750413,0.857000751826828,-0.465768019468693,0.857000751827295,-0.465768019474113,0.0305863668517449,0.0220670153153343
44.5,0.0313044550456971,0.022007893482147,0.854302746265417,-0.470426503265607,0.854302746266121,-0.470426503270535,0.0308999538868994,0.0220652252372778
45,0.0316244255369906,0.0219969690202962,0.851580725060649,-0.475069204662005,0.851580725061608,-0.475069204666478,0.0312122030878287,0.0220593092898224
45.5,0.0319430525077438,0.0219818355468911,0.848834756183011,-0.479696020932663,0.84883475618424,-0.479696020936717,0.0315230891105795,0.0220493099597252
46,0.0322603094152419,0.0219625340559313,0.846064908219823,-0.484306848660588,0.846064908221334,-0.48430684866426,0.0318325871204859,0.0220352685561976
46.5,0.032576170165622,0.0219391044202403,0.843271250405552,-0.488901583767408,0.843271250407356,-0.488901583770735,0.0321406727302934,0.0220172252533211
47,0.0328906090555088,0.0219115854343666,0.840453852650404,-0.493480121544545,0.840453852652507,-0.493480121547561,0.0324473219422961,0.0219952191330927
47.5,0.0332036007175261,0.0218800148579732,0.837612785567175,-0.498042356685044,0.837612785569584,-0.498042356687785,0.0327525110943391,0.0219692882289122
48,0.0335151200695378,0.0218444294595507,0.834748120496395,-0.502588183315914,0.834748120499112,-0.502588183318416,0.0330562168095296,0.021939469569345
48.5,0.0338251422674691,0.0218048650603003,0.831859929529753,-0.50711749503087,0.83185992953278,-0.507117495033166,0.0333584159495188,0.0219057992220183
49,0.0341336426615708,0.021761356578062,0.828948285531859,-0.511630184923339,0.828948285535194,-0.511630184925464,0.0336590855712006,0.0218683123375167
49.5,0.0344405967559716,0.0217139380711403,0.826013262160347,-0.516126145619656,0.826013262163987,-0.516126145621641,0.0339582028866834,0.021827043193146
50,0.0347459801713886,0.0216626427819363,0.823054933884382,-0.520605269312321,0.823054933888323,-0.520605269314199,0.0342557452263971,0.0217820252364628
50.5,0.0350497686108539,0.0216075031802712,0.82007337600159,-0.525067447793254,0.820073376005826,-0.525067447795058,0.0345516900051941,0.021733291128465
51,0.0353519378283174,0.0215485510063052,0.817068664653473,-0.529512572486956,0.817068664657996,-0.529512572488713,0.0348460146913024,0.0216808727863528
51.5,0.0356524636000048,0.0214858173129848,0.814040876839347,-0.533940534483489,0.814040876844146,-0.53394053448523,0.0351386967780095,0.0216248014257798
52,0.0359513216983874,0.0214193325079256,0.810990090428856,-0.538351224571241,0.810990090433921,-0.538351224572994,0.0354297137579345,0.0215651076025259
52.5,0.036248487868653,0.0213491263946726,0.807916384173114,-0.542744533269387,0.807916384178434,-0.542744533271179,0.035719043099777,0.0215018212535184
53,0.0365439378075477,0.0212752282132828,0.804819837714534,-0.547120350859998,0.804819837720096,-0.547120350861855,0.036006662227406,0.0214349717371555
53.5,0.0368376471444722,0.0211976666801736,0.801700531595382,-0.551478567419767,0.80170053160117,-0.551478567421712,0.0362925485011826,0.0213645878728744
54,0.0371295914247191,0.0211164700271923,0.798558547265122,-0.555819072851275,0.79855854727112,-0.555819072853334,0.0365766792013983,0.0212906979799267
54.5,0.0374197460947469,0.0210316660398666,0.795393967086606,-0.560141756913805,0.795393967092799,-0.560141756916,0.0368590315137156,0.0212133299153191
55,0.0377080864893731,0.0209432820948057,0.792206874341159,-0.564446509253626,0.792206874347528,-0.564446509255977,0.0371395825165095,0.021132511110888
55.5,0.0379945878207923,0.0208513451962212,0.788997353232601,-0.568733219433749,0.788997353239129,-0.568733219436277,0.037418309170007,0.0210482686094858
56,0.0382792251693231,0.0207558820115454,0.785765488890286,-0.573001776963113,0.785765488896952,-0.573001776965836,0.0376951883071232,0.0209606291002522
56.5,0.0385619734757799,0.0206569189061238,0.782511367371176,-0.577252071325193,0.782511367377961,-0.577252071328128,0.0379701966259033,0.0208696189529501
57,0.038842807535386,0.0205544819769665,0.779235075661019,-0.581483992006001,0.779235075667903,-0.581483992009165,0.0382433106834754,0.0207752642513578
57.5,0.0391217019931408,0.0204485970855532,0.775936701674684,-0.585697428521474,0.775936701681646,-0.585697428524882,0.0385145068914347,0.0206775908257033
58,0.0393986313405518,0.0203392898896725,0.77261633425568,-0.589892270444232,0.772616334262698,-0.589892270447896,0.0387837615125664,0.0205766242841346
58.5,0.0396735699136568,0.0202265858742936,0.769274063174922,-0.594068407429698,0.769274063181975,-0.594068407433631,0.0390510506588341,0.0204723900432132
59,0.0399464918922585,0.020110510381473,0.765909979128786,-0.598225729241581,0.765909979135851,-0.598225729245796,0.0393163502905573,0.0203649133574451
59.5,0.0402173713002948,0.019991088639279,0.762524173736485,-0.602364125776708,0.762524173743539,-0.602364125781213,0.039579636216699,0.0202542193478304
60,0.0404861820072816,0.0198683457897563,0.75911673953682,-0.606483487089201,0.759116739543842,-0.606483487094005,0.0398408840962036,0.0201403330294491
60.5,0.0407528977307511,0.0197423069159147,0.755687769984345,-0.610583703414015,0.755687769991311,-0.610583703419126,0.0401000694403085,0.0200232793380738
61,0.0410174920396298,0.019612997067757,0.752237359444969,-0.614664665189819,0.752237359451856,-0.614664665195244,0.0403571676157723,0.0199030831558299
61.5,0.0412799383584952,0.0194804412873518,0.748765603191053,-0.618726263081237,0.748765603197838,-0.618726263086981,0.0406121538489587,0.0197797693358935
62,0.0415402099726441,0.0193446646329537,0.74527259739602,-0.622768388000441,0.74527259740268,-0.622768388006507,0.040865003230714,0.0196533627262551
62.5,0.0417982800339289,0.019205692202183,0.741758439128523,-0.626790931128111,0.741758439135034,-0.626790931134504,0.0411156907219887,0.0195238881925357
63,0.0420541215672975,0.0190635491542777,0.738223226346195,-0.63079378393377,0.738223226352535,-0.63079378394049,0.0413641911601466,0.0193913706398903
63.5,0.0423077074779973,0.0189182607314238,0.734667057889019,-0.634776838195479,0.734667057895166,-0.634776838202529,0.0416104792659141,0.01925583503399
64,0.0425590105593844,0.018769852279177,0.73109003347234,-0.63873998601894,0.73109003347827,-0.638739986026319,0.0418545296509208,0.0191173064211106
