"Freq [GHz]","re(St(P1,P1)) []","im(St(P1,P1)) []","re(St(P1,P2)) []","im(St(P1,P2)) []","re(St(P2,P1)) []","im(St(P2,P1)) []","re(St(P2,P2)) []","im(St(P2,P2)) []"
0,0.005078274558457,0,0.99493865268596,0,0.994938652220299,0,0.0050782754938723,0
0.5,0.00576170115848385,-0.00259794338421315,0.99417692848656,-0.00825229504079417,0.994176928382828,-0.00825229466345689,0.00576182710218376,-0.00259864848658964
1,0.00631188980667119,-0.00603673879389888,0.99342205794181,-0.0156666658402393,0.993422057920871,-0.0156666659147895,0.0063121736108549,-0.00603839032354614
1.5,0.00660821996477878,-0.00965649951027459,0.992793593383414,-0.0228868840191936,0.992793593347674,-0.0228868840571295,0.00660851984154576,-0.00965926822810559
2,0.00669521131634987,-0.0133170103904021,0.992248231586981,-0.0300498384993553,0.992248231554049,-0.0300498385176802,0.00669538046744123,-0.0133209541496093
2.5,0.00665481820849045,-0.0169648565144414,0.991706458999172,-0.0372089385819763,0.991706458971487,-0.0372089385906662,0.00665472887712859,-0.0169700186968171
3,0.00652893851262171,-0.0205950494287386,0.991127610336459,-0.0443676358270206,0.991127610313432,-0.0443676358308167,0.00652846408032204,-0.0206014728029427
3.5,0.00633717462796835,-0.0242113311179537,0.990493534327415,-0.0515201896100201,0.990493534308166,-0.0515201896112121,0.00633618170285555,-0.0242190564454443
4,0.00608881378613191,-0.027817675436415,0.989796632627555,-0.0586607323400834,0.98979663261141,-0.0586607323398436,0.00608716048698277,-0.0278267380091464
4.5,0.00578836282843742,-0.031416875210228,0.989034165978072,-0.065784849633582,0.989034165964584,-0.0657848496325499,0.00578589986178013,-0.031427302198539
5,0.00543805332006686,-0.0350106002632629,0.988205620800347,-0.0728895324892704,0.988205620789234,-0.0728895324878511,0.00543462608452128,-0.0350224092999891
5.5,0.00503901586108624,-0.0385996884202591,0.987311454703555,-0.0799728403832241,0.98731145469465,-0.0799728403816786,0.00503446669192131,-0.0386128872410918
6,0.00459185090513703,-0.0421844095055626,0.986352484198021,-0.0870335749727289,0.986352484191233,-0.087033574971267,0.00458602103646744,-0.0421989963305016
6.5,0.00409691226967412,-0.0457646627559747,0.985329587697185,-0.0940710209094977,0.985329587692478,-0.0940710209083111,0.00408964335243889,-0.0457806271090764
7,0.00355444797241189,-0.0493401151906081,0.984243570159301,-0.101084753685432,0.984243570156657,-0.10108475368467,0.00354558313132225,-0.0493574389175944
7.5,0.00296466826846076,-0.0529102954303937,0.983095112306853,-0.108074502857225,0.983095112306272,-0.108074502857052,0.00295405275414828,-0.0529289537466155
8,0.00232777623228531,-0.0564746556865572,0.981884763580593,-0.115040058255863,0.981884763582084,-0.115040058256426,0.00231525775296793,-0.0564946181519153
8.5,0.00164397933772142,-0.0600326116037433,0.980612956396604,-0.121981208467299,0.980612956400179,-0.121981208468748,0.00162940815707446,-0.0600538429712483
9,0.00091349181690914,-0.0635835669875453,0.979280029248884,-0.128897702900594,0.979280029254557,-0.128897702903075,0.000896720694179898,-0.0636060279060988
9.5,0.000136532967698333,-0.0671269284017013,0.97788625185535,-0.135789230635763,0.977886251863132,-0.135789230639415,0.000117417000744635,-0.0671505759751483
10,-0.000686675922307867,-0.0706621131142953,0.976431848827872,-0.142655410851406,0.976431848837772,-0.142655410856371,-0.000708279505910903,-0.0706869013303146
10.5,-0.00165881965715253,-0.0740948543624969,0.974899187421239,-0.149516227484487,0.97489918743092,-0.149516227489661,-0.0016719544462781,-0.0741211267846262
11,-0.00267707181049126,-0.0775130353225206,0.973307256347513,-0.156346343486269,0.973307256356966,-0.156346343491641,-0.00268118607941925,-0.077540791763191
11.5,-0.00374125697080357,-0.0809159940579747,0.971657095794942,-0.163145635472446,0.971657095804157,-0.163145635478001,-0.00373577566329175,-0.0809452240916473
12,-0.00485119464399975,-0.0843030734791945,0.969949665537818,-0.169914004028601,0.969949665546785,-0.169914004034321,-0.0048355174388548,-0.0843337543945095
12.5,-0.00600669975282497,-0.0876736217140923,0.968185850244937,-0.176651363706799,0.968185850253652,-0.176651363712669,-0.00598019901010977,-0.0877057161945833
13,-0.00720758317714926,-0.091026992516273,0.966366465441102,-0.183357634571227,0.966366465449559,-0.183357634577231,-0.0071696017619603,-0.0910604460122997
13.5,-0.00845365233759038,-0.0943625457170816,0.964492263853232,-0.190032735211589,0.964492263861427,-0.190032735217708,-0.00840350132000628,-0.0943972834661464
14,-0.00974471182483094,-0.0976796477294872,0.962563941916994,-0.196676577114933,0.962563941924926,-0.196676577121152,-0.00968166805695259,-0.0977155713758631
14.5,-0.011080564076914,-0.100977672113045,0.960582146262242,-0.203289060269253,0.96058214626991,-0.203289060275558,-0.0110038676509326,-0.101014655870604
15,-0.0124610101064496,-0.104256000210721,0.958547480034856,-0.209870069863494,0.958547480042259,-0.209870069869865,-0.0123698617017391,-0.104293886504743
15.5,-0.0138858502793116,-0.107514021870212,0.956460508947502,-0.216419473946958,0.956460508954643,-0.216419473953378,-0.0137794084117778,-0.107552616384837
16,-0.0153548851456614,-0.110751136264444,0.954321766982319,-0.22293712191445,0.954321766989202,-0.222937121920908,-0.0152322633394123,-0.110790202312073
16.5,-0.0168679163232119,-0.113966752828353,0.952131761694214,-0.229422843690658,0.952131761700842,-0.229422843697138,-0.0167281802333902,-0.11400600494567
17,-0.0184247474313037,-0.117160292331824,0.949890979084659,-0.23587644949676,0.949890979091037,-0.235876449503248,-0.0182669119581592,-0.117199388994091
17.5,-0.0200251850725004,-0.120331188111796,0.947599888032984,-0.242297730093186,0.947599888039119,-0.242297730099671,-0.0198482115210913,-0.120369723442611
18,-0.0216690398559184,-0.123478887490011,0.945258944285479,-0.24868645740395,0.945258944291377,-0.248686457410417,-0.0214718332139912,-0.123516381827844
18.5,-0.0233561274532168,-0.12660285340697,0.942868594012748,-0.255042385439619,0.942868594018415,-0.25504238544606,-0.0231375338827358,-0.126638742572496
19,-0.0250862696737835,-0.129702566306902,0.940429276953167,-0.261365251447056,0.94042927695861,-0.261365251453459,-0.0248450743404405,-0.129736189396711
19.5,-0.0268592955400061,-0.132777526313405,0.937941429165359,-0.267654777224618,0.937941429170587,-0.267654777230972,-0.0265942209412064,-0.132808111826479
20,-0.028675042336146,-0.135827255740338,0.935405485415947,-0.273910670551054,0.935405485420969,-0.273910670557352,-0.0283847473331251,-0.135853905824283
20.5,-0.0305333565949538,-0.138851301987861,0.93282188123055,-0.280132626685084,0.932821881235374,-0.280132626691318,-0.0302164364108399,-0.138872974573355
21,-0.0324340949741954,-0.141849240878431,0.930191054636726,-0.286320329900281,0.930191054641361,-0.286320329906442,-0.0320890824893568,-0.141864729454265
21.5,-0.0343771249602015,-0.144820680492217,0.927513447627317,-0.292473455026607,0.927513447631771,-0.292473455032691,-0.034002493721855,-0.144828591261753
22,-0.0363623253167105,-0.147765265564805,0.924789507371836,-0.298591668975874,0.924789507376119,-0.298591668981872,-0.0359564947846363,-0.147763991721027
22.5,-0.0383895861739691,-0.150682682511553,0.92201968720226,-0.304674632233231,0.922019687206381,-0.304674632239141,-0.0379509298517232,-0.150670375376577
23,-0.0404588086245596,-0.153572665141302,0.91920444739802,-0.310722000301142,0.919204447401987,-0.310722000306958,-0.0399856658793873,-0.153547201943446
23.5,-0.0425699036579715,-0.156435001115671,0.916344255793245,-0.316733425085718,0.916344255797068,-0.316733425091436,-0.0420605962162831,-0.15639394923166
24,-0.0447227902250433,-0.159269539196602,0.913439588227493,-0.322708556218309,0.91343958823118,-0.322708556223926,-0.0441756445467379,-0.159210116779397
24.5,-0.0469173921758033,-0.16207619730117,0.910490928859352,-0.328647042307578,0.910490928862912,-0.32864704231309,-0.0463307691616203,-0.16199523036064
25,-0.0491536337602426,-0.164854971345171,0.907498770360521,-0.334548532119221,0.907498770363962,-0.334548532124631,-0.0485259675309164,-0.164748847568817
25.5,-0.0514314333226578,-0.167605944800738,0.904463614006216,-0.340412675682158,0.904463614009547,-0.34041267568746,-0.0507612811218533,-0.167470564720061
26,-0.0537506947591547,-0.170329298812429,0.901385969676128,-0.34623912532109,0.901385969679358,-0.346239125326284,-0.0530368003622143,-0.170160025368191
26.5,-0.0561112962500334,-0.173025322604154,0.898266355778656,-0.352027536616419,0.898266355781792,-0.352027536621505,-0.0553526695852449,-0.172816930777975
27,-0.0585130757325973,-0.175694423759005,0.895105299109647,-0.357777569293192,0.895105299112697,-0.357777569298169,-0.0577090917036135,-0.17544105276206
27.5,-0.0609558125581697,-0.1783371377584,0.891903334655706,-0.363488888041233,0.891903334658677,-0.363488888046102,-0.0601063322364445,-0.178032249346163
28,-0.0634392047985152,-0.180954135921801,0.888661005350844,-0.369161163269125,0.888661005353744,-0.369161163273886,-0.0625447221450283,-0.180590483780435
28.5,-0.0659628417562396,-0.183546230592989,0.885378861794246,-0.374794071794818,0.885378861797083,-0.374794071799473,-0.0650246587064277,-0.183115847450028
29,-0.0685261714233381,-0.186114376081742,0.882057461935961,-0.38038729747596,0.88205746193874,-0.380387297480508,-0.0675466033557098,-0.185608587236147
29.5,-0.0711284629595128,-0.188659663512209,0.878697370736461,-0.385940531782982,0.878697370739189,-0.385940531787426,-0.0701110750427252,-0.188069137810269
30,-0.0737687647673552,-0.191183307392225,0.875299159805276,-0.391453474318106,0.875299159807958,-0.391453474322446,-0.0727186371676052,-0.190498159164362
30.5,-0.076445859459523,-0.193686621467988,0.871863407023206,-0.396925833283339,0.871863407025851,-0.396925833287579,-0.075369875579763,-0.1928965793248
31,-0.0791582179602388,-0.196170981363657,0.868390696152046,-0.402357325900501,0.868390696154657,-0.402357325904643,-0.0780653644681986,-0.195265641579559
31.5,-0.0819039561391709,-0.198637771753107,0.864881616435211,-0.407747678786214,0.864881616437793,-0.407747678790261,-0.0808056162949146,-0.197606954554501
32,-0.0846807986589413,-0.201088316519712,0.861336762192203,-0.413096628284688,0.861336762194763,-0.413096628288642,-0.0835910113507479,-0.199922541972915
32.5,-0.0874860559617633,-0.203523791672248,0.857756732409444,-0.418403920761014,0.857756732411985,-0.418403920764877,-0.0864217022647085,-0.202214886791843
33,-0.0903166212589647,-0.205945122793492,0.854142130329636,-0.423669312857543,0.854142130332165,-0.423669312861316,-0.089297489231328,-0.204486961545646
33.5,-0.093168994658515,-0.20835287148121,0.850493563041533,-0.428892571715787,0.850493563044052,-0.428892571719478,-0.092217663358617,-0.206742233193242
34,-0.0960393407618602,-0.21074711839094,0.846811641071683,-0.43407347516618,0.846811641074197,-0.434073475169787,-0.0951808190612101,-0.208984626886144
34.5,-0.0989235838253414,-0.213127353657331,0.843096977979522,-0.439211811887825,0.843096977982034,-0.439211811891353,-0.098184642565122,-0.211218429639395
35,-0.101817540753945,-0.215492387964283,0.839350189956935,-0.444307381540344,0.839350189959449,-0.444307381543798,-0.101225692884627,-0.213448113344298
35.5,-0.104717086977321,-0.217840298513499,0.835571895433296,-0.449359994869685,0.835571895435815,-0.449359994873066,-0.104299203920011,-0.215678059099263
36,-0.107618344326549,-0.220168422823123,0.831762714686744,-0.454369473789731,0.831762714689271,-0.454369473793043,-0.107398950056374,-0.217912174137497
36.5,-0.110517874520749,-0.222473409236467,0.827923269462421,-0.459335651441379,0.82792326946496,-0.459335651444625,-0.110517229158988,-0.220153411025093
37,-0.113412858173996,-0.224751326429054,0.824054182598213,-0.464258372230658,0.824054182600764,-0.464258372233842,-0.113645020181877,-0.222403226633477
37.5,-0.116301238598134,-0.226997826032984,0.820156077658448,-0.469137491847379,0.820156077661015,-0.469137491850504,-0.116772360523897,-0.224661051893513
38,-0.119181812766098,-0.22920834436106,0.816229578575955,-0.473972877265667,0.81622957857854,-0.473972877268738,-0.119888955376323,-0.226923873136992
38.5,-0.122054258342892,-0.231378322959767,0.812275309302741,-0.478764406727684,0.812275309305346,-0.478764406730702,-0.122984978618524,-0.229186037898907
39,-0.124919094447507,-0.233503424867541,0.808293893469562,-0.483511969711722,0.808293893472189,-0.483511969714692,-0.126051963678895,-0.231439378718094
39.5,-0.12777758289467,-0.235579724675223,0.804285954054546,-0.488215466885801,0.804285954057195,-0.488215466888726,-0.129083634342377,-0.233673692696386
40,-0.130631584130636,-0.237603855382263,0.80025211306099,-0.492874810047824,0.800252113063663,-0.492874810050707,-0.132076513101216,-0.235877533098236
40.5,-0.133483386502212,-0.239573102310583,0.796192991204456,-0.497489922053233,0.796192991207154,-0.497489922056077,-0.135030181233318,-0.238039188316771
41,-0.136335528362262,-0.241485442234235,0.792109207609179,-0.502060736731143,0.792109207611903,-0.502060736733952,-0.137947142868843,-0.24014767414074
41.5,-0.139190630218454,-0.243339532777944,0.788001379513841,-0.506587198789746,0.788001379516592,-0.506587198792523,-0.140832337893615,-0.242193567180377
42,-0.142051249718267,-0.245134661943506,0.783870121986695,-0.511069263711836,0.783870121989473,-0.511069263714584,-0.143692422199362,-0.244169558098243
42.5,-0.144919767000111,-0.246870669954017,0.779716047650019,-0.515506897641174,0.779716047652825,-0.515506897643897,-0.146534965546246,-0.246070680388401
43,-0.147798302944624,-0.248547855694757,0.775539766413857,-0.519900077260424,0.77553976641669,-0.519900077263125,-0.149367704222219,-0.247894244361654
43.5,-0.150688668873311,-0.250166878489012,0.77134188521898,-0.524248789661299,0.771341885221841,-0.524248789663981,-0.152197942219811,-0.249639554887175
44,-0.153592343581011,-0.251728663509405,0.767123007789009,-0.528553032207556,0.767123007791898,-0.52855303221022,-0.155032141948894,-0.251307508332743
44.5,-0.156510472224504,-0.253234316440194,0.76288373439159,-0.532812812391408,0.762883734394507,-0.532812812394059,-0.157875700857537,-0.252900154930101
45,-0.15944388127829,-0.254685050536988,0.758624661608542,-0.537028147683927,0.758624661611485,-0.537028147686567,-0.160732882159496,-0.254420289296928
45.5,-0.162393104183265,-0.256082127234051,0.754346382114874,-0.541199065379919,0.754346382117843,-0.541199065382551,-0.163606856393289,-0.255871105281944
46,-0.165358413139061,-0.257426810010626,0.75004948446654,-0.545325602437791,0.750049484469536,-0.545325602440417,-0.166499811346005,-0.257255928865633
46.5,-0.168339853473487,-0.258720330314808,0.745734552896835,-0.54940780531486,0.745734552899857,-0.549407805317483,-0.169413095429136,-0.258578027416273
47,-0.171337277989493,-0.259963863863232,0.741402167121285,-0.553445729798524,0.741402167124331,-0.553445729801147,-0.172347369371837,-0.259840485013027
47.5,-0.174350379541032,-0.261158515473908,0.73705290215092,-0.557439440833726,0.73705290215399,-0.557439440836351,-0.175302750285471,-0.261046130198907
48,-0.177378720780101,-0.262305310640686,0.732687328113788,-0.561389012347085,0.73268732811688,-0.561389012349713,-0.178278939462284,-0.262197502517488
48.5,-0.18042176054207,-0.263405192233087,0.728306010084566,-0.565294527068063,0.728306010087679,-0.565294527070697,-0.181275330429312,-0.263296845926503
49,-0.183478876710822,-0.264459020939049,0.72390950792215,-0.569156076347512,0.723909507925284,-0.569156076350155,-0.184291097046826,-0.264346119569009
49.5,-0.186549385654829,-0.265467578316535,0.719498376115051,-0.572973759973939,0.719498376118203,-0.572973759976592,-0.187325263270144,-0.265347018771197
50,-0.18963255847785,-0.266431571555725,0.715073163634482,-0.576747685987784,0.715073163637651,-0.576747685990448,-0.190376757035748,-0.266301001210008
50.5,-0.192727634409349,-0.267351639262573,0.710634413794974,-0.580477970494016,0.710634413798159,-0.580477970496695,-0.193444450956993,-0.267209314847512
51,-0.195833831691413,-0.268228357750836,0.706182664122372,-0.584164737473329,0.706182664125571,-0.584164737476023,-0.196527192389755,-0.268073025470296
51.5,-0.198950356318175,-0.269062247473305,0.701718446229082,-0.587808118592187,0.701718446232294,-0.587808118594898,-0.199623825133427,-0.268893042560373
52,-0.202076408963015,-0.269853779336086,0.697242285696394,-0.591408253011983,0.697242285699617,-0.591408253014713,-0.202733204678063,-0.269670142833042
52.5,-0.205211190397348,-0.270603380726819,0.692754701963749,-0.594965287197547,0.692754701966982,-0.594965287200296,-0.205854208556412,-0.27040499117734
53,-0.208353905668666,-0.271311441152835,0.6882562082248,-0.598479374725216,0.688256208228041,-0.598479374727986,-0.20898574304154,-0.271098158985122
53.5,-0.211503767268775,-0.27197831743293,0.683747311330105,-0.601950676090705,0.683747311333351,-0.601950676093497,-0.212126747158832,-0.271750140001694
54,-0.214659997488139,-0.272604338420261,0.679228511696316,-0.605379358516947,0.679228511699566,-0.605379358519762,-0.215276194757278,-0.272361363908485
54.5,-0.217821830120359,-0.273189809257223,0.674700303221703,-0.608765595762127,0.674700303224955,-0.608765595764967,-0.218433095205292,-0.272932207881213
55,-0.220988511652581,-0.273735015178606,0.670163173207872,-0.612109567928072,0.670163173211124,-0.612109567930936,-0.221596493134973,-0.273463006372233
55.5,-0.224159302053163,-0.274240224888896,0.665617602287518,-0.615411461269168,0.665617602290768,-0.615411461272057,-0.22476546754914,-0.273954059354963
56,-0.227333475247165,-0.274705693545044,0.661064064358074,-0.618671468001983,0.66106406436132,-0.618671468004899,-0.227939130521607,-0.274405639248852
56.5,-0.230510319352721,-0.275131665378434,0.656503026521101,-0.621889786115733,0.656503026524341,-0.621889786118675,-0.23111662565755,-0.274817996720257
57,-0.233689136736859,-0.275518375990236,0.651934949027273,-0.625066619183742,0.651934949030505,-0.625066619186711,-0.23429712643306,-0.275191365530642
57.5,-0.23686924393738,-0.275866054353417,0.647360285226807,-0.628202176176041,0.647360285230029,-0.628202176179037,-0.237479834497358,-0.275525966580487
58,-0.240049971487612,-0.276174924552934,0.642779481525201,-0.63129667127322,0.642779481528412,-0.631296671276243,-0.240663977994867,-0.275822011276146
58.5,-0.243230663672969,-0.276445207293421,0.638192977344125,-0.634350323681669,0.638192977347321,-0.63435032368472,-0.243848809945036,-0.276079704327874
59,-0.246410678241788,-0.2766771212012,0.633601205087319,-0.637363357450318,0.6336012050905,-0.637363357453396,-0.24703360670379,-0.276299246070657
59.5,-0.249589386087825,-0.276870883944956,0.629004590111374,-0.64033600128898,0.629004590114536,-0.640336001292086,-0.250217666520485,-0.276480834385065
60,-0.252766170917641,-0.277026713196928,0.62440355070122,-0.643268488388407,0.624403550704362,-0.643268488391539,-0.253400308197071,-0.276624666283008
60.5,-0.255940428912881,-0.277144827454112,0.619798498050225,-0.646161056242139,0.619798498053345,-0.646161056245298,-0.256580869851204,-0.276730939212844
61,-0.259111568394846,-0.277225446736808,0.615189836244714,-0.649013946470255,0.615189836247809,-0.64901394647344,-0.259758707781745,-0.276799852129403
61.5,-0.262279009496727,-0.277268793179815,0.610577962252823,-0.651827404645091,0.610577962255892,-0.651827404648302,-0.262933195432773,-0.276831606367066
62,-0.265442183847292,-0.277275091529764,0.605963265917505,-0.654601680119013,0.605963265920546,-0.654601680122249,-0.266103722450918,-0.276826406347785
62.5,-0.268600534268582,-0.277244569560436,0.601346129953585,-0.657337025854304,0.601346129956596,-0.657337025857565,-0.269269693830025,-0.276784460150707
63,-0.271753514489217,-0.277177458416478,0.596726929948715,-0.660033698255254,0.596726929951694,-0.660033698258538,-0.27243052913677,-0.276705979965709
63.5,-0.27490058887417,-0.277073992894614,0.592106034368102,-0.662691957002479,0.592106034371047,-0.662691957005786,-0.275585661810804,-0.276591182449467
