"Freq [GHz]","re(St(P1,P1)) []","im(St(P1,P1)) []","re(St(P1,P2)) []","im(St(P1,P2)) []","re(St(P2,P1)) []","im(St(P2,P1)) []","re(St(P2,P2)) []","im(St(P2,P2)) []"
0,0.00462386980422025,0,0.995387595321517,0,0.99538759276038,0,0.0046238751883152,0
0.5,0.00508554968787323,0.00034505970587162,0.994849665831925,-0.00689200170891624,0.99484967064679,-0.00689200071850138,0.00508566095362539,0.000344640082467151
1,0.00548014770063432,0.000126686321397784,0.994265058502336,-0.0132000760555009,0.994265058596561,-0.01320007601052,0.00548044433746142,0.000125750524286872
1.5,0.00554356625513286,-0.000317414983388886,0.993735086232991,-0.0195797347272055,0.993735086346318,-0.0195797346875715,0.00554379437593333,-0.000318935650984287
2,0.00556114366773564,-0.000663468213851104,0.993132704112944,-0.0257929093480307,0.993132704231881,-0.0257929093248777,0.005561574603548,-0.000665511870877822
2.5,0.00556336803458723,-0.000964971654212832,0.992510245134133,-0.0318712424409107,0.992510245244756,-0.0318712424357628,0.00556414776281144,-0.000967552279211858
3,0.00555796418211285,-0.00124070601549953,0.991890041246658,-0.0378521983720539,0.991890041339447,-0.0378521983808806,0.00555920158879619,-0.00124385284305362
3.5,0.00554751492543426,-0.00149858266002134,0.991275224520425,-0.0437661950218775,0.991275224590785,-0.0437661950391277,0.00554930324079361,-0.00150233046713488
4,0.00553301044690624,-0.00174231874603592,0.990659766442093,-0.0496339452779715,0.990659766489121,-0.0496339452987211,0.00553543363042408,-0.00174670505367125
4.5,0.00551484403504832,-0.00197377904287599,0.990034577432172,-0.0554680855705918,0.990034577457262,-0.0554680855912686,0.00551797875750659,-0.00197884265462278
5,0.00549315993575417,-0.00219393900153353,0.989390445711487,-0.0612756393603124,0.989390445717303,-0.0612756393787306,0.00549707602476968,-0.00219971889555381
5.5,0.00546799618642058,-0.00240332858840642,0.988719177160798,-0.0670600710422873,0.988719177150638,-0.0670600710573472,0.00547275648834544,-0.00240986296868595
6,0.00543935104582505,-0.0026022542058568,0.988013880952606,-0.0728227150714851,0.988013880930039,-0.0728227150828724,0.00544501108151296,-0.0026095796819634
6.5,0.00540721685185164,-0.00279091597785186,0.987268907680741,-0.0785636912754519,0.987268907649413,-0.0785636912833585,0.00541382443988148,-0.00279906687452325
7,0.00537159821597821,-0.00296947171518713,0.986479676509503,-0.0842824651329543,0.986479676473025,-0.0842824651378411,0.00537919315251656,-0.0029784795147334
7.5,0.00533252180144739,-0.00313807200463145,0.985642489701236,-0.0899781804569155,0.985642489663144,-0.0899781804593882,0.00534113564465166,-0.00314796491983493
8,0.00529004111890663,-0.00329687893012753,0.984754369288609,-0.0956498514474333,0.984754369252323,-0.0956498514481048,0.00529969710197581,-0.00330768159960826
8.5,0.00524423814635161,-0.0034460752268588,0.983812923840832,-0.101296469565153,0.983812923809638,-0.101296469564589,0.00525495122773983,-0.00345780852091249
9,0.00519522283443391,-0.00358586775899905,0.982816243213742,-0.106917059504156,0.982816243190783,-0.106917059502811,0.00520699988276135,-0.00359854868149156
9.5,0.00514313118857795,-0.00371648763959254,0.981762816259103,-0.112510705169092,0.981762816247367,-0.112510705167308,0.00515597129198159,-0.00373012931070171
10,0.00508812241749221,-0.00383818841673733,0.980651466347202,-0.118076558337664,0.980651466349513,-0.118076558335638,0.00510201730188578,-0.00385280012174505
10.5,0.00508635629013754,-0.00403578051304798,0.97961258564867,-0.123673812499987,0.979612585651422,-0.123673812500094,0.00510095395312681,-0.00405093566384629
11,0.00508438111229813,-0.00423422157783371,0.978548710373788,-0.129245497435364,0.978548710376746,-0.129245497437576,0.00509974258585633,-0.00424990222086175
11.5,0.0050821767872544,-0.00443355569798864,0.977460885711186,-0.134792910504919,0.977460885714133,-0.13479291050919,0.00509836632783805,-0.00444974520957375
12,0.00507972170165875,-0.00463382731133599,0.976349967313423,-0.140317330703836,0.976349967316158,-0.140317330710097,0.00509680679675555,-0.00465051067941546
12.5,0.00507699264990863,-0.00483508118410247,0.975216639427334,-0.145820001378607,0.975216639429677,-0.145820001386769,0.00509504400395167,-0.00485224529623007
13,0.0050739647563612,-0.00503736238258679,0.974061433144742,-0.151302116801806,0.974061433146529,-0.151302116811764,0.00509305625502468,-0.005054996318961
13.5,0.00507061139566531,-0.00524071623879285,0.972884744260254,-0.156764812156069,0.972884744261344,-0.156764812167711,0.00509082004757547,-0.00525881156894714
14,0.00506690411149729,-0.00544518830958562,0.971686850357573,-0.162209156467274,0.971686850357844,-0.162209156480477,0.00508830996647583,-0.0054637393912409
14.5,0.0050628125340676,-0.00565082432906738,0.970467926861385,-0.167636148038149,0.970467926860732,-0.167636148052786,0.00508549857706297,-0.00566982860750986
15,0.00505830429675863,-0.00585767015381666,0.969228061887886,-0.17304671196038,0.969228061886223,-0.173046711976318,0.00508235631672174,-0.00587712846007005
15.5,0.00505334495232759,-0.00606577170064293,0.967967269804324,-0.178441699319686,0.967967269801582,-0.178441699336795,0.00507885138538552,-0.0060856885465137
16,0.00504789788914442,-0.00627517487655149,0.966685503468167,-0.1838218877502,0.966685503464292,-0.183821887768347,0.00507494963553298,-0.00629555874452015
16.5,0.00504192424796901,-0.00648592550057492,0.965382665161844,-0.189187983037843,0.965382665156795,-0.189187983056899,0.00507061446233992,-0.00650678912639169
17,0.00503538283983879,-0.00669806921720184,0.964058616271728,-0.194540621515151,0.96405861626548,-0.194540621534988,0.00506580669469472,-0.00671942986289098
17.5,0.00502823006567479,-0.0069116514011327,0.962713185782375,-0.199880373030358,0.962713185774914,-0.199880373050855,0.00506048448786953,-0.00693353111599704
18,0.0050204198382568,-0.00712671705311552,0.961346177671028,-0.205207744310485,0.96134617766235,-0.205207744331522,0.00505460321870527,-0.00714914292023883
18.5,0.00501190350729602,-0.00734331068666849,0.959957377294964,-0.210523182571253,0.959957377285075,-0.210523182592718,0.0050481153842378,-0.00736631505230356
19,0.00500262978834354,-0.00756147620553715,0.958546556866882,-0.215827079255618,0.958546556855795,-0.215827079277404,0.00504097050476121,-0.00758509688868969
19.5,0.00499254469635901,-0.00778125677177188,0.957113480112591,-0.22111977380764,0.957113480100329,-0.221119773829647,0.005033115032408,-0.007805537251238
20,0.00498159148478861,-0.00800269466438763,0.955657906201758,-0.22640155740965,0.95565790618835,-0.226401557431781,0.00502449226637031,-0.00802768424044631
20.5,0.00496971059105461,-0.00822583112859787,0.954179593037325,-0.231672676628304,0.954179593022805,-0.231672676650472,0.00501504227596866,-0.00825158505658585
21,0.00495683958939475,-0.00845070621575683,0.952678299982994,-0.23693333692986,0.952678299967399,-0.236933336951982,0.00500470183282387,-0.00847728580871054
21.5,0.00494291315203255,-0.00867735861412422,0.951153790101465,-0.242183706036825,0.951153790084839,-0.242183706058824,0.00499340435344159,-0.00870483131179167
22,0.00492786301969111,-0.0089058254707659,0.949605831969246,-0.247423917107809,0.949605831951635,-0.247423917129613,0.00498107985355056,-0.00893426487233406
22.5,0.00491161798247786,-0.00913614220488723,0.948034201127019,-0.252654071729962,0.948034201108472,-0.252654071751508,0.00496765491559098,-0.0091656280629242
23,0.00489410387219624,-0.00936834231311412,0.946438681218085,-0.257874242719395,0.946438681198652,-0.257874242740622,0.0049530526707387,-0.00939896048637512
23.5,0.00487524356714009,-0.00960245716724284,0.944819064861264,-0.263084476729459,0.944819064841,-0.263084476750316,0.00493719279688271,-0.0096342995302372
24,0.00485495701043065,-0.00983851580516659,0.943175154298996,-0.268284796670287,0.943175154277953,-0.268284796690724,0.00491999153394712,-0.00987168011262241
24.5,0.00483316124292998,-0.0100765447157902,0.941506761856182,-0.273475203945428,0.941506761834417,-0.273475203965403,0.004901361717917,-0.0101111344204807
25,0.00480977045175451,-0.010316567618831,0.939813710240714,-0.278655680513225,0.939813710218279,-0.278655680532697,0.00488121283490262,-0.0103526916416026
25.5,0.00478469603534654,-0.0105586052406224,0.938095832712364,-0.283826190781747,0.938095832689319,-0.283826190800683,0.00485945109647068,-0.0105963776918614
26,0.00475784668603807,-0.0108026750870684,0.936352973143118,-0.2889866833468,0.936352973119515,-0.28898668336517,0.00483597953740955,-0.0108422149393246
26.5,0.00472912849092522,-0.0110487912151069,0.934584985988618,-0.294137092582911,0.934584985964515,-0.294137092600689,0.00481069813695789,-0.0110902219270923
27,0.00469844505182532,-0.0112969640041123,0.932791736187639,-0.299277340097223,0.932791736163091,-0.299277340114387,0.00478350396439625,-0.0113404130968686
27.5,0.00466569762494534,-0.0115471999288563,0.930973099003894,-0.3044073360562,0.930973098978953,-0.304407336072733,0.00475429134972166,-0.0115927985154558
28,0.0046307852807857,-0.0117995013356982,0.929128959822344,-0.309526980394654,0.929128959797065,-0.309526980410538,0.00472295207994111,-0.0118473836064796
28.5,0.00459360508465034,-0.0120538662238405,0.927259213910274,-0.314636163916333,0.92725921388471,-0.314636163931558,0.00468937562129107,-0.0121041688898387
29,0.00455405229796602,-0.0123102880335644,0.92536376615173,-0.319734769294795,0.925363766125931,-0.319734769309351,0.00465344936746132,-0.0123631497314378
29.5,0.00451202060045153,-0.0125687554434388,0.923442530762548,-0.324822671982832,0.923442530736566,-0.324822671996713,0.00461505891361064,-0.012624316105899
30,0.0044674023329585,-0.0128292521785909,0.921495430991959,-0.329899741038165,0.921495430965842,-0.329899741051369,0.00457408835570111,-0.0128876523749761
30.5,0.00442008876060834,-0.0130917568321611,0.919522398815736,-0.334965839872666,0.919522398789534,-0.334965839885191,0.00453042061435693,-0.0131531370844511
31,0.00436997035562275,-0.0133562427020775,0.917523374624971,-0.340020826931743,0.917523374598729,-0.340020826943589,0.00448393778213807,-0.013420742782281
31.5,0.00431693709900371,-0.0136226776453388,0.915498306913798,-0.345064556310135,0.91549830688756,-0.345064556321306,0.00443452149279477,-0.0136904358607119
32,0.00426087879998027,-0.0138910239519094,0.91344715196877,-0.350096878309803,0.913447151942582,-0.350096878320304,0.00438205331073338,-0.0139621764250117
32.5,0.00420168543188409,-0.0141612382403316,0.911369873562048,-0.355117639945149,0.911369873535952,-0.355117639954986,0.00432641513859333,-0.0142359181913323
33,0.00413924748287492,-0.014433271377045,0.90926644265009,-0.360126685400389,0.909266442624127,-0.360126685409571,0.00426748964050427,-0.0145116084160464
33.5,0.00407345631966832,-0.0147070684213038,0.90713683707918,-0.365123856443475,0.907136837053389,-0.365123856452013,0.0042051606782873,-0.0147891878587008
34,0.00400420456220524,-0.014982568597427,0.9049810412988,-0.370108992800567,0.90498104127322,-0.370108992808472,0.0041393137575696,-0.0150685907804267
34.5,0.00393138646694102,-0.0152597052959533,0.902799046083583,-0.375081932494741,0.90279904605825,-0.375081932502026,0.00406983648050457,-0.0153497449794167
35,0.00385489831623831,-0.0155384061050372,0.900590848264364,-0.380042512152247,0.900590848239314,-0.380042512158925,0.00399661900157022,-0.0156325718646624
35.5,0.00377463881113743,-0.0158185928732049,0.898356450468682,-0.384990567279355,0.898356450443948,-0.384990567285442,0.00391955448271258,-0.0159169865688147
36,0.00369050946462635,-0.0161001818043049,0.896095860870906,-0.389925932512565,0.896095860846521,-0.389925932518077,0.00383853954394903,-0.0162028981006115
36.5,0.00360241499236325,-0.0163830835852008,0.893809092952072,-0.394848441844643,0.893809092928067,-0.394848441849597,0.00375347470545301,-0.0164902095368755
37,0.00351026369772955,-0.0166672035464104,0.891496165269391,-0.399757928828795,0.891496165245796,-0.399757928833209,0.0036642648170877,-0.0167788182536306
37.5,0.00341396784799469,-0.0169524418556022,0.889157101235328,-0.404654226763007,0.889157101212169,-0.404654226766899,0.00357081947136623,-0.017068616195431
38,0.00331344403834583,-0.017238693743471,0.886791928906068,-0.409537168856437,0.886791928883373,-0.409537168859827,0.00347305339588738,-0.0173594901815346
38.5,0.00320861354058111,-0.0175258497611583,0.884400680779188,-0.41440658837953,0.884400680756982,-0.414406588382438,0.00337088682143338,-0.0176513222470585
39,0.00309940263325942,-0.0178137960680513,0.881983393600231,-0.419262318799406,0.881983393578539,-0.419262318801853,0.00326424582209001,-0.0179439900168501
39.5,0.00298574291027343,-0.0181024147483928,0.879540108177947,-0.424104193901887,0.87954010815679,-0.424104193903894,0.00315306262401743,-0.0182373671093494
40,0.0028675715648932,-0.0183915841548155,0.877070869207874,-0.428932047901431,0.877070869187274,-0.428932047903018,0.00303727587979574,-0.0185313235673366
40.5,0.00274483164657796,-0.0186811792765771,0.87457572510396,-0.433745715540096,0.874575725083938,-0.433745715541284,0.00291683090562267,-0.0188257263121043
41,0.00261747228803499,-0.0189710721299334,0.872054727837896,-0.438545032176577,0.87205472781847,-0.43854503217739,0.00279167987904855,-0.0191204396172922
41.5,0.00248544890032654,-0.0192611321678511,0.869507932785847,-0.443329833866221,0.869507932767034,-0.443329833866682,0.00266178199537875,-0.0194153255983327
42,0.0023487233340877,-0.0195512267059592,0.866935398582256,-0.448099957432882,0.866935398564072,-0.448099957433012,0.0025271035813183,-0.0197102447133248
42.5,0.00220726400530413,-0.0198412213614714,0.864337186980396,-0.452855240533361,0.864337186962858,-0.452855240533184,0.00238761816496902,-0.0200050562709382
43,0.0020610459844283,-0.0201309805016124,0.861713362719373,-0.45759552171513,0.861713362702492,-0.457595521714668,0.00224330650174637,-0.0202996189409461
43.5,0.00191005104801439,-0.0204203676979706,0.859063993397249,-0.462320640467949,0.859063993381039,-0.462320640467226,0.00209415655634121,-0.0205937912629361
44,0.00175426769245712,-0.0207092461831273,0.856389149350019,-0.467030437269956,0.856389149334492,-0.467030437268993,0.00194016344131132,-0.020887432148836
44.5,0.00159369110980845,-0.0209974793058753,0.85368890353613,-0.471724753628715,0.853688903521297,-0.471724753627536,0.00178132931341596,-0.0211804013749959
45,0.00142832312606467,-0.0212849309813875,0.850963331426277,-0.476403432117708,0.850963331412147,-0.476403432116336,0.0016176632292359,-0.0214725600597646
45.5,0.00125817210271012,-0.0215714661327419,0.848212510898204,-0.481066316408673,0.848212510884785,-0.481066316407131,0.00144918096209096,-0.0217637711227269
46,0.00108325280268401,-0.0218569511203655,0.845436522136264,-0.485713251300169,0.845436522123562,-0.48571325129848,0.00127590478263079,-0.0220538997220807
46.5,0.000903586222308128,-0.0221412541560986,0.842635447535477,-0.490344082742704,0.842635447523501,-0.49034408274089,0.00109786320585092,-0.0223428136669239
47,0.000719199391042147,-0.0224242456988135,0.839809371609883,-0.494958657860748,0.839809371598635,-0.494958657858831,0.000915090707566069,-0.0226303838016395
47.5,0.000530125141242177,-0.0227057988287633,0.836958380904927,-0.4995568249719,0.836958380894413,-0.499556824969904,0.000727627413639798,-0.0229164843599328
48,0.000336401850371426,-0.0229857895981068,0.834082563913706,-0.504138433603463,0.834082563903929,-0.504138433601409,0.000535518765445275,-0.0232009932864972
48.5,0.000138073158338803,-0.0232640973553899,0.831182010996851,-0.508703334506664,0.831182010987813,-0.508703334504574,0.0003388151651742,-0.0234837925247373
49,-6.48123371719267E-005,-0.023540605042056,0.828256814305862,-0.513251379668721,0.828256814297564,-0.513251379666616,0.000137571604698961,-0.0237647682693712
49.5,-0.000272201404365069,-0.0238151994594423,0.82530706770972,-0.517782422322943,0.825307067702163,-0.517782422320845,-6.81527183079012E-005,-0.024043811183207
50,-0.000484036516889719,-0.0240877715050387,0.822332866724602,-0.522296316957045,0.822332866717786,-0.522296316954975,-0.000278294793290224,-0.0243208165777832
50.5,-0.00070025620610864,-0.0243582163771564,0.819334308446538,-0.526792919319817,0.819334308440461,-0.526792919317796,-0.000492788195159077,-0.0245956845579656
51,-0.000920795422916065,-0.0246264337475173,0.816311491486852,-0.531272086426305,0.816311491481512,-0.531272086424353,-0.000711563484583122,-0.0248683201309804
51.5,-0.0011455859059416,-0.0248923279015872,0.813264515910259,-0.535733676561614,0.813264515905652,-0.535733676559751,-0.000934548606889907,-0.0251386332807061
52,-0.00137455655306939,-0.025155807846833,0.810193483175462,-0.54017754928346,0.810193483171586,-0.540177549281705,-0.00116166928645506,-0.0254065390083678
52.5,-0.00160763379328677,-0.0254167873893957,0.807098496078143,-0.544603565423575,0.807098496074992,-0.544603565421948,-0.00139284941366474,-0.025671957341057
53,-0.00184474195602857,-0.0256751851799309,0.803979658696202,-0.549011587088055,0.803979658693771,-0.549011587086574,-0.00162801142181196,-0.0259348133097468
53.5,-0.00208580363533706,-0.0259309247296756,0.800837076337152,-0.553401477656738,0.800837076335435,-0.553401477655422,-0.00186707665152652,-0.0261950368986806
54,-0.00233074004634504,-0.0261839343979889,0.797670855487553,-0.557773101781696,0.797670855486543,-0.557773101780562,-0.00210996570063665,-0.0264525629681663
54.5,-0.00257947137181275,-0.0264341473528671,0.794481103764382,-0.562126325384907,0.794481103764071,-0.562126325383972,-0.00235659875764221,-0.0267073311529654
55,-0.00283191709664687,-0.0266815015060657,0.791267929868252,-0.566461015655172,0.791267929868633,-0.566461015654453,-0.00260689591724989,-0.0269592857385189
55.5,-0.00308799632858997,-0.0269259394246401,0.788031443538381,-0.570777041044339,0.788031443539444,-0.570777041043853,-0.0028607774767333,-0.02720837551735
56,-0.00334762810348171,-0.0271674082208003,0.784771755509232,-0.575074271262887,0.784771755510968,-0.575074271262648,-0.00311816421211997,-0.0274545536279629
56.5,-0.00361073167375625,-0.0274058594220774,0.781488977468743,-0.57935257727491,0.781488977471142,-0.579352577274934,-0.00337897763350242,-0.0276977773785907
57,-0.0038772267790711,-0.0276412488238417,0.778183222018081,-0.583611831292561,0.778183222021132,-0.583611831292862,-0.00364314021900403,-0.0279380080580794
57.5,-0.00414703389818827,-0.0278735363262435,0.774854602632827,-0.587851906769985,0.774854602636518,-0.587851906770579,-0.00391057562717073,-0.0281752107361531
58,-0.00442007448147413,-0.0281026857576367,0.771503233625554,-0.59207267839678,0.771503233629873,-0.592072678397678,-0.00418120888776707,-0.0284093540552092
58.5,-0.00469627116358956,-0.0283286646865309,0.768129230109714,-0.596274022091017,0.768129230114649,-0.596274022092232,-0.00445496657116884,-0.0286404100157195
59,-0.00497554795614003,-0.0285514442240735,0.764732707964792,-0.60045581499186,0.764732707970329,-0.600455814993405,-0.00473177693669519,-0.0288683537571639
59.5,-0.00525783042026179,-0.0287709988189854,0.761313783802658,-0.604617935451802,0.761313783808784,-0.604617935453689,-0.00501157006040232,-0.0290931633363343
60,-0.00554304581927234,-0.02898730604681,0.75787257493507,-0.608760263028549,0.757872574941771,-0.608760263030788,-0.00529427794298171,-0.0293148195046916
60.5,-0.00583112325169644,-0.0292003463952365,0.754409199342288,-0.612882678476571,0.75440919934955,-0.612882678479173,-0.00557983459851857,-0.0295333054863247
61,-0.00612199376508593,-0.0294101030471416,0.750923775642744,-0.616985063738348,0.750923775650551,-0.616985063741321,-0.00586817612496821,-0.0297486067579233
61.5,-0.00641559045121332,-0.0296165616629163,0.74741642306372,-0.621067301935323,0.747416423072056,-0.621067301938678,-0.00615924075727747,-0.0299607108320331
62,-0.0067118485232836,-0.029819710163474,0.743887261413007,-0.625129277358589,0.743887261421857,-0.625129277362332,-0.00645296890413738,-0.0301696070447116
