"Freq [GHz]","re(St(P1,P1)) []","im(St(P1,P1)) []","re(St(P1,P2)) []","im(St(P1,P2)) []","re(St(P2,P1)) []","im(St(P2,P1)) []","re(St(P2,P2)) []","im(St(P2,P2)) []"
0,0.00583265572191749,0,0.994180547815631,0,0.994180548805161,0,0.00583265033088765,0
0.5,0.00632248615287878,0.0011647923596847,0.993560398950333,-0.00952789080953309,0.993560399593395,-0.00952789137018684,0.00632268121145074,0.00116373708170059
1,0.00670565895695319,0.00175602961928334,0.992826799127403,-0.0184427769589028,0.992826799308,-0.0184427770348137,0.00670611508197005,0.00175357937218124
1.5,0.00691017477059486,0.00223563046542807,0.992058427687377,-0.0271743331002146,0.992058427743056,-0.0271743332711019,0.00691068294848751,0.00223157584467515
2,0.00697929631310013,0.00271147050641574,0.991243659141804,-0.0358024212458616,0.991243659102128,-0.035802421389322,0.0069796380713667,0.00270577604033839
2.5,0.0069754197952796,0.00322208835964233,0.990342235292691,-0.0443566537420939,0.990342235221054,-0.0443566538257727,0.00697543163036718,0.00321478136384279
3,0.00693256539224563,0.00377331017024574,0.98934105248477,-0.0528337531590779,0.989341052425147,-0.0528337531907823,0.00693212259462772,0.00376443337222376
3.5,0.00686993280007364,0.00436452112958108,0.988242808803533,-0.0612272965683838,0.988242808778975,-0.0612272965678375,0.00686893413052903,0.00435411912786421
4,0.0068000138637857,0.0049939423709997,0.987056554500841,-0.069534092653158,0.987056554519548,-0.0695340926405903,0.00679837284689699,0.00498205776058303
4.5,0.00673207755757732,0.00565945191802086,0.985792875836972,-0.0777546371039675,0.985792875897719,-0.0777546370958042,0.00672971744747652,0.00564612403160503
5,0.00667360574223463,0.00635858059724903,0.984461643372557,-0.0858922316523287,0.984461643468665,-0.0858922316598996,0.00667045623435036,0.0063438450854223
5.5,0.00663087739474166,0.00708843222621613,0.983071070789845,-0.0939519426747335,0.983071070911943,-0.0939519427042583,0.00662687220987607,0.00707232105709465
6,0.00660919923908004,0.00784566188636315,0.981627453674328,-0.101939712467142,0.981627453812191,-0.101939712520306,0.006604274229978,0.00782820366332526
6.5,0.00661299350134226,0.00862651594293418,0.980135255930873,-0.10986169243337,0.980135256074601,-0.109861692508111,0.00660708515884684,0.00860773649144075
7,0.0066458349346489,0.00942691416454311,0.978597357751085,-0.117723788056021,0.978597357891788,-0.117723788147324,0.00663887925755671,0.0094068373303422
7.5,0.00671047773281799,0.0102425543572764,0.977015358991992,-0.125531378927406,0.97701535912214,-0.12553137902804,0.00670240944923249,0.0102212029441744
8,0.00680888925502866,0.0110690243384166,0.975389879473623,-0.133289171419975,0.975389879587164,-0.133289171521099,0.00679964137983582,0.0110464211078307
8.5,0.00694229611545773,0.0119019105588847,0.97372082699516,-0.141001145001045,0.973720827087504,-0.141001145092706,0.00693179981629131,0.011878079216828
9,0.00711124268910962,0.0127368964086805,0.972007621563562,-0.14867056018738,0.972007621631478,-0.148670560258882,0.0070994274204986,0.0127118625165403
9.5,0.00731565956183014,0.0135698461497529,0.970249374440152,-0.156300003800474,0.970249374481633,-0.15630000384066,0.00730245341794025,0.0135436379101241
10,0.00755493851438621,0.0143968726124686,0.968445025841772,-0.163891454106367,0.96844502585588,-0.16389145410381,0.00754026874625596,0.0143695214976654
10.5,0.00789160871281913,0.0151968940221274,0.966603360837985,-0.171436358480868,0.966603360851566,-0.171436358478754,0.00787475916041769,0.0151689710453775
11,0.00824090046867892,0.0159830067700995,0.964724669159586,-0.178945972035851,0.964724669172672,-0.178945972034032,0.00822193781909997,0.015954467024677
11.5,0.0086028177827745,0.0167556590538922,0.962808426153899,-0.186422768348692,0.962808426166542,-0.186422768347048,0.00858178674114971,0.0167264696160605
12,0.00897730769563299,0.0175151861200953,0.960853972566514,-0.193868840664203,0.96085397257878,-0.19386884066264,0.00895423524133124,0.0174853237058006
12.5,0.00936427221827343,0.0182618341415033,0.958860569356932,-0.201285941225011,0.958860569368897,-0.201285941223459,0.0093391709027624,0.0182312833752576
13,0.00976357727340232,0.0189957788019113,0.956827439542539,-0.208675520404105,0.956827439554279,-0.208675520402519,0.00973644780411773,0.0189645309232973
13.5,0.0101750595040351,0.0197171399008633,0.954753799420537,-0.216038764097775,0.95475379943213,-0.216038764096127,0.0101458927904838,0.0196851917882634
14,0.0105985315396895,0.0204259929318911,0.952638881248344,-0.223376628455933,0.952638881259863,-0.22337662845422,0.0105673103303967,0.0203933463590296
14.5,0.0110337861324038,0.0211223783351993,0.950481949166796,-0.230689871470304,0.950481949178305,-0.230689871468534,0.0110004863376446,0.0210890394005268
15,0.0114805994544723,0.0218063089457969,0.948282309859966,-0.237979081247704,0.948282309871523,-0.2379790812459,0.011445191225576,0.0217722876314272
15.5,0.011938733767039,0.0224777760282089,0.946039319178356,-0.245244700999361,0.946039319190008,-0.245244700997555,0.0119011823855876,0.0224430858568478
16,0.0124079396111764,0.023136754194371,0.943752385717038,-0.252487050905147,0.943752385728822,-0.252487050903379,0.012368206228591,0.0231014119609008
16.5,0.0128879576324692,0.0237832054316762,0.941420972139338,-0.259706347085551,0.941420972151281,-0.259706347083868,0.0128459998910241,0.0237472309919673
17,0.0133785201212052,0.0244170824163026,0.939044594868686,-0.266902717950713,0.939044594880804,-0.266902717949163,0.0133342926804234,0.0243804985200995
17.5,0.013879352329434,0.0250383312481863,0.936622822633285,-0.274076218206945,0.936622822645584,-0.274076218205578,0.0138328073164908,0.0250011634060439
18,0.0143901736109713,0.0256468937145879,0.934155274236573,-0.281226840796184,0.934155274249051,-0.281226840795051,0.0143412610096859,0.0256091700911465
18.5,0.0149106984192753,0.0262427091667645,0.931641615837003,-0.288354527028756,0.931641615849647,-0.288354527027907,0.0148593664091643,0.0262044604943921
19,0.0154406371898783,0.0268257160770957,0.929081557949821,-0.295459175149283,0.929081557962614,-0.295459175148763,0.0153868324443568,0.0267869755852279
19.5,0.0159796971278594,0.0273958533306014,0.926474852327899,-0.302540647552551,0.926474852340814,-0.302540647552403,0.0159233650788181,0.0273566566871095
20,0.016527582916237,0.0279530612944712,0.923821288835365,-0.309598776842482,0.923821288848369,-0.309598776842747,0.0164686679907673,0.0279134465561495
20.5,0.017083997357616,0.0284972827009815,0.921120692394353,-0.316633370904478,0.92112069240741,-0.316633370905189,0.017022443191514,0.0284572902708544
21,0.0176486419587685,0.0290284633728248,0.918372920059633,-0.323644217139802,0.9183729200727,-0.323644217140987,0.0175843915905466,0.0289881359624238
21.5,0.0182212174657609,0.0295465528146737,0.915577858256482,-0.330631085991029,0.915577858269516,-0.330631085992715,0.0181542135141806,0.0295059354098117
22,0.0188014243556825,0.0300515046907655,0.912735420202668,-0.33759373386978,0.912735420215621,-0.337593733871984,0.0187316091832345,0.030010644519632
22.5,0.0193889632897835,0.0305432772049927,0.909845543524655,-0.344531905582169,0.90984554353748,-0.344531905584905,0.0193162791541059,0.0305022237076131
23,0.0199835355319197,0.0310218333972956,0.906908188070338,-0.35144533633356,0.906908188082984,-0.351445336336837,0.0199079247267406,0.030980638195605
23.5,0.0205848433354238,0.0314871413680435,0.903923333915049,-0.358333753382017,0.903923333927465,-0.358333753385835,0.0205062483223581,0.0314458582359722
24,0.0211925903010033,0.0319391744402926,0.900890979553754,-0.365196877399384,0.900890979565891,-0.365196877403742,0.0211109538332451,0.0318978592733745
24.5,0.0218064817077579,0.032377911268344,0.897811140269793,-0.372034423589818,0.897811140281601,-0.37203442359471,0.0217217469465549,0.0323366220524941
25,0.0224262248191163,0.0328033358998872,0.894683846668987,-0.378846102607798,0.894683846680419,-0.378846102613211,0.0223383354437219,0.0327621326790448
25.5,0.023051529165177,0.0332154377979439,0.891509143367088,-0.385631621310957,0.891509143378099,-0.385631621316875,0.0229604294768669,0.0331743826403748
26,0.0236821068027499,0.0336142118280642,0.888287087818258,-0.392390683377388,0.888287087828802,-0.392390683383791,0.023587741823371,0.0335733687911663
26.5,0.0243176725542188,0.0339996582154727,0.885017749272337,-0.399122989812226,0.885017749282373,-0.399122989819092,0.0242199881196604,0.0339590933089775
27,0.0249579442262163,0.0343717824763267,0.881701207849045,-0.40582823936418,0.881701207858534,-0.405828239371481,0.0248568870751203,0.0343315636238384
27.5,0.0256026428090051,0.0347305953267085,0.878337553717747,-0.412506128869202,0.878337553726652,-0.41250612887691,0.025498160666978,0.0346907923255499
28,0.026251492657386,0.0350761125725698,0.874926886372119,-0.419156353535559,0.874926886380407,-0.419156353543641,0.0261435343169238,0.0350367970519421
28.5,0.0269042216538739,0.0354083549834753,0.871469313989729,-0.42577860718205,0.87146931399737,-0.425778607190471,0.0267927370501878,0.0353696003609558
29,0.02756056135487,0.0357273481526728,0.867964952867323,-0.432372582439048,0.867964952874289,-0.432372582447774,0.0274455016377534,0.0356892295891056
29.5,0.0282202471204865,0.0360331223457522,0.864413926923336,-0.438937970920309,0.864413926929603,-0.438937970929302,0.0281015647223589,0.035995716698594
30,0.0288830182286823,0.0363257123399163,0.860816367259926,-0.445474463371956,0.860816367265474,-0.445474463381178,0.0287606669289188,0.0362890981151188
30.5,0.0295486179743364,0.0366051572556597,0.857172411777499,-0.451981749803909,0.857172411782312,-0.45198174981332,0.0294225529599719,0.0365694145581873
31,0.0302167937538588,0.0368715003824956,0.853482204835403,-0.458459519607938,0.853482204839464,-0.458459519617499,0.0300869716767643,0.0368367108655749
31.5,0.0308872971359531,0.0371247890001816,0.849745896953076,-0.46490746166571,0.849745896956376,-0.464907461675379,0.0307536761665535,0.0370910358133972
32,0.0315598839191079,0.0373650741967652,0.845963644546572,-0.471325264449474,0.845963644549102,-0.471325264459212,0.0314224237967192,0.0373324419331162
32.5,0.0322343141764029,0.0375924106846312,0.842135609695865,-0.477712616117478,0.84213560969762,-0.477712616127245,0.0320929762562585,0.0375609853266686
33,0.0329103522882054,0.0378068566156162,0.838261959938907,-0.484069204605702,0.838261959939885,-0.484069204615457,0.0327650995852386,0.037776725480788
33.5,0.0335877669633192,0.0380084733961555,0.834342868088818,-0.490394717717133,0.83434286808902,-0.490394717726839,0.0334385641927714,0.0379797250814764
34,0.034266331249155,0.038197325503322,0.830378512071035,-0.496688843209479,0.830378512070464,-0.496688843219097,0.0341131448640766,0.0381700498295029
34.5,0.0349458225314722,0.0383734803025358,0.826369074777602,-0.502951268881961,0.826369074776265,-0.502951268891453,0.0347886207571876,0.0383477682576886
35,0.0356260225242489,0.0385370078676441,0.822314743936151,-0.509181682661629,0.822314743934055,-0.509181682670959,0.0354647753898522,0.0385129515506918
35.5,0.0363067172502138,0.0386879808039916,0.818215711991383,-0.51537977268948,0.818215711988539,-0.515379772698612,0.0361413966171748,0.0386656733679017
36,0.0369876970125873,0.03882647407504,0.814072175997189,-0.521545227406522,0.814072175993608,-0.521545227415423,0.0368182766005354,0.0388060096699995
36.5,0.0376687563585531,0.0389525648330314,0.809884337517735,-0.527677735639854,0.809884337513434,-0.527677735648492,0.0374952117683203,0.038934038549682
37,0.0383496940349827,0.0390663322541372,0.80565240253611,-0.533776986688719,0.805652402531105,-0.533776986697064,0.0381720027689885,0.0390498400669792
37.5,0.0390303129369268,0.0391678573784752,0.801376581369275,-0.539842670410468,0.801376581363583,-0.539842670418489,0.0388484544169809,0.0391534960895489
38,0.0397104200493742,0.0392572229553361,0.797057088588256,-0.545874477306312,0.797057088581898,-0.545874477313982,0.039524375631986,0.0392450901382816
38.5,0.0403898263827727,0.0393345132939102,0.792694142942677,-0.551872098606721,0.792694142935672,-0.551872098614015,0.0401995793720527,0.0393247072385087
39,0.0410683469027922,0.0393998141197742,0.788287967288822,-0.557835226356308,0.788287967281195,-0.557835226363201,0.040873882561037,0.0393924337770576
39.5,0.0417458004548048,0.0394532124373417,0.783838788520598,-0.563763553498022,0.78383878851237,-0.563763553504491,0.0415471060108509,0.039448357365364
40,0.0424220096835392,0.0394947963984682,0.779346837502791,-0.569656773956488,0.779346837493987,-0.569656773962514,0.0422190743389843,0.0394925667088175
40.5,0.0430968009483604,0.039524655177355,0.774812349006181,-0.575514582720319,0.774812348996827,-0.575514582725883,0.0428896158817419,0.0395251514824831
41,0.0437700042346107,0.0395428788518623,0.770235561644094,-0.581336675923225,0.770235561634214,-0.58133667592831,0.0435585626036384,0.0395462022133084
41.5,0.0444414530614348,0.0395495582913356,0.765616717810068,-0.587122750923784,0.76561671779969,-0.587122750928375,0.0442257500033746,0.0395558101689004
42,0.0451109843865067,0.0395447850509935,0.760956063616376,-0.59287250638371,0.760956063605527,-0.592872506387793,0.0448910170168084,0.0395540672529375
42.5,0.0457784385080497,0.0395286512729358,0.756253848833167,-0.598585642344495,0.756253848821875,-0.59858564234806,0.0455542059173226,0.0395410659072412
43,0.0464436589645448,0.0395012495937751,0.751510326828066,-0.6042618603023,0.751510326816357,-0.604261860305337,0.0462151622139706,0.039516899020533
43.5,0.0471064924324929,0.0394626730589011,0.746725754506084,-0.609900863280991,0.746725754493987,-0.60990086328349,0.0468737345477845,0.0394816598438628
44,0.0477667886226044,0.039413015043363,0.74190039224975,-0.615502355903212,0.741900392237292,-0.615502355905169,0.0475297745865964,0.0394354419126902
44.5,0.0484244001747514,0.0393523691793183,0.73703450385936,-0.621066044459444,0.73703450384657,-0.621066044460852,0.0481831369187262,0.0393783389755741
45,0.049079182552028,0.0392808292900203,0.732128356493321,-0.62659163697493,0.732128356480226,-0.626591636975788,0.0488336789458757,0.0393104449294196
45.5,0.0497309939342423,0.0391984893302605,0.727182220608524,-0.63207884327447,0.727182220595151,-0.632078843274776,0.0494812607755424,0.039231853761209
46,0.0503796951111449,0.0391054433332001,0.722196369900749,-0.63752737504498,0.722196369887125,-0.637527375044734,0.0501257451132733,0.0391426594961363
46.5,0.0510251493757015,0.0390017853634994,0.717171081245088,-0.642936945895831,0.717171081231242,-0.642936945895034,0.0507669971550518,0.0390429561520533
47,0.0516672224176949,0.0388876094766416,0.712106634636391,-0.648307271416899,0.712106634622347,-0.648307271415555,0.0514048844801053,0.038932837700122
47.5,0.0523057822179318,0.0387630096843532,0.70700331312975,-0.653638069234349,0.707003313115535,-0.653638069232462,0.0520392769444114,0.0388123980315598
48,0.0529406989433146,0.0386280799259857,0.701861402781048,-0.658929059064114,0.701861402766688,-0.658929059061689,0.0526700465751575,0.0386817309303527
48.5,0.0535718448430459,0.0384829140457523,0.696681192587597,-0.66417996276309,0.696681192573117,-0.664179962760134,0.0532970674664205,0.0385409300518134
49,0.0541990941461951,0.0383276057756718,0.691462974428893,-0.669390504378044,0.691462974414316,-0.669390504374565,0.0539202156762916,0.038390088906843
49.5,0.0548223229608638,0.0381622487240896,0.686207043007529,-0.674560410192254,0.68620704299288,-0.674560410188262,0.0545393691256901,0.0382293008517514
50,0.0554414091751788,0.0379869363696249,0.68091369579031,-0.679689408769897,0.680913695775611,-0.679689408765401,0.0551544074990794,0.0380586590834883
50.5,0.0560562323603181,0.0378017620603947,0.675583232949587,-0.684777230998215,0.675583232934862,-0.684777230993227,0.0557652121472997,0.0378782566401362
51,0.0566666736757738,0.0376068190183618,0.670215957304882,-0.689823610127481,0.67021595729015,-0.689823610122013,0.0563716659927146,0.037688186406494
51.5,0.057272615777056,0.0374022003486451,0.664812174264809,-0.694828281808808,0.664812174250092,-0.694828281802873,0.0569736534368694,0.0374885411246013
52,0.0578739427260048,0.0371879990536197,0.659372191769365,-0.699790984129828,0.659372191754682,-0.69979098412344,0.0575710602708369,0.0372794134090231
52.5,0.0584705399039049,0.0369643080516565,0.653896320232598,-0.70471145764829,0.653896320217969,-0.704711457641464,0.0581637735884323,0.0370608957667348
53,0.0590622939275631,0.0367312202003105,0.648384872485729,-0.709589445423611,0.648384872471171,-0.709589445416364,0.0587516817024538,0.0368330806214236
53.5,0.0596490925685054,0.0364888283237979,0.642838163720719,-0.714424693046435,0.64283816370625,-0.71442469303878,0.0593346740641173,0.0365960603420358
54,0.0602308246754528,0.0362372252445731,0.637256511434359,-0.719216948666231,0.637256511419994,-0.719216948658187,0.0599126411858248,0.0363499272753837
54.5,0.0608073801002191,0.0359765038188358,0.631640235372892,-0.723965963017001,0.631640235358648,-0.723965963008585,0.0604854745674149,0.0360947737826342
55,0.061378649627162,0.0357067569757719,0.625989657477216,-0.728671489441123,0.625989657463107,-0.728671489432352,0.0610530666260274,0.035830692279488
55.5,0.0619445249063269,0.035428077760356,0.62030510182868,-0.733333283911395,0.62030510181472,-0.733333283902288,0.0616153106297092,0.0355577752798665
56,0.062504898390399,0.0351405593795207,0.614586894595526,-0.737951105051328,0.614586894581728,-0.737951105041903,0.062172100634882,0.035276115442911
56.5,0.0630596632755823,0.0348442952514989,0.608835363979989,-0.74252471415373,0.608835363966363,-0.742524714144007,0.0627233314277857,0.0349858056231051
57,0.0636087134465151,0.0345393790581539,0.603050840166082,-0.747053875197652,0.60305084015264,-0.747053875187649,0.0632688984700008,0.0346869389233241
57.5,0.0641519434253264,0.0342259048000957,0.597233655268101,-0.751538354863724,0.597233655254854,-0.751538354853461,0.0638086978481527,0.0343796087506129
58,0.0646892483249221,0.0339039668543941,0.591384143279864,-0.755977922547951,0.59138414326682,-0.755977922537449,0.06434262622789,0.0340639088744972
58.5,0.0652205238066005,0.0335736600346791,0.585502640024702,-0.760372350374015,0.585502640011868,-0.760372350363292,0.0648705808122192,0.0337399334876223
59,0.065745666042072,0.0332350796534369,0.579589483106233,-0.764721413204125,0.579589483093618,-0.764721413193203,0.0653924593042836,0.0334077772685195
59.5,0.0662645716799632,0.0328883215862913,0.573645011859928,-0.769024888648486,0.573645011847539,-0.769024888637384,0.065908159874647,0.0330675354462945
60,0.0667771378168722,0.0325334823380694,0.56766956730549,-0.773282557073412,0.567669567293333,-0.773282557062151,0.0664175811331629,0.0327193038670291
60.5,0.067283261973044,0.0321706591104408,0.561663492100052,-0.777494201608154,0.561663492088131,-0.777494201596753,0.0669206221054758,0.0323631790616876
61,0.0677828420727133,0.0317999498709213,0.555627130492223,-0.78165960815048,0.555627130480543,-0.781659608138959,0.0674171822142171,0.0319992583153188
61.5,0.0682757764291755,0.0314214534230293,0.549560828276981,-0.785778565371059,0.549560828265544,-0.785778565359438,0.0679071612649377,0.0316276397373376
62,0.068761963734618,0.0310352694773844,0.543464932751425,-0.789850864716698,0.543464932740236,-0.789850864704998,0.068390459436813,0.0312484223326733
62.5,0.069241303054757,0.0306414987235246,0.537339792671408,-0.793876300412473,0.537339792660467,-0.793876300400713,0.0688669772781586,0.0308617060735654
63,0.069713693828301,0.030240242902232,0.531185758209038,-0.797854669462809,0.531185758198347,-0.797854669451008,0.0693366157067808,0.030467591971791
63.5,0.0701790358712678,0.0298316048781428,0.525003180911076,-0.80178577165154,0.525003180900635,-0.801785771639718,0.0697992760151711,0.0300661821511033
64,0.0706372293861632,0.0294156887124229,0.518792413658223,-0.805669409541015,0.518792413648033,-0.805669409529192,0.0702548598805687,0.0296575799196555
