"Freq [GHz]","re(St(P1,P1)) []","im(St(P1,P1)) []","re(St(P1,P2)) []","im(St(P1,P2)) []","re(St(P2,P1)) []","im(St(P2,P1)) []","re(St(P2,P2)) []","im(St(P2,P2)) []"
0,0.00653167303374858,0,0.993488892985624,0,0.99348889949033,0,0.00653167918744657,0
0.5,0.00737537837046531,-0.00386026708138232,0.992506337690859,-0.0113548997900512,0.992506337638094,-0.0113549006419262,0.00737575758076758,-0.00386055542673702
1,0.00798478390606405,-0.00875591382541252,0.991507441173383,-0.0216735135104535,0.991507441628688,-0.0216735130028169,0.00798571747170129,-0.00875697034377687
1.5,0.00825242662114967,-0.0138640254885001,0.990604830007724,-0.0317579728768465,0.990604830404861,-0.0317579728493929,0.00825387593171811,-0.0138660454201354
2,0.00822839446253276,-0.0190182149699005,0.989750642602816,-0.0417641968073905,0.989750642811853,-0.0417641969394396,0.00823032748954056,-0.0190213014910015
2.5,0.0080124086920037,-0.0241529837375261,0.988849292191722,-0.051756299849897,0.988849292266102,-0.0517562999970487,0.00801482012972432,-0.0241572094880063
3,0.00765518043284175,-0.0292612794540101,0.987852042343049,-0.0617371649795562,0.987852042344287,-0.0617371650950567,0.00765807091356585,-0.0292667128543105
3.5,0.00718039893757183,-0.0343464078757822,0.986737623744531,-0.0716983788224947,0.986737623715098,-0.0716983788988568,0.00718376420950495,-0.034353114446704
4,0.00659936762569213,-0.0394118492741242,0.985497685383035,-0.0816314413380344,0.985497685348224,-0.081631441381802,0.00660319606676607,-0.0394198886059662
4.5,0.0059177288424892,-0.0444596256888232,0.984129811465169,-0.0915297320791009,0.984129811438266,-0.091529732100545,0.00592200276395127,-0.0444690491341948
5,0.00513848505311465,-0.0494904205764506,0.982634277084458,-0.101388443376266,0.982634277070984,-0.101388443385183,0.00514318320922147,-0.0495012704528577
5.5,0.00426339670401976,-0.0545039588760519,0.981012501725878,-0.111204146152136,0.98101250172663,-0.111204146156288,0.00426849677097296,-0.0545162688856324
6,0.003293647695221,-0.0594993383883882,0.979266299016819,-0.120974367331484,0.979266299029946,-0.120974367336148,0.00329912822000056,-0.0595131347712821
6.5,0.00223016638980145,-0.0644752696583515,0.977397519469205,-0.130697253017504,0.977397519491616,-0.130697253025596,0.0022360080932331,-0.0644905726641705
7,0.00107377932852115,-0.0694302379353271,0.975407894975783,-0.140371318953449,0.975407895004071,-0.140371318965863,0.00107996582759418,-0.0694470633263435
7.5,-0.000174717565168292,-0.0743626082100537,0.973298988264935,-0.149995273968877,0.973298988295943,-0.149995273984894,-0.000168199484524179,-0.0743809686298667
8,-0.00151452829708632,-0.0792706910897802,0.971072195650308,-0.159567900463368,0.971072195681464,-0.15956790048107,-0.0015076887192057,-0.07929059722108
8.5,-0.00294484545539775,-0.0841527826378092,0.968728774635424,-0.169087977796385,0.9687287746649,-0.169087977813022,-0.00293769156887003,-0.0841742441308755
9,-0.0044648475227706,-0.0890071873604343,0.966269880657171,-0.178554236959374,0.966269880683936,-0.178554236971678,-0.00445738396025358,-0.0890302135467085
9.5,-0.00607369956287851,-0.0938322305683883,0.963696604520975,-0.187965337349089,0.963696604544773,-0.187965337353508,-0.00606592878476664,-0.093856830988722
10,-0.00777055478440192,-0.0986262642384128,0.961010006307647,-0.197319858613656,0.961010006328935,-0.197319858606556,-0.0077624774663696,-0.0986524490199905
10.5,-0.00960563049266699,-0.103298535134696,0.958191813160884,-0.206670056812793,0.958191813183104,-0.206670056807493,-0.00959731706255368,-0.103326152132153
11,-0.0115240641247432,-0.107933593232807,0.955260485646434,-0.215954914369386,0.955260485669376,-0.215954914365952,-0.0115155077793699,-0.107962659695655
11.5,-0.0135249966919991,-0.112529830150655,0.952218358766999,-0.225173076613464,0.952218358790456,-0.225173076611942,-0.0135161912731705,-0.112560363975207
12,-0.0156075340064649,-0.117085659689149,0.94906771727199,-0.234323286117592,0.949067717295757,-0.234323286118,-0.0155984740244587,-0.117117679395211
12.5,-0.0177707473084078,-0.121599518694069,0.945810794468119,-0.243404371876851,0.945810794491995,-0.243404371879185,-0.0177614279646082,-0.121633043400815
13,-0.0200136739172349,-0.126069867898972,0.942449772257748,-0.252415239328137,0.942449772281543,-0.252415239332374,-0.0200040911258851,-0.126104917300028
13.5,-0.022335317905149,-0.130495192748492,0.938986782189678,-0.261354861284375,0.938986782213209,-0.261354861290473,-0.0223254683141957,-0.130531787086256
14,-0.0247346507929329,-0.134874004201313,0.935423907318298,-0.270222269822077,0.935423907341396,-0.270222269829973,-0.0247245318039329,-0.134912164240542
14.5,-0.0272106122672533,-0.139204839512188,0.931763184682509,-0.279016549129495,0.931763184705015,-0.279016549139117,-0.027200222054319,-0.139244586512908
15,-0.029762110918822,-0.143486262992357,0.92800660823414,-0.287736829297097,0.928006608255911,-0.287736829308358,-0.0297514484465739,-0.143527618682098
15.5,-0.0323880250007444,-0.147716866747745,0.924156132065443,-0.296382281012217,0.924156132086347,-0.296382281025017,-0.0323770900412583,-0.147759853293156
16,-0.0350872032063641,-0.151895271394338,0.920213673805554,-0.304952111104853,0.920213673825476,-0.304952111119089,-0.0350759963550787,-0.151939911372224
16.5,-0.0378584654658883,-0.156020126750162,0.916181118075844,-0.313445558881166,0.916181118094682,-0.313445558896726,-0.037846988156458,-0.156066443117958
17,-0.0407006037610643,-0.160090112503323,0.912060319913094,-0.321861893174758,0.912060319930761,-0.321861893191523,-0.0406888582791358,-0.160138128569065
17.5,-0.0436123829571553,-0.164103938855543,0.907853108087157,-0.330200410042381,0.907853108103579,-0.330200410060231,-0.0436003724530519,-0.164153678247365
18,-0.0465925416514516,-0.168060347140732,0.903561288255787,-0.338460431030135,0.903561288270903,-0.338460431048949,-0.0465802701517436,-0.168111833775927
18.5,-0.0496397930375165,-0.17195811041806,0.899186645913582,-0.346641301937464,0.899186645927344,-0.346641301957119,-0.0496272654554618,-0.172011368471745
19,-0.0527528257843793,-0.175796034039106,0.894730949104432,-0.354742392009205,0.894730949116805,-0.354742392029579,-0.0527400479292292,-0.175851087912545
19.5,-0.0559303049298531,-0.179572956188641,0.890195950877502,-0.362763093489948,0.890195950888461,-0.362763093510922,-0.0559172835149966,-0.179629830477244
20,-0.0591708727871303,-0.183287748398626,0.885583391475759,-0.370702821479697,0.885583391485291,-0.370702821501154,-0.0591576154370791,-0.183346467859691
20.5,-0.0624731498638319,-0.186939316035073,0.880895000253419,-0.378561014035082,0.880895000261519,-0.378561014056908,-0.0624596651200217,-0.18699990555529
21,-0.0658357357926166,-0.19052659875738,0.876132497324685,-0.386337132465698,0.876132497331359,-0.386337132487782,-0.065822033118032,-0.190589083320154
21.5,-0.0692572102725088,-0.19404857094985,0.87129759495084,-0.394030661780644,0.871297594956101,-0.394030661802882,-0.0692433000551168,-0.194112975602486
22,-0.0727361340200358,-0.197504242125078,0.866391998676387,-0.401641111245559,0.866391998680257,-0.401641111267849,-0.0727220275750214,-0.197570591945861
22.5,-0.0762710497292883,-0.200892657298958,0.861417408227591,-0.40916801501551,0.861417408230095,-0.409168015037759,-0.0762567593000937,-0.200960977364184
23,-0.0798604830399975,-0.204212897337052,0.85637551818864,-0.416610932813855,0.856375518189813,-0.416610932835973,-0.0798460217981595,-0.204283212688039
23.5,-0.0835029435127125,-0.207464079272147,0.851268018471871,-0.423969450631521,0.851268018471752,-0.423969450653424,-0.083488325556502,-0.207536414882283
24,-0.0871969256101641,-0.210645356592798,0.846096594599116,-0.431243181425207,0.846096594597747,-0.431243181446817,-0.0871821659620253,-0.210719737334659
24.5,-0.0909409096838728,-0.213755919502725,0.840862927811507,-0.43843176579661,0.840862927808934,-0.438431765817855,-0.0909260242866647,-0.213832370115316
25,-0.0947333629650915,-0.216794995150974,0.83556869502486,-0.44553487263801,0.835568695021135,-0.445534872658825,-0.0947183686771437,-0.216873540207124
25.5,-0.0985727405591228,-0.219761847832718,0.830215568647465,-0.452552199732435,0.830215568642639,-0.452552199752758,-0.0985576551481009,-0.219842511706685
26,-0.102457486442091,-0.222655779160703,0.824805216276376,-0.459483474299154,0.824805216270505,-0.459483474318931,-0.102442328577689,-0.222738585996019
26.5,-0.106386034459219,-0.225476128207283,0.819339300287669,-0.466328453477458,0.819339300280809,-0.466328453496637,-0.106370823704687,-0.22556110188489
27,-0.110356809323678,-0.22822227161709,0.813819477335179,-0.473086924743576,0.813819477327388,-0.473086924762116,-0.110341566126187,-0.228309435723806
27.5,-0.114368227615064,-0.230893623690377,0.80824739777138,-0.479758706257267,0.808247397762717,-0.479758706275127,-0.114352973294934,-0.23098300148773
28,-0.118418698776566,-0.233489636437116,0.80262470500309,-0.486343647135934,0.802624704993613,-0.486343647153082,-0.118403455515366,-0.233581250830592
28.5,-0.122506626109906,-0.23600979960198,0.796953034793708,-0.492841627655415,0.796953034783478,-0.492841627671821,-0.122491416937435,-0.236103673110721
29,-0.126630407767103,-0.238453640660343,0.791234014522797,-0.499252559377465,0.791234014511872,-0.499252559393105,-0.126615256547284,-0.238549795387335
29.5,-0.130788437738156,-0.24082072478549,0.785469262412813,-0.505576385204858,0.785469262401251,-0.505576385219711,-0.130773369153849,-0.240919182388275
30,-0.134979106833736,-0.243110654787237,0.779660386731964,-0.51181307936565,0.779660386719822,-0.5118130793797,-0.134964146370493,-0.243211436449202
30.5,-0.139200803661957,-0.24532307102222,0.773808984981271,-0.517962647328725,0.773808984968607,-0.517962647341962,-0.139185977590747,-0.245426197424479
31,-0.143451915598369,-0.247457651276121,0.76791664307312,-0.524025125653145,0.767916643059991,-0.524025125665559,-0.14343725095729,-0.247563142570035
31.5,-0.147730829748261,-0.249514110618144,0.761984934507822,-0.530000581774169,0.76198493449428,-0.530000581785756,-0.147716354323263,-0.249621986398518
32,-0.152035933900422,-0.251492201228062,0.756015419553966,-0.535889113729065,0.756015419540065,-0.535889113739823,-0.152021676205069,-0.251602480507043
32.5,-0.156365617471489,-0.253391712196224,0.750009644437742,-0.541690849826002,0.750009644423533,-0.541690849835932,-0.156351606725791,-0.253504413377943
33,-0.160718272440062,-0.255212469296911,0.743969140545708,-0.547405948259442,0.743969140531241,-0.547405948268549,-0.160704538548389,-0.255327610152888
33.5,-0.165092294269735,-0.25695433473546,0.737895423644993,-0.55303459667552,0.737895423630314,-0.553034596683811,-0.165078867797868,-0.257071932380804
34,-0.169486082820272,-0.258617206869614,0.731789993124334,-0.558577011690918,0.731789993109491,-0.558577011698401,-0.169472994971593,-0.25873727774006
34.5,-0.173898043246103,-0.260201019905581,0.725654331258927,-0.564033438368749,0.725654331243963,-0.564033438375437,-0.173885325836976,-0.260323579735374
35,-0.178326586881398,-0.261705743569313,0.719489902501582,-0.569404149654926,0.719489902486541,-0.569404149660832,-0.178314272315759,-0.26183080736997
35.5,-0.182770132110959,-0.263131382753525,0.713298152802303,-0.574689445778417,0.713298152787224,-0.574689445783556,-0.182758253354164,-0.263258964793501
36,-0.187227105226218,-0.264477977141021,0.707080508958043,-0.579889653618734,0.707080508942964,-0.579889653623124,-0.187215695778161,-0.264608090926299
36.5,-0.19169594126562,-0.26574560080491,0.700838377994047,-0.585005126043907,0.700838377979005,-0.585005126047565,-0.191685035133175,-0.265878259060539
37,-0.196175084838733,-0.266934361786301,0.694573146577922,-0.590036241222057,0.69457314656295,-0.590036241225003,-0.196164716507541,-0.267069576438898
37.5,-0.200662990933413,-0.268044401650126,0.688286180467252,-0.594983401909633,0.688286180452384,-0.594983401911889,-0.200653195339063,-0.268182183811361
38,-0.205158125705416,-0.269075895019714,0.681978823991416,-0.599847034719195,0.681978823976681,-0.599847034720782,-0.205148938204036,-0.269216254970787
38.5,-0.209658967249832,-0.270029049090779,0.675652399567947,-0.604627589369527,0.675652399553374,-0.604627589370469,-0.209650423588153,-0.270171996267924
39,-0.214164006353792,-0.270904103125539,0.669308207253675,-0.609325537920769,0.669308207239291,-0.60932553792109,-0.214156142638696,-0.271049646106535
39.5,-0.218671747229879,-0.271701327927609,0.662947524330651,-0.613941373997049,0.66294752431648,-0.613941373996772,-0.218664599897485,-0.271849474419341
40,-0.223180708229742,-0.272421025298436,0.656571604926725,-0.618475611999061,0.65657160491279,-0.618475611998212,-0.223174314014056,-0.272571782125495
40.5,-0.22768942253741,-0.273063527475966,0.650181679670508,-0.622928786308838,0.650181679656829,-0.622928786307441,-0.22768381843859,-0.273216900570297
41,-0.232196438841856,-0.273629196556304,0.643778955380331,-0.627301450488867,0.643778955366928,-0.627301450486948,-0.232191662094113,-0.273785190947917
41.5,-0.236700321988386,-0.274118423899112,0.637364614786696,-0.631594176477574,0.637364614773587,-0.63159417647516,-0.236696410027568,-0.27427704370785
42,-0.241199653608426,-0.274531629517504,0.630939816287623,-0.635807553783083,0.630939816274823,-0.635807553780199,-0.241196644039322,-0.274692877945872
42.5,-0.245693032727379,-0.274869261453215,0.624505693736233,-0.639942188677003,0.624505693723757,-0.639942188673675,-0.245690963290775,-0.275033140780276
43,-0.250179076350181,-0.275131795137821,0.618063356259804,-0.643998703389945,0.618063356247663,-0.6439987033862,-0.250177984889711,-0.275298306714143
43.5,-0.25465642002426,-0.275319732740776,0.611613888109509,-0.647977735310285,0.611613888097716,-0.647977735306149,-0.254656344453079,-0.275488876984445
44,-0.259123718379633,-0.275433602505086,0.605158348539971,-0.651879936187637,0.605158348528535,-0.651879936183135,-0.259124696646958,-0.275605378898757
44.5,-0.263579645645873,-0.275473958071367,0.598697771717741,-0.655705971342355,0.598697771706669,-0.655705971337512,-0.263581715703417,-0.27564836516037
45,-0.268022896145753,-0.275441377791117,0.59223316665776,-0.659456518882321,0.59223316664706,-0.659456518877164,-0.268026095914101,-0.275618413182587
45.5,-0.27245218476538,-0.275336464029962,0.585765517186849,-0.663132268928133,0.585765517176526,-0.663132268922687,-0.272456552100316,-0.275516124392996
46,-0.276866247400655,-0.275159842461682,0.579295781933231,-0.666733922847756,0.57929578192329,-0.666733922842045,-0.276871820059508,-0.275342123528502
46.5,-0.281263841379958,-0.274912161353793,0.572824894341099,-0.670262192501571,0.572824894331543,-0.67026219249562,-0.281270656987964,-0.275097057921903
47,-0.285643745862954,-0.274594090845461,0.566353762709201,-0.673717799498717,0.566353762700032,-0.673717799492548,-0.285651841879688,-0.274781596780783
47.5,-0.29000476221546,-0.274206322218534,0.559883270252437,-0.67710147446548,0.559883270243656,-0.677101474459118,-0.290014175901367,-0.274396430459503
48,-0.294345714360355,-0.27374956716244,0.553414275185443,-0.680413956326469,0.553414275177049,-0.680413956319936,-0.294356482743393,-0.273942269725033
48.5,-0.298665449104519,-0.273224557033723,0.546947610827131,-0.683655991599191,0.546947610819124,-0.68365599159251,-0.298677608946966,-0.273419845017408
49,-0.302962836441835,-0.272632042110944,0.540484085725192,-0.686828333702598,0.540484085717571,-0.686828333695791,-0.302976424207266,-0.272829905705522
49.5,-0.307236769832314,-0.271972790845694,0.534024483799533,-0.689931742280101,0.534024483792294,-0.689931742273189,-0.307251821652793,-0.272173219339006
50,-0.311486166457418,-0.27124758911043,0.527569564503662,-0.692966982537485,0.5275695644968,-0.692966982530489,-0.311502718100914,-0.271450570896905
50.5,-0.315709967451709,-0.270457239443838,0.521120063003035,-0.695934824596095,0.521120062996548,-0.695934824589033,-0.315728054289768,-0.270662762033845
51,-0.319907138110942,-0.269602560294404,0.514676690369406,-0.698836042861607,0.514676690363287,-0.6988360428545,-0.31992679508664,-0.269810610324393
51.5,-0.324076668076784,-0.268684385262876,0.5082401337902,-0.701671415408656,0.508240133784445,-0.701671415401522,-0.324097929672977,-0.268894948506253
52,-0.328217571498345,-0.267703562344241,0.501811056792017,-0.704441723381522,0.501811056786618,-0.704441723374379,-0.328240471706238,-0.267916623722967
52.5,-0.332328887170726,-0.26666095316987,0.495390099477312,-0.707147750411036,0.495390099472264,-0.707147750403902,-0.332353459458782,-0.266876496766723
53,-0.336409678650837,-0.265557432250414,0.488977878773396,-0.709790282047842,0.48897787876869,-0.709790282040733,-0.336435955934038,-0.265775441321898
53.5,-0.340459034350738,-0.264393886220045,0.482574988692858,-0.712370105212069,0.482574988688487,-0.712370105205002,-0.34048704896022,-0.264614343209885
54,-0.344476067608782,-0.263171213082592,0.476182000604584,-0.714888007659473,0.476182000600539,-0.714888007652462,-0.344505851261857,-0.263394099635792
54.5,-0.348459916738884,-0.261890321460099,0.469799463514537,-0.71734477746403,0.469799463510808,-0.71734477745709,-0.348491500509462,-0.262115618437499
55,-0.352409745058221,-0.260552129844306,0.463427904355509,-0.719741202516967,0.463427904352089,-0.719741202510113,-0.352443159347641,-0.260779817337614
55.5,-0.356324740893723,-0.259157565851527,0.45706782828507,-0.722078070042152,0.457067828281949,-0.722078070035396,-0.356360015402017,-0.259387623198758
56,-0.360204117567718,-0.257707565481356,0.450719718990962,-0.724356166127754,0.450719718988129,-0.72435616612111,-0.360241281265301,-0.257939971282636
56.5,-0.364047113363116,-0.256203072379612,0.444384039003218,-0.726576275274055,0.444384039000664,-0.726576275267534,-0.364086194462919,-0.256437804513299
57,-0.367852991468532,-0.254645037105893,0.438061230012326,-0.728739179957262,0.43806123001004,-0.728739179950875,-0.36789401739859,-0.254882072744951
57.5,-0.371621039903768,-0.25303441640608,0.431751713192738,-0.730845660209153,0.43175171319071,-0.730845660202913,-0.371664037280268,-0.253273732034647
58,-0.375350571426107,-0.251372172490074,0.425455889531107,-0.732896493212371,0.425455889529326,-0.732896493206286,-0.375395566026891,-0.251613743920178
58.5,-0.379040923417843,-0.249659272315037,0.419174140158621,-0.734892452911141,0.419174140157077,-0.734892452905222,-0.379087940156394,-0.249903074703381
59,-0.382691457755549,-0.247896686874357,0.412906826686846,-0.7368343096372,0.412906826685527,-0.736834309631455,-0.382740520655441,-0.248142694739114
59.5,-0.386301560661547,-0.246085390492489,0.406654291546503,-0.738722829750687,0.406654291545399,-0.738722829745123,-0.386352692831385,-0.246333577730042
60,-0.389870642538097,-0.244226360125828,0.40041685832865,-0.740558775295733,0.40041685832775,-0.740558775290359,-0.389923866146937,-0.244476700027371
60.5,-0.393398137784813,-0.242320574669671,0.394194832127735,-0.742342903670492,0.394194832127028,-0.742342903665316,-0.393453474038074,-0.242573039937609
61,-0.396883504599843,-0.240369014271317,0.387988499886047,-0.744075967311313,0.387988499885521,-0.744075967306339,-0.396940973715724,-0.240623577035376
61.5,-0.400326224765376,-0.238372659649267,0.38179813073907,-0.745758713390771,0.381798130738715,-0.745758713386007,-0.400385845951769,-0.238629291482229
62,-0.40372580341803,-0.236332491418463,0.375623976361321,-0.747391883529262,0.375623976361125,-0.747391883524714,-0.403787594849941,-0.236591163351449
62.5,-0.407081768804707,-0.234249489421417,0.369466271312229,-0.748976213519836,0.369466271312183,-0.748976213515507,-0.407145747602219,-0.234510171958613
63,-0.410393672024544,-0.232124632065051,0.363325233381671,-0.750512433065963,0.363325233381761,-0.750512433061859,-0.410459854231295,-0.232387295197787
63.5,-0.413661086757565,-0.229958895662976,0.357201063934763,-0.752001265531912,0.357201063934981,-0.752001265528036,-0.413729487319786,-0.230223508883048
