"Freq [GHz]","re(St(P1,P1)) []","im(St(P1,P1)) []","re(St(P1,P2)) []","im(St(P1,P2)) []","re(St(P2,P1)) []","im(St(P2,P1)) []","re(St(P2,P2)) []","im(St(P2,P2)) []"
0,0.00511408219171017,0,0.994906934487517,0,0.99490694249107,0,0.00511409630161097,0
0.5,0.00584992804096629,-0.00496459664497095,0.993976311732734,-0.0120437153039781,0.993976311670725,-0.0120437151572013,0.00585005822912166,-0.00496447502271735
1,0.00640054957615988,-0.0109143729350691,0.992871099490188,-0.0230865983003241,0.99287109961103,-0.0230865981137534,0.0064009882964271,-0.010914362122449
1.5,0.00652862083992112,-0.0171024003961691,0.991845137900848,-0.0338361904564906,0.99184513800253,-0.0338361904043119,0.00652931244263222,-0.0171027809793856
2,0.00631661371322778,-0.0233082751205149,0.990822144005678,-0.0445021272658224,0.990822144062673,-0.0445021272490909,0.00631733148497737,-0.0233092136658293
2.5,0.00587189709091351,-0.0294704737920668,0.989705172211409,-0.0551342588371551,0.989705172245328,-0.0551342588215906,0.00587244246584895,-0.0294720174060803
3,0.00524807004923478,-0.0355823843367755,0.988451668858707,-0.0657277312677209,0.988451668886593,-0.0657277312487903,0.0052482837138621,-0.0355845447883123
3.5,0.00447153723955385,-0.0416463076914173,0.987047199791399,-0.0762707064383132,0.987047199820706,-0.0762707064208286,0.00447128172029387,-0.041649088697115
4,0.00355660829622462,-0.0476645989346469,0.98548953261382,-0.0867536186405129,0.985489532645105,-0.0867536186303806,0.00355575585851797,-0.0476680027013732
4.5,0.00251205735704696,-0.0536384599570336,0.983781403173651,-0.0971701504196734,0.983781403203683,-0.0971701504208919,0.00251048358934458,-0.0536424875898227
5,0.00134397867077496,-0.0595681388053961,0.981927257670584,-0.107516595465965,0.981927257694744,-0.107516595479858,0.00134155946828685,-0.0595727890957516
5.5,5.70869050471323E-005,-0.0654532791727451,0.979931774699933,-0.117791044609973,0.979931774713871,-0.117791044635398,5.36973715612454E-005,-0.0654585471510423
6,-0.00134466366937236,-0.0712931956040084,0.977799227403902,-0.127992697494681,0.977799227404558,-0.127992697528684,-0.00134914921767049,-0.0712990712962212
6.5,-0.00285777477782667,-0.077087059928127,0.975533260229467,-0.138121344651212,0.975533260215621,-0.138121344689813,-0.00286348216608801,-0.0770935274589597
7,-0.00447905246892666,-0.082834019870071,0.97313687130022,-0.14817700356482,0.973136871272654,-0.148177003603757,-0.00448610665458027,-0.0828410569517075
7.5,-0.00620553230046683,-0.088533270628095,0.970612490859105,-0.158159679021661,0.970612490820535,-0.158159679057033,-0.00621405618723569,-0.0885408484319745
8,-0.00803444395498776,-0.0941840946828583,0.967962096645218,-0.168069217810325,0.967962096600063,-0.168069217839087,-0.00804455716276886,-0.0941921780704327
8.5,-0.00996319597249329,-0.0997858803025782,0.965187334694834,-0.177905231661895,0.965187334648913,-0.177905231682207,-0.00997501366176512,-0.0997944283776979
9,-0.011989370283622,-0.105338125843043,0.962289629849689,-0.187667067254731,0.962289629809872,-0.1876670672662,-0.0120030021081905,-0.105347092779474
9.5,-0.0141107209144351,-0.110840434706112,0.959270279327099,-0.197353807001769,0.959270279300981,-0.197353807005562,-0.0141262701561228,-0.110849770797936
10,-0.016325173784976,-0.116292504341541,0.956130527765734,-0.206964288645034,0.95613052776132,-0.206964288643918,-0.0163427367066301,-0.116302157221342
10.5,-0.0186455416744515,-0.121726297815622,0.952868404030793,-0.2164984525179,0.952868404026678,-0.216498452516261,-0.01866524544639,-0.121736146821912
11,-0.0210680287929537,-0.127106031806576,0.949496812251589,-0.225952262906479,0.949496812247823,-0.225952262904396,-0.0210899746821074,-0.127116034470044
11.5,-0.0235911246269421,-0.132429519291136,0.94601763817142,-0.235325749047468,0.946017638168035,-0.235325749045016,-0.0236154133773395,-0.132439631011981
12,-0.0262132642681662,-0.1376946238415,0.942432617259636,-0.244618792757227,0.942432617256655,-0.244618792754478,-0.0262399960619081,-0.137704797880617
12.5,-0.0289328303888399,-0.142899261182217,0.93874337678772,-0.253831133377878,0.938743376785153,-0.253831133374905,-0.0289621048055934,-0.142909448653227
13,-0.0317481552655214,-0.14804140065942,0.934951471434271,-0.262962377258035,0.934951471432118,-0.262962377254905,-0.0317800712405666,-0.148051550521697
13.5,-0.0346575228473752,-0.153119066620873,0.931058412837189,-0.272012010222386,0.931058412835442,-0.272012010219161,-0.0346921786282561,-0.153129125673702
14,-0.0376591708644186,-0.158130339705554,0.927065693652701,-0.280979411815553,0.927065693651344,-0.280979411812289,-0.0376966639662485,-0.158140252583499
14.5,-0.0407512929713924,-0.163073358041699,0.922974806744856,-0.289863870392478,0.922974806743869,-0.289863870389229,-0.0407917201308842,-0.163083067211345
15,-0.0439320409228091,-0.16794631835248,0.918787260139719,-0.298664598367593,0.918787260139078,-0.298664598364403,-0.0439754980510972,-0.16795576411061
15.5,-0.0471995267747918,-0.172747476968729,0.914504588354109,-0.307380747130057,0.914504588353782,-0.307380747126965,-0.0472461089091352,-0.17275659744208
16,-0.0505518251093244,-0.17747515074835,0.910128360663499,-0.316011421286918,0.910128360663456,-0.316011421283959,-0.0506016263637707,-0.177483881895025
16.5,-0.0539869752765161,-0.182127717902243,0.905660186817698,-0.324555692015803,0.905660186817906,-0.324555692013005,-0.0540400887916296,-0.182135993514869
17,-0.0575029836505877,-0.186703618726874,0.901101720652755,-0.33301260939936,0.90110172065318,-0.333012609396745,-0.0575595015423439,-0.186711370437603
17.5,-0.0610978258953113,-0.191201356243736,0.896454661988228,-0.341381213680683,0.896454661988834,-0.341381213678271,-0.061157839203261,-0.191208513531155
18,-0.0647694492346746,-0.195619496746254,0.891720757142832,-0.349660545427259,0.891720757143586,-0.349660545425061,-0.0648330478694993,-0.195625986944274
18.5,-0.0685157747246596,-0.199956670254794,0.886901798350416,-0.35784965462459,0.886901798351283,-0.357849654622617,-0.0685830474152312,-0.199962418563574
19,-0.0723346995220823,-0.204211570880735,0.881999622312659,-0.365947608743195,0.881999622313606,-0.365947608741452,-0.0724057337621559,-0.204216500379711
19.5,-0.0762240991465514,-0.208382957100654,0.877016108085147,-0.373953499836757,0.877016108086141,-0.373953499835248,-0.0762989811412127,-0.208386988763692
20,-0.0801818297316828,-0.212469651941938,0.871953174459231,-0.381866450737214,0.871953174460242,-0.381866450735935,-0.0802606443436814,-0.212472704654658
20.5,-0.0842057302618598,-0.216470543081249,0.866812776972871,-0.389685620416055,0.866812776973869,-0.389685620415003,-0.0842885609579612,-0.216472533660538
21,-0.0882936247908982,-0.220384582857461,0.8615969046591,-0.397410208581522,0.861596904660059,-0.397410208580692,-0.0883805535883858,-0.220385426073194
21.5,-0.0924433246391623,-0.224210788200855,0.856307576620156,-0.405039459579736,0.85630757662105,-0.405039459579116,-0.0925344320526222,-0.224210396799833
22,-0.0966526305657452,-0.22794824048045,0.850946838498185,-0.412572665664614,0.850946838498991,-0.412572665664197,-0.0967479955542696,-0.227946525212541
22.5,-0.100919334912531,-0.231596085271571,0.845516758899327,-0.420009169697683,0.845516758900022,-0.420009169697454,-0.101019034827472,-0.23159295491805
23,-0.105241223717055,-0.235153532045782,0.840019425816303,-0.427348367334431,0.840019425816868,-0.427348367334378,-0.105345334250461,-0.235148893449839
23.5,-0.109616078791245,-0.238619853785498,0.834456943085163,-0.434589708749483,0.834456943085579,-0.43458970874959,-0.109724673925106,-0.238613611884904
24,-0.114041679763285,-0.241994386525688,0.82883142690401,-0.441732699948374,0.828831426904262,-0.441732699948625,-0.114154831719717,-0.241986444387547
24.5,-0.118515806079993,-0.24527652882514,0.823145002435237,-0.44877690370947,0.823145002435311,-0.44877690370985,-0.118633585272491,-0.245266787682715
25,-0.123036238967248,-0.248465741169883,0.81739980050771,-0.455721940195503,0.817399800507593,-0.455721940195996,-0.123158713953113,-0.248454100461403
25.5,-0.127600763346194,-0.251561545311413,0.811597954431123,-0.462567487270468,0.811597954430804,-0.462567487271053,-0.127728000780266,-0.251547902720835
26,-0.132207169703092,-0.25456352354247,0.805741596931477,-0.469313280554137,0.805741596930948,-0.4693132805548,-0.132339234292886,-0.254547775042093
26.5,-0.136853255910826,-0.257471317913111,0.799832857213949,-0.475959113243326,0.799832857213204,-0.475959113244048,-0.136990210373193,-0.257453357807984
27,-0.141536829000302,-0.260284629389938,0.79387385815721,-0.482504835726153,0.793873858156241,-0.482504835726916,-0.141678734019704,-0.260264350363971
27.5,-0.146255706880063,-0.263003216961332,0.787866713641613,-0.488950355012976,0.787866713640419,-0.48895035501376,-0.146402621068549,-0.262980510125008
28,-0.151007720002648,-0.265626896691574,0.781813526012251,-0.495295634005336,0.781813526010828,-0.495295634006126,-0.151159699861645,-0.265601651631198
28.5,-0.155790712976377,-0.268155540726805,0.775716383676802,-0.501540690622211,0.77571638367515,-0.50154069062299,-0.155947812860348,-0.268127645555139
29,-0.160602546121386,-0.270589076255696,0.769577358837248,-0.50768559680094,0.769577358835366,-0.507685596801691,-0.160764818203447,-0.270558417663922
29.5,-0.165441096968901,-0.272927484427795,0.763398505353832,-0.513730477388585,0.763398505351721,-0.513730477389292,-0.165608591208462,-0.272893947738666
30,-0.170304261702897,-0.275170799232462,0.757181856739128,-0.519675508937945,0.757181856736793,-0.51967550893859,-0.170477025815376,-0.275134268454532
30.5,-0.175189956543417,-0.277319106341285,0.750929424279648,-0.525520918421132,0.75092942427709,-0.525520918421703,-0.175368035972094,-0.277279464224118
31,-0.180096119070981,-0.279372541916888,0.74464319528211,-0.531266981872414,0.744643195279336,-0.531266981872894,-0.180279556961018,-0.279329670007096
31.5,-0.18502070949166,-0.281331291390969,0.738325131441255,-0.536914022970943,0.738325131438269,-0.536914022971321,-0.185209546666349,-0.281285070088988
32,-0.18996171184253,-0.283195588214422,0.731977167325868,-0.542462411573049,0.731977167322677,-0.54246241157331,-0.19015598678176,-0.283145896831877
32.5,-0.194917135137316,-0.284965712582301,0.725601208979587,-0.547912562202865,0.725601208976197,-0.547912562202997,-0.195116883958324,-0.284912429399865
33,-0.199885014452216,-0.286641990136394,0.719199132632938,-0.553264932509318,0.719199132629359,-0.55326493250931,-0.200090270892593,-0.286584992461977
33.5,-0.204863411951976,-0.28822479064808,0.712772783522984,-0.558520021696774,0.712772783519223,-0.558520021696614,-0.205074207354961,-0.288163954875272
34,-0.209850417856411,-0.289714526684117,0.70632397481694,-0.563678368935974,0.706323974813007,-0.563678368935654,-0.210066781158456,-0.289649728350719
34.5,-0.214844151347708,-0.291111652257936,0.699854486636065,-0.568740551761376,0.699854486631968,-0.568740551760886,-0.21506610906831,-0.291042766104477
35,-0.219842761418896,-0.292416661468941,0.693366065176166,-0.573707184460385,0.693366065171916,-0.573707184459716,-0.220070337652674,-0.292343561497066
35.5,-0.224844427664018,-0.293630087132277,0.686860421921036,-0.578578916459552,0.686860421916644,-0.578578916458696,-0.225077644075007,-0.293552646662868
36,-0.229847361010618,-0.294752499401421,0.680339232945177,-0.583356430712332,0.680339232940653,-0.583356430711284,-0.23008623682876,-0.294670591132353
36.5,-0.234849804395233,-0.295784504385916,0.67380413830218,-0.588040442092593,0.673804138297535,-0.588040442091347,-0.235094356415009,-0.295698000449323
37,-0.239850033382669,-0.296726742766442,0.667256741495193,-0.592631695797673,0.667256741490438,-0.592631695796223,-0.24010027596384,-0.29663551478539
37.5,-0.244846356729944,-0.297579888409396,0.660698609025923,-0.597130965764456,0.660698609021068,-0.597130965762799,-0.245102301800338,-0.297483807553854
38,-0.249837116895796,-0.298344646983026,0.654131270018691,-0.601539053101594,0.654131270013747,-0.601539053099726,-0.250098773956094,-0.298243584025029
38.5,-0.254820690496778,-0.299021754577102,0.647556215916101,-0.605856784540706,0.647556215911081,-0.605856784538624,-0.255088066627223,-0.298915579945024
39,-0.259795488710993,-0.299611976328033,0.640974900242952,-0.610085010909113,0.640974900237866,-0.610085010906815,-0.260068588579968,-0.29950056015985
39.5,-0.264759957630572,-0.300116105051224,0.634388738435063,-0.614224605626399,0.634388738429924,-0.614224605623884,-0.265038783504954,-0.299999317246707
40,-0.269712578564076,-0.300534959882417,0.627799107729788,-0.618276463226835,0.627799107724605,-0.618276463224103,-0.269997130321305,-0.300412670154154
40.5,-0.274651868290007,-0.300869384929667,0.621207347115014,-0.622241497909516,0.6212073471098,-0.622241497906566,-0.274942143431777,-0.300741462852839
41,-0.279576379262701,-0.301120247937475,0.614614757333556,-0.626120642117795,0.61461475732832,-0.626120642114629,-0.279872372930185,-0.300986562998331
41.5,-0.284484699771866,-0.30128843896461,0.608022600939891,-0.629914845149448,0.608022600934645,-0.629914845146067,-0.284786404762394,-0.301148860607545
42,-0.289375454057084,-0.301374869076959,0.601432102406291,-0.633625071798794,0.601432102401045,-0.633625071795199,-0.289682860842171,-0.30122926675016
42.5,-0.294247302378617,-0.30138046905674,0.594844448275461,-0.637252301031816,0.594844448270225,-0.637252301028012,-0.294560399123245,-0.301228712256345
43,-0.299098941045872,-0.301306188129306,0.588260787356865,-0.640797524695213,0.588260787351648,-0.640797524691202,-0.299417713628934,-0.301148146442008
43.5,-0.303929102404896,-0.301152992708664,0.581682230964041,-0.644261746260083,0.581682230958853,-0.644261746255869,-0.304253534440699,-0.300988535852744
44,-0.308736554786302,-0.300921865162803,0.575109853190228,-0.64764597960089,0.575109853185079,-0.647645979596477,-0.309066627647018,-0.30075086302754
44.5,-0.313520102415004,-0.300613802599792,0.568544691219763,-0.650951247810154,0.568544691214661,-0.650951247805547,-0.313855795253976,-0.30043612528323
45,-0.318278585283175,-0.300229815675575,0.56198774567275,-0.654178582049247,0.561987745667703,-0.654178582044451,-0.318619875058973,-0.300045333520628
45.5,-0.323010878987822,-0.299770927424301,0.555439980980605,-0.657329020435506,0.555439980975623,-0.657329020430528,-0.323357740488932,-0.299579511053168
46,-0.32771589453438,-0.299238172111943,0.548902325790161,-0.660403606965828,0.548902325785251,-0.660403606960672,-0.328068300404442,-0.299039692458833
46.5,-0.332392578107723,-0.298632594113908,0.542375673394085,-0.663403390476761,0.542375673389253,-0.663403390471434,-0.33275049887119,-0.298426922456081
47,-0.337039910811962,-0.297955246817265,0.535860882185459,-0.666329423641051,0.535860882180714,-0.66632942363556,-0.337403314900097,-0.29774225480437
47.5,-0.341656908380436,-0.297207191548146,0.529358776134454,-0.669182762000505,0.529358776129801,-0.669182761994857,-0.342025762157528,-0.29698675122989
48,-0.346242620857216,-0.296389496524819,0.522870145285091,-0.671964463034956,0.522870145280536,-0.671964463029158,-0.346616888646923,-0.296161480376973
48.5,-0.3507961322515,-0.295503235836882,0.516395746270192,-0.674675585267047,0.51639574626574,-0.674675585261107,-0.351175776363215,-0.295267516785637
49,-0.355316560166202,-0.294549488450922,0.509936302842675,-0.677317187402483,0.509936302838333,-0.677317187396409,-0.355701540921349,-0.294305939895643
49.5,-0.359803055402063,-0.293529337243001,0.503492506421449,-0.679890327505353,0.50349250641722,-0.679890327499152,-0.36019333116022,-0.293277833077399
50,-0.364254801538539,-0.292443868058211,0.497065016650216,-0.682396062208039,0.497065016646106,-0.68239606220172,-0.364650328723304,-0.292184282689977
50.5,-0.368671014492754,-0.291294168797517,0.490654461967605,-0.684835445955233,0.490654461963616,-0.684835445948804,-0.369071747617257,-0.291026377166467
51,-0.373050942057728,-0.290081328532071,0.48426144018708,-0.687209530281477,0.484261440183216,-0.687209530274948,-0.373456833749704,-0.289805206126841
51.5,-0.377393863421094,-0.288806436645101,0.477886519085198,-0.689519363121661,0.477886519081461,-0.689519363115037,-0.377804864447446,-0.288521859518467
52,-0.381699088665494,-0.287470582001471,0.471530236996817,-0.691765988153818,0.47153023699321,-0.69176598814711,-0.382115147956245,-0.287177426784335
52.5,-0.385965958251776,-0.286074852144941,0.46519310341596,-0.693950444173601,0.465193103412485,-0.693950444166818,-0.386387022923356,-0.285772996059059
53,-0.390193842486142,-0.284620332523134,0.458875599601078,-0.696073764499718,0.458875599597736,-0.696073764492867,-0.39061985786393,-0.284309653392658
53.5,-0.394382140972303,-0.283108105740171,0.452578179183551,-0.69813697640963,0.452578179180344,-0.698136976402721,-0.394813050612359,-0.282788482002073
54,-0.398530282049721,-0.281539250836916,0.446301268778316,-0.700141100604795,0.446301268775244,-0.700141100597835,-0.398966027759654,-0.281210561550371
54.5,-0.402637722218958,-0.279914842598721,0.440045268595567,-0.70208715070469,0.440045268592631,-0.70208715069769,-0.403078244077858,-0.279576967453543
55,-0.406703945555099,-0.278235950890559,0.433810553052561,-0.70397613276888,0.43381055304976,-0.703976132761846,-0.407149181932508,-0.277888770214759
55.5,-0.410728463110251,-0.276503640019385,0.427597471384595,-0.705809044846331,0.427597471381928,-0.705809044839271,-0.411178350684106,-0.276147034785955
56,-0.414710812305999,-0.274718968123559,0.42140634825429,-0.707586876551223,0.421406348251757,-0.707586876544148,-0.415165286079526,-0.274352819956559
56.5,-0.418650556316753,-0.272882986589126,0.415237484358379,-0.70931060866446,0.415237484355978,-0.709310608657376,-0.419109549634257,-0.272507177769186
57,-0.422547283444809,-0.270996739492758,0.409091157031232,-0.710981212760091,0.409091157028962,-0.710981212753008,-0.423010728006366,-0.270611152962071
57.5,-0.426400606487984,-0.269061263071106,0.402967620844436,-0.712599650855865,0.402967620842295,-0.712599650848789,-0.426868432362987,-0.26866578243803
58,-0.43021016210061,-0.267077585216341,0.39686710820175,-0.714166875087119,0.396867108199735,-0.714166875080058,-0.430682297740165,-0.266672094759699
58.5,-0.43397561014864,-0.265046724997616,0.390789829928854,-0.715683827403229,0.390789829926962,-0.71568382739619,-0.434451982396812,-0.264631109670793
59,-0.437696633059626,-0.262969692208186,0.384735975857324,-0.71715143928583,0.384735975855554,-0.717151439278821,-0.438177167163533,-0.262543837643144
59.5,-0.441372935168255,-0.260847486937914,0.378705715402324,-0.718570631488041,0.378705715400671,-0.71857063148107,-0.441857554787002,-0.260411279449206
60,-0.445004242058116,-0.258681099170895,0.372699198133532,-0.719942313793921,0.372699198131993,-0.719942313786993,-0.445492869270614,-0.258234425759794
60.5,-0.448590299900365,-0.256471508407892,0.366716554338895,-0.721267384797397,0.366716554337466,-0.72126738479052,-0.44908285521203,-0.256014256766737
61,-0.452130874789881,-0.254219683313322,0.360757895580797,-0.722546731699922,0.360757895579474,-0.722546731693102,-0.452627277138253,-0.253751741830186
61.5,-0.455625752079523,-0.251926581386495,0.354823315244302,-0.723781230126111,0.35482331524308,-0.723781230119353,-0.456125918838851,-0.251447839150268
62,-0.459074735713052,-0.24959314865682,0.348912889077151,-0.724971743956637,0.348912889076026,-0.724971743949949,-0.459578582697869,-0.249103495462821
62.5,-0.462477647557239,-0.24722031940271,0.343026675721225,-0.726119125177678,0.343026675720193,-0.726119125171065,-0.462985089025012,-0.24671964575892
63,-0.465834326733726,-0.244809015893878,0.337164717235232,-0.727224213746186,0.337164717234288,-0.727224213739652,-0.466345275386601,-0.244297213027885
63.5,-0.469144628951074,-0.242360148156799,0.331327039608383,-0.728287837470324,0.331327039607521,-0.728287837463875,-0.469658995936822,-0.24183710802356
64,-0.472408425837529,-0.239874613763021,0.325513653264875,-0.729310811904373,0.325513653264091,-0.729310811898013,-0.472926120749748,-0.239340229053529
