"Freq [GHz]","re(St(P1,P1)) []","im(St(P1,P1)) []","re(St(P1,P2)) []","im(St(P1,P2)) []","re(St(P2,P1)) []","im(St(P2,P1)) []","re(St(P2,P2)) []","im(St(P2,P2)) []"
0,0.00496623875267233,0,0.99504993420851,0,0.995049922610633,0,0.00496623299403609,0
0.5,0.00548996101271015,-0.000586022654836427,0.994361960439385,-0.0098101694003816,0.994361960246184,-0.00981016881890184,0.00548992313833807,-0.000585068987202675
1,0.00586240282047612,-0.00182912799664692,0.99353756274661,-0.0189172508199427,0.993537562767534,-0.0189172507873039,0.0058623838161953,-0.0018271088834716
1.5,0.00597899227189735,-0.00319071476487132,0.992700373605898,-0.0278133664136142,0.992700373630607,-0.0278133663994922,0.00597915321185205,-0.00318763709183933
2,0.00590339328574885,-0.00454003635479161,0.991822434840598,-0.0366017421101787,0.991822434862531,-0.0366017421044891,0.00590378964026428,-0.00453599682513506
2.5,0.00571036347011811,-0.00583634493312246,0.990854335813267,-0.0453122361023937,0.990854335832733,-0.0453122361009779,0.00571101459479273,-0.00583141905259943
3,0.00544016775467249,-0.00707382829763326,0.989780741521582,-0.0539392158913241,0.989780741539116,-0.0539392158931555,0.00544107760916379,-0.00706808121881863
3.5,0.0051161781382385,-0.00825337140773108,0.9886047001922,-0.0624745712102364,0.988604700207593,-0.0624745712152563,0.00511733830148819,-0.00824686137070074
4,0.00475410413485,-0.00937728921295999,0.987336482152956,-0.0709142530196658,0.987336482165467,-0.0709142530278042,0.00475549536315745,-0.00937006674323104
4.5,0.00436574396417821,-0.010448516202846,0.985988111967477,-0.079258539611506,0.985988111976179,-0.0792585396223435,0.00436733854698246,-0.0104406225418101
5,0.00396049189037895,-0.0114705187075952,0.984570842276469,-0.0875109712654947,0.984570842280559,-0.0875109712782374,0.00396225658576854,-0.0114619847728807
5.5,0.00354597784892108,-0.0124472400016158,0.983094092092933,-0.0956771598414488,0.983094092091922,-0.0956771598549926,0.00354787691599989,-0.0124380862040745
6,0.00312837875451716,-0.0133829910111478,0.981565139537854,-0.10376378240744,0.981565139531678,-0.103763782420522,0.00313037671023053,-0.0133732278668637
6.5,0.00271261198264916,-0.0142823084074983,0.97998920247702,-0.111777823643508,0.979989202466085,-0.11177782365484,0.00271467586537083,-0.0142719377399532
7,0.00230249085386255,-0.0151498098313452,0.978369702828289,-0.119726053392327,0.978369702813451,-0.119726053400735,0.00230459190789492,-0.0151388263294798
7.5,0.00190086904959308,-0.0159900659576762,0.976708597350052,-0.127614699213097,0.976708597332568,-0.127614699217617,0.00190298383941362,-0.0159784588806611
8,0.00150977990493456,-0.016807498878717,0.975006709396776,-0.135449267922497,0.975006709378246,-0.135449267922449,0.00151189092615327,-0.0167952537460172
8.5,0.00113056909620499,-0.017606309079151,0.973264028109176,-0.143234473548887,0.973264028091463,-0.143234473543923,0.00113266497833524,-0.0175934092365351
9,0.00076401753820491,-0.0183904290027201,0.971479961085069,-0.15097423640529,0.971479961070235,-0.150974236395426,0.000766092940955782,-0.0183768570013267
9.5,0.00041045183017905,-0.0191634991058116,0.969653537979778,-0.158671726129826,0.969653537970013,-0.158671726115443,0.000412507127905817,-0.0191492378680249
10,6.98407648009602E-005,-0.0199288616140016,0.967783568551299,-0.166329429018335,0.967783568548865,-0.16632942900018,7.18815996684219E-005,-0.0199138953859177
10.5,-0.000123266624275933,-0.0207755788318207,0.965851372399816,-0.174041560952157,0.965851372400586,-0.174041560937525,-0.00012112707008638,-0.0207598369387729
11,-0.000335023807136237,-0.0216203187017783,0.963874878307031,-0.181706818910588,0.963874878310661,-0.181706818899504,-0.000332785564244764,-0.0216038075469855
11.5,-0.000564655984039375,-0.0224631070223684,0.961855465957799,-0.189327779890988,0.961855465963963,-0.189327779883437,-0.00056231889145078,-0.0224458330634985
12,-0.000811480595490577,-0.0233038990107777,0.959794164150447,-0.19690688741142,0.959794164158842,-0.196906887407353,-0.000809044377376944,-0.0232858687499302
12.5,-0.00107489632232619,-0.0241425979630705,0.95769169852619,-0.204446428975732,0.957691698536535,-0.20444642897507,-0.00107236065175226,-0.0241238179417627
13,-0.0013543727841131,-0.0249790693290728,0.955548536402134,-0.211948521653614,0.955548536414173,-0.211948521656257,-0.00135173733611321,-0.0249595461260972
13.5,-0.00164944117700189,-0.0258131512981001,0.953364928045556,-0.219415104309783,0.953364928059056,-0.21941510431561,-0.00164670567302297,-0.0257928915288344
14,-0.00195968592943163,-0.0266446627388746,0.951140944037521,-0.226847935146702,0.95114094405227,-0.22684793515558,-0.00195685017476055,-0.026623673055159
14.5,-0.00228473736093776,-0.0274734091378108,0.948876508610808,-0.234248593381136,0.948876508626616,-0.234248593392919,-0.00228180127643501,-0.0274516962277866
15,-0.00262426527969273,-0.0282991870252611,0.946571429020365,-0.241618484039136,0.946571429037063,-0.24161848405367,-0.00262122892888011,-0.0282767576128369
15.5,-0.00297797343120781,-0.0291217872607792,0.944225421124681,-0.248958845015187,0.944225421142119,-0.248958845032315,-0.00297483704355939,-0.0290986481045032
16,-0.00334559470317186,-0.029940997458084,0.941838131434237,-0.256270755691611,0.941838131452283,-0.256270755711173,-0.00334235869427457,-0.0299171553493238
16.5,-0.00372688699284629,-0.0307566037619837,0.939409155927805,-0.263555146549754,0.939409155946342,-0.263555146571586,-0.00372355198197155,-0.0307320655223442
17,-0.00412162964960355,-0.0315683921376178,0.936938055957337,-0.270812809322961,0.936938055976263,-0.270812809346904,-0.00411819647511363,-0.0315431646156235
17.5,-0.00452962041354149,-0.0323761492932944,0.934424371564252,-0.278044407342712,0.934424371583477,-0.278044407368607,-0.00452609014647781,-0.0323502393603152
18,-0.00495067278016764,-0.0331796633286401,0.931867632519517,-0.285250485814226,0.931867632538965,-0.285250485841916,-0.00494704673628626,-0.0331530778741138
18.5,-0.00538461372998084,-0.0339787241774321,0.929267367381658,-0.292431481827768,0.92926736740126,-0.2924314818571,-0.00538089348046478,-0.0339514701034149
19,-0.00583128177007314,-0.0347731238976403,0.926623110843628,-0.299587733968528,0.926623110863327,-0.299587733999355,-0.00582746915109089,-0.0347452081127304
19.5,-0.00629052524231966,-0.0355626568484646,0.923934409614043,-0.306719491433107,0.923934409633789,-0.306719491465284,-0.00628662236357141,-0.0355340862611349
20,-0.00676220085928797,-0.0363471197844363,0.921200827052185,-0.313826922595934,0.921200827071934,-0.313826922629322,-0.0067582101116585,-0.0363179012958312
20.5,-0.00724617243476078,-0.0371263118894021,0.918421946750671,-0.320910122996283,0.918421946770387,-0.320910123030749,-0.00724209649716201,-0.0370964523856223
21,-0.00774230978067469,-0.0379000347675766,0.915597375235525,-0.327969122737061,0.915597375255177,-0.327969122772476,-0.00773815162616509,-0.0378695411115104
21.5,-0.00825048774653164,-0.0386680924046963,0.91272674393096,-0.335003893301781,0.912726743950518,-0.335003893338023,-0.00824625064775547,-0.0386369714274177
22,-0.00877058538092079,-0.0394302911090287,0.90980971051589,-0.342014353806964,0.909809710535334,-0.342014353843916,-0.00876627291493021,-0.0393985496008018
22.5,-0.00930248519786842,-0.0401864394395983,0.906845959780914,-0.349000376714738,0.906845959800223,-0.349000376752286,-0.00929810125035885,-0.0401540841405224
23,-0.00984607253331682,-0.0409363481271035,0.903835204078334,-0.355961793035222,0.903835204097492,-0.355961793073261,-0.00984162130231131,-0.0409033857174255
23.5,-0.0104012349792358,-0.0416798299915833,0.900777183443624,-0.362898397051125,0.900777183462615,-0.362898397089551,-0.010396720978236,-0.0416462670817042
24,-0.0109678618847091,-0.0424166998598257,0.897671665454367,-0.36980995059825,0.897671665473179,-0.369809950636968,-0.0109632899453438,-0.0423825429800333
24.5,-0.0115458439149433,-0.0431467744846838,0.894518444882032,-0.376696186935829,0.894518444900654,-0.376696186974747,-0.011541219189121,-0.0431120300746255
25,-0.0121350726604491,-0.0438698724678446,0.891317343182736,-0.383556814239919,0.891317343201157,-0.383556814278948,-0.012130400622031,-0.043834546865773
25.5,-0.0127354402897709,-0.0445858141871134,0.888068207865332,-0.390391518751889,0.888068207883544,-0.390391518790947,-0.0127307267357757,-0.0445499136189236
26,-0.0133468392401207,-0.0452944217289502,0.884770911768451,-0.397199967612488,0.884770911786447,-0.397199967651498,-0.0133420902914638,-0.0452579522970264
26.5,-0.0139691619410522,-0.0459955188266998,0.881425352272472,-0.403981811410116,0.881425352290245,-0.403981811449003,-0.0139643840428288,-0.0459584864985947
27,-0.0146023005670163,-0.0466889308047647,0.878031450467621,-0.410736686470001,0.878031450485163,-0.410736686508695,-0.0145975004883353,-0.0466513414017298
27.5,-0.0152461468152219,-0.0473744845288304,0.874589150295386,-0.417464216909008,0.874589150312692,-0.417464216947443,-0.0152413316485851,-0.0473363437142171
28,-0.0159005917057219,-0.0480520083621496,0.871098417677077,-0.424164016478842,0.871098417694139,-0.424164016516957,-0.0158957688659616,-0.0480133216296978
28.5,-0.0165655254010731,-0.0487213321277822,0.867559239640524,-0.430835690218464,0.867559239657339,-0.4308356902562,-0.0165607026238376,-0.0486821047898101
29,-0.0172408370432772,-0.0493822870766814,0.863971623453625,-0.437478835934758,0.863971623470185,-0.437478835972059,-0.0172360223830787,-0.0493425242522059
29.5,-0.0179264146060282,-0.0500347058614337,0.860335595771474,-0.444093045528722,0.860335595787774,-0.444093045565537,-0.0179216164338412,-0.0499944124642218
30,-0.0186221447605563,-0.0506784225154642,0.856651201802236,-0.450677906182875,0.856651201818271,-0.450677906219157,-0.0186173717609738,-0.0506376032420475
30.5,-0.0193279127535853,-0.0513132724374994,0.852918504495611,-0.457233001424046,0.852918504511377,-0.457233001459748,-0.0193231739215315,-0.051271931755158
31,-0.0200436022961151,-0.0519390923810542,0.84913758375668,-0.463757912074349,0.849137583772169,-0.46375791210943,-0.0200389069331155,-0.0518972345157894
31.5,-0.0207690954619281,-0.0525557204487317,0.845308535687009,-0.470252217101883,0.845308535702217,-0.470252217136303,-0.0207644531719312,-0.0525133493732491
32,-0.0215042725948386,-0.0531629960911191,0.84143147185426,-0.476715494381533,0.841431471869182,-0.476715494415255,-0.0214996932796007,-0.0531201155128288
32.5,-0.0222490122238536,-0.0537607601100479,0.837506518590914,-0.483147321375188,0.837506518605543,-0.483147321408179,-0.022244506077872,-0.0537173734591055
33,-0.0230031909855099,-0.0543488546660267,0.833533816322313,-0.489547275739774,0.833533816336645,-0.489547275772002,-0.0229987684905199,-0.0543049650834275
33.5,-0.023766683552759,-0.054927123289629,0.829513518923865,-0.495914935870591,0.829513518937894,-0.495914935902027,-0.0237623554717828,-0.0548827336153754
34,-0.0245393625698382,-0.055495410896648,0.825445793106969,-0.502249881386692,0.82544579312069,-0.502249881417309,-0.0245351399407966,-0.0554505236580024
34.5,-0.0253210985926593,-0.0560535638068348,0.821330817833018,-0.508551693564346,0.821330817846424,-0.508551693594119,-0.0253169927215374,-0.0560081812066741
35,-0.0261117600342864,-0.0566014297660289,0.817168783754679,-0.514819955723966,0.817168783767767,-0.514819955752874,-0.0261077824878641,-0.0565555536713228
35.5,-0.0269112131151483,-0.0571388579715262,0.81295989268354,-0.521054253575362,0.812959892696305,-0.521054253603384,-0.0269073757132928,-0.0570924899019477
36,-0.0277193218176667,-0.0576656991005055,0.808704357083128,-0.527254175525612,0.808704357095562,-0.527254175552729,-0.0277156366251883,-0.0576188402171962
36.5,-0.0285359478450286,-0.0581818053413741,0.804402399586244,-0.533419312953444,0.804402399598344,-0.533419312979641,-0.0285324271631056,-0.0581344564358741
37,-0.0293609505838645,-0.0586870304278654,0.800054252535578,-0.539549260453586,0.800054252547338,-0.539549260478846,-0.0293576069410386,-0.0586391919112328
37.5,-0.0301941870706304,-0.0591812296757604,0.79566015754648,-0.545643616054155,0.795660157557897,-0.545643616078466,-0.0301910332133753,-0.0591329015678909
38,-0.0310355119615138,-0.059664260022095,0.791220365090858,-0.551701981409896,0.791220365101926,-0.551701981433247,-0.0310325608443856,-0.0596154419412546
38.5,-0.031884777505714,-0.0601359800667102,0.786735134101104,-0.5577239619737,0.786735134111819,-0.557723961996081,-0.0318820422810823,-0.0600866712193073
39,-0.0327418335219652,-0.0605962501160322,0.782204731593049,-0.563709167148639,0.782204731603407,-0.563709167170042,-0.0327393275293337,-0.0605464492866359
39.5,-0.0336065273781905,-0.06104493222895,0.777629432306917,-0.569657210422499,0.777629432316914,-0.569657210442917,-0.0336042641331112,-0.0609946377705765
40,-0.0344787039741897,-0.0614818902646816,0.773009518365326,-0.575567709486562,0.773009518374959,-0.575567709505989,-0.0344766971567798,-0.0614311000893623
40.5,-0.0353582057272838,-0.0619069899325072,0.768345278947399,-0.581440286340243,0.768345278956664,-0.581440286358676,-0.0353564691703499,-0.061855701502155
41,-0.0362448725608427,-0.0623200988432551,0.763637009978096,-0.587274567382977,0.76363700998699,-0.587274567400413,-0.036243420237619,-0.062268309160845
41.5,-0.0371385418956475,-0.0627210865624451,0.758885013831916,-0.593070183494645,0.758885013840435,-0.593070183511082,-0.0371373879071589,-0.0626687921635229
42,-0.0380390486440257,-0.0631098246649596,0.754089599050174,-0.598826770105646,0.754089599058318,-0.598826770121085,-0.0380382072060813,-0.0630570216095007
42.5,-0.038946225206732,-0.0634861867911639,0.749251080071072,-0.604543967257662,0.749251080078837,-0.604543967272102,-0.0389457106365642,-0.0634328706557873
43,-0.0398599014725387,-0.0638500487043524,0.74436977697185,-0.610221419655998,0.744369776979234,-0.610221419669441,-0.0398597281750905,-0.0637962145749142
43.5,-0.040779904820508,-0.0642012883494234,0.739446015222326,-0.615858776714323,0.739446015229329,-0.615858776726772,-0.0407800872743828,-0.0641469308140028
44,-0.0417060601249212,-0.0645397859126907,0.734480125449197,-0.621455692592543,0.734480125455817,-0.621455692604003,-0.0417066128680086,-0.0644848990549769
44.5,-0.0426381897628599,-0.0648654238827208,0.729472443210468,-0.627011826228453,0.729472443216705,-0.627011826238927,-0.0426391273776458,-0.0648100012758239
45,-0.0435761136244135,-0.0651780871121018,0.724423308779454,-0.632526841363757,0.724423308785306,-0.632526841373253,-0.0435774507229869,-0.0651221218127991
45.5,-0.0445196491255088,-0.0654776628800475,0.719333066937818,-0.638000406564981,0.719333066943286,-0.638000406573505,-0.0445214003342836,-0.0654211474234724
46,-0.0454686112233538,-0.0657640409557315,0.714202066777135,-0.643432195239749,0.714202066782219,-0.643432195247307,-0.0454707911675113,-0.0657069673505281
46.5,-0.0464228124344913,-0.0660371136622605,0.709030661508509,-0.648821885648842,0.709030661513211,-0.648821885655444,-0.0464254357221661,-0.065979473386212
47,-0.047382062855448,-0.0662967759411844,0.703819208279811,-0.65416916091443,0.70381920828413,-0.654169160920084,-0.047385144061667,-0.0662385599373285
47.5,-0.0483461701859933,-0.066542925417449,0.698568068000094,-0.659473709024802,0.698568068004033,-0.659473709029518,-0.0483497238363836,-0.066484124090689
48,-0.049314939754985,-0.0667754624646878,0.69327760517084,-0.664735222835911,0.693277605174399,-0.664735222839699,-0.049318980309271,-0.0667160656789189
48.5,-0.0502881745488112,-0.0669942902707611,0.687948187723628,-0.669953400070009,0.68794818772681,-0.66995340007288,-0.0502927163841136,-0.0669342873465142
49,-0.0512656752424219,-0.0671993149034393,0.682580186863916,-0.67512794331161,0.682580186866724,-0.675127943313576,-0.0512707326363759,-0.0671386946160596
49.5,-0.0522472402329418,-0.0673904453761366,0.677173976920607,-0.680258560001021,0.677173976923043,-0.680258560002095,-0.0522528273466577,-0.0673291959545005
50,-0.0532326656758669,-0.0675675937135899,0.671729935201087,-0.685344962425622,0.671729935203155,-0.685344962425816,-0.0532387965367445,-0.0675057028393773
50.5,-0.0542217455238298,-0.0677306750173925,0.666248441851485,-0.690386867709091,0.666248441853188,-0.690386867708419,-0.0542284340082482,-0.0676681298249139
51,-0.0552142715679325,-0.0678796075312765,0.660729879721866,-0.695383997798731,0.660729879723208,-0.695383997797206,-0.0552215313838421,-0.0678163946078714
51.5,-0.0562100334816378,-0.0680143127060506,0.65517463423613,-0.700336079451045,0.655174634237115,-0.700336079448682,-0.0562178781510577,-0.0679504180930579
52,-0.0572088188671987,-0.0681347152640855,0.649583093266384,-0.705242844215701,0.649583093267017,-0.705242844212515,-0.0572172617086572,-0.0680701244583967
52.5,-0.0582104133046243,-0.0682407432632611,0.64395564701157,-0.710104028417996,0.643955647011856,-0.710104028414001,-0.0582194674155538,-0.0681754412194597
53,-0.0592146004031573,-0.0683323281602604,0.638292687880162,-0.714919373139935,0.638292687880105,-0.714919373135148,-0.0592242786422661,-0.068266299293352
53.5,-0.060221161855252,-0.0684094048731261,0.632594610376722,-0.719688624200028,0.632594610376328,-0.719688624194466,-0.0602314768248977,-0.0683426330618669
54,-0.061229877493026,-0.0684719118429685,0.626861810992174,-0.724411532131888,0.626861810991449,-0.724411532125567,-0.0612408415216058,-0.0684043804337897
54.5,-0.0622405253471643,-0.068519791094734,0.621094688097602,-0.729087852161713,0.621094688096551,-0.72908785215465,-0.0622521504715536,-0.0684514829062688
55,-0.0632528817082512,-0.0685529882969314,0.615293641841433,-0.733717344184734,0.615293641840064,-0.733717344176945,-0.063265179656303,-0.0684838856251459
55.5,-0.0642667211904989,-0.0685714528202203,0.609459074049871,-0.73829977274069,0.60945907404819,-0.738299772732194,-0.0642797033636362,-0.0685015374441471
56,-0.06528181679784,-0.0685751377947626,0.603591388130428,-0.742834906988397,0.60359138812844,-0.742834906979211,-0.0652954942537537,-0.0685043909828384
56.5,-0.0662979399923493,-0.0685640001662432,0.597690988978442,-0.747322520679468,0.597690988976155,-0.747322520669611,-0.0663123234278352,-0.0684924026832458
57,-0.0673148607649563,-0.0685380007504579,0.591758282886464,-0.751762392131236,0.591758282883886,-0.751762392120726,-0.0673299604989042,-0.0684655328650471
57.5,-0.0683323477084046,-0.0684971042863833,0.585793677456398,-0.756154304198927,0.585793677453536,-0.756154304187783,-0.0683481736649701,-0.0684237457792341
58,-0.0693501680924133,-0.0684412794876229,0.579797581514294,-0.760498044247139,0.579797581511155,-0.76049804423538,-0.0693667297843932,-0.0683670096601542
58.5,-0.0703680879409966,-0.0683704990921483,0.573770405027701,-0.764793404120649,0.573770405024293,-0.764793404108295,-0.0703853944534283,-0.0682952967758383
59,-0.0713858721118789,-0.0682847399102358,0.567712559025482,-0.769040180114616,0.567712559021813,-0.769040180101686,-0.0714039320858886,-0.0682085834765166
59.5,-0.0724032843779587,-0.0681839828705114,0.561624455520018,-0.77323817294418,0.561624455516096,-0.773238172930693,-0.0724221059948837,-0.0681068502412412
60,-0.0734200875107607,-0.0680682130640204,0.555506507431709,-0.777387187713528,0.555506507427542,-0.777387187699504,-0.0734396784765641,-0.0679900817225183
60.5,-0.0744360433658093,-0.0679374197862275,0.549359128515702,-0.781487033884435,0.549359128511299,-0.781487033869895,-0.0744564108958115,-0.0678582667888663
61,-0.0754509129698606,-0.0677915965768676,0.543182733290781,-0.785537525244315,0.54318273328615,-0.78553752522928,-0.0754720637738118,-0.0677113985652148
61.5,-0.0764644566099253,-0.0676307412575677,0.536977736970342,-0.789538479873825,0.536977736965491,-0.789538479858314,-0.0764863968774372,-0.0675494744710606
62,-0.0774764339240039,-0.0674548559671546,0.530744555395404,-0.79348972011402,0.530744555390343,-0.793489720098054,-0.0774991693103654,-0.0673724962562982
62.5,-0.0784866039934682,-0.0672639471945749,0.524483604969585,-0.797391072533122,0.524483604964322,-0.797391072516721,-0.0785101396058621,-0.0671804700346521
