"Freq [GHz]","re(St(P1,P1)) []","im(St(P1,P1)) []","re(St(P1,P2)) []","im(St(P1,P2)) []","re(St(P2,P1)) []","im(St(P2,P1)) []","re(St(P2,P2)) []","im(St(P2,P2)) []"
0,0.0055495271556083,0,0.994465157549712,0,0.994465158626554,0,0.00554952024259592,0
0.5,0.00609327248884384,1.05307002691291E-005,0.993790521144266,-0.00952983663901463,0.993790521023922,-0.00952983630276449,0.00609329014277904,1.08480154814572E-005
1,0.00651441308162148,-0.000638410187793426,0.993014938146576,-0.0183637858189663,0.9930149380833,-0.01836378586761,0.00651444184327232,-0.000637737891779011
1.5,0.00671189651503834,-0.001416692112306,0.992252262421173,-0.0270007444541545,0.992252262382141,-0.0270007444484044,0.00671202953737193,-0.00141556064880533
2,0.00674095765866323,-0.0022001056196963,0.991470691078676,-0.0355465830836366,0.99147069106836,-0.0355465830715005,0.00674130677999596,-0.00219849563615959
2.5,0.00667271662055224,-0.00294712134049391,0.990616918485762,-0.0440331000118395,0.990616918488858,-0.0440331000085834,0.00667338481047297,-0.00294502434161714
3,0.00654482293562486,-0.00365254499131318,0.989671543545724,-0.0524560895729334,0.989671543551097,-0.0524560895788184,0.00654591160053997,-0.00364995583985994
3.5,0.00637776686908453,-0.00431792667920838,0.988633489913732,-0.0608079520237208,0.988633489916235,-0.0608079520345122,0.00637937948051004,-0.00431484366475487
4,0.00618426380738302,-0.00494573820464073,0.987509182220776,-0.0690842354408101,0.98750918221948,-0.0690842354519683,0.00618650671128118,-0.00494216440409723
4.5,0.00597327020473282,-0.0055384742900868,0.986307313517915,-0.0772840917322641,0.986307313514281,-0.0772840917405091,0.00597625200901797,-0.00553441863725901
5,0.00575167660538767,-0.00609864763483081,0.985036428994081,-0.0854094486536834,0.985036428990595,-0.0854094486573684,0.00575550696571725,-0.00609412534395037
5.5,0.00552504939923659,-0.006628870271431,0.983703877623607,-0.0934640407091587,0.983703877622839,-0.0934640407081417,0.00552983767915272,-0.00662390260635082
6,0.00529797956982681,-0.00713188590638492,0.982315455774221,-0.101452581722176,0.982315455778234,-0.101452581717488,0.00530383365828507,-0.0071264994059268
6.5,0.00507426823251467,-0.00761055380534792,0.980875405322093,-0.109380137134032,0.980875405332116,-0.109380137127457,0.00508129367650501,-0.00760477911581425
7,0.00485704539585841,-0.00806780531298923,0.979386583539447,-0.117251686125119,0.979386583555746,-0.117251686118821,0.00486534491711843,-0.00806167578139139
7.5,0.00464886218856919,-0.00850659089987982,0.97785070154663,-0.125071841798454,0.977850701568506,-0.125071841794638,0.0046585355911257,-0.00850014106233754
8,0.00445177244237016,-0.00892982920508434,0.976268573617578,-0.13284469290297,0.97626857364345,-0.132844692903632,0.00446291687746493,-0.0089230932748845
8.5,0.00426740898152461,-0.0093403642205101,0.974640347160295,-0.140573733194057,0.974640347187818,-0.140573733200782,0.00428011951454498,-0.00933337464708295
9,0.00409705565064678,-0.00974093310062596,0.972965699926947,-0.148261850165258,0.972965699953163,-0.148261850179098,0.00411142606671225,-0.00973371923959254
9.5,0.00394171462257185,-0.0101341448128167,0.971244000817624,-0.155911351237403,0.9712440008391,-0.155911351258803,0.00395783840915832,-0.0101267317209524
10,0.00380216828206698,-0.010522468585997,0.969474435980837,-0.163524011370968,0.969474435993803,-0.163524011399722,0.00382013973460157,-0.0105148759346454
10.5,0.00372445264852998,-0.0109420544889067,0.967678007756904,-0.171086794220763,0.967678007780102,-0.171086794246151,0.00374778427496275,-0.0109387526625002
11,0.00364097619402171,-0.011367247999488,0.965841980619065,-0.178617992380444,0.965841980651407,-0.178617992404794,0.0036689799370366,-0.011367735235158
11.5,0.00355182497643325,-0.0117974276433506,0.963965647958311,-0.186119498243674,0.96396564799848,-0.186119498268821,0.00358393798112575,-0.0118012804252916
12,0.00345704807141717,-0.0122320706394872,0.962048270025476,-0.193592867850356,0.962048270072042,-0.193592867877677,0.00349280975282512,-0.0122389270742223
12.5,0.0033566656698657,-0.0126707326650255,0.960089107682471,-0.201039369421685,0.960089107733975,-0.201039369452149,0.00339569984019403,-0.0126802801897963
13,0.00325067510412991,-0.0131130321420256,0.958087445240983,-0.208460026860917,0.958087445296002,-0.208460026895138,0.00329267589925425,-0.0131249983448796
13.5,0.00313905540188347,-0.0135586379064772,0.956042605113298,-0.215855657935401,0.956042605170491,-0.215855657973689,0.0031837760874853,-0.0135727836115715
14,0.00302177077953325,-0.0140072594361866,0.953953956445765,-0.223226907261065,0.953953956503911,-0.223226907303485,0.00306901475875093,-0.0140233734584978
14.5,0.00289877336271399,-0.0144586390353822,0.951820919428637,-0.230574274445567,0.951820919486649,-0.230574274491983,0.00294838688033428,-0.0144765341793498
15,0.00277000533734068,-0.0149125455307724,0.949642966580278,-0.237898137865929,0.949642966637212,-0.237898137916054,0.00282187150096014,-0.014932055524878
15.5,0.0026354006770638,-0.0153687691462188,0.947419621984209,-0.245198774600405,0.947419622039274,-0.245198774653834,0.00268943450741033,-0.0153897462876036
16,0.0024948865528871,-0.0158271173048243,0.945150459204602,-0.252476377031427,0.94515045925715,-0.252476377087675,0.00255103084327429,-0.0158494306462815
16.5,0.00234838450244018,-0.016287411167109,0.942835098409156,-0.259731066605976,0.942835098458679,-0.259731066664511,0.00240660631792328,-0.0163109451204457
17,0.00219581141629399,-0.0167494827583228,0.940473203077597,-0.266962905195048,0.940473203123717,-0.266962905255308,0.0022560991011194,-0.0167741360183797
17.5,0.00203708038413913,-0.0172131725710984,0.938064476559991,-0.274171904443198,0.938064476602449,-0.274171904504617,0.00209944097500547,-0.0172388572869073
18,0.00187210143309341,-0.0176783275547385,0.93560865866394,-0.281358033448013,0.935608658702583,-0.281358033510034,0.00193655839782469,-0.0177049686907105
18.5,0.0017007821825632,-0.0181447994214206,0.93310552238699,-0.288521225060636,0.933105522421759,-0.288521225122725,0.00176737342089323,-0.0181723342638196
19,0.00152302843429691,-0.0186124432142945,0.930554870864975,-0.295661381053963,0.93055487089589,-0.295661381115615,0.00159180449072593,-0.0186408209875191
19.5,0.00133874471188666,-0.0190811160936855,0.927956534574481,-0.302778376365497,0.927956534601631,-0.30277837642625,0.00140976716097196,-0.0191102976580426
20,0.00114783476067531,-0.019550676306386,0.925310368804833,-0.309872062587182,0.925310368828368,-0.309872062646617,0.00122117473335726,-0.0195806339145119
20.5,0.000950202016479329,-0.0200209823099646,0.922616251399477,-0.316942270844832,0.922616251419589,-0.316942270902573,0.00102593884254171,-0.020051699403357
21,0.000745750049577942,-0.0204918920293393,0.91987408075644,-0.323988814184354,0.91987408077336,-0.323988814240078,0.000823969996606222,-0.0205233630598571
21.5,0.000534382988902571,-0.0209632622272149,0.917083774071307,-0.331011489560712,0.917083774085292,-0.331011489614141,0.000615178082285006,-0.0209954924911067
22,0.000316005930145191,-0.0214349479733433,0.914245265802577,-0.338010079507661,0.914245265813905,-0.338010079558563,0.000399472842092796,-0.0214679534475839
22.5,9.05253305573117E-005,-0.0219068022003215,0.911358506337728,-0.344984353551522,0.911358506346689,-0.344984353599715,0.000176764328880474,-0.021940609372832
23,-0.000142150607555291,-0.0223786753357724,0.9084234608381,-0.351934069420007,0.908423460844991,-0.351934069465346,-5.30366578861408E-005,-0.0224133210226234
23.5,-0.000382111563240528,-0.0228504150025535,0.905440108241343,-0.358858974087057,0.905440108246462,-0.358858974129442,-0.00029001815089047,-0.0228859461465276
24,-0.000629444732328566,-0.0233218657799987,0.902408440401427,-0.365758804686467,0.902408440405069,-0.365758804725835,-0.000534266606332878,-0.0233583392260057
24.5,-0.000884234471381251,-0.0237928690203648,0.899328461347749,-0.372633289320365,0.8993284613502,-0.372633289356687,-0.000785866506180288,-0.0238303512641633
25,-0.00114656195002089,-0.0242632627155359,0.896200186646574,-0.379482147783211,0.896200186648112,-0.379482147816489,-0.00104489997010931,-0.0243018296230955
25.5,-0.00141650481175365,-0.0247328814098078,0.893023642849823,-0.386305092217635,0.893023642850712,-0.3863050922479,-0.0013114463764462,-0.0247726179054089
26,-0.00169413684363529,-0.0252015561551131,0.889798867017903,-0.393101827714895,0.889798867018393,-0.393101827742203,-0.00158558199177822,-0.0252425558770106
26.5,-0.00197952765531423,-0.0256691145055603,0.886525906304939,-0.399872052869978,0.886525906305262,-0.399872052894408,-0.00186737960925026,-0.0257114794286752
27,-0.00227274236812863,-0.0261353805484941,0.883204817596258,-0.406615460299109,0.88320481759663,-0.406615460320756,-0.0021569081958312,-0.0261792205742248
27.5,-0.00257384131505795,-0.0266001749695894,0.879835667189398,-0.413331737125683,0.879835667190017,-0.413331737144659,-0.0024542325490568,-0.0266456074833852
28,-0.00288287975242846,-0.0270633151497157,0.876418530511111,-0.420020565439267,0.876418530512153,-0.420020565455699,-0.00275941296396098,-0.0271104645475975
28.5,-0.00319990758432004,-0.0275246152914503,0.872953491864001,-0.426681622731209,0.872953491865629,-0.426681622745234,-0.00307250491104072,-0.0275736124771393
29,-0.00352496910069905,-0.027983886573284,0.869440644197396,-0.433314582309576,0.869440644199749,-0.433314582321338,-0.00339355872625829,-0.0280348684280813
29.5,-0.0038581027302998,-0.028440937329596,0.865880088897893,-0.439919113695468,0.865880088901095,-0.43991911370512,-0.00372261931414303,-0.0284940461575494
30,-0.00419934080930184,-0.0288955732545768,0.862271935595823,-0.446494883002298,0.862271935599979,-0.446494883009998,-0.00405972586516568,-0.0289509562058765
30.5,-0.00454870936683927,-0.0293475976282755,0.858616301984465,-0.453041553299227,0.858616301989661,-0.453041553305132,-0.00440491158858142,-0.029405406104161
31,-0.00490622792834866,-0.0297968115629849,0.854913313649439,-0.459558784959663,0.854913313655745,-0.459558784963935,-0.00475820346197775,-0.0298572006057478
31.5,-0.0052719093377232,-0.0302430142681548,0.851163103906169,-0.466046235995559,0.85116310391364,-0.466046235998357,-0.00511962199875582,-0.03030614194009
32,-0.00564575959918839,-0.030686003332029,0.847365813643695,-0.472503562378055,0.847365813652371,-0.472503562379538,-0.00548918103477836,-0.0307520300873985
32.5,-0.00602777773973873,-0.031125575018185,0.843521591173476,-0.478930418344951,0.843521591183381,-0.478930418345273,-0.00586688753535847,-0.0311946630724407
33,-0.0064179556929021,-0.0315615245751018,0.839630592082089,-0.485326456695374,0.839630592093234,-0.485326456694688,-0.00625274142372523,-0.0316338372757257
33.5,-0.00681627820450376,-0.0319936465569052,0.835692979086974,-0.491691329072017,0.83569297909936,-0.49169132907047,-0.00664673543202926,-0.032069347760311
34,-0.00722272276098451,-0.0324217351533846,0.831708921894584,-0.498024686231233,0.831708921908197,-0.498024686228968,-0.00704885497585306,-0.0325009886123283
34.5,-0.00763725954074468,-0.0328455845273578,0.827678597060426,-0.50432617830132,0.827678597075243,-0.504326178298472,-0.00745907805309443,-0.0329285532932934
35,-0.00805985138883114,-0.0332649891574677,0.823602187850649,-0.510595455029257,0.823602187866638,-0.510595455025955,-0.00787737516798021,-0.0333518350021981
35.5,-0.00849045381518421,-0.033679744184468,0.819479884104925,-0.516832166016212,0.819479884122044,-0.516832166012579,-0.00830370928080659,-0.0337706270452974
36,-0.00892901501650922,-0.0340896457590674,0.815311882100435,-0.523035960942102,0.815311882118634,-0.523035960938254,-0.00873803578390059,-0.0341847232114942
36.5,-0.00937547592171817,-0.0344944913894034,0.811098384416874,-0.52920648977952,0.811098384436096,-0.529206489775565,-0.00918030250410212,-0.0345939181511552
37,-0.00982977026072684,-0.0348940802862538,0.806839599802429,-0.535343402997317,0.806839599822611,-0.535343402993353,-0.0096304497319345,-0.0349980077561924
37.5,-0.0102918246562743,-0.0352882137041044,0.802535743040699,-0.54144635175417,0.802535743061773,-0.541446351750291,-0.0100884102774423,-0.0353967895392101
38,-0.0107615587382734,-0.0356766952762575,0.798187034818608,-0.54751498808245,0.7981870348405,-0.54751498807874,-0.0105541095525151,-0.0357900630095476
38.5,-0.0112388852800762,-0.0360593313421994,0.793793701595322,-0.553548965062701,0.793793701617955,-0.553548965059235,-0.0110274656793328,-0.0361776300440491
39,-0.0117237103558892,-0.0364359312655279,0.789355975472257,-0.559547936989063,0.78935597549555,-0.55954793698591,-0.0115083896243888,-0.0365592952504333
39.5,-0.0122159335184647,-0.0368063077408042,0.78487409406423,-0.565511559525965,0.7848740940881,-0.565511559523186,-0.0119967853573824,-0.0369348663212007
40,-0.0127154479960437,-0.0371702770877985,0.780348300371829,-0.57143948985641,0.780348300396191,-0.571439489854058,-0.0124925500340889,-0.0373041543760697
40.5,-0.0132221409074343,-0.0375276595316748,0.775778842655085,-0.577331386822167,0.775778842679852,-0.577331386820287,-0.012995574202157,-0.0376669742910294
41,-0.0137358934939897,-0.037878279467796,0.77116597430851,-0.583186911056211,0.771165974333594,-0.58318691105484,-0.0135057420286231,-0.0380231450122013
41.5,-0.0142565813671449,-0.0382219657099141,0.766509953737593,-0.589005725107699,0.766509953762906,-0.589005725106868,-0.014022931547771,-0.0383724898528037
42,-0.0147840747701081,-0.0385585517206756,0.761811044236801,-0.594787493559818,0.761811044262254,-0.594787493559552,-0.014547014927858,-0.0387148367716674
42.5,-0.0153182388522031,-0.0388878758234632,0.757069513869164,-0.600531883140793,0.757069513894671,-0.600531883141108,-0.0150778587550633,-0.0390500186318724
43,-0.015858933954302,-0.0392097813947575,0.752285635347507,-0.606238562828357,0.75228563537298,-0.606238562829264,-0.0156153243329337,-0.0393778734382468
43.5,-0.0164060159037506,-0.0395241170363394,0.747459685917365,-0.611907203947974,0.747459685942719,-0.611907203949477,-0.0161592679954903,-0.0396982445526178
44,-0.0169593363171294,-0.0398307367267889,0.742591947241644,-0.617537480265093,0.742591947266794,-0.61753748026719,-0.0167095414320881,-0.0400109808858973
44.5,-0.0175187429091891,-0.0401294999518882,0.737682705287057,-0.623129068071708,0.737682705311923,-0.623129068074392,-0.0172659920220484,-0.0403159370662426
45,-0.0180840798062701,-0.040420271813689,0.732732250212383,-0.628681646267487,0.732732250236884,-0.628681646270745,-0.0178284631770544,-0.0406129735827274
45.5,-0.0186551878625404,-0.0407029231181334,0.727740876258555,-0.634194896435722,0.727740876282613,-0.634194896439537,-0.0183967946892508,-0.0409019569041482
46,-0.0192319049773695,-0.0409773304412668,0.722708881640623,-0.639668502914348,0.722708881664164,-0.639668502918696,-0.0189708230830049,-0.041182759572753
46.5,-0.0198140664122217,-0.0412433761742353,0.717636568441595,-0.645102152862262,0.717636568464547,-0.645102152867118,-0.0195503819682751,-0.0414552602728996
47,-0.02040150510546,-0.0415009485473637,0.712524242508167,-0.650495536321177,0.712524242530462,-0.650495536326508,-0.0201353023935663,-0.0417193438747933
47.5,-0.0209940519835132,-0.0417499416337654,0.707372213348361,-0.655848346273212,0.707372213369933,-0.655848346278983,-0.0207254131965005,-0.0419749014536579
48,-0.0215915362669348,-0.0419902553330411,0.702180794031056,-0.661160278694446,0.702180794051843,-0.661160278700618,-0.021320541350078,-0.0422218302848484
48.5,-0.022193785769923,-0.0422217953357392,0.696950301087424,-0.666431032604612,0.696950301107367,-0.666431032611143,-0.0219205123027889,-0.0424600338155698
49,-0.0228006271919796,-0.0424444730693678,0.691681054414262,-0.671660310113142,0.691681054433308,-0.671660310119987,-0.0225251503108115,-0.0426894216140351
49.5,-0.0234118864004568,-0.042658205626821,0.686373377179212,-0.676847816461728,0.686373377197309,-0.676847816468839,-0.0231342787606528,-0.042909909297008
50,-0.0240273887028329,-0.0428629156781826,0.681027595727852,-0.681993260063576,0.681027595744953,-0.681993260070902,-0.0237477204806675,-0.0431214184368255
50.5,-0.0246469591076748,-0.0430585313669579,0.675644039492655,-0.687096352539525,0.675644039508716,-0.687096352547013,-0.024365298040049,-0.0433238764491012
51,-0.0252704225733229,-0.0432449861918167,0.67022304090379,-0.692156808751175,0.670223040918771,-0.692156808758771,-0.0249868340339807,-0.0435172164623989
51.5,-0.025897604243459,-0.043422218875013,0.664764935301749,-0.697174346831184,0.664764935315616,-0.697174346838832,-0.0256121513537951,-0.0437013771712734
52,-0.026528329668827,-0.0435901732186883,0.659270060851791,-0.702148688210868,0.659270060864511,-0.702148688218511,-0.0262410734411118,-0.0438763026741267
52.5,-0.0271624250144716,-0.0437487979502854,0.65373875846016,-0.707079557645246,0.653738758471706,-0.707079557652824,-0.0268734245250855,-0.0440419422974009
53,-0.0277997172519855,-0.0438980465583333,0.648171371692079,-0.71196668323565,0.648171371702427,-0.711966683243103,-0.0275090298420159,-0.0441982504076562
53.5,-0.0284400343363583,-0.0440378771198807,0.642568246691474,-0.716809796450028,0.642568246700605,-0.716809796457296,-0.0281477158367438,-0.0443451862131231
54,-0.0290832053671249,-0.0441682521208497,0.636929732102428,-0.72160863214106,0.636929732110326,-0.721608632148083,-0.028789310345378,-0.0444827135563281
54.5,-0.0297290607336264,-0.0442891382705852,0.63125617899231,-0.726362928562184,0.631256178998963,-0.726362928568899,-0.029433642759053,-0.0446108006993897
55,-0.030377432244284,-0.0444005063118527,0.625547940776587,-0.731072427381644,0.625547940781986,-0.731072427387991,-0.0300805441685462,-0.0447294201035761
55.5,-0.031028153239897,-0.0445023308275319,0.619805373145263,-0.735736873694668,0.619805373149403,-0.735736873700586,-0.0307298474897236,-0.0448385482046877
56,-0.0316810586910626,-0.0445945900452022,0.61402883399094,-0.740356016033856,0.614028833993822,-0.740356016039285,-0.0313813875699023,-0.0449381651858028
56.5,-0.0323359852799046,-0.0446772656408038,0.608218683338471,-0.744929606377874,0.608218683340097,-0.744929606382753,-0.0320350012753405,-0.0450282547488639
57,-0.0329927714663787,-0.0447503425424935,0.602375283276166,-0.749457400158541,0.602375283276542,-0.749457400162811,-0.0326905275601843,-0.0451088038865513
57.5,-0.033651257539506,-0.0448138087357893,0.596498997888541,-0.753939156266392,0.596498997887676,-0.753939156269995,-0.0333478075172884,-0.0451798026558086
58,-0.034311285653947,-0.0448676550710349,0.590590193190577,-0.758374637054784,0.590590193188486,-0.758374637057663,-0.0340066844114496,-0.0452412439543347
58.5,-0.0349726998524031,-0.0449118750741538,0.584649237063468,-0.762763608342635,0.584649237060166,-0.762763608344734,-0.0346670036956533,-0.0452931233012697
59,-0.0356353460743821,-0.0449464647616191,0.57867649919182,-0.767105839415846,0.578676499187327,-0.767105839417111,-0.0353286130110307,-0.0453354386232329
59.5,-0.0362990721519237,-0.0449714224604976,0.572672351002298,-0.771401103027495,0.572672350996636,-0.771401103027873,-0.035991362171283,-0.0453681900467835
60,-0.036963727792923,-0.0449867486343525,0.566637165603671,-0.775649175396845,0.566637165596866,-0.775649175396285,-0.0366551031323972,-0.0453913796982928
60.5,-0.0376291645527273,-0.0449924457157453,0.560571317728255,-0.779849836207245,0.560571317720335,-0.779849836205697,-0.037319689948523,-0.0454050115121268
61,-0.038295235794722,-0.0449885179459927,0.55447518367471,-0.784002868602963,0.554475183665706,-0.784002868600382,-0.0379849787149281,-0.0454090910479518
61.5,-0.0389617966406433,-0.0449749712227852,0.548349141252182,-0.788108059185031,0.548349141242127,-0.788108059181371,-0.0386508274989872,-0.0454036253178867
62,-0.0396287039113756,-0.0449518129561918,0.542193569725758,-0.792165198006126,0.542193569714688,-0.792165198001344,-0.0393170962601692,-0.0453886226241372
62.5,-0.0402958160590222,-0.0449190519335277,0.53600884976322,-0.796174078564558,0.536008849751174,-0.796174078558614,-0.0399836467600391,-0.045364092407658
