"Freq [GHz]","re(St(P1,P1)) []","im(St(P1,P1)) []","re(St(P1,P2)) []","im(St(P1,P2)) []","re(St(P2,P1)) []","im(St(P2,P1)) []","re(St(P2,P2)) []","im(St(P2,P2)) []"
0,0.00380850747933437,0,0.996203637507278,0,0.996203636823338,0,0.00380850873864347,0
0.5,0.00416166711983124,0.000894455144184292,0.995812586688444,-0.00432415301332867,0.995812586556468,-0.00432415339089332,0.00416159780829872,0.000894678829808981
1,0.00451778282367599,0.00134101796687958,0.995378216552375,-0.00819188606834587,0.995378216652924,-0.008191886141379,0.00451759868070312,0.00134155927409196
1.5,0.00472049088919846,0.00163547767471428,0.995053234534483,-0.0121171482978966,0.995053234575888,-0.0121171483727309,0.00472010590857508,0.0016363114130229
2,0.00482760561104811,0.00193765770438148,0.994703138116964,-0.0159182346566773,0.994703138107665,-0.0159182347183702,0.00482708195984571,0.0019389052149954
2.5,0.00489485174291637,0.00226051104957392,0.994362114958845,-0.0196222737754965,0.994362114912906,-0.0196222738202962,0.0048942475001148,0.00226220379711961
3,0.00494517473745759,0.00260004391526536,0.994041315254642,-0.0232589423948966,0.994041315185428,-0.0232589424257554,0.0049445258089964,0.0026021876769704
3.5,0.00498853804375621,0.0029517762865332,0.993738792095015,-0.026851606335784,0.993738792013277,-0.026851606357889,0.00498786644886628,0.00295437087871164
4,0.00502969446944102,0.00331254229286415,0.993447411354625,-0.0304162447829004,0.993447411268565,-0.0304162448011418,0.00502901454881943,0.00331558705778257
4.5,0.00507112359593531,0.00368026331819848,0.993159132874943,-0.0339630835867819,0.993159132790708,-0.0339630836047284,0.0050704454308339,0.00368375858193737
5,0.00511422717637888,0.00405358906853337,0.992866798193295,-0.0374984715176101,0.992866798115465,-0.0374984715373934,0.00511355842949301,0.00405753644608176
5.5,0.00515985824166698,0.00443164121782225,0.992564639423829,-0.041026294707704,0.992564639355748,-0.04102629473023,0.00515920517962387,0.0044360435957369
6,0.00520857385589135,0.00481384983458355,0.992248244466467,-0.0445489039696305,0.992248244410518,-0.0445489039948992,0.00520794194338814,0.00481871127903233
6.5,0.00526076411544052,0.00519985070539342,0.991914339202673,-0.0480676902743369,0.991914339160465,-0.0480676903017585,0.00526015837797877,0.00520517636880946
7,0.00531672185221832,0.00558942019654296,0.991560541297165,-0.0515834363147167,0.991560541269701,-0.0515834363433374,0.0053161471093186,0.00559521624191994
7.5,0.00537668221620824,0.00598243313044744,0.991185142375418,-0.05509653247461,0.991185142363238,-0.055096532503323,0.00537614323975077,0.00598870667551932
8,0.00544084616713003,0.00637883495720004,0.990786933130254,-0.0586071118102112,0.990786933133544,-0.0586071118378495,0.0054403477952023,0.00638559403615879
8.5,0.00550939498851577,0.00677862297835308,0.990365069543006,-0.0621151363507009,0.990365069561693,-0.0621151363761401,0.00550894221233733,0.00678587651780749
9,0.00558249960195389,0.0071818334244238,0.989918973261515,-0.0656204535990508,0.989918973295344,-0.0656204536212384,0.00558209763638129,0.00718959123080865
9.5,0.00566032677144424,0.00758853239748625,0.989448258556509,-0.0691228343374855,0.9894482586051,-0.0691228343554817,0.00565998111555743,0.00759680515356553
10,0.00574304339673692,0.00799880941652464,0.988952679248222,-0.0726219983873122,0.988952679311118,-0.0726219984002778,0.0057427598886941,0.00800760868528005
10.5,0.00584992230668835,0.00838120446856383,0.988490238200615,-0.0761090339171862,0.988490238262307,-0.0761090339285069,0.00584974058889209,0.0083904473740839
11,0.0059613411808378,0.00876118673062898,0.988017416223447,-0.0795834248192691,0.988017416284137,-0.0795834248288969,0.00596126811020226,0.00877087283561551
11.5,0.00607721374194892,0.00913867575042726,0.987534830968114,-0.0830457602567387,0.987534831027994,-0.0830457602646604,0.00607725635113865,0.00914880439655441
12,0.00619745180543546,0.00951359514609518,0.987043011458881,-0.0864966385752668,0.987043011518135,-0.0864966385814867,0.00619761729252982,0.0095241654353968
12.5,0.00632196550546815,0.00988587264424545,0.986542404091078,-0.0899366579407017,0.98654240414988,-0.0899366579452474,0.00632226122206492,0.00989688342136574
13,0.00645066351970747,0.010255440104066,0.986033379130192,-0.0933664085310841,0.986033379188702,-0.0933664085339947,0.00645109695756305,0.0102668899395129
13.5,0.00658345329172219,0.0106222335277195,0.985516237457839,-0.096786466176817,0.985516237516205,-0.096786466178151,0.00658403206803165,0.0106341207022131
14,0.00672024125021642,0.010986193057585,0.984991217357672,-0.100197387320081,0.984991217416025,-0.100197387319906,0.00672097309164621,0.0109985155476364
14.5,0.00686093302423285,0.0113472629607605,0.984458501178117,-0.103599705152519,0.984458501236578,-0.103599705150919,0.00686182574983502,0.0113600184255214
15,0.00700543365356651,0.0117053916013621,0.983918221748274,-0.106993926786314,0.983918221806947,-0.106993926783368,0.00700649515668927,0.0117185773708863
15.5,0.00715364779367142,0.0120605314012567,0.983370468457647,-0.110380531316118,0.983370468516623,-0.110380531311923,0.0071548860230013,0.0120741444661583
16,0.00730547991441291,0.0124126387897743,0.982815292939564,-0.11375996863634,0.982815292998921,-0.11375996863099,0.00730690285428134,0.0124266757924016
16.5,0.00746083449208857,0.0127616741431478,0.982252714322124,-0.117132658888,0.982252714381926,-0.117132658881594,0.00746245014217568,0.0127761313702672
17,0.00761961619417839,0.0131076017142395,0.981682724029853,-0.120498992421215,0.981682724090153,-0.120498992413854,0.00762143254875052,0.0131224750912726
17.5,0.00778173005639141,0.0134503895534004,0.981105290134338,-0.123859330171612,0.981105290195177,-0.123859330163395,0.00778375508320185,0.0134656746402224
18,0.00794708165160236,0.0137900094210512,0.980520361263506,-0.127214004361776,0.980520361324916,-0.127214004352802,0.00794932327058627,0.0138057014093511
18.5,0.00811557725035034,0.0141264366927771,0.97992787008751,-0.130563319450838,0.979927870149512,-0.130563319441205,0.00811804331224798,0.0141425304049636
19,0.00828712397263992,0.0144596502576446,0.979327736404888,-0.133907553266821,0.979327736467493,-0.133907553256623,0.00828982223766558,0.0144761401472935
19.5,0.00846162993084035,0.0147896324104799,0.978719869856307,-0.137246958266826,0.978719869919521,-0.137246958256155,0.00846456804751586,0.0148065125642605
20,0.00863900436352549,0.0151163687387874,0.978104172295155,-0.14058176287957,0.978104172358972,-0.140581762868514,0.00864218984779611,0.015133632879865
20.5,0.00881915776016837,0.0154398480050482,0.977480539844956,-0.143912172893133,0.977480539909366,-0.143912172881777,0.00882259797490503,0.0154574894978894
21,0.00900200197665693,0.0157600620250946,0.976848864673347,-0.147238372857971,0.976848864738335,-0.147238372846397,0.009005704111644,0.0157780738816218
21.5,0.00918745034162621,0.0160770055431971,0.976209036511384,-0.150560527481627,0.976209036576928,-0.150560527469909,0.00919142139412973,0.0160953804302393
22,0.00937541775367823,0.016390676104546,0.975560943945554,-0.153878782996752,0.975560944011628,-0.153878782984965,0.00937966450967676,0.0164094063525018
22.5,0.00956582076957624,0.0167010739257289,0.974904475508116,-0.157193268488637,0.974904475574689,-0.15719326847685,0.00957034978573651,0.0167201515383839
23,0.00975857768356148,0.0170082017638182,0.974239520589506,-0.160504097172077,0.974239520656545,-0.160504097160354,0.00976339527002221,0.0170276184292346
23.5,0.00995360859795888,0.0173120647846225,0.973565970194543,-0.163811367610518,0.973565970262011,-0.163811367598916,0.00995872080198829,0.0173318118870101
24,0.0101508354852836,0.0176126704306547,0.97288371756219,-0.167115164872873,0.972883717630046,-0.167115164861451,0.0101562480758607,0.0176327390631417
24.5,0.0103501822420782,0.017910028289295,0.972192658666678,-0.170415561625446,0.97219265873488,-0.170415561614254,0.0103559006954446,0.0179304092675361
25,0.0105515747347466,0.0182041499616572,0.971492692615976,-0.173712619157898,0.971492692684482,-0.173712619146985,0.0105576042209645,0.0182248338381563
25.5,0.0107549408376585,0.0184950489325613,0.970783721961807,-0.177006388343549,0.970783722030571,-0.177006388332958,0.0107612862082051,0.0185160260116484
26,0.0109602104638299,0.018782740442028,0.970065652933835,-0.180296910535122,0.970065653002808,-0.18029691052489,0.0109668762402498,0.0188040007953996
26.5,0.0111673155884964,0.0190672413586972,0.969338395609148,-0.183584218397832,0.969338395678285,-0.183584218387998,0.0111743059521266,0.0190887748414177
27,0.0113761902658997,0.0193485700554397,0.96860186402682,-0.186868336682219,0.968601864096072,-0.186868336672815,0.0113835090486735,0.0193703663223479
27.5,0.0115867706396316,0.0196267462875444,0.967855976256097,-0.190149282939422,0.967855976325413,-0.190149282930478,0.0115944213159658,0.0196487948099633
28,0.0117989949468713,0.0199017910736923,0.967100654425681,-0.193427068181904,0.967100654495015,-0.193427068173444,0.0118069806266317,0.0199240811563675
28.5,0.0120128035168741,0.0201737265799991,0.966335824720613,-0.196701697492673,0.966335824789913,-0.196701697484723,0.0120211269394053,0.0201962473781836
29,0.0122281387640455,0.0204425760072935,0.965561417352326,-0.199973170586187,0.965561417421545,-0.199973170578765,0.0122368022932528,0.0204653165439264
29.5,0.012444945175967,0.0207083634818854,0.964777366506784,-0.203241482323993,0.964777366575872,-0.203241482317116,0.0124539507964318,0.0207313126647612
30,0.0126631692967049,0.0209711139498778,0.963983610274813,-0.206506623188243,0.963983610343721,-0.206506623181927,0.0126725186108036,0.0209942605887727
30.5,0.0128827597057534,0.0212308530752479,0.963180090568248,-0.209768579715987,0.963180090636929,-0.209768579710243,0.012892453931755,0.0212541858989157
31,0.0131036669929455,0.0214876071417307,0.962366753024929,-0.213027334897132,0.962366753093334,-0.213027334891969,0.0131137069640585,0.021511114814722
31.5,0.0133258437296646,0.0217414029586278,0.961543546905147,-0.216282868538764,0.961543546973228,-0.216282868534191,0.0133362298939906,0.0217650740978754
32,0.0135492444366697,0.0219922677705517,0.960710424981758,-0.219535157598435,0.96071042504947,-0.219535157594454,0.0135599768580342,0.0220160909616731
32.5,0.0137738255488598,0.0222402291712092,0.959867343425818,-0.22278417648877,0.959867343493115,-0.222784176485387,0.0137849039084745,0.0222641929844714
33,0.0139995453772656,0.0224853150211632,0.959014261689301,-0.226029897355763,0.959014261756138,-0.226029897352978,0.0140109689761863,0.0225094080270811
33.5,0.0142263640685684,0.0227275533696389,0.958151142386212,-0.229272290332785,0.958151142452545,-0.229272290330599,0.0142381318308983,0.0227517641541557
34,0.0144542435624225,0.0229669723803101,0.957277951173183,-0.232511323772355,0.957277951238968,-0.232511323770761,0.0144663540392233,0.0229912895595406
34.5,0.0146831475468454,0.0232036002610718,0.95639465663044,-0.235746964457449,0.956394656695635,-0.235746964456448,0.0146955989207079,0.0232280124955557
35,0.0149130414119393,0.0234374651977245,0.955501230143886,-0.238979177794091,0.955501230208451,-0.238979177793673,0.014925831502169,0.0234619612061946
35.5,0.0151438922021721,0.0236685952915294,0.954597645788874,-0.24220792798676,0.954597645852768,-0.24220792798692,0.0151570184705446,0.0236931638641407
36,0.0153756685674655,0.0238970185005754,0.953683880216168,-0.245433178198071,0.953683880279352,-0.2454331781988,0.0153891281245032,0.0239216485116003
36.5,0.0156083407132853,0.0241227625848555,0.952759912540443,-0.24865489069407,0.952759912602879,-0.248654890695359,0.0156221303250171,0.0241474430048163
37,0.0158418803499592,0.024345855055,0.951825724231627,-0.251873026976355,0.951825724293278,-0.251873026978191,0.0158559964451104,0.0243705749622318
37.5,0.0160762606413988,0.0245663231245539,0.950881299009295,-0.255087547902144,0.950881299070125,-0.255087547904515,0.0160906993189722,0.0245910717161855
38,0.0163114561534077,0.0247841936657027,0.949926622740262,-0.258298413793345,0.949926622800236,-0.258298413796239,0.0163262131906119,0.0248089602680572
38.5,0.0165474428017457,0.0249994931683593,0.948961683339492,-0.261505584535547,0.948961683398578,-0.261505584538948,0.0165625136622287,0.0250242672467598
39,0.0167841978001019,0.0252122477024888,0.947986470674377,-0.264709019667808,0.947986470732542,-0.264709019671702,0.0167995776424482,0.0252370188704805
39.5,0.0170216996081172,0.0254224828835738,0.947000976472407,-0.267908678464038,0.947000976529618,-0.267908678468408,0.0170373832945707,0.0254472409115567
40,0.017259927879592,0.0256302238410997,0.946005194232234,-0.271104520006695,0.946005194288462,-0.271104520011523,0.0172759099849634,0.0256549586643748
40.5,0.0174988634109955,0.0258354951899538,0.944999119138103,-0.274296503253457,0.944999119193319,-0.274296503258727,0.0175151382317244,0.0258601969162002
41,0.0177384880903929,0.0260383210046191,0.943982747977604,-0.277484587097484,0.94398274803178,-0.277484587103176,0.0177550496537209,0.0260629799207963
41.5,0.0179787848468886,0.0262387247960525,0.942956079062678,-0.280668730421808,0.942956079115787,-0.280668730427903,0.0179956269201146,0.0262633313747447
42,0.0182197376006664,0.0264367294911205,0.941919112153813,-0.283848892148374,0.94191911220583,-0.283848892154851,0.0182368537004562,0.0264612743963399
42.5,0.0184613312137336,0.0266323574145002,0.940871848387341,-0.28702503128218,0.940871848438241,-0.28702503128902,0.0184787146154438,0.0266568315069473
43,0.0187035514414118,0.0268256302729142,0.939814290205748,-0.290197106950946,0.939814290255509,-0.290197106958127,0.0187211951884123,0.0268500246147243
43.5,0.0189463848846665,0.0270165691415891,0.938746441290909,-0.29336507844069,0.938746441339508,-0.293365078448192,0.0189642817976208,0.0270408750005717
44,0.019189818943312,0.02720519445284,0.937668306500138,-0.296528905227569,0.937668306547554,-0.296528905235368,0.0192079616294051,0.0272294033062312
44.5,0.0194338417701593,0.0273915259866582,0.936579891804969,-0.299688547006302,0.936579891851183,-0.299688547014376,0.0194522226322363,0.0274156295243999
45,0.0196784422261356,0.0275755828632138,0.935481204232559,-0.302843963715463,0.935481204277552,-0.30284396372379,0.0196970534717424,0.027599572990781
45.5,0.0199236098364272,0.027757383537153,0.934372251809607,-0.305995115559923,0.934372251853363,-0.30599511556848,0.0199424434867212,0.0277812523779426
46,0.020169334747664,0.0279369457935972,0.933253043508713,-0.309141963030679,0.933253043551214,-0.309141963039442,0.0201883826461862,0.0279606856909065
46.5,0.0204156076861806,0.0281142867457569,0.932123589197047,-0.312284466922276,0.932123589238278,-0.312284466931221,0.0204348615074662,0.028137890264359
47,0.0206624199173715,0.0282894228340467,0.930983899587259,-0.315422588348066,0.930983899627207,-0.31542258835717,0.0206818711753876,0.0283128827613905
47.5,0.020909763206158,0.0284623698266282,0.929833986190529,-0.318556288753445,0.929833986229181,-0.318556288762684,0.0209294032625518,0.0284856791736816
48,0.0211576297785743,0.0286331428212832,0.928673861271656,-0.321685529927265,0.928673861309001,-0.321685529936614,0.0211774498507227,0.0286562948230358
48.5,0.0214060122844894,0.0288017562485352,0.927503537806115,-0.324810274011569,0.927503537842141,-0.324810274021005,0.0214260034533377,0.0288247443641823
49,0.0216549037614613,0.0289682238759377,0.926323029438981,-0.327930483509789,0.92632302947368,-0.327930483519286,0.0216750569791379,0.028991041788768
49.5,0.0219042975997267,0.0291325588134523,0.925132350445652,-0.33104612129354,0.925132350479016,-0.331046121303075,0.0219246036969326,0.0291552004304532
50,0.0221541875083269,0.0292947735198423,0.923931515694285,-0.33415715060812,0.923931515726306,-0.334157150617669,0.0221746372014898,0.0293172329710489
50.5,0.0224045674823627,0.0294548798100063,0.922720540609863,-0.337263535076845,0.922720540640536,-0.337263535086382,0.0224251513805457,0.0294771514476071
51,0.0226554317713708,0.0296128888631928,0.921499441139841,-0.34036523870428,0.921499441169162,-0.340365238713781,0.0226761403829397,0.0296349672604108
51.5,0.0229067748488169,0.0297688112320127,0.920268233721278,-0.343462225878507,0.920268233749242,-0.343462225887948,0.0229275985878527,0.0297906911817896
52,0.0231585913826846,0.0299226568522097,0.919026935249401,-0.346554461372467,0.919026935276007,-0.346554461381825,0.0231795205751502,0.0299443333657003
52.5,0.0234108762071629,0.0300744350531166,0.917775563047544,-0.349641910344482,0.917775563072789,-0.349641910353732,0.0234319010968085,0.030095903358017
53,0.0236636242954,0.0302241545687387,0.916514134838383,-0.35272453833801,0.916514134862267,-0.352724538347128,0.02368473504942,0.0302454101074625
53.5,0.0239168307333214,0.030371823549417,0.915242668716426,-0.355802311280712,0.915242668738951,-0.355802311289675,0.0239380174477539,0.0303928619771423
54,0.0241704906944891,0.030517449574025,0.9139611831217,-0.358875195482869,0.913961183142868,-0.358875195491654,0.0241917433993618,0.0305382667566196
54.5,0.0244245994159861,0.0306610396626372,0.912669696814574,-0.361943157635225,0.912669696834387,-0.361943157643809,0.0244459080802104,0.0306816316744845
55,0.0246791521753043,0.0308026002896395,0.911368228851675,-0.365006164806291,0.911368228870138,-0.36500616481465,0.024700506711324,0.0308229634113801
55.5,0.0249341442682246,0.0309421373972238,0.910056798562858,-0.368064184439157,0.910056798579976,-0.368064184447269,0.0249555345364113,0.0309622681134243
56,0.0251895709876589,0.0310796564092399,0.908735425529165,-0.37111718434786,0.908735425544944,-0.371117184355704,0.0252109868004706,0.0310995514060028
56.5,0.0254454276034403,0.0312151622453565,0.907404129561751,-0.374165132713344,0.9074041295762,-0.374165132720897,0.0254668587293402,0.0312348184078928
57,0.0257017093430421,0.0313486593355023,0.906062930681721,-0.377207998079038,0.906062930694847,-0.37720799808628,0.0257231455101827,0.031368073745667
57.5,0.0259584113731989,0.0314801516345464,0.90471184910085,-0.380245749346101,0.904711849112662,-0.380245749353009,0.0259798422728794,0.0314993215683597
58,0.0262155287824151,0.0316096426371906,0.90335090520314,-0.383278355768348,0.90335090521365,-0.383278355774904,0.0262369440723145,0.0316285655623541
58.5,0.0264730565643346,0.0317371353930465,0.901980119527197,-0.386305786946895,0.901980119536416,-0.386305786953078,0.0264944458715306,0.0317558089664651
59,0.0267309896019551,0.0318626325218607,0.900599512749364,-0.389328012824546,0.900599512757304,-0.389328012830337,0.0267523425257316,0.0318810545871782
59.5,0.0269893226526622,0.0319861362288663,0.899209105667611,-0.392345003679944,0.899209105674286,-0.392345003685324,0.0270106287671155,0.0320043048140304
60,0.0272480503340689,0.0321076483202423,0.897808919186136,-0.395356730121502,0.897808919191561,-0.395356730126453,0.0272692991905173,0.0321255616351053
60.5,0.0275071671106323,0.0322271702186423,0.896398974300649,-0.398363163081151,0.896398974304839,-0.398363163085655,0.027528348239834,0.0322448266526081
61,0.027766667281029,0.0323447029787856,0.894979292084313,-0.401364273807903,0.894979292087286,-0.401364273811943,0.0277877701952261,0.0323621010985076
61.5,0.0280265449662794,0.0324602473030857,0.893549893674325,-0.40436003386126,0.893549893676098,-0.404360033864821,0.0280475591610623,0.0324773858502303
62,0.0282867940985797,0.0325738035572833,0.892110800259095,-0.407350415104487,0.892110800259686,-0.407350415107552,0.0283077090545908,0.0325906814463627
62.5,0.02854740841085,0.0326853717860995,0.89066203306602,-0.410335389697737,0.890662033065449,-0.410335389700291,0.0285682135953294,0.0327019881023792
63,0.0288083814269528,0.0327949517288493,0.889203613349817,-0.413314930091089,0.889203613348106,-0.41331493009312,0.0288290662951359,0.0328113057263377
63.5,0.0290697064525823,0.0329025428350356,0.887735562381403,-0.416289009017469,0.887735562378571,-0.416289009018962,0.0290902604489569,0.0329186339345656
