"Freq [GHz]","re(St(P1,P1)) []","im(St(P1,P1)) []","re(St(P1,P2)) []","im(St(P1,P2)) []","re(St(P2,P1)) []","im(St(P2,P1)) []","re(St(P2,P2)) []","im(St(P2,P2)) []"
0,0.00352246491365804,0,0.996489106692025,0,0.996489110548282,0,0.00352247017136165,0
0.5,0.00387873159990448,0.000747368327612463,0.996089591629939,-0.00436878634018001,0.996089591752529,-0.00436878571671073,0.00387863798035681,0.000747696752753768
1,0.00423570805274309,0.00104003914327677,0.99563968749456,-0.00827153328161145,0.995639687357137,-0.00827153266558511,0.00423541746074463,0.00104081467205575
1.5,0.00439899429032664,0.00115522602803964,0.995319347462818,-0.0122455448403969,0.995319347522422,-0.0122455441394642,0.00439827151960515,0.00115639429222369
2,0.00447428812323736,0.00130746734129872,0.994961945010965,-0.0160923893764888,0.994961945210822,-0.0160923887182278,0.00447328087688526,0.00130923550706896
2.5,0.00451755108226237,0.0014885005622034,0.994602611523606,-0.0198323679185179,0.994602611789587,-0.0198323673710306,0.00451634362869946,0.00149090660621098
3,0.00454775021925702,0.00168854718198119,0.994256403052908,-0.0234929029666233,0.994256403325935,-0.0234929025506503,0.00454637850749773,0.0016915941547424
3.5,0.00457238745336674,0.00190167842067801,0.993925098990068,-0.0270985525712053,0.993925099234614,-0.027098552280437,0.00457086314689548,0.00190536372134709
4,0.00459486248958951,0.00212449411496429,0.993604092926489,-0.0306679234572886,0.99360409312667,-0.0306679232735991,0.00459318476908033,0.00212881602532988
4.5,0.00461689626464867,0.0023550395860763,0.993286784385383,-0.0342139712934468,0.993286784538021,-0.0342139711954363,0.00461505734756518,0.00235999859537372
5,0.00463944491964385,0.00259219629786323,0.992966740363534,-0.0377453022348409,0.992966740472337,-0.0377453022019214,0.00463743273572659,0.00259779518810532
5.5,0.0046630858835508,0.00283534954305686,0.99263851087606,-0.0412674599693617,0.992638510947733,-0.0412674599833345,0.00466088542204712,0.00284159321498656
6,0.00468819675624577,0.00308420298113177,0.992297784066657,-0.0447839186121879,0.992297784108672,-0.0447839186576466,0.00468579075559017,0.00309109826939213
6.5,0.00471504475863505,0.00333867166316004,0.991941272905937,-0.0482967794650868,0.991941272925399,-0.0482967795293074,0.0047124140493422,0.00334622719704214
7,0.00474383444270798,0.00359881838681986,0.991566523896919,-0.0518072405394747,0.991566523900082,-0.0518072406121171,0.00474095809499753,0.00360704450195648
7.5,0.00477473461789701,0.00386481489877433,0.991171728128243,-0.0553159078363148,0.99117172812038,-0.0553159079090602,0.00477158997128968,0.00387372359310056
8,0.00480789435697626,0.00413691790521842,0.99075556211489,-0.0588230007327022,0.990755562100337,-0.058823000798907,0.00480445697258258,0.00414652283156336
8.5,0.0048434530040885,0.00441545425199674,0.990317063053812,-0.0623284875630583,0.99031706303608,-0.0623284876174584,0.00483969656138905,0.00442577074096651
9,0.00488154677009844,0.00470081200804628,0.989855534637059,-0.0658321753340498,0.98985553461897,-0.0658321753724955,0.00487744291964565,0.00471185711694133
9.5,0.00492231333585624,0.00499343551018772,0.989370477347082,-0.0693337692342411,0.989370477330896,-0.0693337692534843,0.00491783151339475,0.00500522809516735
10,0.00496589527728597,0.00529382319169702,0.988861537397512,-0.0728329121611182,0.988861537385038,-0.072832912158634,0.00496100248107012,0.00530638400177263
10.5,0.00504136942041972,0.00554752032792472,0.988386076398165,-0.076310031970416,0.988386076385703,-0.0763100319671572,0.00503618242310261,0.00556072108738537
11,0.00512019929012714,0.00579965964672624,0.987901769245256,-0.0797737631639981,0.987901769232883,-0.0797737631599773,0.0051147030916931,0.00581350240439615
11.5,0.00520234049810858,0.00605017879915248,0.987409216208793,-0.0832248788189336,0.987409216196581,-0.0832248788141667,0.00519652003220011,0.00606466576707998
12,0.00528774707924473,0.00629901698432267,0.986908910881887,-0.0866641449052619,0.986908910869904,-0.0866641448997809,0.00528158721558569,0.0063141505447204
12.5,0.00537637155261278,0.00654611499747926,0.986401249894178,-0.0900923103291031,0.986401249882483,-0.0900923103229392,0.00536985710000648,0.00656189770953652
13,0.0054681649840756,0.00679141527542271,0.985886542781651,-0.0935100990982125,0.985886542770298,-0.0935100990914037,0.00546128069395857,0.00680784988192329
13.5,0.00556307705032641,0.00703486193928526,0.985365021720117,-0.0969182043782713,0.985365021709155,-0.0969182043708647,0.00555580762086122,0.00705195137300674
14,0.00566105610424075,0.00727640083454428,0.984836850902482,-0.10031728419805,0.984836850891952,-0.100317284190084,0.00565338618494041,0.00729414822439178
14.5,0.00576204924143586,0.00751597956830086,0.9843021354032,-0.103707958564026,0.984302135393135,-0.10370795855555,0.0057539634382823,0.007534388245098
15,0.00586600236788734,0.0077535475437438,0.983760929426556,-0.107090807756861,0.983760929416986,-0.10709080774792,0.00585748524893423,0.00777262104571808
15.5,0.00597286026848926,0.00798905599181499,0.983213243878784,-0.110466371599685,0.983213243869731,-0.110466371590329,0.00596389636991551,0.00800879806964616
16,0.00608256667642935,0.00822245800004984,0.982659053238316,-0.113835149509181,0.9826590532298,-0.113835149499455,0.00607314050900695,0.00824287262152046
16.5,0.00619506434325126,0.00845370853856409,0.982098301724713,-0.117197601162923,0.982098301716746,-0.117197601152876,0.00618516039920129,0.00847479989272992
17,0.00631029510948045,0.00868276448321126,0.981530908786115,-0.120554147638907,0.981530908778707,-0.120554147628582,0.0062998978696776,0.00870453698409346
17.5,0.00642819997569433,0.00890958463590685,0.980956773938629,-0.123905172904732,0.980956773931784,-0.123905172894172,0.00641729391718117,0.00893204292564986
18,0.00654871917391145,0.00913412974210459,0.980375780999933,-0.127251025553958,0.980375780993654,-0.127251025543207,0.00653728877768202,0.00915727869359229
18.5,0.00667179223918977,0.00935636250547311,0.979787801764592,-0.130592020705071,0.979787801758876,-0.130592020694168,0.0066598219981968,0.00938020722437827
19,0.00679735808130283,0.00957624759975761,0.97919269917089,-0.133928441994592,0.979192699165732,-0.133928441983576,0.00678483250864727,0.00960079342599318
19.5,0.00692535505640182,0.00979375167788499,0.978590330009289,-0.137260543609647,0.978590330004682,-0.137260543598554,0.00691225869365579,0.00981900418645942
20,0.00705572103853475,0.0100088433783108,0.977980547221251,-0.140588552317232,0.977980547217187,-0.140588552306096,0.00704203846415083,0.0100348083795661
20.5,0.00718839349092648,0.0102214933286491,0.977363201834905,-0.143912669457457,0.977363201831372,-0.14391266944631,0.0071741093286801,0.0102481768678673
21,0.00732330953691179,0.0104316741466439,0.976738144580975,-0.147233072876291,0.976738144577959,-0.147233072865164,0.00730840846433706,0.0104590825030244
21.5,0.00746040603042142,0.0106393604384829,0.976105227229009,-0.150549918780334,0.976105227226499,-0.150549918769255,0.00744487278717879,0.0106675001234944
22,0.00759961962592964,0.0108445287945371,0.975464303680424,-0.153863343501579,0.975464303678402,-0.153863343490571,0.00758343902206027,0.0108734065496354
22.5,0.00774088684775837,0.0110471577825395,0.974815230851224,-0.157173465164676,0.974815230849675,-0.157173465153765,0.00772404377177657,0.0110767805762664
23,0.00788414415866498,0.0112472279382843,0.974157869373897,-0.160480385252703,0.974157869372804,-0.160480385241909,0.0078666235854325,0.0112776029627506
23.5,0.0080293280276153,0.0114447217538842,0.973492084144577,-0.163784190070159,0.973492084143923,-0.163784190059502,0.00801111502595148,0.0114758564206578
24,0.00817637499666393,0.0116396236636267,0.972817744738574,-0.167084952104076,0.972817744738341,-0.167084952093577,0.00815745473664398,0.0116715255990441
24.5,0.00832522174686948,0.0118319200275163,0.9721347257145,-0.170382731285595,0.97213472571467,-0.170382731275267,0.00830557950675873,0.0118645970674369
25,0.00847580516316257,0.0120215991125541,0.971442906824647,-0.17367757615555,0.971442906825202,-0.173677576145411,0.00845542633594562,0.0120550592965771
25.5,0.00862806239810501,0.0122086510717798,0.97074217314698,-0.176969524938406,0.970742173147901,-0.176969524928467,0.00860693249755826,0.0122429026369693
26,0.00878193093446603,0.0123930679212063,0.970032415151998,-0.180258606529301,0.970032415153266,-0.180258606519575,0.00876003560073857,0.0124281192953402
26.5,0.00893734864655799,0.012574843514634,0.9693135287159,-0.183544841399379,0.969313528717499,-0.183544841389875,0.00891467365121446,0.0126107033090257
27,0.00909425386027471,0.0127539735164697,0.968585415089883,-0.18682824242459,0.968585415091794,-0.186828242415319,0.00907078511076198,0.012790650518391
27.5,0.00925258541176888,0.012930455372576,0.967847980833914,-0.190108815643243,0.967847980836119,-0.190108815634213,0.00922830895527632,0.0129679585373426
28,0.00941228270472422,0.0131042882792403,0.967101137722148,-0.193386560947412,0.96710113772463,-0.193386560938629,0.00938718473139874,0.0131426267219803
28.5,0.0095732857661707,0.0132754731502986,0.96634480262603,-0.196661472713229,0.96634480262877,-0.196661472704698,0.00954735261166237,0.013314656137478
29,0.00973553530079505,0.0134440125825082,0.965578897380174,-0.199933540374784,0.965578897383157,-0.19993354036651,0.00970875344810235,0.0134840495232469
29.5,0.00989897274370921,0.0136099108192305,0.964803348635352,-0.203202748946175,0.96480334863856,-0.203202748938165,0.00987132882430669,0.0136508112564693
30,0.0100635403116259,0.0137731737124414,0.964018087702143,-0.206469079496029,0.964018087705561,-0.206469079488282,0.0100350211058545,0.0138149473140263
30.5,0.0102291810524193,0.0139338086832193,0.963223050388292,-0.209732509578379,0.963223050391905,-0.209732509570899,0.0101997734891205,0.0139764652329353
31,0.0103958388930197,0.0140918246806732,0.962418176832205,-0.212993013623758,0.962418176835996,-0.212993013616545,0.0103655300484076,0.0141353740693151
31.5,0.0105634586856158,0.0142472321394549,0.961603411334655,-0.216250563293847,0.96160341133861,-0.216250563286902,0.0105322357813839,0.014291684355983
32,0.0107319862521355,0.0144000429358697,0.960778702190366,-0.219505127802974,0.96077870219447,-0.219505127796297,0.0106998366527924,0.0144454080587062
32.5,0.0109013684269743,0.0145502703426597,0.959944001520803,-0.222756674209325,0.959944001525042,-0.222756674202917,0.0108682796364083,0.0145965585312025
33,0.0110715530979321,0.0146979289825071,0.959099265109261,-0.226005167678662,0.959099265113622,-0.226005167672521,0.0110375127552256,0.0147451504689249
33.5,0.0112424892453545,0.0148430347803576,0.958244452239119,-0.229250571722948,0.958244452243589,-0.229250571717072,0.0112074851198467,0.014891199861707
34,0.0114141269794238,0.0149856049145436,0.95737952553589,-0.232492848416246,0.957379525540457,-0.232492848410633,0.01137814696505,0.0150347239453033
34.5,0.0115864175756024,0.015125657766849,0.956504450813606,-0.235731958589882,0.956504450818258,-0.23573195858453,0.0115494496845274,0.0151757411519142
35,0.0117593135081809,0.0152632128715118,0.955619196925873,-0.238967862008855,0.955619196930597,-0.238967862003761,0.0117213458637585,0.0153142710597116
35.5,0.0119327684819213,0.0153982908632437,0.954723735621885,-0.242200517531152,0.954723735626671,-0.242200517526313,0.0118937893110115,0.0154503343414543
36,0.012106737461771,0.015530913424326,0.953818041407549,-0.2454298832516,0.953818041412386,-0.245429883247011,0.0120667350864504,0.0155839527122226
36.5,0.0122811767006083,0.0156611032308125,0.952902091411802,-0.248655916631664,0.95290209141668,-0.248655916627323,0.0122401395293227,0.0157151488763279
37,0.0124560437650211,0.0157888838979237,0.951975865258187,-0.251878574616486,0.951975865263095,-0.251878574612387,0.0124139602832243,0.0158439464734697
37.5,0.012631297559072,0.0159142799246692,0.951039344941616,-0.25509781374037,0.951039344946547,-0.25509781373651,0.0125881563194054,0.0159703700241605
38,0.0128068983460378,0.0160373166377439,0.950092514710319,-0.258313590221788,0.950092514715262,-0.258313590218161,0.0127626879581085,0.016094444874486
38.5,0.0129828077680962,0.0161580201347862,0.949135360952836,-0.261525860048848,0.949135360957783,-0.26152586004545,0.0129375168879174,0.0162161971402599
39,0.0131589888639362,0.0162764172270107,0.948167872089973,-0.264734579056162,0.948167872094916,-0.264734579052988,0.0131126061830943,0.0163356536506072
39.5,0.0133354060842614,0.0163925353813084,0.947190038471575,-0.267939702993871,0.947190038476506,-0.267939702990915,0.0132879203188827,0.0164528418910359
40,0.0135120253051692,0.0165064026618487,0.946201852277963,-0.27114118758958,0.946201852282874,-0.271141187586838,0.0134634251847616,0.0165677899460559
40.5,0.0136888138393718,0.0166180476712545,0.945203307425886,-0.274338988603859,0.945203307430772,-0.274338988601324,0.0136390880956197,0.0166805264413876
41,0.0138657404452381,0.0167274994914071,0.944194399478827,-0.277533061879893,0.944194399483679,-0.27753306187756,0.0138148778008291,0.016791080485818
41.5,0.0140427753336255,0.016834787623939,0.943175125561475,-0.280723363387846,0.943175125566289,-0.28072336338571,0.0139907644911995,0.0168994816127725
42,0.0142198901724752,0.0169399419304865,0.942145484278224,-0.283909849264414,0.942145484282993,-0.283909849262468,0.0141667198037814,0.017005759721638
42.5,0.0143970580891498,0.0170429925727766,0.941105475635503,-0.287092475848003,0.941105475640223,-0.287092475846243,0.0143427168244971,0.0171099450189305
43,0.0145742536704744,0.0171439699525795,0.940055100967782,-0.290271199709981,0.940055100972447,-0.290271199708399,0.0145187300885721,0.017212067959322
43.5,0.0147514529604692,0.0172429046516736,0.938994362867092,-0.293445977682284,0.938994362871696,-0.293445977680876,0.0146947355787452,0.0173121591866576
44,0.0149286334557315,0.0173398273718046,0.937923265115882,-0.296616766881819,0.937923265120422,-0.296616766880577,0.014870710721226,0.0174102494749635
44.5,0.0151057740984594,0.0174347688748142,0.936841812623086,-0.299783524731855,0.936841812627556,-0.299783524730775,0.0150466343793791,0.0175063696695708
45,0.0152828552670761,0.0175277599229409,0.935750011363208,-0.302946208980748,0.935750011367607,-0.302946208979823,0.0152224868451112,0.0176005506284027
45.5,0.0154598587644489,0.0176188312194425,0.934647868318327,-0.306104777718218,0.934647868322648,-0.306104777717443,0.01539824982793,0.0176928231635105
46,0.0156367678036677,0.0177080133495886,0.933535391422824,-0.309259189389401,0.933535391427065,-0.30925918938877,0.0155739064416652,0.0177832179829516
46.5,0.0158135669913758,0.0177953367221435,0.932412589510757,-0.312409402806888,0.932412589514916,-0.312409402806394,0.0157494411888185,0.017871765633082
47,0.0159902423086375,0.0178808315114369,0.931279472265705,-0.315555377160924,0.931279472269779,-0.315555377160562,0.0159248399425345,0.0179584964413688
47.5,0.0161667810893203,0.0179645276001097,0.930136050172986,-0.318697072027951,0.930136050176972,-0.318697072027715,0.0161000899261672,0.0180434404598091
48,0.0163431719960017,0.0180464545226724,0.928982334474117,-0.321834447377624,0.928982334478013,-0.321834447377508,0.016275179690439,0.0181266274090688
48.5,0.0165194049933811,0.0181266414099597,0.927818337123414,-0.324967463578456,0.927818337127217,-0.324967463578455,0.0164500990881788,0.0182080866234287
49,0.01669547131921,0.0182051169346271,0.926644070746615,-0.328096081402208,0.926644070750324,-0.328096081402317,0.0166248392466334,0.018287846996671
49.5,0.0168713634527429,0.0182819092577835,0.925459548601436,-0.331220262027144,0.92545954860505,-0.331220262027357,0.0167993925373569,0.0183659369289995
50,0.0170470750807215,0.0183570459769091,0.924264784539948,-0.334339967040238,0.924264784543464,-0.334339967040548,0.0169737525436809,0.0184423842751318
50.5,0.0172226010609228,0.018430554075171,0.9230597929727,-0.337455158438457,0.923059792976119,-0.33745515843886,0.0171479140257771,0.0185172162936655
51,0.0173979373832837,0.0185024598722787,0.921844588834495,-0.34056579862917,0.921844588837815,-0.340565798629661,0.0173218728833366,0.0185904595978708
51.5,0.0175730811286519,0.018572788977012,0.92061918755173,-0.343671850429783,0.920619187554951,-0.343671850430355,0.0174956261158826,0.0186621401080191
52,0.0177480304251986,0.0186415662415496,0.919383605011233,-0.346773277066671,0.919383605014353,-0.34677327706732,0.0176691717807597,0.0187322830053858
52.5,0.0179227844025552,0.0187088157177591,0.918137857530521,-0.34987004217345,0.918137857533541,-0.349870042174172,0.0178425089488377,0.0188009126880799
53,0.0180973431437257,0.0187745606155607,0.916881961829403,-0.352962109788682,0.916881961832322,-0.35296210978947,0.0180156376579806,0.0188680527288105
53.5,0.0182717076348614,0.0188388232635315,0.915615935002868,-0.356049444353027,0.915615935005687,-0.356049444353877,0.0181885588643471,0.0189337258347575
54,0.0184458797129693,0.0189016250718699,0.914339794495205,-0.359132010705924,0.914339794497923,-0.359132010706831,0.0183612743915875,0.0189979538096696
54.5,0.0186198620116586,0.018962986497876,0.91305355807527,-0.362209774081824,0.913053558077889,-0.362209774082783,0.0185337868780239,0.0190607575183375
55,0.018793657905024,0.0190229270140749,0.911757243812879,-0.365282700106024,0.911757243815397,-0.365282700107031,0.0187060997219077,0.0191221568535815
55.5,0.0189672714497835,0.0190814650791125,0.910450870056241,-0.368350754790141,0.91045087005866,-0.368350754791191,0.018878217024851,0.0191821707058868
56,0.0191407073258081,0.0191386181115771,0.909134455410413,-0.371413904527249,0.909134455412733,-0.371413904528338,0.0190501435335589,0.0192408169358309
56.5,0.0193139707751651,0.0191944024668413,0.907808018716703,-0.374472116086723,0.907808018718926,-0.374472116087848,0.0192218845799796,0.0192981123494249
57,0.0194870675398449,0.0192488334170604,0.906471579033,-0.377525356608814,0.906471579035127,-0.377525356609969,0.0193934460200202,0.019354072676496
57.5,0.0196600037983228,0.0193019251344508,0.905125155614969,-0.380573593598963,0.905125155617001,-0.380573593600145,0.0195648341709764,0.0194087125522469
58,0.0198327861011321,0.0193536906779146,0.903768767898092,-0.383616794921916,0.90376876790003,-0.383616794923121,0.0197360557478336,0.0194620455020775
58.5,0.0200054213056312,0.0194041419831481,0.902402435480494,-0.38665492879562,0.902402435482339,-0.386654928796844,0.0199071177986255,0.0195140839298016
59,0.0201779165101647,0.0194532898562862,0.901026178106549,-0.389687963784947,0.901026178108302,-0.389687963786186,0.0200780276390236,0.0195648391093384
59.5,0.0203502789878103,0.0195011439711663,0.899640015651202,-0.392715868795253,0.899640015652865,-0.392715868796504,0.0202487927863597,0.0196143211799633
60,0.0205225161199372,0.0195477128702699,0.898243968105,-0.395738613065796,0.898243968106576,-0.395738613067056,0.0204194208932865,0.0196625391452034
60.5,0.0206946353297886,0.0195930039693952,0.89683805555979,-0.398756166163013,0.896838055561279,-0.398756166164279,0.0205899196812918,0.0197095008754233
61,0.0208666440163165,0.0196370235660686,0.895422298195056,-0.401768497973689,0.895422298196461,-0.401768497974957,0.0207602968742833,0.0197552131141563
61.5,0.0210385494885003,0.0196797768517312,0.893996716264873,-0.404775578698025,0.893996716266196,-0.404775578699292,0.0209305601324841,0.0197996814882027
62,0.0212103589003936,0.0197212679276944,0.892561330085457,-0.407777378842601,0.892561330086699,-0.407777378843864,0.0211007169868694,0.0198429105215303
62.5,0.0213820791871303,0.019761499824837,0.891116160023271,-0.410773869213276,0.891116160024434,-0.410773869214532,0.0212707747743853,0.019884903652944
63,0.0215537170021413,0.0198004745270155,0.889661226483686,-0.413765020908,0.889661226484772,-0.413765020909248,0.0214407405741995,0.0199256632575366
63.5,0.0217252786558209,0.0198381929981342,0.888196549900161,-0.41675080530958,0.888196549901172,-0.416750805310816,0.0216106211452256,0.019965190671861
