"Freq [GHz]","re(St(P1,P1)) []","im(St(P1,P1)) []","re(St(P1,P2)) []","im(St(P1,P2)) []","re(St(P2,P1)) []","im(St(P2,P1)) []","re(St(P2,P2)) []","im(St(P2,P2)) []"
0,0.00340234926508742,0,0.996612749266205,0,0.99661274405662,0,0.00340234608157175,0
0.5,0.00393323306107618,-0.0014099498193616,0.996040365415134,-0.00530394000469414,0.996040365464125,-0.00530394019610725,0.00393315227777435,-0.00140983420213914
1,0.00444295523720228,-0.00349268332253416,0.995438696449611,-0.00993878958751893,0.995438696347037,-0.00993878964637673,0.00444270568711858,-0.00349240280491259
1.5,0.00477594623107791,-0.00572758008358676,0.994945587542233,-0.0145231179698442,0.994945587417334,-0.014523117995985,0.00477530780388236,-0.00572742400422754
2,0.00494964736836323,-0.0080306358814326,0.99451672880064,-0.0189641523277331,0.994516728681592,-0.0189641523256334,0.00494847047427172,-0.0080303501786041
2.5,0.00502138045357725,-0.0103356837358461,0.994150284766562,-0.0233449336239886,0.994150284664453,-0.0233449336064027,0.00501964743373051,-0.0103351263147395
3,0.0050295609677562,-0.0126279290204074,0.993821346741578,-0.0277049705992845,0.993821346658192,-0.0277049705760639,0.00502726212347326,-0.0126270313265309
3.5,0.00499520444135015,-0.0149067690356652,0.993507395750036,-0.0320594687222808,0.993507395683826,-0.0320594686993338,0.0049923146704085,-0.0149054931955135
4,0.00492967603893746,-0.017174735819367,0.993192376605084,-0.0364129329428344,0.993192376553777,-0.0364129329232981,0.00492615589949352,-0.0171730541249318
4.5,0.00483931949311511,-0.0194345933245117,0.992865468543314,-0.0407656390934115,0.992865468504784,-0.0407656390787849,0.00483511949301096,-0.019432479598759
5,0.00472781756026919,-0.021688688493338,0.992519381309835,-0.0451163744662644,0.992519381282294,-0.0451163744571055,0.00472288163364976,-0.0216861145422378
5.5,0.00459738669879339,-0.023938895582674,0.992149102630695,-0.0494635423078904,0.992149102612721,-0.0494635423042702,0.00459165456586241,-0.0239358297519807
6,0.00444939986148629,-0.0261866959304484,0.991751092759499,-0.0538055841484208,0.991751092749934,-0.0538055841500924,0.00444280857052703,-0.0261831025362049
6.5,0.00428472402375402,-0.0284332704500638,0.991322784816054,-0.0581411222271413,0.991322784813965,-0.0581411222337636,0.00427720896255135,-0.0284291095732172
7,0.00410391046030778,-0.0306795762296055,0.990862275216702,-0.0624689890083463,0.990862275221323,-0.0624689890195018,0.00409540603319591,-0.030674803659009
7.5,0.00390730605389233,-0.032926404373935,0.990368129058295,-0.0667882132804909,0.990368129068973,-0.0667882132957516,0.00389774614813998,-0.0329209716055345
8,0.00369512064261324,-0.0351744223550465,0.98983925484906,-0.0710979918216221,0.989839254865238,-0.0710979918405652,0.0036844389607138,-0.0351682766072727
8.5,0.00346746902354855,-0.0374242047758599,0.989274821443189,-0.0753976585795417,0.98927482146438,-0.0753976586017764,0.00345559932893913,-0.0374172890045124
9,0.00322439786974638,-0.039676255765821,0.988674201048249,-0.0796866560657321,0.988674201074015,-0.0796866560908889,0.00321127417593381,-0.0396685086718005
9.5,0.00296590340005398,-0.0419310253963108,0.988036928660509,-0.0839645105601505,0.988036928690465,-0.0839645105879114,0.00295146012231706,-0.0419223814240528
10,0.00269194322852151,-0.044188921821176,0.9873626721069,-0.088230811407854,0.987362672140691,-0.08823081143791,0.00267611531072331,-0.0441793111475732
10.5,0.00240098762422081,-0.0464170736113783,0.986703829741372,-0.0925038837638308,0.986703829773656,-0.0925038837947625,0.00238321698916977,-0.0464113480172674
11,0.0020930990274306,-0.0486471613113597,0.986023006345125,-0.0967636979194673,0.986023006375875,-0.0967636979511788,0.00207264641975247,-0.0486450828223841
11.5,0.00176792363043976,-0.0508790482452888,0.985320717449245,-0.101010592800767,0.985320717478438,-0.101010592833159,0.001744102745175,-0.0508802800412234
12,0.00142511118654531,-0.0531125633187255,0.984597408204768,-0.105244911492001,0.984597408232389,-0.105244911524979,0.00139730191864507,-0.0531166817417184
12.5,0.00106431902479409,-0.0553475015760725,0.983853458814585,-0.109466993889175,0.983853458840628,-0.10946699392264,0.00103197811742684,-0.0553540097426364
13,0.000685215927259231,-0.0575836253467408,0.98308919028168,-0.113677170680933,0.983089190306147,-0.113677170714796,0.000647884881274763,-0.0575919678208177
13.5,0.000287485768070361,-0.059820665939383,0.982304870267498,-0.117875758547947,0.982304870290395,-0.117875758582114,0.000244795984969182,-0.0598302439311817
14,-0.000129169174319932,-0.0620583258252809,0.981500718896204,-0.122063056457009,0.981500718917545,-0.122063056491396,-0.000177493942484785,-0.0620685124097573
14.5,-0.00056502530427216,-0.0642962812371604,0.980676914379027,-0.126239342919172,0.980676914398831,-0.126239342953689,-0.000619169036403688,-0.0643064361330072
15,-0.00102033525012868,-0.0665341850990719,0.979833598366589,-0.130404874081525,0.979833598384881,-0.130404874116096,-0.00108039203490817,-0.0665436686104268
15.5,-0.00149532589498469,-0.068771670197437,0.97897088096583,-0.134559882527401,0.97897088098264,-0.134559882561947,-0.0015613043180186,-0.0687798559909663
16,-0.00199019691343694,-0.0710083525013916,0.978088845382127,-0.138704576667747,0.978088845397487,-0.138704576702193,-0.00206202612683437,-0.0710146389672017
16.5,-0.00250511981286561,-0.0732438345436659,0.977187552166331,-0.142839140617285,0.977187552180278,-0.142839140651572,-0.00258265694193038,-0.0732476545648719
17,-0.00304023746153115,-0.0754777087788616,0.976267043061668,-0.146963734460052,0.976267043074242,-0.146963734494107,-0.0031232759999692,-0.0754785378082703
17.5,-0.00359566407222844,-0.0777095608450535,0.975327344456818,-0.151078494820795,0.97532734446806,-0.151078494854561,-0.00368394292788177,-0.0777069232552661
18,-0.00417148559948666,-0.0799389726653068,0.974368470459872,-0.155183535670099,0.974368470469826,-0.15518353570352,-0.00426469847475586,-0.0799324463981961
18.5,-0.00476776050047828,-0.0821655253376745,0.973390425613706,-0.159278949301826,0.973390425622419,-0.159278949334857,-0.00486556532245769,-0.0821547449295075
19,-0.0053845208050417,-0.0843888017745247,0.972393207276944,-0.16336480743143,0.972393207284461,-0.163364807464016,-0.0054865489572522,-0.0843734598729258
19.5,-0.00602177343809573,-0.0866083890641924,0.971376807696839,-0.167441162372517,0.971376807703208,-0.167441162404623,-0.00612763858602705,-0.0865882365829567
20,-0.00667950173800796,-0.0888238805392723,0.970341215801198,-0.171508048257043,0.970341215806468,-0.171508048288628,-0.00678880808213644,-0.0887987256168055
20.5,-0.00735766711680369,-0.0910348775460808,0.969286418736316,-0.175565482271253,0.969286418740537,-0.175565482302281,-0.00747001694743171,-0.0910045834842634
21,-0.00805621081189473,-0.0932409909186296,0.968212403177105,-0.179613465885513,0.968212403180325,-0.179613465915955,-0.00817121127853504,-0.0932054732818886
21.5,-0.00877505568394266,-0.0954418421676699,0.967119156434319,-0.18365198606103,0.967119156436587,-0.183651986090859,-0.00889232472690793,-0.0954010652185788
22,-0.00951410802113162,-0.0976370644011517,0.966006667382166,-0.187681016420792,0.966006667383531,-0.187681016449982,-0.00963327944374659,-0.0975910370402238
22.5,-0.0102732593160619,-0.0998263029965667,0.964874927227854,-0.191700518375399,0.964874927228363,-0.191700518403929,-0.0103939870021169,-0.0997750743612462
23,-0.0110523879875171,-0.10200921604851,0.963723930142775,-0.19571044219742,0.963723930142477,-0.195710442225273,-0.0111743492900374,-0.101952870911145
23.5,-0.011851361025105,-0.104185474616375,0.962553673773174,-0.199710728040104,0.962553673772115,-0.199710728067264,-0.011974259369449,-0.104124128704004
24,-0.0126700355402318,-0.106354762797588,0.961364159646387,-0.203701306898194,0.961364159644613,-0.203701306924648,-0.0127936022971109,-0.106288558138913
24.5,-0.0135082602117219,-0.108516777651588,0.960155393486988,-0.207682101509988,0.960155393484543,-0.207682101535724,-0.0136322559044704,-0.10844587803888
25,-0.0143658766187309,-0.110671228998696,0.958927385455607,-0.211653027200938,0.958927385452535,-0.21165302722595,-0.0144900915344423,-0.110595815635618
25.5,-0.0152427204573015,-0.11281783911657,0.957680150321679,-0.215613992669931,0.957680150318025,-0.215613992694214,-0.0153669747338473,-0.112738106507137
26,-0.0161386226399808,-0.114956342355183,0.956413707580042,-0.219564900720018,0.956413707575846,-0.219564900743566,-0.0162627659009215,-0.114872494474708
26.5,-0.017053410280426,-0.117086484689185,0.955128081520065,-0.223505648935775,0.955128081515368,-0.223505648958588,-0.017177320887906,-0.116998731465246
27,-0.0179869075669196,-0.119208023224485,0.953823301254846,-0.227436130309887,0.953823301249687,-0.227436130331964,-0.0181104915592772,-0.119116577344796
27.5,-0.0189389365301047,-0.121320725673661,0.952499400717105,-0.231356233821592,0.952499400711523,-0.231356233842933,-0.019062126306486,-0.121225799728224
28,-0.0199093177114029,-0.123424369812886,0.951156418627414,-0.23526584496982,0.951156418621446,-0.235265844990426,-0.0200320705205429,-0.123326173769835
28.5,-0.0208978707391861,-0.125518742931008,0.949794398439711,-0.239164846263905,0.949794398433393,-0.239164846283784,-0.0210201670239659,-0.125417481939164
29,-0.0219044148201815,-0.127603641279658,0.948413388268289,-0.243053117674608,0.948413388261655,-0.243053117693764,-0.0220262564638545,-0.12749951378567
29.5,-0.022928769153725,-0.12967886953163,0.947013440799902,-0.24693053704827,0.947013440792984,-0.246930537066712,-0.0230501776679959,-0.12957206569579
30,-0.0239707532763928,-0.131744240253258,0.945594613194063,-0.250796980486687,0.945594613186895,-0.250796980504417,-0.024091767966022,-0.131634940645216
30.5,-0.0250301873443604,-0.133799573395299,0.94415696697416,-0.254652322695289,0.944156966966772,-0.254652322712319,-0.0251508634777021,-0.133687947949113
31,-0.0261068923604785,-0.135844695805609,0.942700567911614,-0.258496437302014,0.942700567904036,-0.258496437318351,-0.026227299370469,-0.135730903012396
31.5,-0.0272006903526692,-0.137879440766013,0.941225485904963,-0.262329197149138,0.941225485897224,-0.262329197164795,-0.0273209100882942,-0.137763627082093
32,-0.0283114045097929,-0.139903647554904,0.93973179485545,-0.266150474560233,0.939731794847576,-0.26615047457522,-0.0284315295539981,-0.139785947003379
32.5,-0.0294388592806468,-0.141917161036454,0.938219572540412,-0.269960141584206,0.93821957253243,-0.269960141598534,-0.0295589913470201,-0.141797694980653
33,-0.0305828804412573,-0.143919831276735,0.9366889004856,-0.2737580702183,0.936688900477534,-0.27375807023198,-0.0307031288586377,-0.143798708344792
33.5,-0.0317432951351608,-0.145911513186617,0.935139863837311,-0.277544132611762,0.935139863829187,-0.277544132624809,-0.0318637754265234,-0.145788829327473
34,-0.0329199318908747,-0.147892066190966,0.933572551235078,-0.281318201251817,0.933572551226917,-0.281318201264244,-0.0330407644504607,-0.147767904843314
34.5,-0.0341126206203074,-0.149861353923337,0.93198705468552,-0.28508014913335,0.931987054677345,-0.285080149145168,-0.0342339294909475,-0.149735786280321
35,-0.0353211926014416,-0.151819243945198,0.930383469437847,-0.28882984991371,0.930383469429677,-0.288829849924936,-0.0354431043523071,-0.151692329299107
35.5,-0.036545480448211,-0.153765607488572,0.928761893861383,-0.292567178053864,0.928761893853239,-0.292567178064511,-0.0366681231518533,-0.153637393641073
36,-0.0377853180701517,-0.155700319220859,0.927122429325419,-0.29629200894705,0.927122429317319,-0.296292008957132,-0.0379088203765371,-0.15557084294577
36.5,-0.0390405406240282,-0.157623257030527,0.925465180081631,-0.300004219035956,0.925465180073592,-0.300004219045489,-0.0391650309284019,-0.15749254457744
37,-0.0403109844593995,-0.159534301832418,0.923790253149195,-0.303703685919447,0.923790253141236,-0.303703685928447,-0.0404365901601129,-0.159402369460734
37.5,-0.0415964870597442,-0.161433337391278,0.922097758202763,-0.30739028844964,0.922097758194898,-0.307390288458122,-0.041723333901678,-0.161300191925501
38,-0.0428968869805769,-0.163320250162255,0.920387807463338,-0.311063906820209,0.920387807455583,-0.311063906828187,-0.0430250984794356,-0.163185889560479
38.5,-0.0442120237857579,-0.165194929147118,0.918660515592101,-0.3147244226466,0.918660515584468,-0.314724422654091,-0.0443417207282752,-0.165059343075698
39,-0.0455417379829746,-0.167057265764901,0.916915999587204,-0.31837171903887,0.916915999579708,-0.318371719045889,-0.0456730379979682,-0.166920436173323
39.5,-0.0468858709592681,-0.168907153735903,0.915154378683516,-0.322005680667732,0.915154378676168,-0.322005680674295,-0.0470188881544376,-0.1687690554267
40,-0.0482442649172568,-0.170744488977834,0.913375774255293,-0.325626193824375,0.913375774248105,-0.325626193830499,-0.048379109576668,-0.170605090167235
40.5,-0.0496167628126587,-0.172569169513161,0.911580309721721,-0.329233146474601,0.911580309714703,-0.329233146480299,-0.0497535411499571,-0.172428432378889
41,-0.0510032082935369,-0.174381095386587,0.909768110455285,-0.332826428307675,0.909768110448448,-0.332826428312963,-0.0511420222560911,-0.174238976599856
41.5,-0.0524034456416324,-0.176180168591785,0.907939303692901,-0.336405930780399,0.907939303686254,-0.336405930785296,-0.0525443927609748,-0.176036619831156
42,-0.0538173197160751,-0.177966293006557,0.906094018449721,-0.339971547156734,0.906094018443272,-0.339971547161253,-0.0539604930002229,-0.177821261451772
42.5,-0.0552446758996505,-0.179739374335552,0.904232385435555,-0.343523172543333,0.904232385429312,-0.343523172547492,-0.055390163763128,-0.179592803140005
43,-0.0566853600477996,-0.181499320059909,0.902354536973819,-0.347060703921355,0.902354536967788,-0.347060703925166,-0.0568332462753995,-0.181351148800699
43.5,-0.0581392184404245,-0.183246039393051,0.900460606922931,-0.350584040174773,0.900460606917119,-0.350584040178254,-0.0582895821810089,-0.183096204498008
44,-0.0596060977365628,-0.184979443242088,0.898550730600078,-0.354093082115526,0.898550730594491,-0.354093082118692,-0.0597590135234412,-0.184827878393373
44.5,-0.0610858449319668,-0.186699444174223,0.896625044707246,-0.357587732505706,0.896625044701889,-0.35758773250857,-0.0612413827266313,-0.186546080688415
45,-0.0625783073195429,-0.188405956387645,0.894683687259476,-0.361067896077014,0.894683687254353,-0.361067896079593,-0.0627365325757936,-0.188250723572405
45.5,-0.0640833324526641,-0.190098895686431,0.892726797515214,-0.364533479547713,0.892726797510328,-0.364533479550023,-0.064244306198369,-0.189941721174034
46,-0.0656007681112619,-0.191778179459043,0.890754515908723,-0.36798439163723,0.89075451590408,-0.367984391639282,-0.0657645470452425,-0.191618989517194
46.5,-0.0671304622706724,-0.193443726659997,0.888766983984442,-0.371420543078604,0.888766983980042,-0.371420543080415,-0.0672970988724033,-0.193282446480509
47,-0.0686722630731215,-0.19509545779437,0.886764344333244,-0.374841846628919,0.88676434432909,-0.374841846630501,-0.0688418057231468,-0.19493201176032
47.5,-0.07022601880179,-0.196733294904798,0.884746740530507,-0.378248217077867,0.8847467405266,-0.378248217079238,-0.0703985119109458,-0.196567606836918
48,-0.0717915778573605,-0.198357161560696,0.88271431707593,-0.381639571254596,0.882714317072272,-0.381639571255766,-0.0719670620030789,-0.198189154943758
48.5,-0.0733687887369344,-0.199966982849401,0.880667219335039,-0.385015828032909,0.88066721933163,-0.385015828033894,-0.0735473008050724,-0.199796581039453
49,-0.0749575000152394,-0.201562685369029,0.878605593482297,-0.388376908334984,0.878605593479137,-0.388376908335794,-0.0751390733460277,-0.201389811782307
49.5,-0.0765575603280089,-0.203144197222795,0.876529586445781,-0.391722735133665,0.87652958644287,-0.391722735134316,-0.0767422248648814,-0.202968775507215
50,-0.0781688183574452,-0.204711448014644,0.874439345853348,-0.395053233453462,0.874439345850685,-0.395053233453965,-0.0783566007976213,-0.204533402204729
50.5,-0.0797911228196501,-0.20626436884595,0.872335019980253,-0.398368330370294,0.872335019977838,-0.39836833037066,-0.0799820467654871,-0.206083623502105
51,-0.0814243224539359,-0.207802892313198,0.870216757698146,-0.401667955010096,0.870216757695975,-0.40166795501034,-0.0816184085641813,-0.207619372646181
51.5,-0.0830682660139185,-0.209326952506453,0.868084708425405,-0.404952038546353,0.868084708423478,-0.404952038546486,-0.0832655321540828,-0.209140584487917
52,-0.084722802260276,-0.2108364850085,0.86593902207878,-0.408220514196592,0.865939022077093,-0.408220514196626,-0.08492326365147,-0.210647195468441
52.5,-0.0863877799551124,-0.212331426894552,0.863779849026254,-0.41147331721795,0.863779849024805,-0.411473317217895,-0.0865914493207585,-0.212139143606497
53,-0.0880630478578063,-0.213811716732413,0.861607340041131,-0.414710384901825,0.861607340039917,-0.414710384901692,-0.0882699355677252,-0.213616368487126
53.5,-0.0897484547222793,-0.215277294583,0.859421646257269,-0.41793165656769,0.859421646256287,-0.417931656567491,-0.0899585689337252,-0.215078811251494
54,-0.0914438492955818,-0.216728102001143,0.857222919125447,-0.421137073556108,0.857222919124692,-0.421137073555854,-0.0916571960908643,-0.216526414587723
54.5,-0.0931490803177352,-0.218164082036606,0.85501131037081,-0.424326579221003,0.855011310370278,-0.4243265792207,-0.0933656638381249,-0.217959122722661
55,-0.0948639965227361,-0.219585179235231,0.85278697195137,-0.427500118921196,0.852786971951057,-0.427500118920856,-0.0950838190984116,-0.219376881414454
55.5,-0.0965884466406616,-0.220991339640179,0.850550056017528,-0.430657640011303,0.85055005601743,-0.430657640010937,-0.0968115089164887,-0.220779637945856
56,-0.0983222794007952,-0.222382510793191,0.848300714872581,-0.433799091831975,0.848300714872691,-0.43379909183159,-0.0985485804577947,-0.222167341118183
56.5,-0.100065343535716,-0.223758641735842,0.846039100934188,-0.436924425699538,0.846039100934502,-0.436924425699144,-0.100294881008092,-0.223539941245845
57,-0.101817487786285,-0.225119683010737,0.843765366696769,-0.440033594895069,0.843765366697281,-0.440033594894672,-0.102050257973934,-0.224897390151364
57.5,-0.103578560907457,-0.226465586662602,0.841479664694808,-0.443126554652924,0.841479664695514,-0.443126554652533,-0.103814558883911,-0.226239641160833
58,-0.105348411674882,-0.227796306239284,0.83918214746704,-0.446203262148758,0.839182147467932,-0.446203262148381,-0.105587631390653,-0.227566649099745
58.5,-0.107126888892217,-0.22911179679256,0.836872967521487,-0.449263676487053,0.836872967522559,-0.449263676486698,-0.107369323273541,-0.228878370289139
59,-0.108913841399128,-0.230412014878803,0.834552277301333,-0.452307758688194,0.834552277302579,-0.452307758687867,-0.109159482442128,-0.230174762542003
59.5,-0.110709118079887,-0.231696918559435,0.83222022915162,-0.455335471675076,0.832220229153034,-0.455335471674782,-0.1109579569402,-0.231455785159897
60,-0.112512567872571,-0.232966467401167,0.829876975286722,-0.458346780259331,0.829876975288297,-0.458346780259079,-0.112764594950479,-0.232721398929759
60.5,-0.114324039778778,-0.234220622476024,0.827522667758613,-0.461341651127129,0.827522667760341,-0.461341651126924,-0.114579244799914,-0.233971566120814
61,-0.116143382873844,-0.235459346361104,0.825157458425869,-0.464320052824615,0.825157458427745,-0.464320052824462,-0.11640175496555,-0.235206250481614
61.5,-0.117970446317493,-0.236682603138101,0.822781498923439,-0.467281955742972,0.822781498925455,-0.467281955742877,-0.118231974080923,-0.236425417237108
62,-0.119805079364929,-0.23789035839256,0.820394940633109,-0.470227332103168,0.820394940635257,-0.470227332103133,-0.120069750942979,-0.237629033085768
62.5,-0.12164713137828,-0.239082579212851,0.817997934654702,-0.47315615594034,0.817997934656975,-0.473156155940372,-0.12191493451946,-0.238817066196693
63,-0.123496451838407,-0.240259234188883,0.81559063177795,-0.476068403087911,0.815590631780341,-0.476068403088014,-0.123767373956754,-0.239989486206718
