"Freq [GHz]","re(St(P1,P1)) []","im(St(P1,P1)) []","re(St(P1,P2)) []","im(St(P1,P2)) []","re(St(P2,P1)) []","im(St(P2,P1)) []","re(St(P2,P2)) []","im(St(P2,P2)) []"
0,0.00304566092401615,0,0.996966558639542,0,0.996966553677339,0,0.00304565032288906,0
0.5,0.00343154438695592,0.000204228518633442,0.996524338728086,-0.0045061148443537,0.996524338818766,-0.00450611483697827,0.00343139130939818,0.000204863706500191
1,0.00379940002968127,-9.48221386138925E-005,0.996023712649784,-0.00849307084056505,0.996023712660037,-0.00849307078955519,0.00379902453310876,-9.3355497824632E-005
1.5,0.00386193267124924,-0.000599738543506589,0.995710377383613,-0.0125799483656657,0.99571037742567,-0.0125799483135403,0.00386145170134355,-0.000597281937078975
2,0.003869698419388,-0.00101960877566043,0.995339600984099,-0.0165296376358377,0.99533960105215,-0.0165296375972339,0.0038690864930917,-0.00101620307650308
2.5,0.00385687823184355,-0.00139918440879327,0.994944683491685,-0.0203540957280524,0.994944683575012,-0.0203540957104273,0.00385610477967191,-0.00139483611221891
3,0.00383263052134986,-0.00175487620861148,0.994545550454454,-0.0240780111894523,0.994545550542354,-0.0240780111937475,0.0038316659846318,-0.00174957904450324
3.5,0.00380035095383047,-0.00209364868789308,0.994150842319297,-0.0277279276676374,0.994150842403515,-0.0277279276907407,0.00379916819187986,-0.00208738997701374
4,0.00376165181656329,-0.00241871253681936,0.993761984520802,-0.0313266452147776,0.993761984596036,-0.0313266452518643,0.00376022670978848,-0.00241147587831136
4.5,0.00371748178087206,-0.00273158626581171,0.993376677655109,-0.034891569679246,0.993376677718531,-0.0348915697252874,0.00371579357664453,-0.00272335304854643
5,0.0036685103510945,-0.0030329605583006,0.992991151555809,-0.0384350647124787,0.992991151606343,-0.0384350647629681,0.00366654187112303,-0.0030237110136877
5.5,0.00361527872012912,-0.00332310338817265,0.992601386682735,-0.0419654868356645,0.992601386720417,-0.041965486886884,0.00361301646467904,-0.00331281742951539
6,0.00355826430683237,-0.00360206682935882,0.992203677658055,-0.0454882607868381,0.992203677683565,-0.0454882608358638,0.00355569847112269,-0.00359072476929967
6.5,0.00349790961001495,-0.00386979969914414,0.991794835970178,-0.0490067654746777,0.991794835984526,-0.0490067655192874,0.00349503402317985,-0.00385738287962845
7,0.00343463503513952,-0.00412621183618711,0.991372216528953,-0.0525229932455513,0.991372216533281,-0.0525229932840965,0.00343144703143805,-0.00411270318261536
7.5,0.00336884410224236,-0.00437121182831923,0.990933669215947,-0.0560380149512145,0.99093366921142,-0.0560380149824962,0.00336534433448299,-0.0043565963304566
8,0.00330092493032064,-0.0046047293083884,0.990477466045618,-0.0595522982779713,0.990477466033357,-0.059552298301135,0.0032971171359053,-0.00458899442755012
8.5,0.0032312499247702,-0.00482672783205373,0.990002227077394,-0.0630659218140828,0.990002227058444,-0.063065921828537,0.00322714065490914,-0.00480986383371196
9,0.00316017467143792,-0.00503721177124472,0.989506854311442,-0.0665787174513506,0.989506854286764,-0.0665787174567027,0.00315577299396053,-0.00501921198305055
9.5,0.00308803657908119,-0.00523622928542,0.988990476204526,-0.0700903644239537,0.988990476174988,-0.0700903644199551,0.00308335376472535,-0.00521709028206274
10,0.0030151535669839,-0.00542387266912137,0.988452402565084,-0.0736004510395665,0.988452402531469,-0.0736004510260786,0.00301020276833441,-0.00540359438695059
10.5,0.00296995079723739,-0.00567197356159888,0.987948676096875,-0.0770711003899276,0.987948676063977,-0.077071100375548,0.00296498974972137,-0.00565266540877296
11,0.00292484712088958,-0.00591766054435539,0.98743940197994,-0.0805274133443818,0.987439401947826,-0.0805274133291816,0.00291957437152945,-0.00589937013456154
11.5,0.00288009070042738,-0.00616104547284824,0.986925032941616,-0.0839705531990145,0.986925032910339,-0.0839705531830575,0.00287419628215851,-0.00614377830501489
12,0.00283591889021056,-0.00640226713133174,0.986405886118405,-0.0874016251305836,0.986405886088012,-0.0874016251139471,0.00282909063367581,-0.00638598522144918
12.5,0.00279255492905994,-0.0066414902168459,0.985882162161758,-0.0908216682961758,0.985882162132286,-0.0908216682789309,0.00278448502781847,-0.00662611174510541
13,0.00275020471701648,-0.00687890383911594,0.985353963015886,-0.0942316510641739,0.985353962987364,-0.0942316510463908,0.00274059636757173,-0.00686430386897996
13.5,0.00270905376059977,-0.0071147195402137,0.9848213081436,-0.0976324687769434,0.984821308116046,-0.0976324687587029,0.00269762768427234,-0.00710073183101034
14,0.00266926437167228,-0.00734916885497849,0.984284149096409,-0.101024943507223,0.984284149069836,-0.101024943488594,0.00265576501867673,-0.0073355887505917
14.5,0.00263097320187305,-0.00758250045028852,0.983742382414814,-0.10440982533924,0.983742382389227,-0.10440982532029,0.00261517444016374,-0.0075690887856652
15,0.00259428918756305,-0.00781497689820299,0.983195860908651,-0.107787794776348,0.983195860884049,-0.107787794757142,0.0025759992906354,-0.00780146482461319
15.5,0.00255929196936974,-0.00804687115305036,0.982644403410135,-0.11115946594427,0.982644403386513,-0.111159465924873,0.0025383577382545,-0.00803296574495427
16,0.00252603083624423,-0.00827846281512823,0.982087803118496,-0.114525390320799,0.982087803095843,-0.114525390301269,0.00250234072063862,-0.00826385328855483
16.5,0.00249452422701275,-0.00851003427308683,0.981525834668664,-0.117886060777622,0.981525834646967,-0.117886060758015,0.00246801034754369,-0.00849439861959223
17,0.00246475980370676,-0.00874186682228384,0.980958260060836,-0.121241915766906,0.980958260040076,-0.121241915747274,0.00243539881967548,-0.00872487864578808
17.5,0.00243669509142689,-0.00897423685757826,0.980384833585553,-0.12459334352537,0.980384833565711,-0.124593343505761,0.00240450790370137,-0.00895557219467769
18,0.00241025866027697,-0.00920741223564381,0.979805305872441,-0.127940686201234,0.979805305853494,-0.127940686181693,0.00237530898456275,-0.00918675614392228
18.5,0.0023853518070262,-0.00944164889444821,0.979219427181567,-0.131284243836394,0.979219427163491,-0.131284243816962,0.00234774369592183,-0.00941870160750735
19,0.00236185067854687,-0.00967718780652493,0.978626950045738,-0.134624278157542,0.978626950028508,-0.134624278138252,0.00232172510907067,-0.00965167027791036
19.5,0.00233960876658232,-0.00991425232862753,0.978027631360899,-0.137961016146725,0.978027631344487,-0.137961016127615,0.00229713944116175,-0.00988591101790703
20,0.0023184596944235,-0.0101530459943784,0.97742123401066,-0.141294653374917,0.977421233995039,-0.141294653356016,0.00227384822617792,-0.0101216567851354
20.5,0.00229822021101744,-0.0103937507794591,0.976807528100368,-0.144625357091964,0.976807528085511,-0.144625357073302,0.00225169087765528,-0.0103591219587105
21,0.00227869330678818,-0.0106365258517176,0.976186291866192,-0.147953269073616,0.97618629185207,-0.147953269055215,0.00223048756144641,-0.0105985001204725
21.5,0.00225967136785962,-0.0108815068022183,0.97555731231566,-0.151278508231564,0.975557312302245,-0.151278508213448,0.00221004229021946,-0.010839962325611
22,0.00224093929094454,-0.0111288053384579,0.974920385647946,-0.154601172996115,0.97492038563521,-0.154601172978305,0.0021901461490022,-0.0110836558787732
22.5,0.00222227748929105,-0.0113785094082615,0.974275317494985,-0.157921343483461,0.9742753174829,-0.157921343465972,0.00217058056276476,-0.0113297036139461
23,0.00220346473015723,-0.0116306837128635,0.973621923018134,-0.161239083461026,0.973621923006672,-0.161239083443875,0.0021511205223439,-0.0115782036600165
23.5,0.00218428075550953,-0.0118853705601416,0.972960026889606,-0.164554442125004,0.972960026878741,-0.164554442108202,0.00213153769336069,-0.0118292296595737
24,0.0021645086493822,-0.0121425910044368,0.972289463183118,-0.167867455704453,0.972289463172823,-0.167867455688013,0.0021116033434018,-0.0120828313971617
24.5,0.00214393692697348,-0.0124023462172573,0.971610075194083,-0.171178148906091,0.971610075184333,-0.171178148890022,0.0020910910348404,-0.0123390357845667
25,0.00212236133156238,-0.0126646190334276,0.970921715206224,-0.174486536213418,0.970921715196993,-0.174486536197726,0.00206977904353356,-0.0125978481453113
25.5,0.00209958633527932,-0.0129293756194597,0.970224244218453,-0.177792623053235,0.970224244209717,-0.177792623037926,0.00204745247640667,-0.0128592537379602
26,0.00207542634845964,-0.0131965672146572,0.969517531643427,-0.181096406841725,0.969517531635162,-0.181096406826807,0.00202390507317896,-0.0131232194579489
26.5,0.00204970664946208,-0.0134661319004201,0.968801454986977,-0.184397877921635,0.968801454979161,-0.184397877907108,0.00199894068853318,-0.0133896956600172
27,0.00202226405254033,-0.0137379963587621,0.968075899515946,-0.187697020400977,0.968075899508555,-0.187697020386848,0.00197237446072304,-0.013658618047411
27.5,0.00199294733550048,-0.014012077587183,0.967340757920391,-0.190993812903098,0.967340757913406,-0.190993812889366,0.00194403368057477,-0.0139299095795766
28,0.0019616174516609,-0.0142882845430399,0.966595929974937,-0.194288229236925,0.966595929968337,-0.194288229223589,0.00191375838112368,-0.0142034823563404
28.5,0.0019281475521582,-0.014566519696527,0.965841322203008,-0.197580238995549,0.965841322196772,-0.197580238982612,0.00188140167269274,-0.0144792394433773
29,0.00189242284510449,-0.0148466804768499,0.965076847546838,-0.200869808090479,0.965076847540948,-0.200869808077937,0.001846829851195,-0.0147570766105818
29.5,0.00185434031766718,-0.0151286606011927,0.964302425045474,-0.204156899228208,0.964302425039912,-0.20415689921606,0.00180992230899535,-0.0150368839616255
30,0.00181380834602374,-0.0154123512805415,0.963517979522384,-0.207441472335169,0.963517979517133,-0.207441472323413,0.0017705712780004,-0.0153185474391475
30.5,0.00177074621650958,-0.0156976423001174,0.962723441283852,-0.210723484936445,0.962723441278895,-0.210723484925078,0.00172868143398774,-0.015601950195578
31,0.00172508357930101,-0.0159844229753707,0.961918745828961,-0.214002892493138,0.961918745824282,-0.214002892482154,0.00168416938975313,-0.015886973824498
31.5,0.00167675985374505,-0.0162725829869643,0.961103833571638,-0.217279648702768,0.961103833567222,-0.217279648692165,0.00163696310263978,-0.0161734994515532
32,0.0016257236021977,-0.0165620131001463,0.960278649575027,-0.220553705766652,0.96027864957086,-0.220553705756424,0.00158700121965455,-0.0164614086873289
32.5,0.0015719318869008,-0.0168526057753029,0.959443143298244,-0.223825014627756,0.959443143294312,-0.223825014617897,0.00153423238076306,-0.0167505844472653
33,0.00151534962223704,-0.0171442556774908,0.95859726835542,-0.227093525182184,0.958597268351709,-0.227093525172691,0.00147861449830017,-0.0170409116457062
33.5,0.0014559489325891,-0.0174368600933188,0.957740982286837,-0.230359186467142,0.957740982283337,-0.230359186458008,0.00142011402778414,-0.0173322777726153
34,0.00139370852412057,-0.0177303192638223,0.956874246341849,-0.233621946827865,0.956874246338547,-0.233621946819086,0.00135870524288167,-0.0176245733624167
34.5,0.00132861307703164,-0.0180245366420055,0.955997025273232,-0.236881754065804,0.955997025270118,-0.236881754057372,0.00129436952493156,-0.017917692364918
35,0.00126065266332348,-0.0183194190834657,0.955109287142574,-0.240138555570032,0.955109287139636,-0.24013855556194,0.00122709467525556,-0.0182115324283836
35.5,0.00118982219371,-0.0186148769782775,0.954211003136235,-0.243392298433718,0.954211003133465,-0.243392298425961,0.00115687425657346,-0.0185059951047499
36,0.00111612089620333,-0.0189108243317659,0.95330214739146,-0.246642929557254,0.953302147388847,-0.246642929549823,0.00108370696813764,-0.0188009859865965
36.5,0.00103955182787829,-0.0192071788013006,0.952382696832136,-0.249890395739446,0.952382696829674,-0.249890395732337,0.00100759605775269,-0.0190964147849586
37,0.000960121420518545,-0.0195038616957031,0.951452631013765,-0.253134643758097,0.951452631011443,-0.253134643751302,0.000928548772607063,-0.0193921953565273
37.5,0.000877839060183516,-0.0198007979432027,0.950511931977144,-0.256375620441073,0.950511931974956,-0.256375620434585,0.000846575849809905,-0.0196882456880301
38,0.000792716700197704,-0.0200979160333554,0.94956058411034,-0.259613272728898,0.949560584108279,-0.259613272722709,0.000761691046703095,-0.0199844878449347
38.5,0.00070476850664547,-0.0203951479377125,0.948598574018467,-0.262847547729791,0.948598574016527,-0.262847547723894,0.000673910710336345,-0.0202808478908778
39,0.000614010535141207,-0.0206924290134907,0.947625890400877,-0.266078392767933,0.947625890399049,-0.266078392762322,0.000583253384982829,-0.0205772557835102
39.5,0.000520460437419157,-0.0209896978939847,0.9466425239353,-0.269305755425717,0.94664252393358,-0.269305755420385,0.000489739456171479,-0.020873645251811
40,0.000424137196118057,-0.021286896368965,0.945648467168585,-0.2725295835806,0.945648467166968,-0.272529583575538,0.000393390829447338,-0.0211699536592456
40.5,0.00032506088606099,-0.0215839692578539,0.944643714413618,-0.275749825437154,0.944643714412098,-0.275749825432356,0.000294230641864235,-0.0214661218565744
41,0.00022325246024929,-0.0218808642781061,0.943628261652067,-0.278966429554824,0.943628261650642,-0.278966429550283,0.000192283004105231,-0.0217620940275844
41.5,0.000118733558821638,-0.0221775319107931,0.94260210644263,-0.282179344871846,0.942602106441293,-0.282179344867556,8.75727710870633E-005,-0.0220578175304929
42,1.15263392020393E-005,-0.0224739252651434,0.941565247834407,-0.285388520725762,0.941565247833156,-0.285388520721715,-1.98746611272949E-005,-0.0223532427373767
42.5,-9.83466742346395E-005,-0.0227699999434097,0.940517686285152,-0.288593906870849,0.940517686283984,-0.288593906867038,-0.000130033534212926,-0.0226483228735248
43,-0.000210862722653193,-0.0230657139072821,0.939459423584055,-0.291795453492853,0.939459423582966,-0.291795453489272,-0.000242877884342296,-0.0229430138583469
43.5,-0.000325998928945692,-0.0233610273467546,0.93839046277881,-0.294993111221267,0.938390462777797,-0.294993111217908,-0.000358381678780606,-0.0232372741490732
44,-0.000443732399109886,-0.0236559025522085,0.937310808106702,-0.298186831139445,0.937310808105762,-0.298186831136303,-0.000476518934202752,-0.0235310645883042
44.5,-0.000564040310201686,-0.0239503037903095,0.936220464929469,-0.301376564792778,0.936220464928602,-0.301376564789845,-0.000597263818489624,-0.0238243482561717
45,-0.000686899986168277,-0.0242441971841381,0.935119439671709,-0.304562264195134,0.935119439670913,-0.304562264192404,-0.000720590737661342,-0.0241170903277235
45.5,-0.000812288962759367,-0.0245375505978938,0.934007739762616,-0.30774388183376,0.934007739761887,-0.307743881831227,-0.00084647440947222,-0.0244092579359612
46,-0.000940185042642594,-0.0248303335263884,0.932885373580842,-0.310921370672809,0.932885373580181,-0.310921370670468,-0.000974889925093869,-0.0247008200408132
46.5,-0.00107056634174152,-0.0251225169894462,0.931752350402307,-0.314094684155633,0.931752350401712,-0.314094684153476,-0.00110581280017646,-0.0249917473042263
47,-0.00120341132773688,-0.0254140734312889,0.930608680350764,-0.317263776205988,0.930608680350234,-0.31726377620401,-0.00123921901649049,-0.0252820119714452
47.5,-0.00133869885160132,-0.0257049766249002,0.929454374350961,-0.320428601228265,0.929454374350496,-0.32042860122646,-0.00137508505522571,-0.0255715877584939
48,-0.0014764081729417,-0.0259952015813276,0.928289444084243,-0.323589114106854,0.928289444083843,-0.323589114105216,-0.00151338792294231,-0.0258604497457746
48.5,-0.00161651897986381,-0.0262847244638265,0.927113901946456,-0.32674527020473,0.927113901946119,-0.326745270203255,-0.00165410517105707,-0.0261485742776857
49,-0.00175901140400631,-0.0265735225067403,0.925927761007998,-0.329897025361359,0.925927761007727,-0.329897025360041,-0.00179721490967555,-0.0264359388680893
49.5,-0.00190386603132187,-0.0268615739389872,0.924731034975918,-0.333044335889993,0.92473103497571,-0.333044335888825,-0.00194269581649759,-0.0267225221114615
50,-0.00205106390913906,-0.027148857911973,0.923523738157907,-0.336187158574417,0.923523738157764,-0.336187158573396,-0.00209052714143704,-0.0270083035994984
50.5,-0.00220058654996308,-0.0274353544317849,0.922305885428113,-0.339325450665224,0.922305885428036,-0.339325450664345,-0.00224068870754129,-0.0272932638429619
51,-0.002352415932454,-0.0277210442954761,0.921077492194638,-0.342459169875655,0.921077492194627,-0.342459169874913,-0.00239316090873504,-0.0275773841985374
51.5,-0.00250653449995425,-0.0280059090312663,0.919838574368635,-0.345588274377068,0.91983857436869,-0.345588274376458,-0.00254792470483783,-0.0278606468004603
52,-0.00266292515689892,-0.0282899308424636,0.918589148334922,-0.348712722794066,0.918589148335045,-0.348712722793584,-0.00270496161427575,-0.0281430344966582
52.5,-0.00282157126342425,-0.0285730925549361,0.917329230924016,-0.351832474199341,0.917329230924207,-0.351832474198982,-0.00286425370484478,-0.0284245307891937
53,-0.00298245662842972,-0.0288553775679319,0.916058839385507,-0.354947488108245,0.916058839385767,-0.354947488108004,-0.00302578358284727,-0.0287051197787411
53.5,-0.00314556550134326,-0.029136769808092,0.9147779913627,-0.358057724473138,0.914777991363032,-0.358057724473013,-0.00318953438088648,-0.0289847861128916
54,-0.00331088256279072,-0.0294172536864605,0.91348670486847,-0.361163143677544,0.913486704868874,-0.361163143677531,-0.0033554897445639,-0.0292635149380496
54.5,-0.00347839291436641,-0.0296968140583251,0.912184998262231,-0.364263706530113,0.912184998262708,-0.364263706530208,-0.00352363381830006,-0.0295412918546958
55,-0.00364808206766054,-0.0299754361857345,0.910872890227992,-0.367359374258445,0.910872890228543,-0.367359374258644,-0.00369395123046723,-0.029818102875824
55.5,-0.00381993593269708,-0.0302531057025235,0.909550399753424,-0.37045010850277,0.909550399754051,-0.37045010850307,-0.00386642707800006,-0.030093934388348
56,-0.00399394080590204,-0.0305298085817025,0.908217546109888,-0.373535871309521,0.908217546110593,-0.373535871309919,-0.00404104691063112,-0.0303687731172755
56.5,-0.00417008335771801,-0.0308055311050597,0.906874348833381,-0.376616625124798,0.906874348834165,-0.376616625125289,-0.00421779671486827,-0.0306426060924838
57,-0.00434835061995981,-0.0310802598348492,0.905520827706338,-0.379692332787753,0.905520827707202,-0.379692332788337,-0.00439666289783325,-0.0309154206179234
57.5,-0.00452872997300252,-0.0313539815874249,0.904157002740258,-0.382762957523902,0.904157002741205,-0.382762957524575,-0.00457763227104058,-0.0311872042430821
58,-0.00471120913285916,-0.0316266834086993,0.902782894159119,-0.385828462938368,0.90278289416015,-0.385828462939127,-0.00476069203420082,-0.0314579447365515
58.5,-0.004895776138232,-0.0318983525513219,0.901398522383517,-0.388888813009082,0.901398522384634,-0.388888813009926,-0.00494582975912716,-0.0317276300615827
59,-0.0050824193375747,-0.0321689764534427,0.900003908015531,-0.391943972079935,0.900003908016735,-0.39194397208086,-0.00513303337376964,-0.0319962483534459
59.5,-0.00527112737622942,-0.0324385427189899,0.898599071824234,-0.394993904853897,0.898599071825528,-0.394993904854902,-0.00532229114646682,-0.0322637878985261
60,-0.00546188918365026,-0.0327070390993354,0.897184034731869,-0.398038576386116,0.897184034733252,-0.398038576387198,-0.00551359167041376,-0.0325302371149832
60.5,-0.00565469396078222,-0.0329744534762693,0.89575881780061,-0.40107795207698,0.895758817802086,-0.401077952078138,-0.00570692384840571,-0.0327955845349004
61,-0.00584953116759507,-0.0332407738462028,0.894323442219928,-0.404111997665186,0.894323442221497,-0.404111997666417,-0.00590227687786971,-0.0330598187878111
61.5,-0.00604639051080846,-0.03350598830551,0.892877929294489,-0.407140679220781,0.892877929296154,-0.407140679222084,-0.00609964023620951,-0.0333229285854901
62,-0.00624526193182512,-0.0337700850369314,0.891422300432598,-0.410163963138207,0.89142230043436,-0.41016396313958,-0.00629900366647623,-0.0335849027079471
