"Freq [GHz]","re(St(P1,P1)) []","im(St(P1,P1)) []","re(St(P1,P2)) []","im(St(P1,P2)) []","re(St(P2,P1)) []","im(St(P2,P1)) []","re(St(P2,P2)) []","im(St(P2,P2)) []"
0,0.00356708567795749,0,0.996444967895513,0,0.996444964941475,0,0.00356707971400283,0
0.5,0.00398403229158362,0.000340132072899735,0.995991610719543,-0.00437694155495549,0.99599161059146,-0.00437694152698143,0.00398394961078452,0.000340280288018135
1,0.00439429138883796,0.000151050608707237,0.995506951692754,-0.00821733746795061,0.995506951701881,-0.00821733745573283,0.00439409819104597,0.000151432914435645
1.5,0.00463257553452223,-0.000195158694427988,0.995147023869155,-0.0121109827993884,0.995147023864632,-0.0121109827861758,0.00463235547214325,-0.000194389010815144
2,0.00475441952265854,-0.000546295781930439,0.994783103051443,-0.0158677889353811,0.994783103029453,-0.0158677889238028,0.004754159253201,-0.000545242025854265
2.5,0.00482172522816704,-0.000878321776514923,0.99444753104806,-0.0195300222404313,0.9944475310079,-0.0195300222324981,0.00482137361280621,-0.000877024668000104
3,0.00486233189526253,-0.00119278137065137,0.994144103232712,-0.0231339189134587,0.994144103176357,-0.0231339189109114,0.00486184072002338,-0.00119125614471471
3.5,0.00488883700640042,-0.00149398479400276,0.993864476651868,-0.0267034636275589,0.993864476582968,-0.0267034636317831,0.0048881638878937,-0.00149223780289987
4,0.0049073656263845,-0.00178542687167749,0.99359754673396,-0.0302528331252709,0.993597546656956,-0.0302528331371192,0.00490647233852126,-0.00178346149932374
4.5,0.00492112571361325,-0.00206957255336526,0.993333221587598,-0.0337900069253863,0.993333221507058,-0.0337900069450399,0.00491997672009958,-0.00206739134230283
5,0.00493191063899934,-0.00234811809587221,0.993063442515808,-0.0373194023121552,0.993063442435993,-0.0373194023391186,0.00493047217819376,-0.00234572353940266
5.5,0.00494077967300388,-0.0026222361070225,0.992782143875273,-0.0408434588526116,0.992782143799905,-0.0408434588858277,0.00493901922120532,-0.00261963094812323
6,0.00494838793260044,-0.00289274745838775,0.992484901620216,-0.0443635194245484,0.992484901552389,-0.0443635194625873,0.00494627389179891,-0.00288993479744626
6.5,0.00495515643797217,-0.00316023465862614,0.992168551361011,-0.0478803056146582,0.992168551303171,-0.0478803056558359,0.00495265795382194,-0.00315721798452984
7,0.00496136455863705,-0.00342511602343087,0.99183086289456,-0.0513941736401016,0.991830862848557,-0.0513941736826311,0.0049584514148453,-0.00342189921364167
7.5,0.00496720264896289,-0.00368769467782748,0.991470286491213,-0.0549052546306399,0.99147028645838,-0.0549052546727431,0.00496384520738991,-0.00368428198617643
8,0.00497280324851479,-0.00394819145994418,0.991085763088277,-0.0584135342907146,0.991085763069506,-0.0584135343306986,0.00496897241724636,-0.00394458750004034
8.5,0.00497826023974035,-0.00420676742109549,0.990676585275987,-0.0619189004109799,0.990676585271823,-0.0619189004472638,0.00497392745859204,-0.00420297714856233
9,0.004983640982124,-0.00446353949620004,0.990242296674035,-0.0654211728482119,0.990242296684745,-0.0654211728793852,0.00497877821918014,-0.00445956819112503
9.5,0.00498899421222243,-0.00471859161235599,0.989782619595334,-0.0689201235202361,0.989782619620976,-0.0689201235450359,0.00498357396742299,-0.00471444486231398
10,0.00499435531514236,-0.00497198269602528,0.989297403264432,-0.072415490384321,0.989297403304911,-0.0724154904016512,0.00498835062835357,-0.00496766637981949
10.5,0.00501498173039383,-0.00523830998182362,0.988847780019965,-0.0758978936215984,0.988847780059723,-0.0758978936401276,0.00500832529656758,-0.00523376686414778
11,0.00503557337079774,-0.00550690107785368,0.988387997898371,-0.0793683680762003,0.98838799793732,-0.0793683680958752,0.00502823063964242,-0.00550212823984353
11.5,0.00505600909484549,-0.00577779421582836,0.987918626169101,-0.0828275004004411,0.987918626207155,-0.0828275004212058,0.00504794525357199,-0.00577278833978578
12,0.00507616750878526,-0.00605102053856665,0.987440147595711,-0.0862758822932861,0.9874401476328,-0.0862758823150749,0.00506734749380511,-0.00604577788610339
12.5,0.00509592742396686,-0.00632660424562026,0.986952964815059,-0.0897141016218335,0.986952964851113,-0.0897141016445673,0.00508631593413167,-0.00632112063714452
13,0.00511516829011033,-0.00660456276934784,0.986457407117051,-0.0931427351157881,0.986457407152016,-0.0931427351393923,0.00510472980133231,-0.00659883356503332
13.5,0.00513377060267284,-0.00688490697837807,0.985953737378106,-0.0965623425102731,0.985953737411936,-0.0965623425346696,0.005122469383741,-0.0068789270606473
14,0.00515161628282956,-0.00716764140524351,0.985442158950853,-0.0999734619932875,0.985442158983506,-0.0999734620183936,0.00513941641223353,-0.00716140516283215
14.5,0.00516858902897843,-0.00745276449488586,0.984922822357887,-0.103376606805238,0.984922822389334,-0.103376606830973,0.00515545441258586,-0.00744626580854568
15,0.00518457463904934,-0.00774026887097001,0.984395831677351,-0.106772262837717,0.984395831707571,-0.106772262863998,0.00517046902843529,-0.00773350110078841
15.5,0.00519946130321269,-0.00803014161676074,0.983861250542336,-0.110160887083672,0.983861250571313,-0.110160887110417,0.0051843483144936,-0.00802309759111353
16,0.00521313986690702,-0.00832236456761937,0.983319107704632,-0.11354290680061,0.983319107732358,-0.11354290682774,0.00519698299991819,-0.00831503657374366
16.5,0.00522550406440372,-0.0086169146121966,0.982769402136483,-0.116918719260333,0.982769402162957,-0.11691871928777,0.00520826672205854,-0.00860929438833224
17,0.00523645072336507,-0.00891376399959221,0.982212107662205,-0.120288691971766,0.982212107687432,-0.120288691999438,0.0052180962310716,-0.00890584272864992
17.5,0.00524587994110602,-0.00921288064985948,0.981647177125433,-0.123653163277213,0.981647177149422,-0.123653163305044,0.00522637156609647,-0.00920464895456519
18,0.0052536952334424,-0.00951422846552585,0.981074546107972,-0.127012443235602,0.981074546130738,-0.127012443263529,0.00523299620391323,-0.00950567640496924
18.5,0.00525980365721512,-0.00981776764190201,0.980494136223408,-0.130366814719086,0.980494136244969,-0.130366814747042,0.00523787718116254,-0.00980888470940888
19,0.00526411590769084,-0.0101234549741998,0.97990585801329,-0.133716534661002,0.979905858033667,-0.133716534688925,0.00524092519134811,-0.0101142300964594
19.5,0.00526654639217346,-0.0104312441596397,0.979309613476379,-0.137061835403732,0.979309613495599,-0.137061835431564,0.00524205465797814,-0.0104216656969891
20,0.00526701328124017,-0.0107410860930242,0.978705298262643,-0.140402926104535,0.978705298280734,-0.140402926132223,0.00524118378524974,-0.0107311418408096
20.5,0.00526543853908469,-0.0110529291543213,0.978092803563672,-0.143739994165446,0.978092803580664,-0.143739994192941,0.00523823458778956,-0.0110426063452436
21,0.00526174793449002,-0.0113667194871301,0.977472017730348,-0.147073206660489,0.977472017746273,-0.147073206687744,0.00523313290097661,-0.0113560047944814
21.5,0.00525587103397171,-0.0116824012669965,0.976842827647218,-0.150402711739452,0.97684282766211,-0.150402711766426,0.00522580837339158,-0.0116712808087103
22,0.0052477411786343,-0.0119999169587608,0.976205119891177,-0.153728639992451,0.976205119905071,-0.153728640019101,0.00521619444296098,-0.0119883763021602
22.5,0.00523729544627219,-0.0123192075623133,0.975558781700083,-0.157051105763794,0.975558781713015,-0.157051105790085,0.0052042282983219,-0.0123072317295074
23,0.00522447460021766,-0.012640212846212,0.974903701774754,-0.160370208407004,0.97490370178676,-0.160370208432905,0.00518985082692157,-0.0126277863200324
23.5,0.00520922302638796,-0.0129628715688694,0.97423977093567,-0.163686033475739,0.974239770946787,-0.16368603350122,0.00517300655131897,-0.0129499782992677
24,0.00519148865994815,-0.0132871216870347,0.973566882653592,-0.166998653847522,0.973566882663857,-0.166998653872557,0.00515364355509793,-0.0132737450978828
24.5,0.00517122290293065,-0.0136129005515353,0.972884933471284,-0.170308130779013,0.972884933480735,-0.170308130803577,0.00513171339975443,-0.0135990235477403
25,0.00514838053409533,-0.0139401450902277,0.972193823331641,-0.173614514892916,0.972193823340315,-0.173614514916989,0.00510717103383088,-0.0139257500651051
25.5,0.00512291961224162,-0.0142687919783127,0.971493455825757,-0.176917847097663,0.971493455833691,-0.176917847121225,0.0050799746955289,-0.0142538608211504
26,0.00509480137411278,-0.0145987777961647,0.970783738372862,-0.1802181594418,0.970783738380093,-0.180218159464836,0.00505008580992661,-0.014583291899926
26.5,0.00506399012793191,-0.0149300391749727,0.970064582342576,-0.183515475905609,0.970064582349139,-0.183515475928107,0.00501746888186605,-0.0149139794440893
27,0.00503045314358236,-0.0152625129304926,0.969335903128614,-0.186809813132807,0.969335903134545,-0.186809813154753,0.00498209138550015,-0.0152458597886813
27.5,0.00499416054030036,-0.015596136185283,0.96859762018188,-0.190101181105488,0.968597620187213,-0.190101181126876,0.00494392365139273,-0.0155788695833774
28,0.00495508517273405,-0.0159308464798684,0.967849657009838,-0.193389583765591,0.967849657014607,-0.193389583786411,0.00490293875200787,-0.0159129459035872
28.5,0.00491320251610414,-0.0162665818732277,0.967091941148104,-0.196675019586173,0.967091941152343,-0.196675019606419,0.00485911238633605,-0.0162480263508895
29,0.00486849055114377,-0.016603281033166,0.966324404109367,-0.199957482095868,0.966324404113108,-0.199957482115538,0.0048124227643345,-0.0165840491432832
29.5,0.00482092964943365,-0.0169408833169538,0.965546981314048,-0.203236960359684,0.965546981317322,-0.203236960378772,0.0047628504917942,-0.0169209531957035
30,0.00477050245966448,-0.0172793288428381,0.964759612006419,-0.206513439419359,0.964759612009257,-0.206513439437867,0.00471037845616518,-0.0172586781913822
30.5,0.00471719379530205,-0.0176185585528894,0.963962239159402,-0.209786900696242,0.963962239161833,-0.209786900714168,0.0046549917138195,-0.0175971646445223
31,0.00466099052408175,-0.0179585142676877,0.963154809370744,-0.213057322359554,0.963154809372798,-0.213057322376901,0.00459667737917524,-0.0179363539548034
31.5,0.00460188145967749,-0.0182991387333962,0.962337272752856,-0.216324679662783,0.962337272754559,-0.216324679679554,0.00453542451602185,-0.0182761884542542
32,0.00453985725586081,-0.0186403756616791,0.961509582818237,-0.219588945250698,0.961509582819617,-0.219588945266896,0.00447122403137723,-0.0186166114469746
32.5,0.0044749103034149,-0.0189821697630062,0.960671696362111,-0.22285008943941,0.960671696363194,-0.222850089455039,0.0044040685721099,-0.0189575672422162
33,0.00440703463000147,-0.0193244667737762,0.959823573343591,-0.226108080471681,0.9598235733444,-0.226108080486747,0.00433395242456114,-0.0192990011812988
33.5,0.00433622580316911,-0.0196672134777498,0.958965176766492,-0.229362884749527,0.958965176767052,-0.229362884764037,0.0042608714173224,-0.0196408596588236
34,0.00426248083662861,-0.020010357722259,0.958096472560695,-0.232614467046079,0.958096472561028,-0.232614467060039,0.0041848228273102,-0.0199830901386582
34.5,0.00418579809990749,-0.0203538484295631,0.957217429464808,-0.235862790698381,0.957217429464937,-0.235862790711798,0.00410580528924115,-0.0203256411650816
35,0.00410617723144302,-0.0206976356038364,0.956328018910704,-0.239107817782839,0.956328018910649,-0.239107817795724,0.00402381870856999,-0.0206684623695503
35.5,0.00402361905516496,-0.0210416703341272,0.95542821491041,-0.242349509274778,0.955428214910192,-0.242349509287138,0.00393886417793921,-0.0210115044734467
36,0.00393812550059336,-0.0213859047936769,0.954517993945725,-0.24558782519346,0.954517993945362,-0.245587825205306,0.00385094389715662,-0.0213547192871952
36.5,0.00384969952643577,-0.0217302922359566,0.953597334860821,-0.248822724733885,0.953597334860333,-0.248822724745227,0.00376006109670041,-0.0216980597060896
37,0.00375834504767536,-0.0220747869877527,0.952666218758054,-0.252054166386484,0.952666218757457,-0.252054166397329,0.00366621996472449,-0.0220414797031827
37.5,0.00366406686610937,-0.0224193444395828,0.95172462889711,-0.255282108045771,0.95172462889642,-0.255282108056132,0.00356942557753065,-0.0223849343195242
38,0.00356687060428246,-0.0227639210337891,0.950772550597581,-0.258506507108957,0.950772550596815,-0.258506507118844,0.00346968383345547,-0.0227283796520601
38.5,0.00346676264276513,-0.0231084742505205,0.949809971145039,-0.261727320565353,0.94980997114421,-0.261727320574779,0.00336700139010615,-0.0230717728394494
39,0.00336375006067857,-0.0234529625919169,0.948836879700566,-0.264944505077444,0.948836879699689,-0.264944505086421,0.00326138560486372,-0.0234150720460737
39.5,0.00325784057941986,-0.0237973455646601,0.9478532672138,-0.268158017054291,0.947853267212889,-0.268158017062828,0.00315284447859154,-0.0237582364444406
40,0.00314904250946108,-0.0241415836611842,0.946859126339392,-0.271367812718002,0.946859126338458,-0.271367812726113,0.00304138660242825,-0.0241012261962417
40.5,0.00303736470015442,-0.0244856383396936,0.945854451356843,-0.274573848163859,0.945854451355898,-0.274573848171556,0.00292702110760118,-0.0244440024322266
41,0.00292281649243614,-0.0248294720031923,0.944839238093657,-0.277776079414653,0.944839238092714,-0.277776079421947,0.00280975761813523,-0.0247865272311014
41.5,0.00280540767432208,-0.025173047977691,0.943813483851714,-0.280974462469749,0.94381348385078,-0.280974462476652,0.00268960620637393,-0.0251287635976167
42,0.00268514843909912,-0.025516330489753,0.94277718733676,-0.284168953349348,0.942777187335845,-0.284168953355873,0.00256657735119137,-0.0254706754399936
42.5,0.00256204934610271,-0.0258592846435184,0.94173034859094,-0.287359508134368,0.941730348590055,-0.287359508140528,0.0024406818988017,-0.0258122275468422
43,0.00243612128397686,-0.0262018763973264,0.940672968928262,-0.290546083002321,0.940672968927414,-0.290546083008127,0.00231193102605265,-0.0261533855636857
43.5,0.00230737543630372,-0.0265440725400665,0.939605050872867,-0.29372863425954,0.939605050872063,-0.293728634265006,0.00218033620609953,-0.0264941159692182
44,0.0021758232495131,-0.0268858406673564,0.93852659810003,-0.2969071183701,0.938526598099278,-0.296907118375237,0.00204590917635022,-0.0268343860514035
44.5,0.00204147640295033,-0.0272271491576468,0.937437615379762,-0.300081491981681,0.937437615379068,-0.300081491986501,0.00190866190858507,-0.0271741638834975
45,0.00190434678101287,-0.0275679671483298,0.936338108522918,-0.303251711948676,0.936338108522287,-0.303251711953192,0.00176860658113848,-0.0275134183000976
45.5,0.00176444644725104,-0.0279082645119411,0.9352280843297,-0.306417735352776,0.935228084329138,-0.306417735357,0.00162575555304995,-0.0278521188732725
46,0.00162178762033471,-0.0282480118325121,0.934107550540455,-0.309579519521233,0.934107550539966,-0.309579519525176,0.00148012134008568,-0.0281902358888659
46.5,0.00147638265179234,-0.0285871803821378,0.932976515788668,-0.312737022043034,0.932976515788256,-0.312737022046708,0.00133171659252779,-0.0285277403230175
47,0.00132824400543219,-0.0289257420978182,0.931834989556054,-0.315890200783145,0.931834989555723,-0.315890200786562,0.00118055407464784,-0.0288646038189522
47.5,0.00117738423834834,-0.0292636695586015,0.930682982129648,-0.319039013894994,0.930682982129399,-0.319039013898165,0.00102664664577312,-0.0292007986641003
48,0.00102381598343676,-0.0296009359631,0.929520504560805,-0.322183419831363,0.929520504560644,-0.322183419834301,0.000870007242851634,-0.0295362977675733
48.5,0.000867551933328492,-0.0299375151073804,0.928347568626036,-0.3253233773538,0.928347568625965,-0.325323377356515,0.000710648864442942,-0.0298710746380317
49,0.000708604825662262,-0.0302733813632892,0.927164186789561,-0.328458845540703,0.92716418678958,-0.328458845543205,0.000548584556045062,-0.0302051033619917
49.5,0.000546987429627777,-0.0306085096572046,0.925970372167539,-0.331589783794171,0.92597037216765,-0.331589783796473,0.000383827396690073,-0.0305383585825627
50,0.000382712533690988,-0.0309428754492802,0.924766138493864,-0.334716151845742,0.924766138494068,-0.334716151847854,0.000216390486723728,-0.0308708154786745
50.5,0.000215792934443459,-0.0312764547131499,0.923551500087476,-0.337837909761101,0.923551500087773,-0.337837909763032,4.62869367093277E-005,-0.0312024497447829
51,4.62414265080535E-005,-0.0316092239161363,0.922326471821103,-0.340955017943858,0.922326471821495,-0.34095501794562,-0.000126470142621293,-0.0315332375710777
51.5,-0.000125929206578168,-0.0319411599999788,0.921091069091369,-0.344067437138462,0.921091069091855,-0.344067437140065,-0.000301867649425247,-0.0318631556242048
52,-0.000300706200540568,-0.032272240362065,0.919845307790206,-0.347175128432346,0.919845307790785,-0.347175128433798,-0.000479892498885248,-0.0321921810285093
52.5,-0.00047807681768175,-0.0326024428371783,0.91858920427751,-0.350278053257327,0.918589204278181,-0.350278053258639,-0.000660531630470695,-0.032520291347796
53,-0.000658028353386686,-0.0329317456797913,0.917322775354972,-0.353376173390382,0.917322775355735,-0.353376173391562,-0.000843772014396282,-0.0328474645676278
53.5,-0.000840548141852804,-0.0332601275468589,0.916046038241053,-0.356469450953796,0.916046038241906,-0.356469450954854,-0.001029600657311,-0.0331736790781414
54,-0.00102562356112523,-0.0335875674811523,0.914759010547015,-0.359557848414781,0.914759010547956,-0.359557848415726,-0.00121800460728627,-0.0334989136573998
54.5,-0.00121324203745671,-0.0339140448951101,0.913461710253995,-0.362641328584574,0.913461710255023,-0.362641328585414,-0.0014089709581348,-0.0338231474552622
55,-0.00140339104904863,-0.0342395395551978,0.912154155691046,-0.365719854617081,0.912154155692158,-0.365719854617826,-0.00160248685311143,-0.0341463599777734
55.5,-0.00159605812922253,-0.0345640315668003,0.910836365514115,-0.368793390007106,0.910836365515308,-0.368793390007762,-0.00179853948804659,-0.0344685310720771
56,-0.00179123086904304,-0.0348875013595926,0.909508358685914,-0.371861898588171,0.909508358687187,-0.371861898588747,-0.00199711611392905,-0.0347896409118265
56.5,-0.00198889691944909,-0.0352099296734383,0.908170154456642,-0.374925344530012,0.908170154457991,-0.374925344530514,-0.00219820403900789,-0.0351096699831039
57,-0.00218904399291775,-0.035531297544757,0.906821772345514,-0.377983692335719,0.906821772346937,-0.377983692336155,-0.00240179063041568,-0.0354285990708296
57.5,-0.00239165986469769,-0.0358515862933897,0.905463232123072,-0.381036906838609,0.905463232124566,-0.381036906838986,-0.00260786331537399,-0.0357464092456605
58,-0.00259673237364066,-0.036170777509926,0.90409455379424,-0.384084953198801,0.904094553795801,-0.384084953199125,-0.00281640958199492,-0.036063081851357
58.5,-0.00280424942266749,-0.0364888530435037,0.90271575758208,-0.38712779689956,0.902715757583704,-0.387127796899838,-0.00302741697971654,-0.0363785984926228
59,-0.00301419897888866,-0.036805794990058,0.901326863912234,-0.390165403743406,0.901326863913919,-0.390165403743645,-0.00324087311939802,-0.0366929410233909
59.5,-0.00322656907340857,-0.037121585681015,0.899927893398022,-0.393197739848015,0.899927893399762,-0.393197739848219,-0.00345676567309949,-0.0370060915355681
60,-0.00344134780084371,-0.0374362076724193,0.898518866826142,-0.396224771641931,0.898518866827935,-0.396224771642107,-0.00367508237357511,-0.0373180323481985
60.5,-0.00365852331856698,-0.0377496437344846,0.897099805142992,-0.399246465860109,0.897099805144832,-0.399246465860262,-0.00389581101349734,-0.0376287459970663
61,-0.00387808384570598,-0.0380618768415495,0.895670729441546,-0.402262789539287,0.895670729443431,-0.402262789539422,-0.00411893944443564,-0.0379382152246968
61.5,-0.0041000176619217,-0.038372890162446,0.894231660948784,-0.405273710013229,0.894231660950709,-0.405273710013351,-0.00434445557561486,-0.0382464229707729
62,-0.00432431310597026,-0.0386826670512468,0.892782621013652,-0.408279194907824,0.892782621015613,-0.408279194907938,-0.00457234737246331,-0.0385533523629298
