"Freq [GHz]","re(St(P1,P1)) []","im(St(P1,P1)) []","re(St(P1,P2)) []","im(St(P1,P2)) []","re(St(P2,P1)) []","im(St(P2,P1)) []","re(St(P2,P2)) []","im(St(P2,P2)) []"
0,0.00503527249406943,0,0.994978592454572,0,0.994978588816593,0,0.00503526452445158,0
0.5,0.00555486377499648,9.44908106319531E-005,0.994421731059639,-0.00563878300895837,0.994421730687847,-0.00563878372098614,0.0055546491765881,9.53506619083555E-005
1,0.00601792536972923,-0.000450374559584077,0.99387798059384,-0.0106362511922065,0.993877981504607,-0.0106362514735636,0.00601739298243942,-0.000448389597618615
1.5,0.00632512235259597,-0.00110096729747866,0.99342343524221,-0.015635293948435,0.9934234360069,-0.0156352942930411,0.00632419270071338,-0.00109791664977976
2,0.0065056000101098,-0.00180331739893447,0.993006192044307,-0.0204986994345617,0.993006192662911,-0.0204986997846177,0.00650427284450039,-0.00179900528551258
2.5,0.00661192365338259,-0.00250431957963926,0.992635329123049,-0.0252974229738072,0.992635329615606,-0.0252974232930612,0.00661024890709072,-0.00249866111892771
3,0.00667709677395578,-0.00319356800350867,0.992294155127341,-0.0300694713492486,0.992294155517158,-0.0300694716207328,0.00667510688436401,-0.0031865324806688
3.5,0.00671865452723441,-0.003871585787115,0.99196432859675,-0.0348312464297216,0.991964328903793,-0.0348312466484373,0.00671636045148105,-0.00386316175028512
4,0.00674593431956705,-0.00454101842332477,0.991631715337205,-0.0395884873572392,0.991631715577007,-0.039588487524604,0.0067433317356258,-0.00453119953020042
4.5,0.00676410845404485,-0.00520448158577835,0.991286382909609,-0.0443422333156853,0.991286383094007,-0.0443422334362467,0.00676118309145313,-0.00519326135234621
5,0.00677617496503746,-0.00586414493347043,0.990921475772834,-0.0490916081079167,0.990921475911002,-0.0490916081876609,0.00677290605873537,-0.00585151487206304
5.5,0.0067839466857631,-0.00652174142202178,0.990532207060976,-0.053835049409571,0.990532207160314,-0.0538350494550102,0.00678030908182325,-0.00650769043963528
6,0.00678856071612577,-0.0071786592163452,0.990115150900672,-0.0585708348232519,0.990115150967441,-0.0585708348409675,0.00678452614418612,-0.00716317347100315
6.5,0.00679075224873427,-0.00783603089477936,0.989667780525757,-0.0632972976720296,0.989667780565542,-0.0632972976684343,0.00678629009439713,-0.00781909380559043
7,0.00679100799521137,-0.00849480339437658,0.989188173283114,-0.0680129071261311,0.989188173301115,-0.0680129071073257,0.00678608577044759,-0.00847639568945713
7.5,0.00678965551360688,-0.00915578952671492,0.988674822562281,-0.0727162897338642,0.988674822563513,-0.072716289705566,0.00678423914117876,-0.00913588928608799
8,0.00678691704312273,-0.00981970524718978,0.988126517083023,-0.0774062264447357,0.988126517072445,-0.0774062264122284,0.00678097102355046,-0.00979828792622239
8.5,0.00678294295936355,-0.0104871966209696,0.987542262596112,-0.08208164019495,0.987542262578688,-0.0820816401630697,0.00677643046160459,-0.0104642350507929
9,0.00677783313397262,-0.0111588595031717,0.986921230456051,-0.0867415806442864,0.986921230436787,-0.0867415806173959,0.00677071603506307,-0.0111343238685313
9.5,0.00677165089565646,-0.0118352540922366,0.986262723360864,-0.0913852088518743,0.986262723344813,-0.091385208833854,0.00676388978506948,-0.0118091118883887
10,0.00676443233952606,-0.0125169158654934,0.985566152147767,-0.0960117829799465,0.985566152140026,-0.0960117829742062,0.00675598649827447,-0.0124891318358911
10.5,0.0067468684260511,-0.0131745303513542,0.984895503372428,-0.100686146100783,0.984895503364972,-0.100686146094922,0.00673803292261166,-0.0131454456634073
11,0.00672630499196913,-0.0138361048758737,0.98420079034499,-0.105346525108411,0.98420079033782,-0.105346525102443,0.00671704430083675,-0.0138057223072332
11.5,0.00670249253591143,-0.0145016821800263,0.983482719651458,-0.10999303158887,0.983482719644573,-0.109993031582814,0.00669276996758339,-0.0144700027556626
12,0.00667518111448162,-0.0151712899192358,0.982741953466355,-0.114625817132172,0.982741953459753,-0.114625817126039,0.00666495896633712,-0.0151383127934297
12.5,0.00664412132057496,-0.0158449409319346,0.981979108426866,-0.119245067254892,0.981979108420543,-0.119245067248698,0.00663336103734163,-0.0158106632874233
13,0.00660906521602231,-0.016522633574052,0.981194755208933,-0.123850995598144,0.981194755202887,-0.123850995591902,0.00659772755774068,-0.0164870505388857
13.5,0.00656976721440639,-0.017204352113307,0.980389418719255,-0.128443838462759,0.980389418713481,-0.128443838456484,0.00655781242981743,-0.017167456695713
14,0.00652598491057257,-0.0178900671771851,0.979563578816465,-0.133023849726873,0.979563578810959,-0.133023849720575,0.00651337291389387,-0.0178518502185456
14.5,0.00647747985416082,-0.0185797362482503,0.978717671476814,-0.137591296175651,0.97871767147157,-0.13759129616934,0.00646417040327225,-0.018540186394008
15,0.00642401826511083,-0.0192733042005409,0.977852090323495,-0.142146453259682,0.977852090318509,-0.142146453253367,0.00640997113927289,-0.0192324078886532
15.5,0.00636537168983339,-0.0199707038707984,0.976967188444202,-0.146689601286969,0.976967188439469,-0.146689601280662,0.00635054686515803,-0.0199284453372108
16,0.00630131759732426,-0.020671856658447,0.976063280427809,-0.151221022043905,0.976063280423322,-0.151221022037618,0.00628567541836343,-0.0206282179588126
16.5,0.00623163991513222,-0.0213766731483958,0.975140644558081,-0.155740995832932,0.975140644553833,-0.155740995826668,0.00621514126107463,-0.0213316341951799
17,0.00615612950559605,-0.0220850537510424,0.97419952510954,-0.160249798908531,0.974199525105526,-0.160249798902302,0.00613873594972585,-0.0220385923650155
17.5,0.00607458458328817,-0.0227968893540806,0.973240134697834,-0.164747701288843,0.973240134694048,-0.164747701282654,0.00605625854451213,-0.0227489813290647
18,0.0059868110750169,-0.0235120619810658,0.972262656643992,-0.169234964916976,0.972262656640427,-0.169234964910833,0.00596751596043586,-0.0234626811607686
18.5,0.00589262292413591,-0.0242304454520532,0.971267247318543,-0.173711842144335,0.971267247315192,-0.173711842138244,0.00587232326179415,-0.0241795638177469
19,0.00579184234123117,-0.0249519060419638,0.970254038437657,-0.17817857450724,0.970254038434514,-0.178178574501209,0.00577050390234186,-0.0248994938097171
19.5,0.00568430000354442,-0.025676303132744,0.969223139289044,-0.182635391768085,0.969223139286103,-0.182635391762118,0.00566188991364397,-0.0256223288589137
20,0.00556983520568613,-0.0264034898557299,0.968174638870342,-0.187082511192737,0.968174638867596,-0.187082511186838,0.00554632204433142,-0.0263479205494308
20.5,0.00544829596441834,-0.0271333137210643,0.967108607927157,-0.191520137036967,0.967108607924602,-0.19152013703114,0.0054236498531689,-0.0270761149623246
21,0.00531953908035451,-0.0278656172313636,0.966025100881719,-0.195948460216039,0.966025100879346,-0.195948460210289,0.00529373175893283,-0.0278067532937172
21.5,0.00518343015957198,-0.0286002384772215,0.96492415764638,-0.200367658133243,0.964924157644186,-0.200367658127572,0.00515643505020441,-0.0285396724535425
22,0.00503984359813875,-0.0293370117124723,0.963805805318985,-0.204777894644913,0.963805805316962,-0.204777894639323,0.00501163585820846,-0.0292747056428944
22.5,0.00488866253258605,-0.0300757679075248,0.962670059759326,-0.209179320141401,0.962670059757469,-0.209179320135896,0.00485921909581499,-0.0300116829083561
23,0.00472977875934322,-0.0308163352793476,0.961516927047849,-0.213572071725321,0.961516927046153,-0.213572071719905,0.00469907836582767,-0.0307504316719727
23.5,0.00456309262610038,-0.0315585397970599,0.960346404829159,-0.21795627347027,0.960346404827618,-0.217956273464942,0.004531115841587,-0.0314907772358644
24,0.00438851289799608,-0.032302205662285,0.959158483544075,-0.222332036745026,0.959158483542684,-0.222332036739791,0.00435524212286664,-0.0322325432607578
24.5,0.00420595660143436,-0.0330471557637706,0.957953147554814,-0.226699460589974,0.957953147553567,-0.226699460584832,0.00417137606991314,-0.0329755522179807
25,0.0040153488482409,-0.0337932121059481,0.956730376168503,-0.231058632134051,0.956730376167396,-0.231058632129005,0.00397944461839295,-0.0337196258147014
25.5,0.00381662264273336,-0.034540196211355,0.955490144564624,-0.235409627042076,0.955490144563652,-0.235409627037125,0.00377938257784954,-0.0344645853923953
26,0.00360971867415544,-0.035287929497037,0.954232424632246,-0.239752509983656,0.954232424631405,-0.239752509978801,0.00357113241615181,-0.035210252298767
26.5,0.00339458509680279,-0.0360362336252003,0.95295718572299,-0.2440873351161,0.952957185722275,-0.244087335111341,0.00335464403227581,-0.0359564482334287
27,0.00317117729998317,-0.0367849308285511,0.951664395325666,-0.248414146574944,0.951664395325072,-0.248414146570284,0.00312987451957653,-0.0367029955679046
27.5,0.00293945766986797,-0.0375338442108686,0.95035401966843,-0.252732978966639,0.950354019667953,-0.252732978962078,0.00289678792159803,-0.0374497176405173
28,0.00269939534507307,-0.0382827980234923,0.949026024254137,-0.257043857858912,0.949026024253774,-0.257043857854449,0.0026553549822762,-0.038196439026966
28.5,0.00245096596773359,-0.0390316179184786,0.947680374334352,-0.261346800265046,0.947680374334099,-0.261346800260683,0.00240555289225802,-0.0389429857873709
29,0.00219415143162471,-0.0397801311792532,0.946317035327231,-0.265641815119062,0.946317035327085,-0.265641815114799,0.00214736503291013,-0.0396891856906847
29.5,0.00192893962879037,-0.0405281669296635,0.944935973184206,-0.269928903739377,0.944935973184161,-0.269928903735212,0.00188078071943043,-0.0404348684174414
30,0.00165532419597275,-0.0412755563223672,0.943537154710109,-0.274208060279032,0.943537154710163,-0.274208060274966,0.00160579494434943,-0.0411798657418037
30.5,0.00137330426201931,-0.0420221327075192,0.942120547841103,-0.27847927216105,0.942120547841253,-0.278479272157085,0.00132240812256829,-0.0419240116939446
31,0.00108288419731312,-0.0427677317827633,0.940686121884445,-0.282742520497865,0.940686121884686,-0.282742520493998,0.00103062583894714,-0.0426671427037866
31.5,0.000784073366141946,-0.0435121917255237,0.939233847723825,-0.286997780494091,0.939233847724157,-0.286997780490324,0.000730458599344619,-0.043409097727154
32,0.000476885882844669,-0.0442553533085941,0.937763697993789,-0.291245021832185,0.937763697994208,-0.291245021828517,0.000421921585890106,-0.044149718355335
32.5,0.000161340372404561,-0.044997060000046,0.936275647226377,-0.295484209040793,0.936275647226879,-0.295484209037223,0.000105034417160366,-0.044888848909143
33,-0.000162540263870525,-0.0457371580484043,0.934769671972942,-0.299715301845728,0.934769671973525,-0.299715301842256,-0.000220179086158012,-0.0456263365184215
33.5,-0.00049472907708259,-0.0464754965541065,0.933245750903808,-0.303938255503772,0.933245750904469,-0.303938255500397,-0.000553691129646094,-0.0463620311880322
34,-0.000835195293460433,-0.0472119275281335,0.931703864888208,-0.308153021119491,0.931703864888945,-0.308153021116214,-0.000895470167157908,-0.047095785851244
34.5,-0.00118390453070061,-0.0479463059387768,0.930143997056724,-0.312359545945505,0.930143997057533,-0.312359545942324,-0.00124548111614375,-0.0478274564114898
35,-0.00154081900766057,-0.0486784897473935,0.92856613284823,-0.316557773666601,0.928566132849111,-0.316557773663516,-0.00160368556603618,-0.0485569017733545
35.5,-0.00190589774717848,-0.0494083399340104,0.926970260043187,-0.320747644668231,0.926970260044137,-0.320747644665242,-0.00197004197951367,-0.0492839838636721
36,-0.00227909677187221,-0.0501357205136059,0.925356368784902,-0.32492909628995,0.925356368785919,-0.324929096287055,-0.00234450588650864,-0.0500085676435449
36.5,-0.002660369292809,-0.0508604985438195,0.923724451590269,-0.329102063064359,0.92372445159135,-0.329102063061558,-0.00272703007089514,-0.0507305211120759
37,-0.00304966589098388,-0.0515825441248583,0.922074503351304,-0.33326647694218,0.922074503352447,-0.333266476939474,-0.00311756474980457,-0.0514497153025344
37.5,-0.00344693469160706,-0.0523017303922872,0.920406521328689,-0.337422267504082,0.920406521329893,-0.337422267501468,-0.00351605774560371,-0.0521660242716815
38,-0.00385212153120701,-0.0530179335033687,0.918720505138393,-0.341569362159855,0.918720505139656,-0.341569362157332,-0.0039224546505634,-0.0528793250829083
38.5,-0.00426517011761224,-0.053731032617587,0.917016456732334,-0.34570768633559,0.917016456733653,-0.345707686333159,-0.00433669898430128,-0.0535894977838014
39,-0.0046860221829011,-0.054440909871931,0.91529438037394,-0.349837163649439,0.915294380375314,-0.349837163647099,-0.00475873234410196,-0.054296425378729
39.5,-0.00511461762941673,-0.055147450351505,0.913554282609382,-0.353957716076577,0.91355428261081,-0.353957716074327,-0.00518849454824416,-0.0549999937969936
40,-0.00555089466898606,-0.0558505420559667,0.911796172235147,-0.35806926410393,0.911796172236627,-0.358069264101771,-0.00562592377247978,-0.0557000918570549
40.5,-0.00599478995548475,-0.0565500758622892,0.91002006026257,-0.362171726875259,0.9100200602641,-0.362171726873189,-0.00607095667982827,-0.0563966112273013
41,-0.00644623871091565,-0.0572459454842782,0.908225959879846,-0.366265022327105,0.908225959881425,-0.366265022325123,-0.00652352854386246,-0.057089446383805
41.5,-0.00690517484516673,-0.0579380474292805,0.906413886412013,-0.370349067316167,0.90641388641364,-0.370349067314272,-0.00698357336567729,-0.0577784945654785
42,-0.00737153106964156,-0.0586262809524458,0.904583857279308,-0.374423777738566,0.904583857280981,-0.374423777736759,-0.00745102398473058,-0.058463655726992
42.5,-0.00784523900494738,-0.0593105480089151,0.902735891954266,-0.378489068641518,0.902735891955984,-0.378489068639796,-0.00792581218376781,-0.0591448324898112
43,-0.00832622928283588,-0.059990753204255,0.9008700119179,-0.382544854327828,0.900870011919661,-0.382544854326192,-0.00840786878802574,-0.0598219300916687
43.5,-0.00881443164260665,-0.0606668037434392,0.898986240615215,-0.386591048453683,0.898986240617018,-0.386591048452132,-0.00889712375893298,-0.0604948563347587
44,-0.00930977502216057,-0.0613386093786525,0.897084603410332,-0.390627564120118,0.897084603412177,-0.390627564118652,-0.0093935062825154,-0.0611635215329238
44.5,-0.00981218764392233,-0.0620060823561703,0.895165127541415,-0.39465431395857,0.8951651275433,-0.394654313957187,-0.0098969448527127,-0.0618278384580746
45,-0.0103215970958208,-0.0626691373625454,0.893227842075595,-0.398671210210872,0.893227842077518,-0.398671210209571,-0.0104073673498203,-0.062487722286066
45.5,-0.0108379304075378,-0.0633276914703036,0.891272777864045,-0.40267816480404,0.891272777866006,-0.402678164802822,-0.0109247011142606,-0.0631430905422228
46,-0.0113611141222218,-0.063981664083351,0.889299967497349,-0.406675089420194,0.889299967499347,-0.406675089419056,-0.0114488730158877,-0.063793863046705
46.5,-0.0118910743638597,-0.064630976882244,0.887309445261277,-0.410661895561888,0.887309445263311,-0.410661895560832,-0.0119798095190216,-0.064439961859865
47,-0.0124277369005001,-0.0652755537695002,0.885301247093059,-0.414638494613186,0.885301247095128,-0.41463849461221,-0.0125174367434152,-0.0650813112277524
47.5,-0.0129710272035202,-0.0659153208150669,0.883275410538259,-0.418604797896707,0.883275410540361,-0.418604797895811,-0.0130616805213358,-0.0657178375278864
48,-0.0135208705031121,-0.0665502062020857,0.881231974708284,-0.422560716726937,0.881231974710419,-0.42256071672612,-0.0136124664509532,-0.0663494692154216
48.5,-0.0140771918401722,-0.0671801401730594,0.879170980238631,-0.426506162460024,0.879170980240799,-0.426506162459285,-0.0141697199462076,-0.066976136769803
49,-0.014639916114763,-0.0678050549765112,0.877092469247867,-0.430441046540292,0.877092469250065,-0.43044104653963,-0.0147333662833387,-0.0675977726420027
49.5,-0.0152089681313164,-0.0684248848142381,0.874996485297415,-0.434365280543675,0.874996485299644,-0.43436528054309,-0.0153033306442358,-0.0682143112024209
50,-0.0157842726407395,-0.06903956578922,0.872883073352156,-0.438278776218283,0.872883073354414,-0.438278776217774,-0.015879538156775,-0.0688256886895089
50.5,-0.016365754379578,-0.0696490358542594,0.870752279741872,-0.44218144552228,0.870752279744159,-0.442181445521847,-0.0164619139323031,-0.0694318431591969
51,-0.0169533381063876,-0.0702532347614024,0.868604152123537,-0.446073200659233,0.868604152125852,-0.446073200658875,-0.0170503831004069,-0.0700327144351476
51.5,-0.017546948635457,-0.0708521040121988,0.866438739444481,-0.449953954111124,0.866438739446823,-0.44995395411084,-0.0176448708411207,-0.0706282440599051
52,-0.0181465108680197,-0.0714455868088333,0.864256091906403,-0.453823618669141,0.864256091908772,-0.453823618668932,-0.0182453024147073,-0.0712183752469571
52.5,-0.0187519498210874,-0.0720336280061655,0.862056260930266,-0.457682107462426,0.862056260932661,-0.457682107462289,-0.0188516031891405,-0.0718030528337514
53,-0.0193631906540342,-0.0726161740647169,0.859839299122033,-0.461529333984875,0.859839299124453,-0.461529333984812,-0.0194636986654177,-0.0723822232356861
53.5,-0.0199801586930501,-0.0731931730046127,0.857605260239272,-0.465365212120155,0.857605260241717,-0.465365212120164,-0.0200815145008206,-0.072955834401091
54,-0.0206027794535737,-0.0737645743605069,0.855354199158595,-0.46918965616501,0.855354199161063,-0.46918965616509,-0.0207049765302399,-0.073523835767215
54.5,-0.0212309786608308,-0.0743303291375004,0.853086171843925,-0.473002580850999,0.853086171846417,-0.473002580851151,-0.0213340107856712,-0.0740861782172333
55,-0.0218646822685638,-0.0748903897680697,0.85080123531559,-0.476803901364752,0.850801235318105,-0.476803901364973,-0.0219685435139825,-0.0746428140382678
55.5,-0.0225038164760655,-0.0754447100699951,0.84849944762021,-0.480593533366832,0.848499447622746,-0.480593533367123,-0.0226085011930614,-0.0751936968804452
56,-0.0231483077436072,-0.0759932452053106,0.846180867801369,-0.484371393009309,0.846180867803928,-0.48437139300967,-0.0232538105464201,-0.075738781716964
56.5,-0.0237980828063529,-0.0765359516402648,0.843845555871069,-0.488137396952107,0.843845555873648,-0.488137396952536,-0.0239043985563627,-0.0762780248051913
57,-0.0244530686868459,-0.0770727871062864,0.84149357278191,-0.491891462378216,0.84149357278451,-0.491891462378714,-0.0245601924757847,-0.0768113836487727
57.5,-0.0251131927061456,-0.0776037105619635,0.839124980400027,-0.495633507007835,0.839124980402647,-0.4956335070084,-0.0252211198386949,-0.077338816960745
58,-0.0257783824936983,-0.0781286821560157,0.83673984147872,-0.499363449111512,0.836739841481359,-0.499363449112144,-0.0258871084695295,-0.07786028462765
58.5,-0.0264485659960085,-0.0786476631912597,0.834338219632791,-0.503081207522342,0.834338219635448,-0.50308120752304,-0.0265580864913299,-0.078375747674637
59,-0.0271236714841854,-0.0791606160895511,0.831920179313545,-0.506786701647287,0.83192017931622,-0.506786701648052,-0.0272339823328532,-0.0788851682315317
59.5,-0.0278036275604271,-0.0796675043576976,0.829485785784455,-0.510479851477666,0.829485785787148,-0.510479851478495,-0.027914724734679,-0.0793885094998714
60,-0.0284883631635072,-0.0801682925543263,0.827035105097458,-0.514160577598863,0.827035105100169,-0.514160577599759,-0.0286002427543717,-0.0798857357208892
60.5,-0.0291778075733209,-0.0806629462576973,0.824568204069869,-0.517828801199322,0.824568204072596,-0.517828801200282,-0.0292904657707583,-0.0803768121444221
61,-0.0298718904145477,-0.0811514320344393,0.822085150261893,-0.521484444078828,0.822085150264637,-0.521484444079851,-0.0299853234873683,-0.0808617049987376
61.5,-0.0305705416594825,-0.0816337174092062,0.819586011954717,-0.52512742865617,0.819586011957477,-0.525127428657257,-0.0306847459350972,-0.081340381461263
62,-0.0312736916300849,-0.0821097708352259,0.817070858129168,-0.528757677976186,0.817070858131943,-0.528757677977336,-0.0313886634741322,-0.0818128096301887
62.5,-0.0319812709992981,-0.0825795616657383,0.814539758444902,-0.532375115716233,0.814539758447692,-0.532375115717445,-0.0320970067951918,-0.082278958496947
