"Freq [GHz]","re(St(P1,P1)) []","im(St(P1,P1)) []","re(St(P1,P2)) []","im(St(P1,P2)) []","re(St(P2,P1)) []","im(St(P2,P1)) []","re(St(P2,P2)) []","im(St(P2,P2)) []"
0,0.00354599426489699,0,0.996467385120923,0,0.996467384378775,0,0.00354598934180217,0
0.5,0.00396844924005535,-8.89187279042858E-005,0.995960750511792,-0.00587166399448691,0.99596075094415,-0.00587166438177178,0.00396829989792735,-8.84769839437638E-005
1,0.00433098326181991,-0.000728306016515745,0.995382483324462,-0.0111698934869899,0.995382483371248,-0.0111698933862066,0.00433053019217056,-0.000727242753434609
1.5,0.00425048333986133,-0.00154543557588482,0.994916588358771,-0.0165695876007881,0.994916588436896,-0.0165695874781626,0.00425034862501761,-0.00154362500211747
2,0.00418438866007698,-0.00226840630228509,0.994367824024675,-0.0218101398601505,0.99436782412805,-0.0218101397347077,0.00418415156512353,-0.0022658013997976
2.5,0.00411311036053963,-0.00294714709789901,0.993786598017917,-0.0269044838697639,0.993786598135503,-0.0269044837539028,0.00411258924208457,-0.00294374715696222
3,0.00403218813866246,-0.00359786767455361,0.993202468311063,-0.0318792886643884,0.993202468431833,-0.0318792885640189,0.00403126794336828,-0.00359366934829986
3.5,0.00394058047006007,-0.0042267391260733,0.992627300284722,-0.0367628394479116,0.992627300400174,-0.0367628393645116,0.00393917348062756,-0.00422173393644165
4,0.00383835581912573,-0.00483616466123138,0.992061592306249,-0.0415791726684596,0.992061592410955,-0.0415791726011214,0.00383638979600365,-0.00483034041567443
4.5,0.00372604496623818,-0.00542693062830324,0.991500000048547,-0.0463465785081763,0.9915000001397,-0.0463465784550277,0.00372345889987313,-0.00542027290473435
5,0.00360440891524405,-0.00599908357816759,0.99093497527963,-0.0510781535749452,0.990934975356316,-0.0510781535338882,0.00360115130994609,-0.00599157694860608
5.5,0.00347433678130371,-0.0065523347084202,0.990358777715666,-0.0557829572949888,0.990358777778194,-0.0557829572640305,0.0034703648622405,-0.00654396374512523
6,0.00333679150647881,-0.00708626376838595,0.98976441819429,-0.0604671275953752,0.989764418243673,-0.0604671275727551,0.00333207076130781,-0.00707701388686921
6.5,0.00319277573856636,-0.00760042839609554,0.989145995825761,-0.0651347589384876,0.989145995863374,-0.0651347589226852,0.00318727955755937,-0.00759028656677252
7,0.0030433074395908,-0.00809442480517575,0.988498728259869,-0.069788534755852,0.988498728287209,-0.0697885347455651,0.00303701675605694,-0.00808338014935384
7.5,0.0028894009509044,-0.00856792153183328,0.987818845885038,-0.0744301643842951,0.987818845903592,-0.0744301643784135,0.00288230384336219,-0.00855596580946916
8,0.00273205165235502,-0.00902067730848977,0.987103439578211,-0.0790606798882507,0.987103439589378,-0.0790606798858162,0.00272414289763945,-0.00900780530188694
8.5,0.00257222335520657,-0.00945254910226101,0.986350305324039,-0.0836806373089489,0.986350305329085,-0.0836806373091363,0.00256350393516958,-0.00943875889933832
9,0.00241083799785324,-0.00986349383016538,0.985557804296453,-0.0882902541366697,0.985557804296506,-0.0882902541387622,0.00240131456877257,-0.00984878701176317
9.5,0.00224876739532642,-0.0102535659198129,0.984724744506168,-0.0928895044633817,0.984724744502214,-0.0928895044667568,0.00223845173186071,-0.010237947656897
10,0.00208682686491868,-0.0106229121313177,0.98385028422051,-0.0974781859157217,0.983850284213401,-0.0974781859198393,0.00207573529115229,-0.010606391199337
10.5,0.00194846238942792,-0.0111297420809926,0.983053994223989,-0.102042724167174,0.983053994216613,-0.102042724170136,0.00195131790720438,-0.0111276597589258
11,0.001802842315348,-0.0116315944556673,0.982246587040861,-0.106586220042916,0.982246587033347,-0.106586220044752,0.00181941797286822,-0.0116469934025272
11.5,0.0016500700036155,-0.0121278502057187,0.981428650428047,-0.1111103443419,0.981428650420511,-0.111110344342651,0.00167979320427836,-0.012164098478431
12,0.00149032152227788,-0.0126178312096288,0.980600578613629,-0.115616672517402,0.980600578606176,-0.115616672517121,0.00153218381770218,-0.0126786297416155
12.5,0.0013238647794778,-0.0131008021443408,0.979762601252745,-0.120106674783694,0.979762601245464,-0.120106674782436,0.00137631395364876,-0.0131901801777614
13,0.0011510816106392,-0.0135759761400802,0.978914810059852,-0.124581710746983,0.978914810052822,-0.12458171074481,0.0012118944688744,-0.0136982688464116
13.5,0.000972492570168522,-0.0140425256412131,0.978057182856189,-0.129043027629992,0.978057182849478,-0.129043027626973,0.00103862770415621,-0.0142023264288866
14,0.00078878373630948,-0.014499600150927,0.977189604944842,-0.1334917612701,0.977189604938507,-0.133491761266304,0.000856215065729624,-0.0147016781735907
14.5,0.000600834201917907,-0.0149463527165077,0.976311887851585,-0.137928939188607,0.97631188784567,-0.1379289391841,0.000664368564892701,-0.0151955239864554
15,0.000409742069922746,-0.0153819770184835,0.975423785555794,-0.142355485143975,0.975423785550337,-0.142355485138825,0.000462827861648946,-0.0156829155540841
15.5,0.000216845710592245,-0.0158057566281444,0.974525008390458,-0.146772224689318,0.974525008385488,-0.146772224683592,0.000251384870014124,-0.0161627306697691
16,2.37358436335905E-005,-0.0162171272276366,0.973615234820713,-0.151179891350425,0.97361523481625,-0.151179891344188,2.99186096366783E-005,-0.0166336454459728
16.5,-0.00016774714213677,-0.0166157511713001,0.972694121322967,-0.155579133124099,0.972694121319023,-0.155579133117412,-0.000201556291672761,-0.0170941059715513
17,-0.00035553701574817,-0.0170016015778498,0.971761310586531,-0.159970519067321,0.971761310583117,-0.159970519060245,-0.000442823306642415,-0.0175423023897885
17.5,-0.000537393055096869,-0.0173750501878813,0.970816438250978,-0.16435454580641,0.970816438248097,-0.164354545798999,-0.000693375232523663,-0.0179761505700515
18,-0.00071098394794325,-0.0177369497590938,0.969859138378287,-0.16873164384322,0.969859138375937,-0.168731643835529,-0.000952298230252946,-0.0183932897889583
18.5,-0.000874006080179957,-0.0180886984211579,0.968889047841724,-0.173102183573497,0.9688890478399,-0.173102183565574,-0.00121812521187206,-0.0187911093424709
19,-0.0010243328213444,-0.01843227118249,0.967905809794867,-0.17746648096272,0.967905809793562,-0.177466480954613,-0.00148865869783349,-0.019166822751016
19.5,-0.00116018453937208,-0.0187702039300719,0.966909076365589,-0.181824802847809,0.966909076364791,-0.181824802839559,-0.00176077083607096,-0.0195176145331351
20,-0.00128030175485039,-0.0191055189246918,0.965898510701836,-0.186177371850732,0.965898510701532,-0.186177371842381,-0.00203020179864505,-0.0198408894640214
20.5,-0.00138409806990653,-0.0194415884041854,0.964873788479248,-0.190524370903015,0.964873788479423,-0.190524370894601,-0.0022913988147944,-0.0201346537087375
21,-0.00147176758784706,-0.0197819436482924,0.963834598965278,-0.194865947389486,0.963834598965915,-0.194865947381041,-0.00253746597744126,-0.0203980443255989
21.5,-0.0015443252297202,-0.0201300484581726,0.962780645720644,-0.199202216926161,0.962780645721725,-0.199202216917716,-0.00276032347750077,-0.0206319893705857
22,-0.00160356787925059,-0.0204890652002931,0.961711647006707,-0.20353326679136,0.961711647008213,-0.203533266782944,-0.00295118848850734,-0.0208399182096524
22.5,-0.00165195782141964,-0.0208616452426731,0.960627335956572,-0.207859159031843,0.960627335958483,-0.207859159023482,-0.00310146257637017,-0.0210283551092751
23,-0.00169244397093971,-0.0212497721503921,0.959527460558426,-0.212179933266921,0.959527460560722,-0.212179933258638,-0.00320401467328274,-0.0212071474784907
23.5,-0.00172824697373036,-0.0216546761297245,0.958411783491511,-0.216495609214021,0.958411783494171,-0.216495609205837,-0.00325467953679215,-0.0213890617476267
24,-0.00176263859986048,-0.02207682478782,0.957280081848286,-0.22080618895875,0.957280081851289,-0.220806188950684,-0.00325359946487297,-0.0215885915106955
24.5,-0.00179874331068169,-0.0225159821518925,0.956132146770431,-0.225111658991839,0.956132146773756,-0.225111658983909,-0.00320593460396934,-0.0218200819602936
25,-0.00183938206219136,-0.0229713183580826,0.954967783021391,-0.229411992034175,0.954967783025017,-0.229411992026395,-0.003121572674259,-0.0220955917453667
25.5,-0.00188696818069678,-0.0234415481271917,0.95378680851397,-0.233707148669908,0.953786808517878,-0.23370714866229,-0.00301379712640149,-0.0224231056031754
26,-0.00194345543497021,-0.0239250768909365,0.952589053807973,-0.237997078806245,0.952589053812141,-0.237997078798804,-0.00289727367872972,-0.0228056277301256
26.5,-0.002010331236031,-0.0244201377120734,0.951374361589949,-0.242281722977054,0.951374361594357,-0.242281722969798,-0.00278595837855211,-0.0232413481319846
27,-0.00208864397352904,-0.0249249080022591,0.950142586144663,-0.246561013506092,0.950142586149291,-0.246561013499029,-0.00269148430804805,-0.0237246778634175
27.5,-0.00217905255286255,-0.0254376008026953,0.948893592825899,-0.250834875544196,0.948893592830728,-0.250834875537334,-0.00262231384071931,-0.0242477091603552
28,-0.00228188736043011,-0.0259565300087932,0.947627257532511,-0.255103227993573,0.94762725753752,-0.255103227986917,-0.00258363330408701,-0.0248016516683003
28.5,-0.00239721416595162,-0.0264801519981497,0.946343466194275,-0.25936598433097,0.946343466199448,-0.259365984324526,-0.00257776828816075,-0.0253779531725267
29,-0.00252489505456388,-0.0270070877428574,0.945042114270992,-0.263623053340491,0.945042114276309,-0.263623053334264,-0.00260484931572968,-0.0259690052883081
29.5,-0.00266464283746198,-0.0275361299809183,0.94372310626732,-0.26787433976565,0.943723106272765,-0.267874339759641,-0.00266351169124629,-0.0265684736742939
30,-0.00281606726062639,-0.0280662397787115,0.942386355265149,-0.272119744889337,0.942386355270704,-0.272119744883548,-0.00275150215679165,-0.0271713556681119
30.5,-0.00297871265714394,-0.0285965361808795,0.941031782474657,-0.276359167049481,0.941031782480306,-0.276359167043915,-0.00286614258046058,-0.0277738743334746
31,-0.00315208752580415,-0.0291262818675382,0.939659316804769,-0.280592502097351,0.939659316810495,-0.280592502092005,-0.00300465063584193,-0.0283732954785669
31.5,-0.00333568697239961,-0.0296548669797019,0.938268894453316,-0.28481964380474,0.938268894459103,-0.284819643799618,-0.00316434127689513,-0.0289677249140907
32,-0.003529009132752,-0.0301817926145502,0.93686045851693,-0.289040484225586,0.936860458522765,-0.289040484220685,-0.00334273937934199,-0.0295559181148821
32.5,-0.00373156670522495,-0.0307066549634181,0.93543395862045,-0.293254914017005,0.935433958626317,-0.293254914012323,-0.00353763148842179,-0.0301371168553179
33,-0.00394289463002445,-0.031229130666407,0.933989350565447,-0.297462822724183,0.933989350571333,-0.297462822719718,-0.0037470788019241,-0.0307109167183923
33.5,-0.00416255481496935,-0.03174896367217,0.932526595997356,-0.301664099033061,0.932526596003247,-0.301664099028811,-0.00396940736776041,-0.0312771637626825
34,-0.00439013865617255,-0.0322659536977525,0.931045662090585,-0.305858630994354,0.931045662096469,-0.305858630990317,-0.00420318627789384,-0.0318358762178965
34.5,-0.00462526795664292,-0.0327799462594764,0.929546521250924,-0.310046306222041,0.929546521256787,-0.310046306218211,-0.00444720072285898,-0.0323871864722627
35,-0.00486759471616705,-0.0332908241725385,0.928029150834507,-0.314227012069118,0.928029150840338,-0.314227012065493,-0.0047004240260492,-0.0329312989043054
35.5,-0.00511680015586513,-0.0337985003788688,0.926493532882596,-0.318400635783116,0.926493532888385,-0.318400635779691,-0.00496199095457422,-0.0334684597639181
36,-0.00537259325071782,-0.034302911948034,0.924939653871393,-0.322567064643598,0.924939653877129,-0.32256706464037,-0.00523117344783114,-0.0339989360393402
36.5,-0.0056347089715213,-0.0348040150958964,0.923367504476136,-0.326726186083598,0.923367504481807,-0.326726186080561,-0.00550735920463741,-0.0345230009238937
37,-0.00590290638169494,-0.0353017810744534,0.921777079348703,-0.330877887796783,0.921777079354301,-0.330877887793931,-0.00579003316749238,-0.0350409240686622
37.5,-0.00617696669142026,-0.0357961927995178,0.920168376908007,-0.335022057831881,0.920168376913522,-0.335022057829211,-0.00607876172834465,-0.0355529652661393
38,-0.00645669133920768,-0.036287242098036,0.918541399142443,-0.339158584675791,0.918541399147866,-0.339158584673296,-0.00637317938064635,-0.0360593705657084
38.5,-0.00674190014699694,-0.0367749274722724,0.916896151423702,-0.343287357326584,0.916896151429023,-0.343287357324259,-0.00667297750989071,-0.0365603700917063
39,-0.00703242957730643,-0.0372592522926889,0.915232642331288,-0.347408265357533,0.915232642336501,-0.347408265355371,-0.0069778950193396,-0.0370561770361977
39.5,-0.00732813110835634,-0.0377402233447295,0.913550883487112,-0.351521198973127,0.91355088349221,-0.351521198971123,-0.00728771051104571,-0.0375469874472945
40,-0.00762886973420596,-0.0382178496666179,0.911850889399525,-0.355626049057972,0.9118508894045,-0.35562604905612,-0.0076022357736682,-0.0380329805426327
40.5,-0.00793452259078664,-0.0386921416255561,0.910132677316251,-0.359722707219326,0.910132677321095,-0.35972270721762,-0.00792131036188776,-0.0385143193566817
41,-0.00824497770468835,-0.0391631101886714,0.908396267085653,-0.363811065823993,0.908396267090362,-0.363811065822426,-0.00824479708414327,-0.0389911515877734
41.5,-0.00856013285891177,-0.0396307663525148,0.906641681025831,-0.36789101803017,0.906641681030397,-0.367891018028735,-0.00857257824433522,-0.039463610551846
42,-0.00887989456829758,-0.0400951207013176,0.904868943801044,-0.371962457814818,0.904868943805464,-0.37196245781351,-0.00890455250854066,-0.0399318161793663
42.5,-0.00920417715653427,-0.0405561830694667,0.903078082305031,-0.376025279997033,0.903078082309298,-0.376025279995846,-0.00924063228954841,-0.0403958760128782
43,-0.009532901926397,-0.0410139622881072,0.901269125550766,-0.38007938025786,0.901269125554875,-0.380079380256785,-0.00958074156044786,-0.0408558861774924
43.5,-0.00986599641495051,-0.0414684659994056,0.899442104566266,-0.384124655156935,0.899442104570214,-0.384124655155968,-0.00992481402391737,-0.0413119323071076
44,-0.0102033937257291,-0.0419197005250425,0.897597052296074,-0.388161002146314,0.897597052299856,-0.388161002145447,-0.0102727915766597,-0.0417640904164098
44.5,-0.0105450319304096,-0.0423676707779639,0.895734003508034,-0.392188319581784,0.895734003511646,-0.392188319581011,-0.0106246230190484,-0.0422124277137563
45,-0.0108908535329531,-0.0428123802084923,0.893852994705062,-0.396206506731938,0.893852994708502,-0.396206506731251,-0.0109802629687644,-0.0426570033534359
45.5,-0.0112408049898037,-0.0432538307775259,0.891954064041577,-0.400215463785255,0.89195406404484,-0.40021546378465,-0.0113396709444109,-0.0430978691280501
46,-0.0115948362802593,-0.0436920229509754,0.890037251244298,-0.404215091855424,0.890037251247382,-0.404215091854892,-0.0117028105909948,-0.0435350701032255
46.5,-0.0119529005216846,-0.0441269557106612,0.88810259753716,-0.408205292985064,0.888102597540063,-0.4082052929846,-0.0120696490240187,-0.043968645197703
47,-0.0123149536247812,-0.0445586265778446,0.886150145570058,-0.412185970148066,0.886150145572778,-0.412185970147663,-0.0124401562729307,-0.0443986277123698
47.5,-0.012680953984571,-0.0449870316462868,0.884179939351216,-0.416157027250671,0.884179939353752,-0.416157027250323,-0.0128143048079418,-0.0448250458119746
48,-0.0130508622032454,-0.0454121656223592,0.882192024182927,-0.420118369131442,0.882192024185276,-0.420118369131142,-0.0131920691369423,-0.0452479229633154
48.5,-0.0134246408414108,-0.0458340218702107,0.880186446600479,-0.424069901560247,0.880186446602641,-0.424069901559989,-0.0135734254614591,-0.0456672783335785
49,-0.0138022541946505,-0.0462525924604058,0.878163254314064,-0.428011531236365,0.878163254316037,-0.428011531236144,-0.0139583513824356,-0.0460831271523547
49.5,-0.0141836680926575,-0.0466678682207797,0.876122496153482,-0.431943165785808,0.876122496155265,-0.431943165785616,-0.0143468256481396,-0.0464954810406331
50,-0.0145688497184868,-0.0470798387885112,0.874064222015489,-0.435864713757945,0.874064222017083,-0.435864713757778,-0.014738827937748,-0.0469043483098581
50.5,-0.014957767445762,-0.0474884926626562,0.871988482813609,-0.439776084621526,0.871988482815013,-0.439776084621377,-0.0151343386752159,-0.0473097342338786
51,-0.0153503906918959,-0.0478938172565067,0.869895330430279,-0.443677188760126,0.869895330431494,-0.443677188759988,-0.0155333388688718,-0.0477116412963747
51.5,-0.0157466897856184,-0.0482957989493633,0.867784817671182,-0.447567937467131,0.867784817672208,-0.447567937467001,-0.0159358099729447,-0.0481100694161611
52,-0.0161466358472762,-0.0486944231373314,0.865656998221638,-0.451448242940277,0.865656998222474,-0.451448242940148,-0.0163417337677755,-0.0485050161524734
52.5,-0.016550200680561,-0.0490896742829121,0.86351192660494,-0.455318018275798,0.863511926605588,-0.455318018275663,-0.0167510922560132,-0.0488964768922242
53,-0.0169573566744552,-0.0494815359632064,0.861349658142513,-0.459177177462242,0.861349658142974,-0.459177177462098,-0.017163867572482,-0.0492844450209606
53.5,-0.0173680767143287,-0.0498699909165972,0.859170248915806,-0.46302563537398,0.859170248916082,-0.463025635373821,-0.0175800419057717,-0.0496689120791272
54,-0.017782334101237,-0.0502550210878443,0.8569737557298,-0.466863307764437,0.856973755729891,-0.466863307764258,-0.0179995974298994,-0.0500498679050552
54.5,-0.0182001024785763,-0.0506366076715525,0.854760236078051,-0.470690111259089,0.85476023607796,-0.470690111258885,-0.018422516244626,-0.0504273007659691
55,-0.0186213557653419,-0.0510147311539938,0.852529748109195,-0.474505963348242,0.852529748108924,-0.474505963348008,-0.0188487803232316,-0.0508011974781746
55.5,-0.0190460680953178,-0.0513893713533045,0.850282350594809,-0.47831078237962,0.85028235059436,-0.478310782379351,-0.0192783714667305,-0.0511715435174592
56,-0.0194742137616102,-0.0517605074580799,0.848018102898574,-0.482104487550779,0.848018102897948,-0.482104487550472,-0.0197112712636421,-0.0515383231206598
56.5,-0.0199057671659855,-0.0521281180644072,0.84573706494666,-0.485886998901379,0.845737064945861,-0.485886998901028,-0.0201474610545783,-0.0519015193792232
57,-0.0203407027725421,-0.052492181211393,0.84343929719928,-0.489658237305304,0.84343929719831,-0.489658237304905,-0.020586921901002,-0.0522611143255388
57.5,-0.0207789950652941,-0.0528526744152272,0.841124860623335,-0.49341812446267,0.841124860622197,-0.493418124462219,-0.0210296345576064,-0.0526170890127066
58,-0.0212206185092894,-0.0532095747018716,0.838793816666107,-0.497166582891723,0.838793816664804,-0.497166582891217,-0.0214755794478472,-0.0529694235883714
58.5,-0.0216655475149241,-0.0535628586384,0.836446227229942,-0.500903535920635,0.836446227228477,-0.50090353592007,-0.0219247366422151,-0.0533180973631753
59,-0.0221137564051539,-0.0539125023630938,0.834082154647876,-0.504628907679211,0.834082154646252,-0.504628907678582,-0.0223770858389057,-0.0536630888743177
59.5,-0.0225652193853326,-0.0542584816143209,0.831701661660149,-0.508342623090514,0.831701661658369,-0.508342623089819,-0.0228326063465794,-0.0540043759446883
60,-0.0230199105154327,-0.0546007717583025,0.829304811391575,-0.512044607862425,0.829304811389645,-0.51204460786166,-0.0232912770689563,-0.054341935737968
60.5,-0.0234778036844405,-0.0549393478157922,0.826891667329727,-0.515734788479123,0.826891667327649,-0.515734788478286,-0.0237530764910203,-0.0546757448100744
61,-0.0239388725867212,-0.0552741844877556,0.82446229330388,-0.519413092192516,0.824462293301658,-0.519413092191604,-0.0242179826666357,-0.0550057791572729
61.5,-0.0244030907001938,-0.055605256180109,0.822016753464704,-0.523079447013607,0.822016753462343,-0.523079447012617,-0.0246859732074109,-0.0553320142612642
62,-0.0248704312661462,-0.0559325370275523,0.81955511226466,-0.526733781703813,0.819555112262163,-0.526733781702743,-0.0251570252726692,-0.0556544251315126
