"Freq [GHz]","re(St(P1,P1)) []","im(St(P1,P1)) []","re(St(P1,P2)) []","im(St(P1,P2)) []","re(St(P2,P1)) []","im(St(P2,P1)) []","re(St(P2,P2)) []","im(St(P2,P2)) []"
0,0.00403154446581766,0,0.995981964253588,0,0.995981962405494,0,0.00403154140974493,0
0.5,0.00448724474418327,6.61297615920375E-005,0.995471357580286,-0.00567544977978329,0.995471357713683,-0.00567544979931256,0.00448717415261513,6.60919371426871E-005
1,0.00489886682493079,-0.00043970849567998,0.994928522646003,-0.0107686888257952,0.994928522601437,-0.0107686888433136,0.00489859639111145,-0.00043975428475207
1.5,0.00508501713759912,-0.00112819487806703,0.994477450269365,-0.0159243335477477,0.994477450239879,-0.0159243336206245,0.00508396185233195,-0.00112846249422915
2,0.00515766281497676,-0.00178071711931693,0.993996549665434,-0.0209260598161869,0.993996549620812,-0.0209260599505328,0.00515598652611082,-0.0017807881951839
2.5,0.00518346720844232,-0.00240106330875278,0.993528210635755,-0.0258160322375041,0.993528210554333,-0.0258160324212291,0.00518127506810018,-0.0024008345140949
3,0.00518599346879967,-0.00299928361172341,0.993083152708149,-0.0306336050562557,0.993083152581685,-0.0306336052715981,0.00518331654917592,-0.00299872443929772
3.5,0.00517475750417251,-0.00358200435759137,0.992656325215109,-0.0354061156404892,0.99265632504541,-0.0354061158715044,0.005171587622959,-0.00358109795864081
4,0.00515412976065832,-0.0041531729918276,0.992237429148289,-0.0401499756140709,0.992237428942707,-0.0401499758489017,0.00515043921436664,-0.0041519015144118
4.5,0.00512634785713129,-0.0047151293197718,0.991815819897685,-0.0448741715441123,0.991815819665937,-0.0448741717746959,0.00512209930757823,-0.00471347037701442
5,0.00509267008425551,-0.00526926811297557,0.991382239193628,-0.0495832445256923,0.991382238946029,-0.0495832447467581,0.00508782166477584,-0.00526719423005417
5.5,0.00505386691462806,-0.00581641631455554,0.99092916040569,-0.0542792569676891,0.99092916015225,-0.0542792571757822,0.00504837502711752,-0.00581389518167796
6,0.00501044972293485,-0.00635704949406346,0.990450638243706,-0.0589629607824769,0.990450637993748,-0.0589629609751761,0.00500427066997378,-0.00635404440958709
6.5,0.0049627851832641,-0.006891419733142,0.989942034085486,-0.0636344532214022,0.989942033847492,-0.0636344533968245,0.0049558761800359,-0.00688789006161272
7,0.00491115597903069,-0.00741963376034693,0.989399749651214,-0.0682935304820127,0.98939974943279,-0.0682935306384893,0.00490347581622541,-0.00741553536130901
7.5,0.00485579462652186,-0.00794170228436553,0.988821005645648,-0.0729398703617434,0.98882100545354,-0.0729398704976454,0.00484730412550194,-0.0079369879066693
8,0.00479690307857283,-0.00845757210971509,0.988203667661053,-0.0775731208109791,0.988203667501198,-0.0775731209246366,0.00478756541564551,-0.00845219175620304
8.5,0.0047346644472509,-0.00896714763511408,0.987546111669523,-0.0821929380581539,0.987546111547093,-0.0821929381478155,0.0047244453905656,-0.00896104890410943
9,0.00466925017843822,-0.0094703056107015,0.986847120182221,-0.0867989987229372,0.986847120101685,-0.0867989987867723,0.00465811826306228,-0.00946343401961158
9.5,0.00460082450782928,-0.00996690549770829,0.986105801517063,-0.0913909993790138,0.986105801482251,-0.0913909994151556,0.00458875116457347,-0.00995920479269596
10,0.00452954724158638,-0.0104567968861868,0.985321526406266,-0.0959686508454451,0.985321526420424,-0.0959686508520106,0.00451650688940985,-0.010448209340427
10.5,0.00448067458656071,-0.0109865112963075,0.98459755654661,-0.100553471746423,0.984597556560453,-0.100553471753315,0.00446697212396918,-0.0109775922576647
11,0.0044290205582333,-0.011517170600297,0.983856285186729,-0.105120286419596,0.983856285200238,-0.105120286426795,0.00441460536281579,-0.0115079252195365
11.5,0.00437452975883168,-0.0120488049664491,0.983098493029367,-0.10967000403405,0.983098493042522,-0.109670004041534,0.00435934948298955,-0.012039236726701
12,0.00431714458626431,-0.0125814424225759,0.982324827620413,-0.114203528079588,0.982324827633199,-0.114203528087331,0.00430114526007774,-0.0125715529558281
12.5,0.00425680530081346,-0.0131151087488321,0.981535815056947,-0.118721743657464,0.98153581506935,-0.118721743665447,0.00423993145240775,-0.0131048976610089
13,0.00419345009772928,-0.013649827371049,0.98073187197652,-0.123225507385126,0.98073187198853,-0.123225507393319,0.00417564489039898,-0.0136392920773227
13.5,0.0041270151859339,-0.01418561925502,0.979913317457296,-0.127715639644427,0.979913317468903,-0.127715639652808,0.00410822057111702,-0.0141747548269295
14,0.00405743487299577,-0.0147225028021323,0.979080384547075,-0.132192918886316,0.979080384558275,-0.13219291889486,0.00403759175806232,-0.0147113018279885
14.5,0.00398464165653888,-0.0152604937468084,0.978233231216802,-0.136658077704817,0.978233231227589,-0.1366580777135,0.00396369008618846,-0.0152489462068108
15,0.00390856632217143,-0.015799605056197,0.977371950599969,-0.141111800404503,0.977371950610342,-0.1411118004133,0.00388644567212677,-0.0157876982135483
15.5,0.00382913804803434,-0.0163398468326403,0.976496580433585,-0.145554721805,0.976496580443543,-0.145554721813888,0.00380578722956103,-0.0163275651418595
16,0.00374628451597623,-0.0168812262194264,0.975607111659617,-0.149987427049985,0.975607111669162,-0.149987427058942,0.00372164218966489,-0.0168685512528963
16.5,0.00365993202934435,-0.0174237473103722,0.974703496179397,-0.154410452214343,0.974703496188533,-0.154410452223349,0.00363393682647474,-0.0174106577040387
17,0.00357000563734373,-0.0179674110637733,0.973785653778525,-0.158824285529839,0.973785653787254,-0.158824285538871,0.00354259638705366,-0.017953882482733
17.5,0.00347642926583086,-0.0185122152212731,0.972853478257713,-0.163229369075478,0.972853478266041,-0.16322936908452,0.00344754522624738,-0.0184982203458679
18,0.00337912585439401,-0.0190581542322601,0.971906842817127,-0.167626100803052,0.971906842825062,-0.167626100812084,0.00334870694580933,-0.0190436627650525
18.5,0.00327801749950046,-0.0196052191843106,0.970945604749169,-0.172014836790279,0.970945604756718,-0.172014836799285,0.00324600453763149,-0.0195901978781876
19,0.00317302560342916,-0.0201533977402635,0.969969609498463,-0.176395893633734,0.969969609505632,-0.176395893642695,0.00313936053078329,-0.020137810447709
19.5,0.00306407102868256,-0.0207026740824428,0.96897869414885,-0.180769550910927,0.96897869415565,-0.18076955091983,0.00302869714201975,-0.0206864818258348
20,0.00295107425747318,-0.0212530288646469,0.967972690396244,-0.185136053655771,0.967972690402684,-0.185136053664603,0.00291393642938811,-0.02123618992721
20.5,0.00283395555587143,-0.0218044391722882,0.966951427063843,-0.18949561480418,0.966951427069931,-0.189495614812929,0.00279500044853384,-0.021786909209188
21,0.00271263514210768,-0.0223568784912933,0.965914732212865,-0.193848417577227,0.965914732218612,-0.193848417585878,0.00267181141125225,-0.0223386106601189
21.5,0.00258703335850657,-0.0229103166861147,0.964862434898172,-0.198194617777903,0.964862434903588,-0.198194617786448,0.00254429184583482,-0.022891261795849
22,0.00245707084644517,-0.0234647199873432,0.963794366613922,-0.202534345984782,0.963794366619017,-0.202534345993209,0.00241236475868861,-0.023444826664702
22.5,0.00232266872372039,-0.0240200509892374,0.962710362470228,-0.20686770963154,0.962710362475012,-0.206867709639842,0.00227595379672121,-0.0239992658611103
23,0.00218374876363342,-0.0245762686575146,0.961610262137593,-0.211194794965994,0.961610262142077,-0.211194794974163,0.00213498340992679,-0.0245545365480688
23.5,0.00204023357508348,-0.0251333283476693,0.96049391059196,-0.215515668885813,0.960493910596154,-0.215515668893842,0.00198937901360974,-0.025110592488518
24,0.00189204678292421,-0.0256911818340018,0.959361158689398,-0.219830380650945,0.959361158693313,-0.219830380658827,0.00183906714965298,-0.0256673840857311
24.5,0.00173911320780357,-0.0262497773495367,0.958211863596044,-0.224138963474813,0.958211863599689,-0.224138963482541,0.00168397564623024,-0.0262248584327396
25,0.00158135904469153,-0.0268090596368826,0.957045889095708,-0.228441435997953,0.957045889099095,-0.228441436005525,0.00152403377535115,-0.0267829593707489
25.5,0.00141871203928684,-0.0273689700100537,0.955863105794676,-0.232737803648823,0.955863105797814,-0.232737803656231,0.00135917240762562,-0.0273416275565057
26,0.00125110166147141,-0.0279294464271893,0.954663391240671,-0.237028059897276,0.954663391243569,-0.237028059904518,0.00118932416362078,-0.0279008005384798
26.5,0.00107845927500605,-0.0284904235740466,0.953446629970641,-0.241312187406646,0.953446629973309,-0.241312187413718,0.00101442356121217,-0.0284604128416754
27,0.000900718302628722,-0.0290518329580429,0.952212713499976,-0.245590159090636,0.952212713502424,-0.245590159097535,0.000834407158315731,-0.0290203960608846
27.5,0.000717814385767013,-0.029613603012594,0.950961540263987,-0.249861939081261,0.950961540266224,-0.249861939087987,0.000649213690407879,-0.0295806789620783
28,0.000529685538072644,-0.0301756592113729,0.949693015520882,-0.254127483614059,0.949693015522916,-0.254127483620607,0.000458784202276075,-0.0301411875916258
28.5,0.000336272292017548,-0.0307379241920853,0.948407051224115,-0.258386741836589,0.948407051225955,-0.25838674184296,0.000263062173428585,-0.0307018453929921
29,0.000137517837825785,-0.0313003178892712,0.947103565870767,-0.262639656546074,0.947103565872422,-0.262639656552266,6.19936366611507E-005,-0.0312625733304581
29.5,-6.6631845932752E-005,-0.031862757675579,0.945782484331605,-0.266886164861723,0.945782484333083,-0.266886164867736,-0.000144472710721377,-0.0318232900194577
30,-0.00027622787073972,-0.0324251585108852,0.944443737667534,-0.271126198836994,0.944443737668842,-0.271126198842828,-0.000356385403481263,-0.0323839118629876
30.5,-0.00049131832608712,-0.032987433098626,0.943087262936415,-0.275359686016767,0.943087262937562,-0.27535968602242,-0.000573790113235995,-0.0329443531935834
31,-0.000711948177528621,-0.0335494920485793,0.941713002993548,-0.279586549944006,0.94171300299454,-0.279586549949481,-0.000796729561833298,-0.0335045264202887
31.5,-0.000938159175291442,-0.0341112440453697,0.940320906288532,-0.283806710620284,0.940320906289377,-0.283806710625581,-0.00102524344364174,-0.0340643421800138
32,-0.00116998977382959,-0.0346725960218732,0.93891092666076,-0.288020084924091,0.938910926661464,-0.288020084929209,-0.00125936835703244,-0.0346237094926556
32.5,-0.00140747506265848,-0.0352334533366887,0.937483023135369,-0.292226586990667,0.937483023135939,-0.292226586995608,-0.00149913774528299,-0.0351825359193527
33,-0.00165064670871051,-0.0357937199548426,0.936037159721122,-0.296426128556753,0.936037159721565,-0.296426128561518,-0.0017445818470827,-0.0357407277231985
33.5,-0.00189953291039163,-0.0363532986308182,0.934573305211406,-0.300618619273357,0.934573305211728,-0.300618619277948,-0.00199572765675421,-0.0362981900317458
34,-0.00215415836343674,-0.0369120910930498,0.933091432989266,-0.304803966989443,0.933091432989473,-0.304803966993862,-0.00225259889426754,-0.0368548270006195
34.5,-0.00241454423858911,-0.0374699982289992,0.931591520837197,-0.30898207800915,0.931591520837294,-0.308982078013397,-0.00251521598506005,-0.0374105419775739
35,-0.00268070817104199,-0.0380269202699031,0.930073550752238,-0.31315285732493,0.93007355075223,-0.313152857329009,-0.0027835960496152,-0.0379652376662891
35.5,-0.00295266426152563,-0.0385827569743713,0.928537508766746,-0.317316208828835,0.92853750876664,-0.317316208832746,-0.00305775290271804,-0.0385188162892718
36,-0.00323042308882698,-0.03913740780995,0.92698338477514,-0.321472035503908,0.926983384774939,-0.321472035507655,-0.00333769706223108,-0.039071179749175
36.5,-0.00351399173348044,-0.0396907721318438,0.925411172366755,-0.325620239597538,0.925411172366465,-0.325620239601123,-0.00362343576720253,-0.0396222297879123
37,-0.00380337381228835,-0.0402427493580171,0.923820868664923,-0.329760722778411,0.923820868664548,-0.329760722781836,-0.003914973005056,-0.0401718681429606
37.5,-0.00409856952327137,-0.0407932391399106,0.922212474172266,-0.333893386278582,0.922212474171811,-0.333893386281848,-0.00421230954757812,-0.0407199967002372
38,-0.00439957570059657,-0.0413421415280812,0.920585992622187,-0.338018131022023,0.920585992621655,-0.338018131025134,-0.00451544299536566,-0.0412665176430069
38.5,-0.00470638587896821,-0.0418893571321037,0.918941430836456,-0.342134857740914,0.918941430835853,-0.342134857743874,-0.00482436783036255,-0.0418113335962982
39,-0.00501899036693582,-0.0424347872741297,0.917278798588794,-0.34624346708079,0.917278798588122,-0.346243467083598,-0.00513907547607384,-0.0423543477663064
39.5,-0.00533737632851133,-0.0429783341355594,0.915598108474287,-0.350343859695567,0.915598108473551,-0.350343859698228,-0.00545955436502493,-0.0428954640743757
40,-0.00566152787247687,-0.0435199008963454,0.913899375784489,-0.35443593633341,0.913899375783691,-0.354435936335927,-0.00578579001298024,-0.0434345872851025
40.5,-0.00599142614871007,-0.0440593918664778,0.912182618388014,-0.358519597914241,0.912182618387158,-0.358519597916616,-0.00611776509944217,-0.0439716231282221
41,-0.00632704945086315,-0.0445967126093265,0.910447856616437,-0.362594745599702,0.910447856615527,-0.362594745601938,-0.00645545955390991,-0.0445064784139446
41.5,-0.00666837332467535,-0.0451317700564922,0.908695113155308,-0.366661280856226,0.908695113154345,-0.366661280858326,-0.00679885064736291,-0.0450390611414535
42,-0.00701537068123365,-0.0456644726139639,0.906924412940063,-0.370719105511879,0.90692441293905,-0.370719105513844,-0.00714791308843349,-0.0455692806003309
42.5,-0.00736801191444975,-0.0461947302593846,0.905135783056651,-0.374768121807523,0.905135783055592,-0.374768121809358,-0.00750261912371242,-0.0460970474647422
43,-0.00772626502206208,-0.0467224546303209,0.903329252646658,-0.378808232442828,0.903329252645555,-0.378808232444536,-0.00786293864163734,-0.0466222738801967
43.5,-0.00809009572944452,-0.047247559103474,0.901504852816731,-0.382839340617606,0.901504852815586,-0.382839340619189,-0.00822883927940621,-0.0471448735428222
44,-0.00845946761553573,-0.0477699588648399,0.899662616552116,-0.386861350068879,0.899662616550931,-0.38686135007034,-0.008600286532368,-0.0476647617710766
44.5,-0.00883434224022267,-0.0482895709708595,0.897802578634103,-0.390874165104079,0.897802578632881,-0.390874165105421,-0.0089772438653451,-0.0481818555698814
45,-0.00921467927251851,-0.0488063144006876,0.895924775561211,-0.394877690630736,0.895924775559953,-0.394877690631962,-0.00935967282535921,-0.04869607368722
45.5,-0.0096004366189032,-0.0493201100997109,0.894029245473908,-0.398871832182946,0.894029245472617,-0.398871832184058,-0.00974753315523652,-0.0492073366632375
46,-0.00999157055124844,-0.0498308810145376,0.892116028082718,-0.40285649594494,0.892116028081395,-0.402856495945941,-0.0101407829076001,-0.049715566871982
46.5,-0.0103880358337334,-0.050338552119674,0.89018516459953,-0.406831588771987,0.890185164598177,-0.40683158877288,-0.0105393785587536,-0.050220688555878
47,-0.010789785848239,-0.0508430504361865,0.888236697671959,-0.410797018208885,0.888236697670578,-0.410797018209673,-0.0109432751220096,-0.0507226278531367
47.5,-0.0111967727177178,-0.051344305042643,0.886270671320596,-0.41475269250625,0.886270671319187,-0.414752692506936,-0.0113524262600162,-0.051221312818283
48,-0.0116089474270765,-0.0518422470786741,0.884287130879007,-0.418698520634791,0.884287130877572,-0.418698520635377,-0.0117667843956702,-0.0517166734360126
48.5,-0.0120262599411584,-0.0523368097415198,0.882286122936347,-0.422634412297761,0.882286122934887,-0.42263441229825,-0.0121863008212376,-0.052208641628646
49,-0.0124486593194396,-0.0528279282759312,0.880267695282433,-0.426560277941735,0.88026769528095,-0.426560277942131,-0.0126109258053129,-0.0526971512574268
49.5,-0.0128760938271005,-0.0533155399578475,0.878231896855182,-0.430476028765863,0.878231896853677,-0.430476028766168,-0.0130406086973003,-0.053182138117964
50,-0.0133085110421729,-0.0537995840722194,0.876178777690267,-0.434381576729725,0.87617877768874,-0.43438157672994,-0.0134752980291006,-0.0536635399301026
50.5,-0.0137458579584979,-0.054280001885445,0.874108388872882,-0.438276834559928,0.874108388871334,-0.438276834560057,-0.0139149416137466,-0.0541412963225505
51,-0.0141880810842733,-0.0547567366128021,0.872020782491524,-0.44216171575552,0.872020782489957,-0.442161715755566,-0.0143594866407354,-0.0546153488125662
51.5,-0.0146351265360057,-0.0552297333813223,0.869916011593669,-0.446036134592359,0.869916011592083,-0.446036134592324,-0.0148088797678452,-0.0550856407810525
52,-0.0150869401277137,-0.0556989391885252,0.867794130143254,-0.449900006126491,0.86779413014165,-0.449900006126378,-0.0152630672092568,-0.0555521174433806
52.5,-0.0155434674552739,-0.0561643028574355,0.865655192979876,-0.453753246196643,0.865655192978254,-0.453753246196453,-0.0157219948198112,-0.0560147258162782
53,-0.0160046539758215,-0.0566257749883008,0.863499255779615,-0.4575957714259,0.863499255777976,-0.457595771425636,-0.016185608175292,-0.0564734146811319
53.5,-0.0164704450821628,-0.0570833079073954,0.8613263750174,-0.461427499222621,0.861326375015746,-0.461427499222286,-0.0166538526486051,-0.0569281345440187
54,-0.0169407861721658,-0.057536855613338,0.859136607930853,-0.465248347780678,0.859136607929182,-0.465248347780275,-0.0171266734818007,-0.0573788375928168
54.5,-0.0174156227131562,-0.0579863737212718,0.856930012485506,-0.469058236079052,0.85693001248382,-0.469058236078581,-0.0176040158538671,-0.0578254776517068
55,-0.0178949003013234,-0.0584318194052922,0.85470664734137,-0.472857083880841,0.854706647339669,-0.472857083880307,-0.0180858249442658,-0.0582680101333889
55.5,-0.0183785647162209,-0.0588731513394779,0.852466571820741,-0.476644811731751,0.852466571819024,-0.476644811731155,-0.0185720459922134,-0.0587063919893321
56,-0.0188665619704128,-0.0593103296378408,0.850209845877214,-0.480421340958069,0.850209845875485,-0.480421340957413,-0.0190626243516975,-0.0591405816583418
56.5,-0.0193588383543726,-0.0597433157935349,0.847936530065847,-0.484186593664192,0.847936530064104,-0.484186593663478,-0.0195575055422718,-0.0595705390137476
57,-0.0198553404767497,-0.060172072617609,0.845646685514391,-0.487940492729732,0.845646685512633,-0.487940492728963,-0.0200566352956679,-0.0599962253094929
57.5,-0.0203560153001222,-0.0605965641775956,0.84334037389557,-0.49168296180623,0.843340373893799,-0.491682961805407,-0.0205599595982907,-0.0604176031253777
58,-0.0208608101723773,-0.0610167557361836,0.841017657400344,-0.495413925313506,0.841017657398559,-0.495413925312633,-0.0210674247296679,-0.060834636311727
58.5,-0.0213696728538782,-0.0614326136902423,0.838678598712108,-0.499133308435683,0.838678598710311,-0.49913330843476,-0.021578977296946,-0.0612472899337139
59,-0.021882551540568,-0.0618441055103938,0.836323260981796,-0.502841037116885,0.836323260979986,-0.502841037115915,-0.0220945642655321,-0.0616555302155692
59.5,-0.0223993948831819,-0.0622511996813652,0.833951707803835,-0.506537038056661,0.833951707802012,-0.506537038055646,-0.0226141329859896,-0.062059324484885
60,-0.0229201520027479,-0.0626538656432938,0.831564003192917,-0.510221238705134,0.831564003191082,-0.510221238704075,-0.0231376312173109,-0.0624586411172219
60.5,-0.0234447725025386,-0.0630520737341602,0.829160211561567,-0.513893567257895,0.829160211559718,-0.513893567256794,-0.023665007146689,-0.0628534494811943
61,-0.0239732064766768,-0.0634457951335042,0.826740397698435,-0.517553952650669,0.826740397696574,-0.517553952649528,-0.024196209405925,-0.0632437198842102
61.5,-0.0245054045155563,-0.06383500180756,0.824304626747333,-0.521202324553764,0.824304626745461,-0.521202324552585,-0.0247311870846044,-0.0636294235190253
62,-0.0250413177082816,-0.0642196664559236,0.821852964186939,-0.524838613366307,0.821852964185055,-0.524838613365092,-0.0252698897401924,-0.0640105324112473
