"Freq [GHz]","re(St(P1,P1)) []","im(St(P1,P1)) []","re(St(P1,P2)) []","im(St(P1,P2)) []","re(St(P2,P1)) []","im(St(P2,P1)) []","re(St(P2,P2)) []","im(St(P2,P2)) []"
0,0.00362891885407635,0,0.996382178112981,0,0.996382175348117,0,0.00362891267855048,0
0.5,0.00407120466833533,0.000240975651365716,0.995847293881624,-0.00593035331317182,0.995847293812261,-0.00593035292859767,0.0040711074361468,0.000241240134428722
1,0.00443804653787439,-8.94553701265011E-005,0.995243909165204,-0.0112580796777664,0.995243907978317,-0.0112580788330234,0.00443782872435605,-8.88126762639274E-005
1.5,0.00435648478059925,-0.00060457981973272,0.994766226946313,-0.0167041168563422,0.994766226128931,-0.0167041158447603,0.00435540577551485,-0.000603383867026963
2,0.0042791024026716,-0.00101315313024131,0.994193479919231,-0.0219864407273782,0.994193479442515,-0.0219864397259641,0.00427780856845494,-0.00101152762457346
2.5,0.00419217042287379,-0.00136786289784396,0.993576539065065,-0.0271121041587463,0.993576538840408,-0.0271121032857309,0.00419087308070232,-0.001365800971314
3,0.00409375891859387,-0.00168505968845523,0.992948262035648,-0.032104318853321,0.992948261960542,-0.0321043181631389,0.00409255398163655,-0.00168253377433025
3.5,0.00398463368722224,-0.00197091227032153,0.992324538202582,-0.0369908611354504,0.992324538188695,-0.0369908606350435,0.00398357302212782,-0.00196789197555169
4,0.00386641078919148,-0.00222813459579463,0.991709244416235,-0.0417973358691501,0.991709244399465,-0.0417973355380106,0.00386552429882192,-0.00222459215725124
4.5,0.00374098600389061,-0.00245822860763312,0.991099341014259,-0.0465445641819322,0.991099340954007,-0.0465445639875703,0.00374029022997924,-0.0024541415509276
5,0.00361029402406565,-0.00266234377319385,0.990488620142053,-0.0512483267614545,0.990488620016224,-0.0512483266688459,0.00360979626129687,-0.00265769645342928
5.5,0.00347618360155377,-0.00284161997471699,0.98986999499137,-0.0559200867862604,0.989869994790821,-0.0559200867626952,0.00347588430023893,-0.00283640437844745
6,0.00334034700466757,-0.00299731133786096,0.989236702786962,-0.0605679413529696,0.989236702510858,-0.0605679413700386,0.00334024143768019,-0.0029915272894474
6.5,0.00320428154018737,-0.00313081061196474,0.988582829158279,-0.0651974857596551,0.988582828810711,-0.065197485793667,0.0032043611020276,-0.0031244654969349
7,0.00306927269800872,-0.00324362845145121,0.987903456228103,-0.0698125003902135,0.987903455815795,-0.069812500421901,0.00306952597816723,-0.0032367365734336
7.5,0.00293639252327693,-0.00333735452457073,0.987194624632666,-0.0744154637621097,0.987194624163518,-0.0744154637760621,0.00293680620901682,-0.00332993621311761
8,0.00280650853552433,-0.00341361438328658,0.986453217655791,-0.0790079244357242,0.986453217137991,-0.0790079244197415,0.00280706816663656,-0.00340569496089138
8.5,0.00268029951909521,-0.00347402923725593,0.985676824091146,-0.0835907671157869,0.985676823532667,-0.0835907670603078,0.00268099010691342,-0.00346563793768784
9,0.00255827529015634,-0.00352018197970505,0.984863606747394,-0.0881644023437733,0.984863606155729,-0.0881644022413655,0.00255908181151704,-0.00351135088953214
9.5,0.00244079822776866,-0.00355359063150651,0.98401218749081,-0.0927289019153434,0.98401218687285,-0.0927289017602781,0.00244170600587607,-0.00354435370617523
10,0.00232810495621349,-0.00357568913172557,0.983121551624628,-0.0972840959426176,0.983121550986633,-0.0972840957305312,0.00232909994189251,-0.00356608131874303
10.5,0.00225429612052039,-0.00374041986758922,0.982311023100828,-0.101805230684174,0.98231102247445,-0.101805230446312,0.00225485484889634,-0.00372971043817838
11,0.0021760343992655,-0.00390221120991008,0.981492109290138,-0.10630441430494,0.981492108677593,-0.106304414042921,0.00217618195038866,-0.00389029091152793
11.5,0.00209325387043632,-0.00406067477275318,0.980665317595229,-0.11078357659736,0.980665316998416,-0.110783576312959,0.00209302841267195,-0.00404742619333653
12,0.00200590929312422,-0.00421537574188857,0.979830945554047,-0.115244519580398,0.979830944974559,-0.11524451927548,0.00200536457997046,-0.00420067372867106
12.5,0.00191398377923646,-0.00436582890716419,0.97898911540049,-0.119688909687172,0.97898911483963,-0.119688909363669,0.0019131919831289,-0.00434954138655996
13,0.00181749818998412,-0.00451149505505821,0.978139805246128,-0.124118274898314,0.978139804704929,-0.124118274558168,0.00181655306931884,-0.00449348438283437
13.5,0.00171652252549861,-0.00465177806361039,0.977282876732067,-0.128534005673834,0.977282876211312,-0.128534005318975,0.00171554289516794,-0.00463190306135752
14,0.00161118956804488,-0.00478602316757337,0.976418099186897,-0.132937358702828,0.976418098687146,-0.132937358335141,0.00161032300552215,-0.00476414202872633
14.5,0.0015017110008965,-0.00491351701638543,0.975545170453852,-0.137329462654921,0.975545169975462,-0.137329462276237,0.00150113766578093,-0.00488949128957605
15,0.00138839613978274,-0.00503349033066725,0.974663734630251,-0.141711325270478,0.974663734173404,-0.141711324882547,0.00138833251128151,-0.00500719020496909
15.5,0.00127167326123444,-0.00514512416954371,0.973773397006258,-0.146083841263529,0.97377339657098,-0.146083840868022,0.00127237550240419,-0.00511643528728856
16,0.00115211326681607,-0.00524756103678303,0.972873736507527,-0.15044780062951,0.972873736093708,-0.150447800228001,0.00115387980554887,-0.00521639303388177
16.5,0.00103045505630739,-0.00533992225232671,0.971964315945397,-0.154803897049568,0.971964315552815,-0.154803896643539,0.00103362783370084,-0.00530621915890128
17,0.000907631470111026,-0.00542133315211712,0.971044690365091,-0.15915273616507,0.971044689993426,-0.1591527357559,0.000912595156147056,-0.0053850856596509
17.5,0.000784793984905136,-0.00549095768580665,0.970114413761595,-0.163494843561975,0.970114413410444,-0.163494843150948,0.000791972318102657,-0.00545221708190313
18,0.000663333513147402,-0.00554804376553619,0.969173044408087,-0.167830672357113,0.969173044076982,-0.167830671945415,0.000673181817056084,-0.00550693703717986
18.5,0.000544893714247791,-0.00559198016340767,0.968220149015367,-0.172160610318972,0.968220148703784,-0.172160609907694,0.00055788662696038,-0.00554872536777795
19,0.000431372285268072,-0.00562236473593014,0.967255305914406,-0.176484986486505,0.967255305621778,-0.176484986076648,0.000447985871206175,-0.00557728524813239
19.5,0.000324904960417954,-0.00563908216741638,0.96627810742902,-0.180804077272553,0.966278107154749,-0.180804076865029,0.000345592726903737,-0.00559261788433041
20,0.000227826706185152,-0.00564238724180743,0.965288161582404,-0.185118112055199,0.965288161325863,-0.185118111650839,0.000252989682758914,-0.00559510034388699
20.5,0.000142605225433523,-0.0056329869880889,0.964285093260128,-0.189427278272222,0.964285093020674,-0.189427277871775,0.000172557206779667,-0.00558555958029006
21,7.17437628983686E-005,-0.0056121122325572,0.963268544933458,-0.193731726041624,0.963268544710439,-0.193731725645769,0.000106674018326813,-0.00556533328461306
21.5,1.76536019303453E-005,-0.00558156673192789,0.962238177030316,-0.198031572336338,0.962238176823073,-0.198031571945683,5.75906579576291E-005,-0.00553630640033642
22,-1.74984761269203E-005,-0.0055437409904906,0.961193668026839,-0.202326904743921,0.96119366783471,-0.202326904359007,2.72827495177985E-005,-0.00550091174572431
22.5,-3.19566525263104E-005,-0.00550157899443215,0.960134714320188,-0.206617784843202,0.960134714142515,-0.206617784464509,1.72956379912437E-005,-0.00546208495903366
23,-2.45396232679829E-005,-0.00545849011204247,0.959061029932655,-0.210904251229861,0.959061029768787,-0.210904250857814,2.85968627711797E-005,-0.00542316837507606
23.5,5.21959592975074E-006,-0.0054182053784908,0.957972346088194,-0.215186322222062,0.957972345937488,-0.215186321857038,6.14557687816375E-005,-0.00538776529143226
24,5.69791194537372E-005,-0.00538458644096451,0.956868410694951,-0.219463998275886,0.956868410556774,-0.219463997918205,0.000115369125192166,-0.00535955438198821
24.5,0.00012955662789299,-0.0053614047441406,0.955748987761003,-0.223737264138541,0.955748987634735,-0.223737263788485,0.000189047189051106,-0.00534208198456199
25,0.000220970342091842,-0.00535211566863492,0.954613856765279,-0.228006090765487,0.954613856650315,-0.228006090423295,0.000280466574410831,-0.00533855551065532
25.5,0.000328550967606922,-0.00535965508361169,0.953462812001203,-0.232270437025487,0.953462811896951,-0.232270436691357,0.000386986120281929,-0.00535166255665853
26,0.000449111576862837,-0.0053862830090643,0.95229566190696,-0.236530251215702,0.952295661812847,-0.2365302508898,0.000505512070051617,-0.00538343676989106
26.5,0.000579153472667904,-0.00543349129652348,0.951112228393338,-0.240785472406876,0.951112228308806,-0.240785472089335,0.000632691704944066,-0.00543518388741937
27,0.000715081845742871,-0.00550198143906133,0.949912346177569,-0.245036031636866,0.949912346102078,-0.24503603132779,0.000765111740729463,-0.00550747156205822
27.5,0.00085340617823243,-0.00559170760211569,0.948695862129659,-0.249281852968945,0.948695862062684,-0.249281852668409,0.000899479605819153,-0.00560017705332361
28,0.000990905950724374,-0.00570197129050287,0.947462634635998,-0.253522854429696,0.947462634577037,-0.253522854137753,0.00103277117815059,-0.00571257968118233
28.5,0.00112475030814574,-0.00583154927055429,0.946212532983789,-0.257758948839776,0.946212532932352,-0.257758948556451,0.00116233587988857,-0.00584348125431688
29,0.00125256870205737,-0.00597883567442503,0.944945436768693,-0.26199004454944,0.944945436724311,-0.261990044274744,0.00128595732252235,-0.00599133752132142
29.5,0.00137247639413551,-0.0061419817799051,0.943661235327317,-0.266216046089492,0.943661235289536,-0.266216045823414,0.001401873536029,-0.0061543862299942
30,0.00148306315688057,-0.00631902140037921,0.942359827195446,-0.27043685474708,0.942359827163832,-0.270436854489589,0.00150876450767778,-0.00633076140421562
30.5,0.00158335544844118,-0.00650797475654574,0.941041119592412,-0.274652369074855,0.941041119566547,-0.274652368825909,0.00160571628475065,-0.00651858779686121
31,0.00167276224242879,-0.00670692811032958,0.939705027931572,-0.278862485340976,0.939705027911054,-0.278862485100515,0.00169217069971561,-0.00671605330882286
31.5,0.00175101327761862,-0.00691408977255303,0.938351475356555,-0.283067097926658,0.938351475341001,-0.28306709769461,0.00176786847768134,-0.00692146003900218
32,0.0018180964561062,-0.00712782521459232,0.93698039230271,-0.287266099677195,0.936980392291748,-0.287266099453477,0.00183279167813771,-0.00713325645195173
32.5,0.00187419899820901,-0.00734667505993003,0.935591716082972,-0.291459382211759,0.93559171607625,-0.291459381996277,0.00188710955735155,-0.00735005404694244
33,0.00191965509007008,-0.0075693599716713,0.934185390497302,-0.295646836196619,0.934185390494482,-0.295646835989267,0.00193113029265291,-0.00757063211580911
33.5,0.00195490128754722,-0.00779477617396407,0.932761365464704,-0.299828351585968,0.932761365465464,-0.299828351386636,0.00196525971274142,-0.00779393393261563
34,0.00198043989274654,-0.00802198479286997,0.931319596676817,-0.304003817834024,0.931319596680848,-0.304003817642589,0.00198996725014161,-0.0080190572348311
34.5,0.00199680984930534,-0.00825019755407941,0.929860045272027,-0.308173124081667,0.929860045279035,-0.308173123898003,0.00200575873225672,-0.00824524128648085
35,0.00200456432987911,-0.00847876074403042,0.92838267752905,-0.312336159320527,0.928382677538755,-0.3123361591445,0.00201315528862483,-0.00847185225676483
35.5,0.00200425403103255,-0.00870713878813878,0.926887464578934,-0.316492812537068,0.926887464591069,-0.316492812368538,0.00201267750258027,-0.0086983681563868
36,0.00199641517373605,-0.00893489834912309,0.925374382134458,-0.320642972838955,0.925374382148768,-0.320642972677778,0.00200483391249451,-0.00892436417035292
36.5,0.00198156127483778,-0.00916169350088536,0.923843410235911,-0.324786529565722,0.923843410252154,-0.324786529411749,0.00199011302128094,-0.00914949891224581
37,0.00196017786509761,-0.00938725227812331,0.922294533012304,-0.328923372385521,0.922294533030252,-0.328923372238599,0.00196897806662244,-0.00937350189238195
37.5,0.00193271945511242,-0.00961136472304114,0.920727738457077,-0.333053391379543,0.920727738476512,-0.333053391239517,0.00194186391389894,-0.00959616232739835
38,0.00189960817495127,-0.00983387243136269,0.9191430182174,-0.337176477115518,0.919143018238116,-0.337176476982229,0.00190917554372494,-0.00981731930750462
38.5,0.00186123362723517,-0.0100546595254543,0.917540367396242,-0.341292520711525,0.917540367418044,-0.341292520584812,0.00187128770770933,-0.0100368532667723
39,0.00181795359242692,-0.0102736449400711,0.915919784366395,-0.345401413891241,0.915919784389098,-0.345401413770941,0.00182854541528954,-0.0102546786603817
39.5,0.00177009530823008,-0.0104907758861175,0.914281270595694,-0.34950304903158,0.914281270619125,-0.349503048917529,0.00178126499002618,-0.0104707377318625
40,0.00171795711281841,-0.0107060223524491,0.912624830482716,-0.353597319203618,0.912624830506711,-0.353597319095649,0.00172973549588457,-0.010684995246323
40.5,0.00166181029584556,-0.0109193725096046,0.910950471202288,-0.35768411820755,0.910950471226693,-0.357684118105495,0.00167422038408366,-0.0108974340675261
41,0.00160190104373298,-0.0111308288885565,0.909258202560161,-0.361763340602381,0.90925820258483,-0.361763340506074,0.0016149592506805,-0.0111080514637567
41.5,0.0015384523985747,-0.0113404052196129,0.907548036856262,-0.365834881730942,0.907548036881059,-0.365834881640215,0.00155216962586996,-0.0113168560375028
42,0.00147166617503369,-0.0115481238295922,0.905819988755961,-0.36989863774079,0.905819988780762,-0.369898637655475,0.00148604873963137,-0.0115238651851688
42.5,0.00140172479840089,-0.0117540135083147,0.904074075168839,-0.373954505601433,0.904074075193523,-0.373954505521362,0.00141677522628392,-0.0117291030044211
43,0.00132879304085587,-0.0119581077677178,0.902310315134448,-0.378002383118347,0.902310315158906,-0.378002383043354,0.00134451074388509,-0.0119325985776966
43.5,0.00125301964314484,-0.0121604434280225,0.900528729714633,-0.382042168944125,0.900528729738763,-0.382042168874042,0.00126940149426369,-0.0121343845704611
44,0.00117453881610696,-0.0123610594753512,0.898729341891963,-0.386073762587109,0.898729341915669,-0.386073762521769,0.00119157963662164,-0.0123344960918617
44.5,0.00109347162156437,-0.0125599961438994,0.896912176473893,-0.390097064417793,0.89691217649709,-0.390097064357032,0.00111116459270216,-0.0125329697734098
45,0.00100992723554344,-0.0127572941833369,0.895077260002276,-0.394111975673271,0.895077260024882,-0.394111975616925,0.00102826424502661,-0.012729843028316
45.5,0.000924004099018161,-0.0129529942785411,0.893224620667869,-0.398118398459939,0.893224620689813,-0.398118398407846,0.000942976032058618,-0.0129251534600685
46,0.000835790962758431,-0.0131471365942812,0.891354288229537,-0.402116235754685,0.891354288250752,-0.402116235706684,0.0008553879456214,-0.0131189383940136
46.5,0.000745367833577426,-0.0133397604221082,0.889466293937818,-0.406105391404732,0.889466293958245,-0.406105391360662,0.000765579436777575,-0.013311234510017
47,0.000652806829579189,-0.0135309039105838,0.887560670462598,-0.410085770126293,0.887560670482181,-0.410085770085997,0.000673622236778415,-0.0135020775579777
47.5,0.000558172951980629,-0.0137206038632711,0.885637451824615,-0.414057277502202,0.885637451843308,-0.414057277465524,0.000579581099803328,-0.01369150214106
48,0.000461524780859923,-0.0139088955916098,0.883696673330564,-0.418019819978623,0.883696673348325,-0.41801981994541,0.000483514474088231,-0.0138795415540915
48.5,0.000362915101826289,-0.0140958128120778,0.881738371511561,-0.421973304860971,0.881738371528353,-0.42197330483107,0.000385475107786415,-0.014066227666746
49,0.000262391470175594,-0.0142813875789147,0.87976258406476,-0.425917640309127,0.879762584080552,-0.425917640282387,0.000285510595564253,-0.0142515908429386
49.5,0.00015999671861866,-0.014465650245246,0.877769349797931,-0.429852735332051,0.877769349812699,-0.429852735308326,0.000183663871536288,-0.0144356598893496
50,5.57694141798959E-005,-0.014648629446731,0.875758708576812,-0.433778499781856,0.875758708590534,-0.433778499761001,7.99736537240858E-005,-0.014618462027262
50.5,-5.02557306072404E-005,-0.014830352102942,0.873730701275055,-0.437694844347427,0.873730701287715,-0.4376948443293,-2.55251551952718E-005,-0.0148000228829219
51,-0.000158047487560375,-0.0150108434325329,0.871685369726622,-0.441601680547629,0.871685369738209,-0.441601680532089,-0.000132801106498992,-0.0149803664924788
51.5,-0.000267577779543282,-0.0151901269790133,0.869622756680475,-0.445498920724173,0.869622756690981,-0.445498920711083,-0.000241825879429558,-0.0151595153183139
52,-0.00037882138019546,-0.0153682246445228,0.867542905757414,-0.449386478034179,0.867542905766837,-0.449386478023404,-0.000352573987021099,-0.0153374902740964
52.5,-0.000491755643262815,-0.0155451567294976,0.865445861408955,-0.453264266442474,0.865445861417295,-0.453264266433881,-0.000465022510504121,-0.0155143107564434
53,-0.000606360258467442,-0.0157209419765416,0.863331668878095,-0.457132200713677,0.863331668885358,-0.457132200707137,-0.000579150859371991,-0.0156899946814371
53.5,-0.000722617031134742,-0.0158955976171122,0.861200374161895,-0.46099019640408,0.861200374168089,-0.460990196399467,-0.000694940554476775,-0.0158645585245834
54,-0.000840509683124546,-0.0160691394199509,0.859052023975729,-0.464838169853374,0.859052023980868,-0.464838169850565,-0.000812375031801871,-0.016038017363081
54.5,-0.00096002367284076,-0.0162415817403726,0.856886665719144,-0.468676038176236,0.856886665723242,-0.46867603817511,-0.000931439464797679,-0.0162103849194845
55,-0.00108114603234283,-0.0164129375697369,0.854704347443208,-0.472503719253793,0.854704347446284,-0.472503719254231,-0.00105212060337123,-0.0163816736060347
55.5,-0.00120386521979021,-0.0165832185845588,0.852505117819284,-0.476321131724989,0.852505117821359,-0.476321131726878,-0.00117440662784279,-0.0165518945690843
56,-0.00132817098563337,-0.0167524351948556,0.850289026109132,-0.480128194977877,0.850289026110232,-0.480128194981104,-0.00129828701633961,-0.0167210577331647
56.5,-0.00145405425114431,-0.0169205965914007,0.848056122136288,-0.483924829140824,0.84805612213644,-0.483924829145282,-0.0014237524242573,-0.0168891718443412
57,-0.0015815069980139,-0.0170877107916699,0.845806456258618,-0.487710955073684,0.845806456257852,-0.487710955079267,-0.00155079457458468,-0.017056244512606
57.5,-0.0017105221678928,-0.0172537846843019,0.843540079342022,-0.491486494358904,0.843540079340369,-0.491486494365509,-0.00167940615797885,-0.0172222822530935
58,-0.00184109357086681,-0.0174188240719556,0.84125704273519,-0.495251369292598,0.841257042732686,-0.495251369300127,-0.0018095807416233,-0.017387290525989
58.5,-0.00197321580195492,-0.0175828337125052,0.838957398245391,-0.499005502875601,0.838957398242072,-0.499005502883959,-0.00194131268598929,-0.0175512737750282
59,-0.00210688416483434,-0.0177458173585252,0.836641198115204,-0.50274881880449,0.836641198111109,-0.502748818813582,-0.00207459706871216,-0.0177142354645276
59.5,-0.00224209460205915,-0.0179077777950537,0.83430849500017,-0.506481241462583,0.834308494995339,-0.506481241472322,-0.00220942961487886,-0.0178761781149084
60,-0.00237884363112972,-0.0180687168756488,0.831959341947318,-0.51020269591094,0.831959341941793,-0.510202695921238,-0.00234580663309475,-0.0180371033367099
60.5,-0.00251712828583278,-0.0182286355567627,0.8295937923745,-0.51391310787934,0.829593792368323,-0.513913107890114,-0.00248372495676491,-0.0181970118631025
61,-0.00265694606233202,-0.0183875339304709,0.827211900050516,-0.517612403757256,0.827211900043734,-0.517612403768427,-0.00262318189007704,-0.0183559035809121
61.5,-0.00279829486954147,-0.0185454112556075,0.824813719075992,-0.521300510584832,0.82481371906865,-0.521300510596324,-0.00276417515823274,-0.0185137775602042
