"Freq [GHz]","re(St(P1,P1)) []","im(St(P1,P1)) []","re(St(P1,P2)) []","im(St(P1,P2)) []","re(St(P2,P1)) []","im(St(P2,P1)) []","re(St(P2,P2)) []","im(St(P2,P2)) []"
0,0.00399354758735626,0,0.99601708209957,0,0.996017086552456,0,0.00399355028514492,0
0.5,0.00439666334879263,0.000663590434349715,0.995548903644007,-0.00566032941572558,0.995548904066169,-0.00566032926869653,0.0043966054863489,0.000663681366877
1,0.00475804481525088,0.000825558759352418,0.995032182779724,-0.0107998426032339,0.995032183461422,-0.0107998421455058,0.00475784084367703,0.00082581045305119
1.5,0.00475448581415705,0.000788872418020503,0.994600324962205,-0.0160189636972063,0.994600325754067,-0.0160189631817538,0.00475373764887976,0.000789607369647172
2,0.00475792788051166,0.000844090012357412,0.994104060619134,-0.0210921752424085,0.994104061451813,-0.0210921747638118,0.00475698662319424,0.00084522270440246
2.5,0.00476455631366335,0.000937839912980465,0.99358981649688,-0.0260393997774884,0.993589817288538,-0.0260393993818742,0.00476352347866982,0.000939343311273433
3,0.00477334346907554,0.00105275484491685,0.993080958802638,-0.0308898219394909,0.993080959489546,-0.0308898216365066,0.00477225911701495,0.00105461834539788
3.5,0.00478383615537004,0.001181795544829,0.992583878887127,-0.0356702893553749,0.992583879432979,-0.0356702891364407,0.00478271959655485,0.00118401537674018
4,0.00479572724838429,0.0013218248828526,0.99209551084602,-0.0404012692741045,0.992095511238874,-0.0404012691251641,0.0047945894946988,0.00132440097390507
4.5,0.00480873291659645,0.0014714689531985,0.991608750512297,-0.0450969027064474,0.991608750757697,-0.0450969026140324,0.00480758143760296,0.00147440371505958
5,0.00482254387619152,0.00163026570537994,0.991115523295924,-0.0497664325198706,0.991115523410341,-0.0497664324728841,0.00482138475291394,0.00163356355687228
5.5,0.00483679785483315,0.00179828216205813,0.990608241205018,-0.0544157094078237,0.990608241210873,-0.0544157093973627,0.00483563691751154,0.00180194940385547
6,0.00485105771148842,0.00197592696585414,0.990080359253255,-0.059048365777878,0.990080359175483,-0.0590483657964613,0.00484990124132834,0.0019799718653406
6.5,0.00486478946521918,0.00216385293715859,0.989526489268168,-0.0636666243870305,0.989526489132005,-0.0636666244278583,0.00486364469863565,0.00216828597369556
7,0.00487733746458918,0.00236290421698637,0.988942321604012,-0.0682718212334814,0.988942321433611,-0.0682718212898994,0.00487621300580543,0.0023677384794869
7.5,0.00488789487443764,0.00257408637573331,0.988324479029765,-0.0728647321096485,0.988324478847419,-0.0728647321748852,0.00488680106333195,0.00257933812803035
8,0.00489546790280215,0.0027985480684265,0.987670359655927,-0.0774457728210978,0.98767035948166,-0.077445772888173,0.00489441715325689,0.00280423751543779
8.5,0.0048988321718455,0.00303756731738414,0.986977992355059,-0.0820151211325859,0.986977992206494,-0.0820151211943454,0.00489783927318205,0.0030437196209343
9,0.00489647952664823,0.00329253734276946,0.98624591246968,-0.0865727913424186,0.986245912362055,-0.0865727913916254,0.00489556187801776,0.00329918395224915
9.5,0.00488655347823158,0.00356494727380507,0.985473058687623,-0.0911186806077806,0.985473058633925,-0.0911186806372557,0.00488573119710733,0.00357212765417447
10,0.0048667714998874,0.0038563525587394,0.984658689196751,-0.0956525985622587,0.9846586892079,-0.095652598564997,0.00486606730544153,0.00386411641554751
10.5,0.00493711411707601,0.00403928746773641,0.9839110467101,-0.100182794416992,0.983911046721217,-0.100182794420737,0.0049365799174593,0.00404740794863567
11,0.00501063928694909,0.00422080854399365,0.983148888438687,-0.104693045957807,0.983148888449667,-0.104693045962535,0.00501028214607957,0.00422928127714162
11.5,0.00508731263623557,0.00440085603136797,0.982373025741568,-0.109184558360553,0.982373025752317,-0.109184558366232,0.00508713945396437,0.00440967649392476
12,0.0051670984573933,0.00457937118220375,0.981584107138816,-0.113658510303251,0.981584107149249,-0.113658510309835,0.00516711596441263,0.0045885347077208
12.5,0.00524995974240935,0.00475629629274232,0.980782635329825,-0.118116040080029,0.980782635339865,-0.118116040087469,0.00525017449546727,0.00476579807877231
13,0.00533585821760802,0.00493157473725736,0.979968984008571,-0.122558235142296,0.979968984018152,-0.122558235150537,0.00533627659503942,0.00494140985315195
13.5,0.00542475437943537,0.00510515100089481,0.979143414057114,-0.126986124616886,0.979143414066174,-0.126986124625867,0.00542538257701386,0.00511531439579072
14,0.00551660753114322,0.00527697071117039,0.978306088822188,-0.13140067435478,0.97830608883068,-0.131400674364439,0.00551745155825489,0.00528745722213708
14.5,0.00561137582032491,0.00544698066814453,0.977457088283073,-0.135802784086498,0.977457088290956,-0.135802784096774,0.0056124414964723,0.00545778502848204
15,0.0057090162772433,0.00561512887318916,0.976596422002415,-0.14019328629464,0.976596422009656,-0.140193286305465,0.00571030922887641,0.00562624572088
15.5,0.00580948485388379,0.00578136455638667,0.975724040817021,-0.144572946454954,0.975724040823594,-0.14457294646627,0.00581101051156432,0.00579278844264408
16,0.00591273646368483,0.00594563820250382,0.974839847274908,-0.148942464341041,0.974839847280795,-0.148942464352781,0.00591450005957958,0.00595736360045773
16.5,0.00601872502187424,0.00610790157555519,0.973943704860529,-0.153302476131109,0.973943704865717,-0.153302476143212,0.00602073158758212,0.00611992288900609
17,0.00612740348635527,0.00626810774192244,0.973035446074521,-0.157653557096511,0.973035446079003,-0.157653557108918,0.00612965785106337,0.00628041931418899
17.5,0.00623872389908198,0.00642621109203523,0.972114879449752,-0.161996224689627,0.972114879453526,-0.161996224702281,0.00624123068805008,0.00643880721487067
18,0.00635263742786571,0.00658216736062656,0.971181795593906,-0.166330941882588,0.971181795596974,-0.166330941895435,0.00635540106123383,0.0065950422831671
18.5,0.00646909440854088,0.00673593364549196,0.970235972351961,-0.170658120638071,0.970235972354331,-0.17065812065106,0.00647211910045878,0.00674908158326648
19,0.00658804438744562,0.00688746842486321,0.969277179181319,-0.17497812541879,0.969277179183,-0.174978125431872,0.00659133414551802,0.00690088356881402
19.5,0.00670943616414391,0.00703673157329376,0.968305180828871,-0.17929127666404,0.968305180829875,-0.179291276677169,0.00671299478918325,0.00705040809880764
20,0.00683321783433297,0.0071836843761317,0.967319740394216,-0.18359785417953,0.967319740394559,-0.183597854192664,0.00683704892042047,0.00719761645207839
20.5,0.00695933683288483,0.00732828954254883,0.966320621856951,-0.187898100401585,0.966320621856651,-0.187898100414683,0.00696344376771854,0.00734247134030097
21,0.00708773997694681,0.00747051121717179,0.965307592139195,-0.192192223508718,0.965307592138272,-0.192192223521744,0.00709212594248543,0.00748493691959995
21.5,0.0072183735090611,0.00761031499029796,0.964280422767561,-0.196480400363229,0.964280422766035,-0.196480400376149,0.00722304148243832,0.00762497880073276
22,0.00735118314023009,0.00774766790673853,0.963238891191968,-0.200762779272959,0.963238891189861,-0.200762779285742,0.00735613589494169,0.00776256405788889
22.5,0.00748611409288863,0.00788253847328635,0.962182781812146,-0.205039482569235,0.962182781809481,-0.205039482581852,0.00749135420022956,0.00789766123609636
23,0.00762311114370556,0.00801489666484656,0.961111886756582,-0.209310609001448,0.961111886753383,-0.209310609013872,0.00762864097445726,0.00803024035728672
23.5,0.0077621186661837,0.00814471392925764,0.960026006453033,-0.213576235952023,0.960026006449324,-0.21357623596423,0.00776794039252948,0.00816027292504851
24,0.00790308067298667,0.00827196319079748,0.958924950024592,-0.217836421477961,0.958924950020399,-0.217836421489932,0.00790919627064507,0.00828773192804411
24.5,0.00804594085794985,0.0083966188524558,0.957808535540738,-0.222091206186713,0.957808535536086,-0.222091206198428,0.00805235210851118,0.00841259184219334
25,0.00819064263772301,0.00851865679695063,0.95667659014864,-0.226340614955276,0.956676590143553,-0.226340614966718,0.00819735113117287,0.00853482863160027
25.5,0.0083371291929869,0.00863805438655785,0.955528950106422,-0.230584658501995,0.955528950100924,-0.230584658513147,0.00834413633040287,0.00865441974826808
26,0.00848534350920849,0.0087547904617773,0.954365460736861,-0.234823334820811,0.954365460730978,-0.234823334831661,0.00849265050560838,0.00877134413066094
26.5,0.00863522841687236,0.008868845338869,0.953185976317238,-0.239056630487748,0.953185976310995,-0.239056630498286,0.00864283630420254,0.00888558220112845
27,0.00878672663115299,0.00898020080630135,0.951990359918617,-0.243284521849214,0.951990359912037,-0.243284521859429,0.0087946362613881,0.00899711586223106
27.5,0.00893978079097268,0.00908884012015654,0.950778483205744,-0.247506976101392,0.950778483198852,-0.247506976111274,0.00894799283931719,0.00910592849202563
28,0.0090943334974074,0.00919474799853082,0.949550226206959,-0.25172395226956,0.949550226199777,-0.251723952279105,0.00910284846557008,0.00921200493833507
28.5,0.00925032735138848,0.00929791061496932,0.948305477061937,-0.255935402095771,0.948305477054489,-0.255935402104972,0.00925914557091623,0.00931533151205799
29,0.00940770499067156,0.00939831559099757,0.947044131753783,-0.260141270842698,0.94704413174609,-0.26014127085155,0.00941682662630589,0.00941589597956649
29.5,0.00956640912600726,0.00949595198777931,0.945766093830829,-0.264341498021059,0.945766093822915,-0.26434149802956,0.00957583417905644,0.00951368755422832
30,0.00972638257649688,0.00959081029695552,0.944471274122561,-0.268536018047409,0.944471274114446,-0.268536018055557,0.00973611088818405,0.00960869688711319
30.5,0.00988756830407045,0.00968288243071869,0.943159590453247,-0.272724760838607,0.943159590444952,-0.2727247608464,0.00989759955884179,0.00970091605692569
31,0.0100499094470625,0.00977216171117345,0.941830967356189,-0.276907652348775,0.941830967347733,-0.276907652356214,0.0100602431758169,0.00979033855923039
31.5,0.0102133493528289,0.00985864285902482,0.940485335790892,-0.281084615054086,0.940485335782296,-0.28108461506117,0.0102239849360541,0.00987695929499832
32,0.0103778316093814,0.00994232198166678,0.939122632865008,-0.285255568390232,0.93912263285629,-0.285255568396964,0.0103887682801496,0.00996077455855127
32.5,0.0105433000759804,0.0100231965607107,0.937742801562449,-0.289420429147064,0.937742801553627,-0.289420429153446,0.0105545369227862,0.0100417820249503
33,0.0107096989126572,0.0101012654390096,0.936345790478765,-0.293579111824449,0.936345790469858,-0.293579111830483,0.0107212348820527,0.0101199807368744
33.5,0.0108769726086158,0.0101765288072477,0.934931553564592,-0.29773152895303,0.934931553555614,-0.297731528958721,0.0108888065076156,0.0101953710910569
34,0.0110450660094738,0.0102489881901391,0.933500049877706,-0.301877591383281,0.933500049868675,-0.301877591388632,0.0110571965076871,0.0102679548243376
34.5,0.0112139243432932,0.0103186464322986,0.932051243344088,-0.306017208545861,0.932051243335021,-0.306017208550878,0.0112263499747466,0.0103377349993752
35,0.0113834932453578,0.0103855076838368,0.930585102528195,-0.310150288686081,0.930585102519105,-0.310150288690768,0.0113962124099622,0.0104047159900804
35.5,0.0115537187816414,0.0104495773857562,0.92910160041252,-0.314276739074932,0.929101600403422,-0.314276739079294,0.0115667297462699,0.010468903466839
36,0.0117245474709204,0.0105108622551742,0.927600714186444,-0.318396466198985,0.927600714177351,-0.318396466203029,0.0117378483700374,0.0105303043815621
36.5,0.0118959263054678,0.0105693702704621,0.926082425044263,-0.322509375931193,0.926082425035189,-0.322509375934925,0.0119095151412711,0.0105889269526296
37,0.0120678027702697,0.0106251106563378,0.924546717992244,-0.326615373684435,0.924546717983203,-0.326615373687862,0.0120816774122895,0.0106447806497729
37.5,0.0122401248607049,0.0106780938689781,0.922993581664486,-0.330714364549491,0.922993581655489,-0.330714364552621,0.012254283044806,0.0106978761789673
38,0.0124128410986049,0.0107283315811921,0.921423008147344,-0.334806253418962,0.921423008138402,-0.3348062534218,0.0124272804253353,0.0107482254673597
38.5,0.0125859005466282,0.010775836667732,0.91983499281214,-0.338890945098477,0.919834992803265,-0.338890945101032,0.012600618478855,0.0107958416482934
39,0.0127592528208564,0.0108206231907597,0.918229534155859,-0.342968344406438,0.91822953414706,-0.342968344408717,0.0127742466806247,0.010840739046478
39.5,0.0129328481015247,0.0108627063855435,0.916606633649525,-0.347038356263411,0.916606633640812,-0.347038356265422,0.0129481150660724,0.0108829331633298
40,0.0131066371417803,0.0109021026464113,0.914966295593943,-0.351100885772153,0.914966295585326,-0.351100885773905,0.0131221742386455,0.0109224406625319
40.5,0.0132805712743638,0.0109388295130004,0.913308526982483,-0.355155838289197,0.913308526973971,-0.355155838290697,0.0132963753755025,0.0109592793558333
41,0.0134546024160808,0.0109729056568411,0.911633337370597,-0.359203119488793,0.911633337362197,-0.35920311949005,0.0134706702309307,0.0109934681891117
41.5,0.0136286830699324,0.0110043508682847,0.909940738751737,-0.36324263541996,0.909940738743458,-0.363242635420983,0.013645011137341,0.0110250272287058
42,0.0138027663247584,0.0110331860437927,0.908230745439397,-0.367274292557295,0.908230745431246,-0.367274292558091,0.0138193510036974,0.0110539776480234
42.5,0.0139768058522204,0.0110594331736067,0.906503373954941,-0.371297997846145,0.906503373946925,-0.371297997846724,0.0139936433112058,0.0110803417144099
43,0.0141507559009494,0.0110831153297444,0.904758642920959,-0.375313658742692,0.904758642913084,-0.375313658743061,0.0141678421060889,0.0111041427762413
43.5,0.0143245712876487,0.0111042566543338,0.902996572959846,-0.379321183249421,0.902996572952119,-0.379321183249591,0.0143419019892369,0.0111254052501921
44,0.0144982073849457,0.0111228823482081,0.90121718659735,-0.383320479946427,0.901217186589775,-0.383320479946406,0.0145157781025297,0.0111441546086204
44.5,0.0146716201057368,0.0111390186596958,0.899420508170816,-0.387311458018945,0.899420508163399,-0.38731145801874,0.0146894261115837,0.0111604173669488
45,0.0148447658837797,0.0111526928734966,0.897606563741885,-0.391294027281464,0.89760656373463,-0.391294027281085,0.0148628021846745,0.0111742210709211
45.5,0.0150176016502317,0.011163933299507,0.895775381013409,-0.395268098198766,0.895775381006321,-0.395268098198222,0.0150358629675551,0.011185594283571
46,0.0151900848058356,0.0111727692614167,0.893926989250357,-0.399233581904148,0.893926989243441,-0.399233581903448,0.0152085655538819,0.0111945665716764
46.5,0.0153621731884176,0.0111792310848324,0.892061419204492,-0.40319039021513,0.89206141919775,-0.403190390214283,0.0153808674509247,0.0112011684914413
47,0.0155338250353428,0.011183350084677,0.890178703042622,-0.407138435646845,0.890178703036057,-0.407138435645858,0.0155527265402395,0.0112054315730898
47.5,0.0157049989405476,0.01118515855147,0.888278874278225,-0.411077631423364,0.88827887427184,-0.411077631422247,0.015724101032947,0.0112073883039621
48,0.0158756538057542,0.0111846897361021,0.886361967706269,-0.415007891487131,0.886361967700067,-0.415007891485891,0.0158949494192688,0.0112070721096524
48.5,0.0160457487854601,0.0111819778325604,0.884428019341054,-0.418929130506675,0.884428019335036,-0.418929130505321,0.0160652304119516,0.0112045173326289
49,0.0162152432252666,0.0111770579579915,0.882477066356904,-0.422841263882784,0.882477066351073,-0.422841263881323,0.0162349028832163,0.0111997592076476
49.5,0.0163840965931422,0.0111699661293756,0.880509147031571,-0.426744207753255,0.880509147025927,-0.426744207751698,0.0164039257948891,0.0111928338331976
50,0.0165522684031866,0.0111607392359181,0.878524300692178,-0.430637878996373,0.878524300686724,-0.430637878994727,0.01657225812138,0.0111837781380307
50.5,0.0167197181315258,0.011149415006152,0.8765225676636,-0.434522195233218,0.876522567658334,-0.434522195231489,0.0167398587652371,0.0111726298417298
51,0.0168864051239743,0.011136031968537,0.874503989219112,-0.438397074828911,0.874503989214037,-0.438397074827109,0.0169066864650482,0.0111594274080494
51.5,0.0170522884952021,0.0111206294041579,0.872468607533218,-0.442262436892914,0.872468607528333,-0.442262436891046,0.0170726996955685,0.0111442099896162
52,0.017217327019224,0.0111032472899427,0.870416465636522,-0.446118201278424,0.870416465631828,-0.446118201276498,0.0172378565600768,0.0111270173623729
52.5,0.017381479011175,0.0110839262305077,0.868347607372542,-0.449964288580997,0.868347607368038,-0.449964288579021,0.0174021146751159,0.0111078898479009
53,0.0175447022005153,0.0110627073765793,0.866262077356363,-0.453800620136428,0.866262077352048,-0.453800620134407,0.0175654310480117,0.0110868682215688
53.5,0.0177069535960842,0.0110396323276024,0.864159920935036,-0.457627118017962,0.86415992093091,-0.457627118015905,0.0177277619478275,0.0110639936042078
54,0.0178681893436915,0.0110147430158949,0.862041184149625,-0.461443705032918,0.862041184145686,-0.461443705030831,0.0178890627707629,0.0110393073347675
54.5,0.0180283645773899,0.0109880815694349,0.859905913698829,-0.465250304718737,0.859905913695076,-0.465250304716627,0.0180492879014403,0.0110128508212095
55,0.0181874332660368,0.0109596901500966,0.857754156904085,-0.469046841338537,0.857754156900516,-0.469046841336412,0.018208390572043,0.0109846653666907
55.5,0.0183453480573846,0.0109296107639049,0.855585961676087,-0.472833239876201,0.855585961672701,-0.472833239874066,0.0183663227219079,0.0109547919679405
56,0.0185020601226836,0.0108978850397206,0.853401376482652,-0.476609426031035,0.853401376479446,-0.476609426028897,0.0185230348609056,0.01092327108266
56.5,0.0186575190056598,0.0108645539726497,0.851200450317853,-0.480375326212043,0.851200450314825,-0.480375326209908,0.0186784759408365,0.0108901423628113
57,0.0188116724807683,0.0108296576285067,0.848983232672373,-0.484130867531839,0.848983232669522,-0.484130867529713,0.0188325932400408,0.0108554443508008
57.5,0.018964466426817,0.0107932348058571,0.846749773505014,-0.48787597780023,0.846749773502336,-0.487875977798119,0.0189853322675556,0.0108192141359452
58,0.0191158447233881,0.0107553226525809,0.844500123215299,-0.491610585517502,0.844500123212792,-0.491610585515411,0.0191366366943682,0.0107814869691802
58.5,0.0192657491789604,0.0107159562346262,0.842234332617134,-0.495334619867416,0.842234332614794,-0.495334619865351,0.0192864483206179,0.0107422958348731
59,0.0194141195011969,0.0106751680557059,0.839952452913457,-0.499048010709957,0.839952452911282,-0.499048010707924,0.0194347070889291,0.0107016709798454
59.5,0.0195608933214672,0.0106329875282389,0.837654535671854,-0.502750688573838,0.837654535669839,-0.502750688571841,0.019581351155362,0.0106596394014151
60,0.0197060062872111,0.0105894403978997,0.835340632801072,-0.506442584648787,0.835340632799215,-0.50644258464683,0.01972631703061,0.0106162242984177
60.5,0.0198493922371266,0.0105445481268355,0.833010796528418,-0.510123630777625,0.833010796526716,-0.510123630775714,0.019869539804984,0.0105714444918924
61,0.0199909834751638,0.0104983272439707,0.83066507937798,-0.513793759448165,0.830665079376429,-0.513793759446304,0.0200109534711854,0.0105253138253883
61.5,0.020130711159789,0.0104507886748278,0.828303534149648,-0.517452903784919,0.828303534148243,-0.517452903783112,0.0201504913587103,0.0104778405586498
62,0.020268505824612,0.0104019370680456,0.825926213898902,-0.521100997540658,0.82592621389764,-0.521100997538909,0.0202880866927429,0.0104290267727479
62.5,0.020404298045033,0.0103517701410193,0.823533171917325,-0.524737975087807,0.823533171916202,-0.524737975086119,0.0204236732883056,0.0103788678093523
63,0.0205380192627047,0.010300278072747,0.821124461713831,-0.528363771409699,0.821124461712843,-0.528363771408077,0.0205571863870227,0.0103273517715832
63.5,0.0206696027750544,0.0102474429776407,0.818700136996555,-0.531978322091704,0.818700136995696,-0.53197832209015,0.0206885636389194,0.0102744591184013
