"Freq [GHz]","re(St(P1,P1)) []","im(St(P1,P1)) []","re(St(P1,P2)) []","im(St(P1,P2)) []","re(St(P2,P1)) []","im(St(P2,P1)) []","re(St(P2,P2)) []","im(St(P2,P2)) []"
0,0.00604496420424994,0,0.993969398870831,0,0.993969408315024,0,0.00604496975381608,0
0.5,0.00662495229434157,0.000160330568952816,0.993347742258827,-0.00642398577509162,0.99334774221953,-0.0064239854706365,0.00662488275213491,0.000161194113063701
1,0.00711035980821961,-0.000376925452172827,0.992767637131763,-0.0121473196949076,0.99276763736685,-0.0121473199481805,0.00711018596458857,-0.000375092337229432
1.5,0.00743239106617466,-0.00100364958811383,0.992274168681758,-0.017878180441798,0.992274168797987,-0.017878180668351,0.00743220414664236,-0.00100077172459834
2,0.00762385268365939,-0.0016874886539977,0.991817743268985,-0.0234711749171339,0.991817743319849,-0.023471175091295,0.00762365364447959,-0.00168366051259561
2.5,0.00773767508133894,-0.00237175662441302,0.991403154788728,-0.029001453672187,0.991403154808039,-0.029001453798033,0.0077374115814095,-0.00236702760971852
3,0.00780806814473411,-0.00304470808709922,0.991010696128794,-0.0345070845794417,0.991010696133556,-0.0345070846673199,0.00780768380195163,-0.0030390978541206
3.5,0.00785345025277451,-0.00370651455390991,0.990620729519652,-0.0400035177853528,0.990620729517792,-0.0400035178445677,0.00785289378469578,-0.00370002960641358
4,0.00788370134134153,-0.00435981292600118,0.990218764370648,-0.0454955632261562,0.990218764365774,-0.0454955632638274,0.00788292618997133,-0.00435245446221622
4.5,0.00790431740448749,-0.0050073174285501,0.989794924306682,-0.0509835240980401,0.98979492430044,-0.05098352411947,0.00790328009483776,-0.00499908462450627
5,0.00791849099635344,-0.00565132385821165,0.98934257309484,-0.0564659406831272,0.98934257308802,-0.056465940692334,0.0079171497791295,-0.00564221521463359
5.5,0.0079281533518698,-0.00629369360615684,0.988857200375481,-0.0619407580051625,0.988857200368517,-0.0619407580053153,0.00792646725061497,-0.00628370749647189
6,0.00793451399887846,-0.00693593877815424,0.988335670084352,-0.067405807094616,0.988335670077569,-0.0674058070883108,0.0079324421522835,-0.00692507366402317
6.5,0.00793835180719293,-0.00757931076272111,0.9877757401474,-0.0728589933532442,0.987775740141127,-0.0728589933426935,0.00793585300078825,-0.00756756526992408
7,0.00794017845102468,-0.00822487141962647,0.987175759308492,-0.0782983613238066,0.987175759303118,-0.0782983613109574,0.00793721076574605,-0.00821224435577683
7.5,0.00794033371825598,-0.008873546251424,0.986534475015055,-0.0837221084604813,0.986534475011049,-0.083722108447092,0.00793685424996526,-0.00886003660062595
8,0.00793904298358528,-0.00952616326903843,0.985850910411635,-0.0891285790329936,0.985850910409558,-0.0891285790206817,0.00793500760487209,-0.00951177017867622
8.5,0.00793645290903044,-0.0101834813742485,0.985124284602633,-0.0945162514058646,0.98512428460314,-0.0945162513961293,0.00793181605515392,-0.0101682041403599
9,0.00793265419544442,-0.0108462112751972,0.984353960331147,-0.0998837241576256,0.984353960334987,-0.0998837241518835,0.00792736866267463,-0.0108300493291154
9.5,0.00792769639613328,-0.0115150311281651,0.983539409272467,-0.105229703124366,0.983539409280477,-0.105229703123944,0.00792171314457296,-0.0114979840252039
10,0.00792159772631224,-0.0121905984538522,0.982680188802975,-0.110552990003322,0.982680188816071,-0.110552990009477,0.00791486568164362,-0.0121726658641856
10.5,0.00791163792509286,-0.0128493508222531,0.981850336668629,-0.11587721023896,0.981850336677615,-0.115877210247132,0.0079042060838791,-0.0128305214174205
11,0.00789728216727914,-0.0135136242222096,0.98099492816064,-0.121189319523606,0.980994928165634,-0.121189319532968,0.00788910998279035,-0.0134938923943624
11.5,0.00787814619485222,-0.0141833584332787,0.980113816313672,-0.126489756905763,0.980113816314896,-0.126489756915606,0.00786919299859884,-0.0141627174882446
12,0.00785385765760929,-0.0148584683612709,0.97920685283039,-0.131778862627194,0.979206852828136,-0.131778862636912,0.00784408275315529,-0.0148369105202253
12.5,0.00782405762041466,-0.0155388458808905,0.978273897763907,-0.137056893894264,0.978273897758518,-0.137056893903363,0.00781342037348731,-0.0155163622936891
13,0.00778840182992815,-0.0162243617317888,0.977314825796246,-0.142324038974988,0.977314825788093,-0.14232403898306,0.00777686175345904,-0.0162009425009053
13.5,0.00774656174847198,-0.0169148674394912,0.976329529965189,-0.147580429542404,0.976329529954656,-0.147580429549137,0.00773407858143459,-0.0168905016534229
14,0.00769822536564618,-0.0176101972354288,0.975317923519183,-0.152826151308568,0.975317923506656,-0.152826151313729,0.00768475914477876,-0.0175848730102657
14.5,0.00764309780061521,-0.0183101699532431,0.974279940431838,-0.158061253065027,0.974279940417693,-0.15806125306845,0.00762860892434571,-0.0182838744811358
15,0.00758090170976564,-0.0190145908815587,0.973215534984773,-0.16328575428199,0.973215534969372,-0.163285754283569,0.00756535099387031,-0.0189873104847602
15.5,0.00751137751570249,-0.0197232535564549,0.972124680728534,-0.16849965143192,0.972124680712218,-0.168499651431606,0.00749472624042358,-0.0196949737456418
16,0.0074342834742967,-0.020435941479783,0.971007369052745,-0.173702923202428,0.97100736903583,-0.173702923200213,0.00741649342283643,-0.020406647015407
16.5,0.00734939559687589,-0.0211524297523105,0.96986360753544,-0.178895534754289,0.969863607518217,-0.178895534750204,0.00733042908533846,-0.0211221047078105
17,0.00725650744460299,-0.0218724866133133,0.968693418194363,-0.184077441166902,0.968693418177095,-0.184077441161006,0.00723632734359855,-0.0218411144390882
17.5,0.00715542981178072,-0.0225958748805626,0.967496835727089,-0.189248590198161,0.967496835710011,-0.189248590190541,0.00713399956002742,-0.0225634384677247
18,0.00704599031419739,-0.0233223532869986,0.966273905799731,-0.194408924470269,0.966273905783052,-0.194408924461027,0.00702327392456045,-0.0232888350299656
18.5,0.00692803289789262,-0.0240516777120914,0.965024683423825,-0.199558383178046,0.965024683407726,-0.1995583831673,0.00690399495635469,-0.0240170595693034
19,0.00680141728272132,-0.0247836023077803,0.963749231446015,-0.204696903402641,0.96374923143065,-0.204696903390525,0.00677602294086077,-0.0247478658598084
19.5,0.00666601835407565,-0.0255178805201894,0.962447619164281,-0.209824421101322,0.962447619149783,-0.209824421087969,0.00663923331565786,-0.0254810070246925
20,0.00652172551501679,-0.0262542660095328,0.96111992107666,-0.214940871833039,0.961119921063135,-0.214940871818588,0.00649351601732268,-0.0262162364526071
20.5,0.00636844200988262,-0.0269925134716735,0.959766215762781,-0.220046191270176,0.959766215750316,-0.220046191254774,0.00633877480041323,-0.0269533086152109
21,0.00620608422931068,-0.0277323793654993,0.958386584894826,-0.225140315538666,0.958386584883488,-0.225140315522452,0.00617492653850615,-0.0276919797902897
21.5,0.00603458100546383,-0.0284736225508753,0.956981112371892,-0.230223181421647,0.956981112361729,-0.230223181404762,0.00600190051605376,-0.0284320086952836
22,0.00585387290515182,-0.0292160048424246,0.955549883570193,-0.235294726456023,0.955549883561238,-0.235294726438604,0.00581963771874261,-0.0291731570364986
22.5,0.00566391152749013,-0.0299592914845901,0.954092984700584,-0.240354888946108,0.954092984692854,-0.240354888928287,0.00562809012895543,-0.0299151899795804
23,0.00546465881176672,-0.0307032515536223,0.952610502264488,-0.245403607914377,0.952610502257987,-0.245403607896277,0.00542722003198498,-0.0306578765469094
23.5,0.00525608636024638,-0.0314476582921808,0.951102522599234,-0.250440823005723,0.951102522593956,-0.250440822987465,0.00521699933768632,-0.0314009899476999
24,0.00503817477984064,-0.0321922893821927,0.949569131503994,-0.255466474358605,0.949569131499921,-0.255466474340304,0.00499740892146178,-0.0321443078464423
24.5,0.0048109130457849,-0.0329369271614901,0.948010413937833,-0.260480502453957,0.948010413934936,-0.260480502435715,0.00476843798766868,-0.0328876125752728
25,0.00457429788977459,-0.0336813587895743,0.946426453781865,-0.265482847950576,0.946426453780112,-0.265482847932492,0.00453008345788297,-0.0336306912956656
25.5,0.00432833321443094,-0.0344253763676614,0.944817333658003,-0.270473451514029,0.944817333657351,-0.270473451496192,0.00428234938581884,-0.0343733361145744
26,0.00407302953539807,-0.0351687770178488,0.943183134797344,-0.275452253644509,0.943183134797747,-0.275452253627001,0.00402524640020047,-0.0351153441599241
26.5,0.00380840345192052,-0.0359113629260306,0.941523936951798,-0.280419194507982,0.941523936953204,-0.280419194490877,0.0037587911763674,-0.0358565176200816
27,0.00353447714633581,-0.0366529413528818,0.939839818343098,-0.285374213773887,0.939839818345452,-0.285374213757253,0.00348300593703554,-0.0365966637516162
27.5,0.0032512779125759,-0.0373933246168816,0.93813085564392,-0.290317250461817,0.938130855647164,-0.290317250445713,0.00319791798226199,-0.037335594859349
28,0.00295883771348138,-0.0381323300531193,0.936397123986292,-0.295248242798942,0.936397123990366,-0.295248242783421,0.00290355924838376,-0.0380731282524178
28.5,0.00265719276646936,-0.0388697799512765,0.934638696993001,-0.300167128089372,0.934638696997844,-0.300167128074478,0.00259996589545897,-0.0388090861797548
29,0.0023463831569272,-0.0396055014758947,0.93285564682816,-0.305073842596185,0.932855646833707,-0.30507384258196,0.00228717792253103,-0.039543295748091
29.5,0.00202645247850852,-0.0403393265717893,0.931048044263484,-0.309968321436517,0.931048044269674,-0.309968321422992,0.00196523880989902,-0.0402755888253183
30,0.00169744749941692,-0.0410710918571415,0.929215958757273,-0.314850498489753,0.929215958764043,-0.314850498476955,0.00163419518742369,-0.0410058019317643
30.5,0.00135941785363658,-0.0418006385066119,0.927359458543402,-0.319720306318709,0.927359458550689,-0.31972030630666,0.00129409652784368,-0.0417337761216927
31,0.00101241575602529,-0.0425278121265193,0.925478610727982,-0.324577676103446,0.925478610735725,-0.324577676092162,0.000944994863969595,-0.042459356857067
31.5,0.000656495740118279,-0.0432524626239534,0.92357348139163,-0.329422537587261,0.923573481399768,-0.329422537576752,0.000586944528611688,-0.0431823938754461
32,0.000291714417478162,-0.0439744440714303,0.921644135695586,-0.334254819034276,0.921644135704062,-0.33425481902455,0.000220001916053258,-0.043902741053603
32.5,-8.18697425885584E-005,-0.0446936145685741,0.919690637990117,-0.339074447198002,0.919690637998872,-0.339074447189061,-0.000155774736126268,-0.0446202562683342
33,-0.000464196614126389,-0.045409836102043,0.917713051923898,-0.343881347300167,0.917713051932877,-0.343881347292009,-0.000540325546051545,-0.0453348012556811
33.5,-0.000855204597601467,-0.0461229744048437,0.915711440553252,-0.348675443019113,0.915711440562403,-0.348675443011734,-0.000933589168560567,-0.0460462414696881
34,-0.0012548307860849,-0.046832898815973,0.913685866450285,-0.353456656487029,0.913685866459556,-0.35345665648042,-0.00133550295936136,-0.046754445941624
34.5,-0.00166301111565365,-0.0475394821412098,0.911636391809135,-0.358224908295279,0.911636391818478,-0.35822490828943,-0.00174600312345297,-0.0474592871404869
35,-0.00207968050109469,-0.0482426005157583,0.909563078549664,-0.362980117507134,0.909563078559033,-0.362980117502029,-0.00216502484888725,-0.048160640835488
35.5,-0.00250477295792262,-0.0489421332693416,0.907465988418078,-0.36772220167718,0.907465988427428,-0.367722201672803,-0.00259250242690529,-0.0488583859610818
36,-0.00293822171172159,-0.0496379627942332,0.905345183084015,-0.372451076876755,0.905345183093306,-0.37245107687309,-0.00302836935944079,-0.0495524044850548
36.5,-0.00337995929573115,-0.050329974416635,0.903200724233806,-0.377166657724757,0.903200724242998,-0.377166657721781,-0.00347255845493605,-0.0502425812800411
37,-0.00382991763759477,-0.0510180562717468,0.901032673659616,-0.381868857423208,0.901032673668673,-0.3818688574209,-0.00392500191336537,-0.0509288039988336
37.5,-0.0042880281360928,-0.0517020991827628,0.898841093344307,-0.386557587796998,0.898841093353195,-0.386557587795334,-0.00438563140131509,-0.0516109629536854
38,-0.00475422172868406,-0.0523819965440284,0.896626045541898,-0.391232759337272,0.896626045550585,-0.391232759336229,-0.00485437811792039,-0.0522889509998588
38.5,-0.00522842895059039,-0.0530576442084829,0.894387592853543,-0.395894281247941,0.894387592862001,-0.395894281247493,-0.0053311728524143,-0.0529626634235199
39,-0.00571057998614383,-0.0537289403795038,0.892125798299019,-0.400542061494845,0.892125798307221,-0.400542061494963,-0.00581594603399216,-0.0536319978341033
39.5,-0.00620060471305467,-0.0543957855072159,0.889840725383716,-0.405176006857142,0.889840725391637,-0.405176006857801,-0.00630862777466401,-0.0542968540611946
40,-0.00669843274021814,-0.0550580821892905,0.887532438161202,-0.409796022980509,0.887532438168819,-0.409796022981681,-0.00680914790569903,-0.0549571340559547
40.5,-0.0072039934396404,-0.055715735076233,0.885201001291414,-0.41440201443178,0.885201001298709,-0.414402014433436,-0.00731743600825208,-0.0556127417970795
41,-0.00771721597302483,-0.0563686507811378,0.882846480094586,-0.418993884754706,0.88284648010154,-0.418993884756818,-0.0078334214387063,-0.056263583201275
41.5,-0.00823802931351519,-0.0570167377938635,0.880468940601004,-0.423571536526496,0.880468940607602,-0.423571536529037,-0.00835703334923049,-0.0569095660381853
42,-0.00876636226305932,-0.0576599063995549,0.878068449596746,-0.428134871414898,0.878068449602973,-0.428134871417837,-0.0088882007040158,-0.0575505998497072
42.5,-0.00930214346583375,-0.0582980686014383,0.875645074665518,-0.432683790235522,0.875645074671363,-0.432683790238831,-0.00942685229162216,-0.0581865958736092
43,-0.00984530141811379,-0.0589311380477933,0.873198884226744,-0.437218193009223,0.873198884232197,-0.437218193012876,-0.0099729167338326,-0.0588174669713584
43.5,-0.0103957644749735,-0.0595590299630075,0.870729947570061,-0.44173797901932,0.870729947575113,-0.441737979023286,-0.0105263224913819,-0.0594431275600522
44,-0.0109534608541455,-0.0601816610825867,0.868238334886365,-0.446243046868462,0.86823833489101,-0.446243046872716,-0.0110869978669049,-0.0600634935483404
44.5,-0.0115183186373548,-0.0607989495920234,0.865724117295588,-0.450733294535002,0.865724117299821,-0.450733294539515,-0.0116548710054047,-0.0606784822762125
45,-0.0120902657694252,-0.0614108150693851,0.863187366871334,-0.455208619428727,0.863187366875151,-0.455208619433473,-0.0122298698925465,-0.061288012458538
45.5,-0.0126692300554137,-0.062017178431514,0.860628156662554,-0.459668918445815,0.860628156665953,-0.459668918450768,-0.0128119223510275,-0.0618920041322295
46,-0.0132551391560279,-0.0626179618836999,0.858046560712407,-0.464114088022932,0.858046560715388,-0.464114088028066,-0.0134009560352749,-0.0624903786068984
46.5,-0.0138479205815415,-0.0632130888727078,0.855442654074461,-0.468544024190352,0.855442654077023,-0.468544024195642,-0.0139968984246947,-0.0630830584188726
47,-0.0144475016844232,-0.0638024840430247,0.85281651282638,-0.472958622624042,0.852816512828526,-0.472958622629465,-0.0145996768156763,-0.0636699672884607
47.5,-0.0150538096508582,-0.0643860731962143,0.850168214081251,-0.47735777869664,0.850168214082982,-0.477357778702172,-0.0152092183125375,-0.064251030080315
48,-0.0156667714913519,-0.0649637832532326,0.847497835996682,-0.481741387527262,0.847497835998004,-0.48174138753288,-0.0158254498175944,-0.064826172766788
48.5,-0.0162863140305526,-0.065535542219605,0.84480545778182,-0.48610934403011,0.844805457782737,-0.486109344035791,-0.0164482980204957,-0.0653953223941399
49,-0.0169123638964577,-0.0661012791533228,0.842091159702404,-0.490461542961827,0.842091159702922,-0.490461542967552,-0.0170776893869853,-0.0659584070514875
49.5,-0.0175448475091252,-0.0666609241353585,0.839355023083997,-0.494797878967597,0.839355023084123,-0.494797878973343,-0.0177135501472085,-0.0665153558423648
50,-0.0181836910690145,-0.067214408242669,0.836597130313506,-0.499118246625941,0.836597130313246,-0.49911824663169,-0.0183558062836952,-0.0670660988587917
50.5,-0.0188288205450635,-0.0677616635235812,0.83381756483911,-0.503422540492217,0.833817564838473,-0.503422540497951,-0.0190043835191177,-0.0676105671577147
51,-0.0194801616626117,-0.0683026229754548,0.831016411168708,-0.507710655140818,0.831016411167702,-0.507710655146518,-0.0196592073039377,-0.0681486927397389
51.5,-0.0201376398912475,-0.0688372205245033,0.828193754866991,-0.511982485206045,0.828193754865627,-0.511982485211694,-0.0203202028040144,-0.0686804085300111
52,-0.0208011804326744,-0.0693653910076776,0.82534968255124,-0.516237925421682,0.825349682549527,-0.516237925427265,-0.0209872948882776,-0.069205648361179
52.5,-0.0214707082086632,-0.0698870701565182,0.822484281885933,-0.520476870659276,0.822484281883882,-0.520476870664776,-0.0216604081165232,-0.069724346958302
53,-0.022146147849164,-0.0704021945828597,0.819597641576278,-0.52469921596511,0.8195976415739,-0.524699215970513,-0.0223394667274067,-0.0702364399256287
53.5,-0.0228274236806387,-0.0709107017663205,0.816689851360723,-0.528904856595921,0.816689851358028,-0.528904856601213,-0.023024394626701,-0.0707418637351477
54,-0.0235144597146677,-0.0714125300434562,0.813761002002553,-0.533093688053339,0.813761001999554,-0.533093688058507,-0.0237151153758609,-0.0712405557168065
54.5,-0.0242071796368849,-0.071907618598527,0.81081118528063,-0.537265606117104,0.810811185277339,-0.537265606122136,-0.0244115521809625,-0.0717324540503337
55,-0.0249055067962837,-0.072395907455756,0.807840493979361,-0.541420506877053,0.80784049397579,-0.541420506881938,-0.0251136278820427,-0.0722174977585487
55.5,-0.0256093641949382,-0.0728773374730265,0.804849021877949,-0.545558286763911,0.80484902187411,-0.545558286768638,-0.0258212649428997,-0.0726956267021102
56,-0.0263186744781747,-0.0733518503369255,0.801836863739002,-0.54967884257891,0.801836863734908,-0.549678842583469,-0.0265343854413756,-0.0731667815755962
56.5,-0.0270333599252262,-0.0738193885590657,0.798804115296549,-0.553782071522265,0.798804115292212,-0.553782071526649,-0.0272529110601631,-0.0736309039048588
57,-0.0277533424404013,-0.0742798954736076,0.795750873243526,-0.557867871220522,0.795750873238959,-0.55786787122472,-0.0279767630781599,-0.0740879360455667
57.5,-0.0284785435447905,-0.0747333152359125,0.792677235218784,-0.561936139752807,0.792677235214001,-0.561936139756813,-0.0287058623624014,-0.074537821182874
58,-0.02920888436854,-0.0751795928222671,0.789583299793664,-0.565986775676022,0.789583299788678,-0.565986775679829,-0.029440129360592,-0.0749805033321441
58.5,-0.0299442856437057,-0.0756186740306046,0.786469166458181,-0.570019678048979,0.786469166453004,-0.570019678052581,-0.0301794840942584,-0.0754159273406606
59,-0.0306846676977108,-0.0760505054821637,0.783334935606873,-0.574034746455539,0.783334935601519,-0.57403474645893,-0.0309238461525346,-0.0758440388902607
59.5,-0.0314299504474233,-0.0764750346240327,0.780180708524342,-0.578031881026755,0.780180708518823,-0.578031881029929,-0.0316731346866086,-0.0762647845008402
60,-0.0321800533938604,-0.0768922097325011,0.777006587370533,-0.582010982462054,0.777006587364863,-0.582010982465009,-0.0324272684048271,-0.0766781115346551
60.5,-0.0329348956175421,-0.0773019799171908,0.773812675165776,-0.585971952049504,0.773812675159967,-0.585971952052236,-0.0331861655684843,-0.077083968201375
61,-0.033694395774497,-0.0777042951258868,0.770599075775634,-0.589914691685156,0.770599075769699,-0.589914691687661,-0.0339497439882951,-0.0774823035638296
61.5,-0.0344584720929269,-0.0780991061500299,0.767365893895578,-0.593839103891526,0.76736589388953,-0.593839103893803,-0.0347179210215626,-0.0778730675443932
62,-0.0352270423705448,-0.0784863646308194,0.764113235035527,-0.597745091835219,0.764113235029378,-0.597745091837266,-0.0354906135700513,-0.0782562109319581
62.5,-0.0360000239725867,-0.0788660230658716,0.760841205504264,-0.601632559343733,0.760841205498026,-0.601632559345548,-0.0362677380785618,-0.0786316853894442
