"Freq [GHz]","re(St(P1,P1)) []","im(St(P1,P1)) []","re(St(P1,P2)) []","im(St(P1,P2)) []","re(St(P2,P1)) []","im(St(P2,P1)) []","re(St(P2,P2)) []","im(St(P2,P2)) []"
0,0.0041164598328578,0,0.995895643194672,0,0.995895647050929,0,0.00411646304178248,0
0.5,0.00448468565190296,0.000964154167565567,0.995398598732482,-0.00729753780164089,0.995398600248183,-0.00729753606815464,0.00448471342609125,0.000963883191737125
1,0.00476407630739928,0.00146425483651313,0.994776752810662,-0.0140839725068851,0.994776753183556,-0.0140839726329496,0.00476418582689675,0.00146365699759343
1.5,0.00462635751203599,0.00214633407402687,0.994164893971269,-0.0209359827032607,0.994164894270568,-0.020935982862504,0.00462639471763548,0.00214542211056923
2,0.00446551213266044,0.00278500128144188,0.99340848439665,-0.0276108504966501,0.993408484614608,-0.0276108506656438,0.0044654538781943,0.00278375730418468
2.5,0.00429992089528941,0.00338474562023094,0.992566850288567,-0.0341086686313066,0.992566850428093,-0.034108668791573,0.00429975058605425,0.00338314842511522
3,0.00414273447964186,0.00395566747614851,0.991683580062378,-0.040448329705141,0.991683580132611,-0.0404483298452831,0.00414244258473184,0.00395369580214044
3.5,0.00400161976206959,0.00450991727871752,0.99078482175554,-0.0466563281684103,0.990784821768153,-0.0466563282835484,0.00400120273915228,0.00450755275149994
4,0.00387995670886765,0.00505945022106324,0.98988245528017,-0.0527590940505149,0.989882455247095,-0.0527590941405904,0.00387941507997902,0.00505667933199838
4.5,0.00377833283365581,0.0056150720002508,0.988978650486989,-0.0587792010410881,0.988978650419387,-0.0587792011090382,0.00377766915413391,0.00561188716737071
5,0.00369577009060851,0.00618631909340994,0.988069887832084,-0.0647342656287888,0.988069887740047,-0.0647342656790597,0.00369498721038075,0.006182719186552
5.5,0.00363055112151522,0.00678174897621808,0.987149841933799,-0.0706372536739508,0.987149841826397,-0.0706372537114719,0.00362965082444755,0.00677773971710316
6,0.0035807039784313,0.00740937921056961,0.986211200547135,-0.0764973205538473,0.986211200432577,-0.0764973205833748,0.00357968591239055,0.00740497376976723
6.5,0.00354424868236369,0.00807715407893461,0.985246700219843,-0.0823207225188352,0.985246700105633,-0.0823207225445834,0.00354310942749314,0.00807237410766604
7,0.00351929343082641,0.00879340237643866,0.984249653838728,-0.0881116064163736,0.984249653731783,-0.0881116064418253,0.00351802553753094,0.00878827967570306
7.5,0.00350403923384884,0.00956729369009679,0.983214174994631,-0.0938726266332734,0.983214174901348,-0.0938726266611276,0.0035026300529406,0.00956187273880893
8,0.00349672597582454,0.0104093219879706,0.982135233513629,-0.0996053998389916,0.982135233439931,-0.0996053998711632,0.00349515607603529,0.0104036636255929
8.5,0.00349553331912933,0.0113318582853283,0.981008623794093,-0.105310828383504,0.981008623745442,-0.105310828421187,0.00349377422350555,0.0113260449792447
9,0.00349843452173279,0.0123498270820606,0.979830892959772,-0.110989325010944,0.979830892941176,-0.110989325054689,0.00349644537219797,0.0123439704280157
9.5,0.00350298671314343,0.013481580129334,0.97859925466165,-0.116640966628945,0.978599254677669,-0.116640966678761,0.0035007092542201,0.013475831577582
10,0.00350602316999392,0.0147500717940066,0.9773115020003,-0.122265598508822,0.977311502055047,-0.122265598564251,0.00350337405867482,0.0147446381445859
10.5,0.00371658464174594,0.0154673203758473,0.976114383265178,-0.12791067815666,0.976114383316878,-0.127910678212501,0.00371247194744779,0.0154614308810039
11,0.00393741811863782,0.0161816375132493,0.974900414020197,-0.133524288600544,0.974900414068925,-0.133524288656622,0.00393176733681896,0.0161752564228612
11.5,0.00416852816681182,0.0168928929236358,0.973670364374906,-0.139108902766341,0.973670364420743,-0.139108902822488,0.00416126482058704,0.0168859805478649
12,0.00440992060858159,0.0176009581749823,0.972424722346133,-0.144666834244217,0.972424722389169,-0.144666834300285,0.00440097039517477,0.0175934705290457
12.5,0.00466160266018686,0.0183057069190098,0.971163738829173,-0.150200225233321,0.971163738869501,-0.150200225289174,0.00465089162986826,0.0182975953439453
13,0.00492358307159033,0.0190070151520771,0.969887468460572,-0.155711041144406,0.969887468498293,-0.155711041199918,0.00491103784394065,0.0189982259113872
13.5,0.00519587226660251,0.0197047615068144,0.968595806097723,-0.161201070383519,0.968595806132936,-0.16120107043858,0.00518142028953411,0.0196952353592139
14,0.00547848248115324,0.0203988275777509,0.967288518894003,-0.166671928039986,0.967288518926811,-0.166671928094493,0.00546205233879912,0.0203884993267169
14.5,0.00577142789703394,0.0210890982844556,0.965965274125316,-0.172125062404599,0.96596527415582,-0.172125062458466,0.00575294967330189,0.0210778963058509
15,0.00607472476777815,0.0217754622758597,0.964625663039203,-0.177561763436148,0.964625663067508,-0.177561763489295,0.00605413047314177,0.0217633080256272
15.5,0.0063883915326538,0.0224578123797192,0.963269221065374,-0.182983172468507,0.96326922109158,-0.182983172520865,0.00636561560251528,0.0224446198845634
16,0.00671244891385708,0.0231360461011842,0.961895444758454,-0.188390292603052,0.961895444782662,-0.188390292654559,0.00668742878764458,0.0231217214362811
16.5,0.00704691999102525,0.0238100661746317,0.960503805850222,-0.193783999360898,0.96050380587253,-0.193783999411504,0.00701959678197239,0.0237945069337697
17,0.00739183024601969,0.024479781172785,0.959093762777658,-0.19916505127752,0.959093762798162,-0.199165051327179,0.00736214951236761,0.0244628759380103
17.5,0.00774720756965322,0.0251451061771171,0.95766477003101,-0.204534100210282,0.957664770049802,-0.204534100258957,0.00771512019869461,0.0251267339969266
18,0.00811308222050802,0.0258059635130481,0.956216285637488,-0.209891701199934,0.956216285654659,-0.209891701247591,0.00807854543748338,0.0257859934005733
18.5,0.00848948672435357,0.0264622835530728,0.954747777064623,-0.215238321782312,0.954747777080261,-0.215238321828926,0.00845246523857357,0.0264405740184397
19,0.00887645570079898,0.0271140055899608,0.953258725794971,-0.220574350689277,0.953258725809158,-0.220574350734826,0.00883692300145605,0.0270904042243145
19.5,0.00927402560180213,0.0277610787811233,0.951748630792491,-0.225900105910001,0.95174863080531,-0.225900105954469,0.00923196541561494,0.0277354219135226
20,0.0096822343444552,0.0284034631635008,0.950217011051455,-0.231215842107664,0.950217011062985,-0.231215842151038,0.00963764226642577,0.0283755756161947
20.5,0.0101011208181855,0.0290411307361989,0.948663407391692,-0.236521757403662,0.948663407402008,-0.236521757445932,0.0100540061251695,0.0290108257086181
21,0.0105307242441788,0.0296740666053259,0.947087383639733,-0.24181799955326,0.947087383648905,-0.241817999594421,0.0104811118984415,0.0296411457224499
21.5,0.0109710833624896,0.0303022701817863,0.945488527313846,-0.24710467154453,0.945488527321945,-0.247104671584581,0.0109190162087728,0.0302665237483484
22,0.0114222354202451,0.0309257564184375,0.943866449912191,-0.252381836656978,0.943866449919282,-0.252381836695918,0.0113677765747127,0.0308869639265403
22.5,0.0118842149325406,0.031544557067448,0.942220786886911,-0.257649523018787,0.942220786893058,-0.257649523056617,0.0118274503551214,0.0315024880114387
23,0.0123570521865017,0.0321587219321482,0.940551197373024,-0.262907727702239,0.940551197378287,-0.262907727738966,0.0122980934191811,0.0321131369906968
23.5,0.0128407714587144,0.0327683200798272,0.938857363728945,-0.268156420396424,0.938857363733381,-0.268156420432055,0.012779758500979,0.0327189727307247
24,0.0133353889172818,0.0333734409729851,0.937138990935362,-0.273395546694958,0.937138990939026,-0.2733955467295,0.013272493195848,0.0333200796105806
24.5,0.013840910182513,0.0339741954662551,0.935395805890584,-0.278625031034622,0.935395805893529,-0.278625031068086,0.0137763375554603,0.0339165660940164
25,0.0143573275253037,0.0345707166050697,0.93362755663332,-0.283844779318548,0.933627556635595,-0.283844779350945,0.0142913212406676,0.0345085661755644
25.5,0.0148846166901543,0.0351631601501456,0.931834011517831,-0.28905468125521,0.931834011519485,-0.289054681286552,0.0148174601959835,0.0350962406206108
26,0.0154227333411487,0.0357517047396809,0.9300149583614,-0.294254612442035,0.930014958362478,-0.294254612472336,0.0153547528183582,0.0356797779020412
26.5,0.0159716091446768,0.036336551589508,0.92817020357995,-0.299444436219988,0.928170203580495,-0.299444436249261,0.0159031756065111,0.0362593947177554
27,0.0165311475227651,0.0369179236212795,0.926299571324197,-0.304624005323125,0.92629957132425,-0.304624005351387,0.0164626782965924,0.0368353359549882
27.5,0.0171012191359806,0.0374960639014832,0.924402902625945,-0.309793163344906,0.924402902625545,-0.309793163372172,0.0170331785163047,0.0374078739505332
28,0.0176816571849427,0.0380712332713402,0.922480054561842,-0.31495174604088,0.922480054561028,-0.314951746067167,0.0176145560236806,0.0379773068824401
28.5,0.0182722526542883,0.0386437070513035,0.920530899440028,-0.320099582485481,0.920530899438833,-0.320099582510805,0.0182066466387428,0.0385439561210836
29,0.0188727496613267,0.0392137707162059,0.918555324013605,-0.325236496098798,0.918555324012064,-0.325236496123178,0.0188092360261189,0.0391081623687539
29.5,0.0194828411119049,0.0397817144601575,0.916553228723672,-0.33036230555758,0.916553228721817,-0.330362305581032,0.0194220535429889,0.0396702804304807
30,0.0201021649054293,0.0403478266060842,0.914524526973625,-0.335476825603206,0.914524526971486,-0.335476825625751,0.0200447664270675,0.0402306724883221
30.5,0.0207303009658799,0.0409123858647047,0.912469144435727,-0.340579867758024,0.912469144433333,-0.340579867779678,0.0206769746596676,0.0407896998003019
31,0.0213667694013891,0.0414756525121711,0.910387018390288,-0.345671240960171,0.910387018387666,-0.345671240980952,0.0213182068934076,0.0413477128160209
31.5,0.0220110301061702,0.042037858633426,0.908278097097343,-0.350750752125972,0.90827809709452,-0.350750752145901,0.0219679178755466,0.0419050397948344
32,0.0226624841097354,0.0425991976667459,0.906142339200354,-0.355818206647935,0.906142339197354,-0.35581820666703,0.0226254878174328,0.0424619741279963
32.5,0.0233204769441263,0.0431598135786164,0.903979713161179,-0.360873408835531,0.903979713158024,-0.360873408853811,0.023290224148909,0.0430187606986407
33,0.0239843042364744,0.0437197900896735,0.901790196725347,-0.365916162305123,0.901790196722061,-0.365916162322607,0.023961366045007,0.0435755817546648
33.5,0.0246532196398412,0.0442791404523073,0.899573776416557,-0.370946270324721,0.89957377641316,-0.370946270341427,0.0246380920144219,0.04413254290682
34,0.0253264450916911,0.0448377983379566,0.897330447059181,-0.375963536118577,0.897330447055693,-0.375963536134526,0.0253195306926425,0.0446896599819315
34.5,0.0260031832420868,0.0453956104159878,0.895060211327529,-0.380967763136125,0.895060211323971,-0.380967763151335,0.0260047747906045,0.0452468475408363
35,0.0266826317327699,0.045952331186996,0.892763079320599,-0.385958755289196,0.892763079316985,-0.385958755303687,0.026692897922801,0.0458039098945937
35.5,0.0273639988475972,0.046507620565085,0.890439068160977,-0.390936317161071,0.890439068157325,-0.39093631717486,0.0273829737948998,0.0463605354059099
36,0.0280465199109057,0.0470610445849065,0.888088201616666,-0.395900254190479,0.888088201612992,-0.395900254203586,0.0280740969943877,0.0469162947370462
36.5,0.0287294737007031,0.0476120794449559,0.885710509744521,-0.400850372833335,0.88571050974084,-0.400850372845779,0.028765404426871,0.0474706435019115
37,0.0294121980836926,0.0481601189001671,0.883306028554108,-0.405786480704677,0.883306028550434,-0.405786480716476,0.0294560963034356,0.0480229295102856
37.5,0.0300941040802791,0.0487044848014426,0.880874799690782,-0.410708386702999,0.880874799687128,-0.410708386714172,0.0301454555343125,0.048572404479402
38,0.0307746876344464,0.0492444403683336,0.878416870136849,-0.415615901118927,0.878416870133228,-0.415615901129492,0.0308328644347817,0.0491182397639472
38.5,0.031453538492455,0.0497792055956656,0.875932291929727,-0.420508835729959,0.87593229192615,-0.420508835739935,0.0315178178019393,0.0496595453560473
39,0.0321303457743346,0.0503079740552275,0.873421121896069,-0.425387003882816,0.873421121892546,-0.425387003892221,0.0321999316627356,0.0501953911668136
39.5,0.0328049000354314,0.0508299302742259,0.87088342140086,-0.430250220564756,0.870883421397402,-0.430250220573606,0.0328789472990453,0.0507248294483967
40,0.0334770918398581,0.051344266860152,0.868319256110562,-0.435098302465068,0.868319256107179,-0.435098302473382,0.0335547304902896,0.0512469171663849
40.5,0.0341469070811087,0.0518502005957658,0.865728695769429,-0.439931068027825,0.865728695766128,-0.439931068035621,0.0342272662408722,0.0517607371889155
41,0.03481441946715,0.0523469868390652,0.863111813988149,-0.444748337496848,0.86311181398494,-0.444748337504141,0.0348966495438735,0.0522654173091488
41.5,0.0354797807230456,0.0528339317163152,0.86046868804406,-0.449549932953721,0.860468688040949,-0.449549932960531,0.0355630729474652,0.0527601463387254
42,0.0361432091453411,0.0533104017730393,0.857799398692181,-0.454335678349647,0.857799398689175,-0.454335678355989,0.036226811821031,0.0532441867717715
42.5,0.0368049771678975,0.0537758309293926,0.855104029986391,-0.459105399531765,0.855104029983497,-0.459105399537657,0.0368882082608715,0.0537168837906269
43,0.0374653985736541,0.0542297247555951,0.852382669110104,-0.463858924264574,0.852382669107328,-0.463858924270032,0.0375476545385607,0.0541776706377045
43.5,0.038124815920729,0.0546716622271138,0.849635406215841,-0.468596082246961,0.849635406213187,-0.468596082252002,0.0382055768943665,0.0546260705913166
44,0.0387835886566254,0.0551012952298895,0.846862334273134,-0.473316705125326,0.846862334270609,-0.473316705129965,0.0388624203341604,0.0550616959438421
44.5,0.039442082284138,0.0555183461598113,0.844063548924241,-0.478020626503207,0.844063548921847,-0.47802062650746,0.0395186349220264,0.0554842444836374
45,0.0401006588286705,0.055922603998972,0.841239148347176,-0.482707681947796,0.841239148344918,-0.482707681951679,0.0401746638915627,0.0558934940301178
45.5,0.0407596687488487,0.0563139192581279,0.838389233125599,-0.487377708993663,0.83838923312348,-0.48737770899719,0.0408309337417029,0.0562892955721978
46,0.0414194443374578,0.0566921981565058,0.835513906125137,-0.492030547143988,0.835513906123161,-0.492030547147176,0.041487846348093,0.0566715655243857
46.5,0.0420802945819576,0.0570573963736778,0.832613272375737,-0.496666037869577,0.832613272373905,-0.496666037872439,0.0421457730141396,0.0570402775539118
47,0.0427425013947671,0.0574095126604401,0.829687438959682,-0.501284024605865,0.829687438957998,-0.501284024608417,0.0428050503082109,0.0573954543571653
47.5,0.0434063170826637,0.0577485825426334,0.82673651490492,-0.505884352748153,0.826736514903384,-0.50588435275041,0.0434659774834747,0.0577371596837496
48,0.0440719629003392,0.0580746722984941,0.823760611083381,-0.510466869645232,0.823760611081997,-0.510466869647207,0.0441288152508767,0.0580654908286699
48.5,0.0447396285226508,0.0583878733399148,0.820759840113996,-0.515031424591574,0.820759840112763,-0.515031424593281,0.0447937856691115,0.0583805717424256
49,0.045409472270487,0.0586882970834202,0.817734316270111,-0.519577868818236,0.817734316269031,-0.519577868819689,0.0454610729232747,0.0586825468479512
49.5,0.0460816219335587,0.0589760703587584,0.814684155391063,-0.524106055482602,0.814684155390136,-0.524106055483814,0.0461308247816266,0.0589715756035964
50,0.0467561760470722,0.0592513313724019,0.811609474797653,-0.528615839657082,0.81160947479688,-0.528615839658067,0.046803154543599,0.0592478278126758
50.5,0.0474332054960011,0.059514226219507,0.808510393211308,-0.533107078316877,0.808510393210689,-0.533107078317646,0.0474781433186853,0.0595114796516821
51,0.0481127553387207,0.0597649059205466,0.805387030676702,-0.537579630326885,0.805387030676235,-0.537579630327452,0.0481558425028045,0.0597627103697762
51.5,0.0487948467597743,0.0600035239469282,0.80223950848765,-0.54203335642785,0.802239508487336,-0.542033356428228,0.0488362763444327,0.0600016996000428
52,0.049479479078619,0.0602302341926019,0.799067949116103,-0.546468119221814,0.79906794911594,-0.546468119222015,0.049519444516263,0.0602286252168286
52.5,0.0501666317567141,0.060445189344937,0.795872476144038,-0.55088378315694,0.795872476144027,-0.550883783156977,0.0502053246287622,0.0604436616717118
53,0.0508562663590418,0.0606485396072334,0.792653214198133,-0.555280214511765,0.792653214198271,-0.555280214511647,0.0508938746395765,0.0606469787421453
53.5,0.0515483284378482,0.0608404317263023,0.789410288887029,-0.559657281378924,0.789410288887315,-0.559657281378665,0.0515850351273247,0.060838740630486
54,0.0522427493162387,0.061021008281024,0.786143826741081,-0.564014853648418,0.786143826741514,-0.564014853648028,0.0522787314100926,0.0610191053561446
54.5,0.0529394477572774,0.0611904071911771,0.782853955154449,-0.568352802990425,0.782853955155026,-0.568352802989915,0.0529748754982523,0.0611882243893629
55,0.0536383315106286,0.0613487614096524,0.779540802329406,-0.572671002837732,0.779540802330126,-0.572671002837113,0.0536733678783278,0.0613462424811176
55.5,0.0543392987337674,0.0614961987652339,0.776204497222768,-0.576969328367789,0.776204497223628,-0.576969328367071,0.0543740991299439,0.0614932976495929
56,0.0550422392885634,0.0616328419271484,0.772845169494325,-0.581247656484432,0.772845169495324,-0.581247656483626,0.0550769513816763,0.0616295212892893
56.5,0.0557470359167991,0.0617588084664262,0.769462949457186,-0.585505865799292,0.769462949458321,-0.585505865798408,0.0557817996142089,0.0617550383740378
57,0.0564535653001355,0.0618742109927232,0.766057968029947,-0.589743836612917,0.766057968031216,-0.589743836611965,0.0564885128208223,0.061869967729856
57.5,0.0571616990113127,0.0619791573485202,0.762630356690583,-0.593961450895622,0.762630356691983,-0.593961450894611,0.0571969550361479,0.0619744223577625
58,0.0578713043641443,0.0620737508455491,0.759180247432011,-0.598158592268095,0.759180247433539,-0.598158592267036,0.0579069862444417,0.0620685097902616
58.5,0.0585822451702235,0.0621580905308859,0.755707772719225,-0.602335145981763,0.755707772720878,-0.602335145980664,0.0586184631785779,0.0621523324683512
59,0.0592943824103305,0.0622322714724071,0.752213065447948,-0.606490998898944,0.752213065449723,-0.606490998897812,0.059331240020605,0.0622259881285488
59.5,0.0600075748283768,0.0622963850552605,0.748696258904739,-0.610626039472788,0.748696258906634,-0.610626039471635,0.0600451690141693,0.0622895701916866
60,0.0607216794554155,0.062350519282649,0.745157486728483,-0.614740157727033,0.745157486730494,-0.614740157725865,0.0607601009984322,0.0623431681470852
60.5,0.0614365520708354,0.0623947590756464,0.741596882873215,-0.618833245235565,0.74159688287534,-0.618833245234392,0.061475885872389,0.0623868679272663
61,0.062152047607395,0.0624291865679333,0.738014581572233,-0.62290519510182,0.738014581574468,-0.622905195100649,0.0621923729977304,0.0624207522696314
61.5,0.0628680205062355,0.0624538813923339,0.734410717303434,-0.626955901938006,0.734410717305776,-0.626955901936845,0.0629094115476365,0.0624449010625742
62,0.0635843250275145,0.0624689209568353,0.730785424755845,-0.630985261844183,0.730785424758291,-0.630985261843041,0.0636268508081582,0.0624593916743054
62.5,0.0643008155217664,0.0624743807084331,0.727138838797294,-0.634993172387183,0.727138838799841,-0.634993172386066,0.0643445404381545,0.0624642992633439
63,0.0650173466666396,0.0624703343836921,0.723471094443188,-0.638979532579395,0.723471094445833,-0.63897953257831,0.0650623306930851,0.0624596970701447
63.5,0.0657337736731634,0.0624568542453379,0.719782326826356,-0.642944242857412,0.719782326829095,-0.642944242856367,0.0657800726173909,0.062445656689734
64,0.0664499524652781,0.0624340113045397,0.716072671167926,-0.64688720506055,0.716072671170756,-0.646887205059551,0.0664976182096074,0.0624222483255385
