"Freq [GHz]","re(St(P1,P1)) []","im(St(P1,P1)) []","re(St(P1,P2)) []","im(St(P1,P2)) []","re(St(P2,P1)) []","im(St(P2,P1)) []","re(St(P2,P2)) []","im(St(P2,P2)) []"
0,0.0048090915645389,0,0.995208005449967,0,0.995208008942427,0,0.00480909219407977,0
0.5,0.00548153460894696,-0.00279771340034074,0.994449502315774,-0.0083999389244731,0.994449502937897,-0.00839993955022322,0.0054816135922735,-0.00279766718380969
1,0.00604192504993861,-0.00643935580506039,0.993661566197563,-0.0159573082757767,0.993661566302698,-0.0159573081284918,0.00604215359249949,-0.00643936239439213
1.5,0.00633257785055363,-0.010278725529659,0.993001061073723,-0.0233002325486993,0.993001061179157,-0.0233002325091789,0.006333017107508,-0.0102788250827679
2,0.00640100462490167,-0.0141579353699903,0.99242404812437,-0.0305810723161493,0.992424048195302,-0.0305810723163518,0.00640163209630096,-0.0141582188393663
2.5,0.00633250147338948,-0.0180210889398822,0.991848785945427,-0.0378557498862051,0.991848785989708,-0.0378557498946712,0.00633328858797455,-0.0180215940343871
3,0.00617105580624333,-0.0218625887407811,0.991233276409949,-0.0451279408906196,0.991233276438502,-0.0451279408969665,0.00617198638934546,-0.0218633349958566
3.5,0.00593761247249791,-0.0256860561101409,0.990558873556841,-0.0523915734063696,0.990558873576988,-0.0523915734087375,0.00593867883170329,-0.0256870592849427
4,0.0056424146412235,-0.0294955084790569,0.989817947890212,-0.0596404021272043,0.989817947905815,-0.0596404021267478,0.00564361294157489,-0.0294967849262822
4.5,0.00529069792518833,-0.0332938650805694,0.989007962295365,-0.0668697177302864,0.989007962307876,-0.0668697177288493,0.00529202528427408,-0.0332954326468684
5,0.00488526415549195,-0.0370829740005476,0.988128713484382,-0.074076322087512,0.988128713493791,-0.0740763220867127,0.00488671705460053,-0.0370848518152922
5.5,0.00442768951006123,-0.0408638822842171,0.987181007787826,-0.0812581839747377,0.987181007793348,-0.0812581839756259,0.00442926301961855,-0.0408660902505531
6,0.00391891672516742,-0.0446370823032467,0.986166008665021,-0.0884140965024951,0.986166008665593,-0.0884140965055114,0.00392060421322338,-0.0446396405808205
6.5,0.00335955571123536,-0.0484026946093614,0.985084916589281,-0.0955433996402171,0.985084916583886,-0.0955433996452904,0.00336134882965267,-0.0484056231890939
7,0.0027500397083875,-0.0521605952715642,0.98393882133168,-0.102645770425001,0.983938821319552,-0.102645770431668,0.00275192852806017,-0.0521639136684815
7.5,0.00209070731197758,-0.055910502197019,0.982728645929869,-0.109721070443161,0.982728645910604,-0.109721070450741,0.00209268052589984,-0.0559142292555261
8,0.00138184557319265,-0.0596520327403862,0.98145513910038,-0.116769238771571,0.981455139073979,-0.116769238779303,0.00138389071725142,-0.0596561865338066
8.5,0.000623712439844715,-0.0633847416623139,0.98011889195146,-0.123790219839591,0.980118891918328,-0.123790219846759,0.000625816102001853,-0.0633893394648268
9,-0.000183451754684594,-0.0671081458060652,0.978720365284821,-0.130783917430437,0.978720365245739,-0.130783917436474,-0.000181303752204931,-0.0671132041161142
9.5,-0.00103941852865919,-0.0708217398834403,0.977259919778577,-0.137750167747771,0.977259919734647,-0.137750167752341,-0.00103724098052072,-0.0708272744806644
10,-0.00194396839803346,-0.0745250063666294,0.9757378449045,-0.144688725995445,0.97573784485709,-0.144688725998486,-0.00194177660099371,-0.0745310323880553
10.5,-0.00297272582484165,-0.0781432372168513,0.974135543066033,-0.151618959086625,0.974135543018131,-0.151618959088045,-0.00297064023862881,-0.0781494537566356
11,-0.00404986694406206,-0.0817458150766308,0.972473220125499,-0.158516200647344,0.972473220077283,-0.158516200647128,-0.00404789161093666,-0.0817522048341388
11.5,-0.00517514087301663,-0.0853320311605899,0.970751945284998,-0.165380468945956,0.970751945236636,-0.165380468944111,-0.0051732797271668,-0.0853385757281329
12,-0.00634828655419367,-0.08890118171899,0.968972688370884,-0.172211791035664,0.968972688322534,-0.172211791032215,-0.00634654343243501,-0.0889078615340795
12.5,-0.00756903297710326,-0.0924525682550534,0.9671363290056,-0.179010191866248,0.967136328957411,-0.179010191861227,-0.00756741163284008,-0.0924593625484604
13,-0.00883709941472716,-0.0959854977425092,0.965243666123078,-0.185775685571993,0.965243666075186,-0.185775685565456,-0.00883560353565438,-0.0959923844818249
13.5,-0.0101521956753928,-0.0994992828438175,0.963295427505743,-0.192508268728828,0.963295427458273,-0.192508268720832,-0.0101508289054619,-0.0995062386721459
14,-0.011514022371045,-0.102993242129717,0.961292279093206,-0.199207915355075,0.961292279046269,-0.199207915345694,-0.0115127883373101,-0.103000242299189
14.5,-0.0129222712029078,-0.106466700300906,0.959234833877047,-0.20587457342571,0.959234833830742,-0.205874573415016,-0.0129211735479601,-0.106473718600604
15,-0.01437662526571,-0.109918988412715,0.957123660251338,-0.212508162675605,0.957123660205754,-0.212508162663678,-0.0143756676865038,-0.109925997090615
15.5,-0.0158767593717227,-0.113349444103995,0.954959289734913,-0.219108573480283,0.954959289690125,-0.219108573467206,-0.0158759456657226,-0.113356413782546
16,-0.0174223403959882,-0.116757411831494,0.952742224018854,-0.225675666620032,0.952742223974929,-0.225675666605886,-0.0174216745157016,-0.116764311416387
16.5,-0.0190130276442393,-0.120142243111378,0.950472941322369,-0.232209273753308,0.950472941279361,-0.232209273738182,-0.0190125137613728,-0.1201490396931
17,-0.0206484732451908,-0.12350329676981,0.948151902062726,-0.238709198446209,0.948151902020681,-0.238709198430187,-0.020648115825821,-0.123509955517541
17.5,-0.0223283225689397,-0.126839939204866,0.945779553861629,-0.245175217625485,0.945779553820583,-0.245175217608649,-0.0223281264613382,-0.126846423252341
18,-0.0240522146734453,-0.130151544662532,0.943356335921941,-0.251607083342329,0.943356335881925,-0.251607083324764,-0.0240521852104179,-0.130157814985471
18.5,-0.0258197827811458,-0.133437495530001,0.940882682816301,-0.258004524752333,0.940882682777335,-0.258004524734115,-0.0258199258990335,-0.133443510814783
19,-0.0276306547879038,-0.136697182650074,0.938359027733521,-0.264367250233396,0.93835902769562,-0.264367250214603,-0.0276309771647165,-0.136702899153425
19.5,-0.029484453806621,-0.139930005661249,0.935785805230593,-0.270694949578067,0.935785805193766,-0.270694949558774,-0.0294849630221453,-0.139935377060771
20,-0.0313807987479268,-0.143135373368794,0.933163453538163,-0.276987296209318,0.933163453502414,-0.276987296189595,-0.0313815034690733,-0.143140350604372
20.5,-0.0333193049404013,-0.146312704153182,0.930492416466098,-0.283243949379725,0.930492416431426,-0.283243949359639,-0.0333202151355395,-0.146317235259479
21,-0.0352995847928042,-0.149461426423368,0.927773144953522,-0.289464556323205,0.927773144919923,-0.289464556302823,-0.0353007119793891,-0.149465456353907
21.5,-0.0373212485006668,-0.152580979123722,0.925006098304975,-0.295648754336198,0.92500609827244,-0.295648754315577,-0.0373226060310883,-0.152584449567422
22,-0.0393839047994028,-0.155670812305008,0.922191745151139,-0.301796172771467,0.922191745119655,-0.301796172750665,-0.0393855081906943,-0.15567366149655
22.5,-0.0414871617657429,-0.158730387771735,0.919330564169318,-0.30790643493305,0.91933056413887,-0.307906434912121,-0.041489029079582,-0.158732550297725
23,-0.0436306276686468,-0.161759179820208,0.916423044595564,-0.313979159864897,0.916423044566137,-0.31397915984389,-0.043632779948974,-0.161760586423957
23.5,-0.0458139118700417,-0.16475667608426,0.91346968655706,-0.320013964029238,0.913469686528635,-0.320013964008199,-0.0458163736465932,-0.164757253473039
24,-0.048036625774368,-0.167722378508456,0.910471001250364,-0.326010462873249,0.910471001222921,-0.326010462852224,-0.0480394256414924,-0.167722049168416
24.5,-0.0502983838241926,-0.170655804471969,0.907427510988172,-0.331968272284641,0.907427510961689,-0.331968272263668,-0.0503015551054479,-0.170654486497621
25,-0.0525988045366025,-0.173556488090102,0.904339749134659,-0.337887009938327,0.904339749109112,-0.337887009917444,-0.0526023860468399,-0.173554095037393
25.5,-0.0549375115717805,-0.176423981724787,0.901208259946973,-0.343766296537428,0.90120825992234,-0.343766296516669,-0.054941548489599,-0.176420422499534
26,-0.0573141348206266,-0.179257857740287,0.89803359833829,-0.349605756952709,0.898033598314547,-0.349605756932106,-0.0573186796852335,-0.179253036537076
26.5,-0.0597283114923155,-0.182057710545583,0.894816329575851,-0.355405021265033,0.894816329552973,-0.355405021244615,-0.0597334253398105,-0.182051526856478
27,-0.0621796871748396,-0.18482315897083,0.891557028925614,-0.361163725715783,0.891557028903577,-0.361163725695577,-0.0621854408295973,-0.184815507688427
27.5,-0.06466791683132,-0.187553849031209,0.888256281253639,-0.366881513570366,0.888256281232417,-0.366881513550394,-0.0646743923683193,-0.187544620676979
28,-0.0671926656816675,-0.190249457137558,0.884914680592879,-0.372558035899928,0.88491468057245,-0.372558035880213,-0.0671999580749174,-0.190238538254226
28.5,-0.0697536099021995,-0.192909693818785,0.881532829682893,-0.378192952286402,0.881532829663229,-0.378192952266964,-0.0697618288725206,-0.192896967574896
29,-0.0723504370543504,-0.195534308025424,0.878111339488863,-0.383785931455871,0.878111339469941,-0.383785931436727,-0.0723597091260035,-0.195519655091482
29.5,-0.0749828461265116,-0.198123092085915,0.87465082870546,-0.389336651845028,0.874650828687255,-0.389336651826196,-0.0749933168958848,-0.198106391854657
30,-0.0776505470395058,-0.200675887385681,0.871151923250186,-0.394844802105388,0.871151923232675,-0.394844802086881,-0.0776623836491185,-0.200657019624239
30.5,-0.08035325942503,-0.203192590831616,0.867615255750218,-0.400310081549571,0.867615255733378,-0.400310081531403,-0.0803666532213047,-0.203171437870269
31,-0.0830907104368765,-0.205673162148342,0.864041465026091,-0.40573220054386,0.864041465009899,-0.405732200526039,-0.0831058797687539,-0.205649611728873
31.5,-0.0858626312964142,-0.208117632023239,0.860431195575093,-0.411110880850883,0.860431195559525,-0.411110880833421,-0.0858798243819172,-0.208091580948471
32,-0.0886687522070903,-0.210526111069726,0.856785097056746,-0.416445855926096,0.856785097041782,-0.416445855909001,-0.0886882499540955,-0.210497469812764
32.5,-0.0915087951995401,-0.212898799505555,0.853103823782399,-0.421736871171478,0.853103823768017,-0.421736871154758,-0.0915309138126563,-0.212867497949671
33,-0.094382464393465,-0.215235997336605,0.849388034210578,-0.426983684149616,0.849388034196756,-0.426983684133277,-0.0944075575285582,-0.215201991819965
33.5,-0.0972894330925976,-0.217538114687289,0.845638390449509,-0.432186064761151,0.845638390436229,-0.432186064745196,-0.0973178932321808,-0.217501396514022
34,-0.100229327077985,-0.219805681715645,0.841855557767931,-0.437343795388321,0.841855557755173,-0.437343795372756,-0.100261585693918,-0.219766287257018
34.5,-0.103201703452447,-0.222039357285331,0.838040204115139,-0.44245667100718,0.838040204102883,-0.442456670992008,-0.103238229399496,-0.221997379719459
35,-0.106206024444978,-0.224239935232271,0.834192999651015,-0.44752449927083,0.834192999639243,-0.447524499256052,-0.106247319897028,-0.224195537842985
35.5,-0.109241625747763,-0.226408346663621,0.830314616286638,-0.452547100565879,0.830314616275333,-0.452547100551499,-0.109288218862627,-0.226361777421637
36,-0.112307679281229,-0.228545656279178,0.826405727235962,-0.457524308044159,0.826405727225106,-0.457524308030176,-0.112360112685642,-0.228497263145262
36.5,-0.115403150822364,-0.230653050253391,0.822467006578908,-0.462455967631552,0.822467006568486,-0.462455967617966,-0.115461964985336,-0.230603296262942
37,-0.118526753745845,-0.23273181283857,0.818499128836161,-0.467341938015715,0.818499128826157,-0.467341938002527,-0.118592464411011,-0.232681289552613
37.5,-0.121676901255816,-0.234783288671362,0.814502768555848,-0.472182090614277,0.814502768546246,-0.472182090601485,-0.121749970400324,-0.234732726038243
38,-0.124851660922652,-0.236808827960508,0.810478599912233,-0.476976309525022,0.810478599903018,-0.476976309512624,-0.124932461274652,-0.236759098092212
38.5,-0.128048716994309,-0.238809712520548,0.806427296316508,-0.481724491459436,0.806427296307666,-0.481724491447432,-0.128137491031658,-0.238761824466045
39,-0.131265347609507,-0.240787062216943,0.802349530039684,-0.486426545660923,0.802349530031204,-0.486426545649309,-0.131362163190419,-0.240742144686948
39.5,-0.134498425322908,-0.242741723964151,0.798245971847605,-0.491082393808846,0.798245971839471,-0.49108239379762,-0.134603131586538,-0.242700993343606
40,-0.137744449724503,-0.244674148962782,0.794117290647983,-0.495691969909556,0.794117290640184,-0.495691969898715,-0.137856638434671,-0.244638861052313
40.5,-0.140999619771326,-0.246584268073062,0.789964153149447,-0.500255220175388,0.789964153141972,-0.500255220164928,-0.141118598495363,-0.246555653955721
41,-0.144259950203362,-0.24847137940109,0.785787223532451,-0.504772102892624,0.785787223525287,-0.504772102882543,-0.144384734134978,-0.248450568568032
41.5,-0.147521430879085,-0.250334065224815,0.781587163131951,-0.509242588279315,0.781587163125088,-0.509242588269607,-0.147650759236124,-0.250322002251105
42,-0.150780220459207,-0.252170155991918,0.777364630131736,-0.513666658333756,0.777364630125163,-0.51366665832442,-0.150912600905609,-0.252167519947976
42.5,-0.1540328578186,-0.253976756140622,0.773120279270218,-0.518044306674481,0.773120279263926,-0.51804430666551,-0.154166638371199,-0.253983893661378
43,-0.157276467820833,-0.255750339495485,0.768854761557591,-0.522375538372402,0.768854761551571,-0.522375538363792,-0.157409930848179,-0.255767222171614
43.5,-0.160508934836096,-0.257486911716839,0.764568724004129,-0.526660369775876,0.764568723998371,-0.526660369767625,-0.1606404031688,-0.257513125802747
44,-0.163729019274747,-0.259182225758061,0.760262809359509,-0.530898828329272,0.760262809354005,-0.530898828321372,-0.163856961433009,-0.25921699740189
44.5,-0.166936399778693,-0.260832026366441,0.755937655862939,-0.535090952385666,0.755937655857681,-0.535090952378114,-0.167059520888178,-0.260874279700562
45,-0.170131635192355,-0.26243229410539,0.751593897003935,-0.53923679101424,0.751593896998914,-0.539236791007031,-0.170248942572773,-0.2624807340861
45.5,-0.173316053264335,-0.26397945978545,0.747232161293546,-0.543336403802894,0.747232161288755,-0.543336403796022,-0.173426890312367,-0.264032668050433
46,-0.176491583997197,-0.265470566384765,0.742853072045849,-0.547389860656579,0.742853072041282,-0.54738986065004,-0.17659563155828,-0.265527097416554
46.5,-0.1796605621445,-0.266903365634606,0.738457247169526,-0.551397241591833,0.738457247165175,-0.551397241585623,-0.179757811622178,-0.266961832134589
47,-0.182825524529074,-0.268276347637117,0.734045298969302,-0.555358636527947,0.734045298965162,-0.555358636522058,-0.182916230413796,-0.268335487449459
47.5,-0.1859890242354,-0.269588711487669,0.729617833957092,-0.559274145075187,0.729617833953156,-0.559274145069615,-0.186073645096139,-0.269647432536874
48,-0.189153477060435,-0.270840291153662,0.725175452672635,-0.563143876320474,0.725175452668898,-0.563143876315216,-0.189232613528414,-0.270897694626336
48.5,-0.192321047987493,-0.272031453322999,0.720718749513419,-0.566967948610887,0.720718749509875,-0.566967948605936,-0.192395384482273,-0.272086838059618
49,-0.195493578624039,-0.273162983134253,0.716248312573719,-0.570746489335337,0.716248312570362,-0.570746489330688,-0.195563833253147,-0.273215835676576
49.5,-0.198672551547384,-0.274235970762895,0.711764723492528,-0.574479634704764,0.711764723489354,-0.574479634700412,-0.19873943635577,-0.274285945861196
50,-0.201859084623088,-0.275251707974844,0.70726855731022,-0.578167529531148,0.707268557307223,-0.578167529527087,-0.201923276551438,-0.275298603922077
50.5,-0.205053947352668,-0.27621159993626,0.702760382333697,-0.581810327005657,0.702760382330874,-0.581810327001884,-0.205116069026597,-0.276255332226504
51,-0.208257591652922,-0.277117094379464,0.698240760009892,-0.585408188476199,0.698240760007238,-0.585408188472707,-0.208318200442672,-0.277157670187217
51.5,-0.211470190607576,-0.277969627910967,0.693710244807368,-0.588961283224642,0.69371024480488,-0.588961283221428,-0.211529774154236,-0.278007122956578
52,-0.214691680193018,-0.278770587798947,0.689169384105869,-0.59246978824397,0.689169384103542,-0.592469788241027,-0.214750656650365,-0.278805126407416
52.5,-0.217921800438478,-0.279521286845942,0.684618718093602,-0.595933888015598,0.684618718091433,-0.595933888012921,-0.217980521900589,-0.279553025451781
53,-0.221160133751627,-0.280222948741405,0.68005877967207,-0.599353774287088,0.680058779670054,-0.599353774284674,-0.221218891627572,-0.280252062726818
53.5,-0.224406139146604,-0.280876701410202,0.675490094368261,-0.602729645850464,0.675490094366395,-0.602729645848306,-0.224465170540567,-0.280903374951973
54,-0.227659181847173,-0.281483576175705,0.670913180254007,-0.606061708321328,0.670913180252289,-0.606061708319423,-0.227718676268917,-0.281507994677092
54.5,-0.230918558235638,-0.282044510931541,0.666328547872324,-0.609350173918997,0.66632854787075,-0.609350173917339,-0.230978664186629,-0.282066855592001
55,-0.234183516426295,-0.2825603558953,0.661736700170538,-0.612595261247789,0.661736700169106,-0.612595261246374,-0.234244347578061,-0.282580799993401
55.5,-0.237453272909809,-0.283031880861951,0.657138132440024,-0.615797195079676,0.657138132438731,-0.615797195078499,-0.237514913717431,-0.28305058737365
56,-0.240727025784943,-0.283459783166907,0.652533332262366,-0.618956206138438,0.652533332261208,-0.618956206137494,-0.24078953646734,-0.283476903397971
56.5,-0.244003965100964,-0.283844695804758,0.647922779461753,-0.622072530885472,0.647922779460728,-0.622072530884757,-0.244067385978803,-0.283860368773388
57,-0.247283280803348,-0.284187195332919,0.643306946063442,-0.625146411307404,0.643306946062547,-0.625146411306913,-0.247347636022437,-0.284201547691575
57.5,-0.250564168724911,-0.284487809327125,0.638686296258088,-0.628178094705622,0.638686296257322,-0.628178094705352,-0.250629469414078,-0.284500955658763
58,-0.253845835006184,-0.284747023255941,0.634061286371791,-0.631167833487878,0.63406128637115,-0.631167833487824,-0.2539120819288,-0.284759066618581
58.5,-0.25712749927007,-0.284965286712094,0.62943236484165,-0.634115884962046,0.629432364841133,-0.634115884962202,-0.257194685031305,-0.284976319337238
59,-0.260408396820695,-0.285143018986614,0.624799972196686,-0.637022511132166,0.62479997219629,-0.637022511132529,-0.260476507691045,-0.285153123062062
59.5,-0.263687780087259,-0.285280614003131,0.620164541043936,-0.639887978496865,0.620164541043658,-0.63988797849743,-0.263756797498652,-0.285289862490336
60,-0.266964919491088,-0.285378444648909,0.615526496059551,-0.642712557850253,0.61552649605939,-0.642712557851016,-0.267034821256397,-0.28538690209999
60.5,-0.270239103878167,-0.28543686654985,0.610886253984752,-0.645496524085373,0.610886253984705,-0.64549652408633,-0.270309865178951,-0.285444589900696
61,-0.273509640629608,-0.285456221341473,0.606244223626443,-0.648240156000296,0.606244223626508,-0.648240156001443,-0.273581234810974,-0.285463260665772
61.5,-0.276775855538138,-0.28543683948871,0.601600805862349,-0.650943736106929,0.601600805862524,-0.650943736108262,-0.276848254744031,-0.285443238703879
62,-0.280037092518919,-0.285379042705689,0.5969563936505,-0.653607550442594,0.596956393650784,-0.653607550444108,-0.280110268196074,-0.285384840226086
62.5,-0.283292713207283,-0.285283146023577,0.592311372042907,-0.656231888384457,0.592311372043297,-0.656231888386148,-0.28336663650159,-0.285288375359477
63,-0.286542096483373,-0.285149459550569,0.587666118203275,-0.658817042466856,0.587666118203769,-0.658817042468719,-0.286616738548501,-0.285154149853502
63.5,-0.289784637953838,-0.284978289963885,0.583021001428592,-0.661363308201566,0.583021001429187,-0.661363308203599,-0.289859970188592,-0.284982466520327
