"Freq [GHz]","re(St(P1,P1)) []","im(St(P1,P1)) []","re(St(P1,P2)) []","im(St(P1,P2)) []","re(St(P2,P1)) []","im(St(P2,P1)) []","re(St(P2,P2)) []","im(St(P2,P2)) []"
0,0.0047166115782602,0,0.995299813919701,0,0.995299808040727,0,0.00471660774491056,0
0.5,0.00531106793420122,-0.00143788651904941,0.994634823403707,-0.00745758717313905,0.994634823899489,-0.00745758731231305,0.00531113243881265,-0.00143808362124176
1,0.00581189738707266,-0.00361557528176704,0.993954184080874,-0.0141730770027806,0.993954183835999,-0.0141730771844841,0.00581205197124746,-0.00361604466491983
1.5,0.00608319502016208,-0.00595839844274337,0.993347058716724,-0.020888963877983,0.993347058393386,-0.0208889639751852,0.00608362038693855,-0.00595897588103611
2,0.00617820293661708,-0.00832484967635594,0.992751905144614,-0.0274328205880181,0.992751904827832,-0.0274328205973049,0.00617886399887979,-0.00832577942634316
2.5,0.00617321468905985,-0.0106722180199323,0.992188101851667,-0.0338870518974659,0.992188101584293,-0.033887051852231,0.0061740157391359,-0.0106735901260961
3,0.00610600054524024,-0.0129979925389296,0.991640316325461,-0.0402993021557752,0.991640316118947,-0.0402993020881475,0.00610686778790992,-0.0129998343157478
3.5,0.00599447392155206,-0.0153062353674986,0.991088109061193,-0.0466915012941662,0.991088108912551,-0.0466915012256646,0.00599535590103972,-0.01530855354358
4,0.00584757797909585,-0.0176009663810248,0.990514717475948,-0.0530718624602056,0.990514717377318,-0.0530718624029713,0.00584843768017151,-0.017603761949486
4.5,0.00567007273544817,-0.019885206510736,0.989908016205066,-0.0594421354861385,0.989908016147793,-0.0594421354458881,0.00567088181701347,-0.0198884797666814
5,0.00546464645481315,-0.0221610879380894,0.989259548043811,-0.0658012326257644,0.989259548019829,-0.0658012326041728,0.00546538174680622,-0.0221648401303636
5.5,0.0052328970004285,-0.0244300933907819,0.988563429588898,-0.0721469213791508,0.988563429591053,-0.0721469213754435,0.00523353842379093,-0.024434327191651
6,0.00497581586712115,-0.0266932521002961,0.987815518391078,-0.0784765909431933,0.987815518413054,-0.0784765909551375,0.00497634517612511,-0.0266979716633351
6.5,0.0046940406529552,-0.0289512780980239,0.987012843972783,-0.0847875900006674,0.987012844008914,-0.084787590025158,0.00469444065030467,-0.0289564889808744
7,0.00438799350983432,-0.0312046642143891,0.986153232854747,-0.0910773684504775,0.986153232899836,-0.0910773684839308,0.00438824753856748,-0.0312103732669353
7.5,0.00405796049419926,-0.0334537457081661,0.98523506365509,-0.0973435301709094,0.985235063704251,-0.0973435302094847,0.00405805209580534,-0.0334599609614132
8,0.00370413884631016,-0.035698743700995,0.984257106737896,-0.103583846083364,0.984257106786437,-0.103583846123117,0.00370405152140085,-0.0357054742675516
8.5,0.0033266661421153,-0.0379397952216518,0.98321841843296,-0.109796250208678,0.983218418476296,-0.109796250245683,0.00332638317608291,-0.0379470512097502
9,0.00292563882234076,-0.0401769742995803,0.982118270594844,-0.115978829120759,0.982118270628432,-0.115978829151151,0.0029251431532159,-0.0401847667392419
9.5,0.0025011242934343,-0.0424103069986526,0.980956103224217,-0.122129809483234,0.980956103243528,-0.122129809503289,0.00250039840784499,-0.0424186477780388
10,0.00205316902570907,-0.0446397822889155,0.979731492275832,-0.128247545687787,0.979731492276318,-0.128247545693934,0.00205219487393793,-0.0446486840986395
10.5,0.00152589023860439,-0.0468243251727278,0.978526846527171,-0.134399043857227,0.978526846527035,-0.134399043861808,0.00152296372698979,-0.0468331850236483
11,0.000973343845196983,-0.0490018215031363,0.977282226691057,-0.140525443688453,0.97728222669048,-0.140525443691457,0.000968338646699651,-0.0490105605762263
11.5,0.000395593213211087,-0.0511719073579995,0.975998563358506,-0.146627330352906,0.975998563357661,-0.146627330354349,0.000388376920759548,-0.0511804409818408
12,-0.000207295785529582,-0.0533342134415653,0.974676659244157,-0.152705291178053,0.974676659243207,-0.152705291177967,-0.000216862420162778,-0.0533424506863867
12.5,-0.000835254883606584,-0.0554883644351811,0.973317200015132,-0.158759902645576,0.973317200014225,-0.158759902644009,-0.000847318814571119,-0.0554962076560299
13,-0.00148821354698875,-0.0576339782618831,0.971920765544143,-0.164791719916109,0.971920765543415,-0.164791719913121,-0.00150293041959942,-0.0576413225840797
13.5,-0.00216609912862525,-0.0597706652511141,0.97048784121221,-0.17080126864434,0.970487841211782,-0.170801268640006,-0.00218363440506547,-0.0597773979900627
14,-0.00286883705173807,-0.0618980271874454,0.9690188289694,-0.176789038826214,0.969018828969381,-0.176789038820611,-0.00288936730103112,-0.0619040271936449
14.5,-0.00359635102905581,-0.0640156562240746,0.967514057936199,-0.182755480413817,0.96751405793668,-0.182755480407031,-0.00362006540978144,-0.0640207931427552
15,-0.0043485633256897,-0.0661231336382992,0.965973794392141,-0.188701000439609,0.965973794393205,-0.188701000431731,-0.00437566529564698,-0.0661272670713955
15.5,-0.00512539507520343,-0.0682200284017274,0.964398251051981,-0.194625961406061,0.964398251053694,-0.194625961397184,-0.00515610436930142,-0.0682230069579823
16,-0.00592676666079794,-0.0703058955325626,0.962787595573243,-0.200530680716529,0.962787595575662,-0.200530680706748,-0.00596132158719137,-0.0703075557492432
16.5,-0.00675259817648957,-0.072380274190583,0.961141958273554,-0.206415430945943,0.961141958276721,-0.20641543093535,-0.00679125829186267,-0.0723804393076688
17,-0.00760280998701707,-0.074442685467349,0.959461439062453,-0.212280440773906,0.959461439066404,-0.212280440762597,-0.0076458592255596,-0.0744411640319447
17.5,-0.00847732341018193,-0.0764926298138362,0.957746113611882,-0.218125896426487,0.957746113616639,-0.218125896414552,-0.0085250737579135,-0.0764892140890066
18,-0.0093760615517374,-0.0785295840351079,0.95599603880317,-0.223951943495727,0.955996038808749,-0.223951943483255,-0.0094288573795277,-0.0785240481832874
18.5,-0.0102989503313258,-0.0805529977656487,0.954211257497361,-0.229758689026818,0.954211257503769,-0.229758689013895,-0.0103571735275481,-0.0805450957721212
19,-0.0112459197490357,-0.0825622893190281,0.952391802680927,-0.235546203781935,0.952391802688163,-0.235546203768644,-0.0113099958281115,-0.0825517526157813
19.5,-0.0122169054567275,-0.0845568407802055,0.950537701041294,-0.241314524606563,0.950537701049352,-0.241314524592981,-0.0122873108653843,-0.084543375524861
20,-0.0132118507177663,-0.0865359921764011,0.948648976026849,-0.247063656838704,0.948648976035717,-0.247063656824906,-0.0132891216199275,-0.0865192761349696
20.5,-0.0142307088649774,-0.088499034521242,0.946725650444681,-0.252793576714174,0.94672565045434,-0.252793576700229,-0.0143154517635254,-0.0884787134976359
21,-0.0152734464021061,-0.0904452014734392,0.944767748646907,-0.258504233731681,0.944767748657338,-0.258504233717654,-0.0153663510575638,-0.0904208852237756
21.5,-0.0163400469425133,-0.092373659282083,0.942775298353268,-0.264195552950457,0.942775298364445,-0.264195552936412,-0.01644190218393,-0.092344916849092
22,-0.0174305162456799,-0.0942834946002011,0.940748332154077,-0.269867437200606,0.940748332165971,-0.269867437186597,-0.017542229450086,-0.0942498490049024
22.5,-0.0185448887051738,-0.0961736996292357,0.938686888733874,-0.275519769192325,0.938686888746455,-0.275519769178405,-0.0186675099665987,-0.0961346218676162
23,-0.0196832357726645,-0.0980431538994333,0.936591013852333,-0.281152413515136,0.936591013865568,-0.281152413501353,-0.0198179881152923,-0.097998056217814
23.5,-0.0208456769888987,-0.099890601780622,0.934460761115247,-0.286765218522084,0.934460761129099,-0.286765218508483,-0.0209939944381844,-0.0998388302567537
24,-0.0220323945606853,-0.101714624534734,0.932296192564896,-0.292358018096968,0.932296192579329,-0.292358018083588,-0.0221959705250204,-0.101655451092284
24.5,-0.0232436528137751,-0.103513605337797,0.930097379115788,-0.297930633305011,0.930097379130766,-0.29793063329189,-0.0234245021271983,-0.103446219504211
25,-0.0244798244288517,-0.105285685175389,0.92786440085867,-0.303482873929172,0.927864400874152,-0.303482873916341,-0.024680363681446,-0.105209186216587
25.5,-0.0257414262329136,-0.107028706795768,0.925597347252921,-0.309014539895616,0.92559734726887,-0.309014539883105,-0.0259645788500962,-0.106942097429608
26,-0.0270291686347022,-0.108740142909497,0.923296317224902,-0.314525422592798,0.923296317241276,-0.314525422580633,-0.0272785038347452,-0.108642326797046
26.5,-0.0283440248291728,-0.110417003441454,0.920961419187522,-0.320015306089237,0.920961419204283,-0.320015306077439,-0.0286239435144279,-0.110306790410647
27,-0.0296873291024975,-0.112055714716148,0.91859277099428,-0.325483968255465,0.91859277101139,-0.325483968244054,-0.0300033155833456,-0.111931840787754
27.5,-0.031060918715099,-0.113651960784227,0.916190499839201,-0.330931181795798,0.916190499856619,-0.330931181784792,-0.0314198859550403,-0.113513135663063
28,-0.0324673422695462,-0.115200473427095,0.913754742112505,-0.336356715195687,0.913754742130193,-0.336356715185098,-0.0328781116748887,-0.115045478310845
28.5,-0.0339101715833486,-0.116694752470603,0.911285643220435,-0.341760333590263,0.911285643238355,-0.341760333580103,-0.0343841486910758,-0.116522629918981
29,-0.0353944782745434,-0.118126691887745,0.908783357376446,-0.347141799559663,0.90878335739456,-0.34714179954994,-0.0359466166090474,-0.117937105219066
29.5,-0.0369275787568591,-0.119486080646759,0.90624804736988,-0.352500873856404,0.906248047388152,-0.352500873847125,-0.037577770326515,-0.11927998938318
30,-0.0385202279103734,-0.120759944033271,0.903679884317333,-0.35783731606993,0.903679884335727,-0.3578373160611,-0.0392953243909195,-0.120540878513746
30.5,-0.0401885832482986,-0.121931703193672,0.901079047401081,-0.363150885233134,0.901079047419561,-0.363150885224757,-0.0411253322465543,-0.121708197926518
31,-0.0419575293175647,-0.122980194017258,0.898445723598289,-0.368441340375401,0.898445723616821,-0.368441340367476,-0.0431067614202927,-0.122770509948219
31.5,-0.0438664678070652,-0.123878808267846,0.895780107404063,-0.373708441026419,0.895780107422613,-0.373708441018945,-0.045298702785898,-0.123720263854245
32,-0.0459796710714216,-0.124595719495362,0.893082400550941,-0.378951947674744,0.893082400569478,-0.378951947667719,-0.0477912307722633,-0.124563395431965
32.5,-0.0484051146103444,-0.125098299730636,0.890352811726948,-0.384171622184772,0.89035281174544,-0.384171622178193,-0.0507194741080244,-0.125342510773919
33,-0.0513283696503155,-0.125371348691647,0.887591556293972,-0.389367228175566,0.887591556312389,-0.389367228169427,-0.0542724677429619,-0.126189498806884
33.5,-0.0550678767611957,-0.125478053273439,0.884798856007893,-0.394538531364676,0.884798856026206,-0.394538531358969,-0.0586587991966814,-0.127430061497941
34,-0.0601278737542497,-0.125742654968704,0.881974938741622,-0.399685299879853,0.881974938759802,-0.399685299874572,-0.0639169083597456,-0.129721204834852
34.5,-0.0670409584989541,-0.127194860347709,0.879120038211986,-0.404807304541357,0.879120038230007,-0.404807304536494,-0.0694272483407379,-0.133962405178293
35,-0.0752485313570996,-0.132003796574828,0.876234393711179,-0.409904319117282,0.876234393729015,-0.409904319112826,-0.0735524105768443,-0.140389165081084
35.5,-0.0810875413922344,-0.141481651445711,0.873318249843358,-0.414976120554175,0.873318249860985,-0.414976120550114,-0.0748422762972647,-0.147462297135672
36,-0.0809806296090875,-0.151706034029734,0.870371856266796,-0.420022489185,0.870371856284189,-0.420022489181323,-0.0738509869611448,-0.153094406249454
36.5,-0.077463254851505,-0.15811218104856,0.867395467441923,-0.425043208916334,0.86739546745906,-0.42504320891303,-0.0722337994853791,-0.156706837739873
37,-0.0742376219232991,-0.161060040895153,0.864389342385454,-0.430038067396533,0.864389342402315,-0.430038067393588,-0.0710227690010531,-0.158885349270563
37.5,-0.0723549234817606,-0.162375298511409,0.861353744430758,-0.435006856166417,0.861353744447321,-0.435006856163819,-0.0704749027989723,-0.160305634189228
38,-0.0716158050969262,-0.163126011914087,0.858288940994514,-0.439949370793948,0.85828894101076,-0.439949370791682,-0.0705170503751253,-0.161386725044804
38.5,-0.0716614091899697,-0.163747124154637,0.855195203349703,-0.444865410994183,0.855195203365614,-0.444865410992233,-0.0710099427150234,-0.162339378228022
39,-0.0722246374703167,-0.164390418821411,0.852072806404885,-0.449754780735718,0.852072806420443,-0.449754780734071,-0.0718324083848496,-0.163259458213838
39.5,-0.0731335403392168,-0.165099260489509,0.848922028489711,-0.454617288334717,0.848922028504901,-0.454617288333357,-0.0728950031378534,-0.164186911215551
40,-0.0742801066102555,-0.16587810198157,0.845743151146582,-0.459452746537511,0.845743151161388,-0.459452746536422,-0.0741349043412616,-0.165135829592429
40.5,-0.0755956907738623,-0.166718650716086,0.842536458928344,-0.464260972592691,0.842536458942753,-0.464260972591856,-0.0755084252987998,-0.16610876715036
41,-0.0770356248048858,-0.167609512577943,0.839302239201892,-0.469041788313513,0.83930223921589,-0.469041788312918,-0.0769849914212195,-0.16710340198176
41.5,-0.0785700526255311,-0.168539596546096,0.836040781957552,-0.473795020131389,0.836040781971126,-0.473795020131016,-0.0785429145832657,-0.168115602308025
42,-0.0801784766720771,-0.16949916242831,0.832752379624085,-0.478520499141127,0.832752379637224,-0.47852049914096,-0.0801665558063367,-0.169140811275584
42.5,-0.0818464604693299,-0.170479994217151,0.829437326889169,-0.483218061138588,0.829437326901864,-0.483218061138612,-0.0818444400630954,-0.170174645038321
43,-0.0835635901538765,-0.17147527162411,0.826095920525203,-0.48788754665131,0.826095920537443,-0.487887546651506,-0.0835679990349941,-0.171213123472874
43.5,-0.0853221839898914,-0.172479360008135,0.822728459220271,-0.492528800962629,0.822728459232048,-0.492528800962982,-0.0853307240429605,-0.172252731879652
44,-0.0871164560461449,-0.173487600149672,0.819335243414122,-0.497141674129801,0.819335243425429,-0.497141674130292,-0.0871275877905668,-0.173290408091085
44.5,-0.0889419619866113,-0.174496124447525,0.815916575139,-0.501726020996527,0.815916575149829,-0.50172602099714,-0.0889546439491545,-0.174323499887486
45,-0.090795224079203,-0.175501704855021,0.812472757865176,-0.506281701200333,0.812472757875522,-0.506281701201053,-0.090808745858913,-0.175349713759797
45.5,-0.0926734725215558,-0.176501630201126,0.809004096351042,-0.510808579175135,0.809004096360899,-0.510808579175944,-0.0926873460989756,-0.176367064489369
46,-0.094574463795852,-0.177493608316234,0.805510896497612,-0.515306524149352,0.805510896506976,-0.515306524150233,-0.0945883517261136,-0.177373829417222
46.5,-0.0964963510028459,-0.178475688247871,0.801993465207294,-0.519775410139864,0.801993465216162,-0.519775410140803,-0.0965100183628157,-0.178368508608206
47,-0.0984375898897969,-0.179446198430161,0.798452110246805,-0.524215115942125,0.798452110255173,-0.524215115943103,-0.0984508717593003,-0.179349790893964
47.5,-0.100396869790032,-0.180403697410294,0.794887140114085,-0.528625525116663,0.794887140121952,-0.528625525117665,-0.100409649033446,-0.180316525267279
48,-0.102373062212576,-0.181346934429081,0.791298863909102,-0.53300652597224,0.791298863916465,-0.533006525973251,-0.102385254176395,-0.181267696932617
48.5,-0.104365182112969,-0.182274817737923,0.787687591208412,-0.537358011545881,0.787687591215271,-0.537358011546884,-0.104376724019473,-0.182202407309554
49,-0.106372358394353,-0.183186389004769,0.784053631943376,-0.541679879579977,0.78405363194973,-0.541679879580959,-0.106383201956227,-0.183119857345981
49.5,-0.10839381120878,-0.184080802530231,0.780397296281902,-0.54597203249667,0.780397296287752,-0.545972032497614,-0.108403917472658,-0.184019333581503
50,-0.11042883432521,-0.184957308280501,0.776718894513635,-0.550234377369671,0.776718894518983,-0.550234377370562,-0.11043817006971,-0.184900196487324
50.5,-0.112476781312602,-0.185815237963565,0.773018736938473,-0.554466825893707,0.77301873694332,-0.554466825894531,-0.11248531653777,-0.185761870687822
51,-0.114537054624107,-0.186653993544267,0.76929713375832,-0.558669294351727,0.769297133762668,-0.55866929435247,-0.114544760811403,-0.186603836737725
51.5,-0.116609096907802,-0.187473037723829,0.765554394971988,-0.562841703580015,0.76555439497584,-0.562841703580663,-0.11661594582654,-0.187425624186879
52,-0.118692384041168,-0.188271886009832,0.76179083027316,-0.566983978931349,0.76179083027652,-0.566983978931889,-0.118698346943713,-0.188226805712851
52.5,-0.120786419510953,-0.189050100080346,0.758006748951328,-0.571096050236324,0.7580067489542,-0.571096050236741,-0.120791466605028,-0.189006992141209
53,-0.122890729851267,-0.189807282206291,0.754202459795638,-0.575177851762951,0.754202459798026,-0.575177851763234,-0.122894829969835,-0.189765828205739
53.5,-0.125004860920049,-0.190543070543256,0.750378271001541,-0.579229322174654,0.750378271003451,-0.579229322174791,-0.125007981331887,-0.190502988927227
54,-0.127128374844357,-0.191257135140976,0.746534490080218,-0.583250404486752,0.746534490081654,-0.583250404486729,-0.127130481164441,-0.191218176510905
54.5,-0.129260847502657,-0.191949174547837,0.742671423770669,-0.587241046021525,0.742671423771639,-0.587241046021332,-0.129261903672899,-0.191911117680134
55,-0.131401866440954,-0.192618912910827,0.73878937795444,-0.591201198361967,0.738789377954949,-0.591201198361591,-0.131401834760032,-0.192581561378088
55.5,-0.133551029141492,-0.193266097489735,0.734888657572884,-0.595130817304286,0.73488865757294,-0.595130817303717,-0.133549870328403,-0.193229276780888
56,-0.135707941579553,-0.193890496519062,0.730969566546941,-0.599029862809256,0.73096956654655,-0.599029862808483,-0.135705614859772,-0.193854051575027
56.5,-0.137872217016949,-0.194491897362915,0.727032407699342,-0.602898298952482,0.727032407698512,-0.602898298951496,-0.137868680223184,-0.194455690459814
57,-0.14004347499094,-0.195070104917643,0.723077482679202,-0.606736093873652,0.723077482677942,-0.606736093872443,-0.14003868467273,-0.195034013841866
57.5,-0.142221340465307,-0.195624940224685,0.719105091888959,-0.610543219724843,0.719105091887277,-0.610543219723402,-0.142215252003334,-0.195588856694011
58,-0.144405443116586,-0.196156239262396,0.715115534413572,-0.614319652617958,0.715115534411476,-0.614319652616277,-0.144398010838781,-0.196120067555307
58.5,-0.14659541673345,-0.196663851890682,0.711109107951976,-0.618065372571335,0.711109107949476,-0.618065372569405,-0.146586594030857,-0.196627507652455
59,-0.14879089871124,-0.197147640926549,0.707086108750717,-0.621780363455595,0.707086108747822,-0.621780363453408,-0.148780638152223,-0.197111050125947
59.5,-0.150991529626813,-0.197607481332063,0.703046831539728,-0.625464612938803,0.703046831536448,-0.625464612936352,-0.150979783068666,-0.197570579346748
60,-0.153196952881445,-0.19804325949914,0.698991569470214,-0.629118112430957,0.698991569466559,-0.629118112428236,-0.153183671578805,-0.198005990311415
60.5,-0.155406814401635,-0.19845487261792,0.694920614054595,-0.6327408570279,0.694920614050575,-0.632740857024901,-0.155391949111339,-0.19841718810532
61,-0.157620762389332,-0.19884222811746,0.69083425510846,-0.63633284545466,0.690834255104086,-0.636332845451379,-0.15760426347152,-0.198804087425126
61.5,-0.159838447114486,-0.199205243169167,0.686732780694518,-0.639894080008309,0.6867327806898,-0.639894080004739,-0.159820264629897,-0.199166612152872
62,-0.16205952074397,-0.199543844244723,0.682616477068483,-0.643424566500345,0.682616477063433,-0.643424566496482,-0.16203960454745,-0.199504694975142
62.5,-0.164283637201859,-0.199857966721475,0.678485628626866,-0.646924314198672,0.678485628621495,-0.646924314194512,-0.164261937032154,-0.19981827704162
63,-0.166510452056801,-0.2001475545292,0.674340517856646,-0.650393335769201,0.674340517850965,-0.65039333576474,-0.166486917622752,-0.200107307658136
