"Freq [GHz]","re(St(P1,P1)) []","im(St(P1,P1)) []","re(St(P1,P2)) []","im(St(P1,P2)) []","re(St(P2,P1)) []","im(St(P2,P1)) []","re(St(P2,P2)) []","im(St(P2,P2)) []"
0,0.00505435784043584,0,0.994959314732114,0,0.994959314411972,0,0.00505435525298026,0
0.5,0.0055649314410573,0.000159511624111985,0.994386717405604,-0.00685242983102086,0.994386716793137,-0.00685243222577014,0.00556487932087535,0.000160065032083878
1,0.00600314591709861,-0.000301942945707623,0.993795530543164,-0.013072288404306,0.993795530304727,-0.0130722879752341,0.00600307554215362,-0.000300693096534133
1.5,0.00622860140345516,-0.000934763220953982,0.993266426858542,-0.0193418642116683,0.993266426831443,-0.019341863799081,0.00622843404977047,-0.00093295597301335
2,0.0063278518994867,-0.00154891016552128,0.992705680255677,-0.0254459541735468,0.992705680355097,-0.02544595385341,0.00632777290312703,-0.00154633509077584
2.5,0.0063719494329284,-0.00213437814675288,0.992154701377516,-0.0314384505108229,0.992154701526578,-0.0314384502926934,0.00637213780723833,-0.00213098744494822
3,0.00638869659103403,-0.0026981439379572,0.991619358377868,-0.0373635194329491,0.9916193585291,-0.0373635192976689,0.00638929442654046,-0.00269393616768454
3.5,0.00638986106072137,-0.00324639962189721,0.991090734939034,-0.0432487537730513,0.991090735069298,-0.0432487536962167,0.00639098735007826,-0.00324138587757083
4,0.0063809673066304,-0.003783269359662,0.990556529541666,-0.0491089373489402,0.990556529642612,-0.0491089373098657,0.00638272783870431,-0.00377746399085765
4.5,0.00636485999493752,-0.00431138542104925,0.990005453064723,-0.0549509415649769,0.990005453135768,-0.054950941548519,0.00636735262265864,-0.00430480351101181
5,0.0063431242802563,-0.0048324295675517,0.989428342838919,-0.0607772221634271,0.989428342883152,-0.0607772221592917,0.0063464416479877,-0.0048250863371031
5.5,0.00631670632089598,-0.00534748472748348,0.988818083228613,-0.066587917311292,0.988818083250665,-0.0665879173128712,0.00632093729633776,-0.00533939548766948
6,0.00628620701533689,-0.00585725045968477,0.988169212483974,-0.0723820188972537,0.988169212488976,-0.0723820189005115,0.00629143745146865,-0.00584843070153784
6.5,0.0062520308307944,-0.00636217525643712,0.987477523584105,-0.0781580043013248,0.987477523577213,-0.0781580043039787,0.00625834396979097,-0.00635264075395447
7,0.00621446566536654,-0.00686253939398007,0.986739742007232,-0.0839141697931431,0.986739741993431,-0.0839141697940846,0.00622194234454532,-0.00685230628617184
7.5,0.00617372783645886,-0.0073585081067522,0.985953286454768,-0.0896488022174129,0.985953286438808,-0.0896488022162734,0.00618244658157618,-0.00734759295285237
8,0.00612998849217217,-0.00785016658603066,0.985116097365234,-0.0953602636408499,0.985116097351619,-0.095360263637728,0.00614002554533677,-0.00783858639645629
8.5,0.00608338967064104,-0.00833754357999794,0.984226515713419,-0.101047029284403,0.984226515706421,-0.101047029279656,0.00609481898001069,-0.00832531582738838
9,0.00603405435956794,-0.00882062767195269,0.98328319755001,-0.106707700505964,0.98328319755369,-0.106707700500091,0.00604694754697832,-0.00880777028651281
9.5,0.00598209295631275,-0.00929937874584308,0.982285053433463,-0.112341004639077,0.982285053451686,-0.112341004632611,0.00599651927276207,-0.00928591009847324
10,0.00592760750168692,-0.0097737362188397,0.981231205032101,-0.117945788133812,0.981231205068553,-0.117945788127267,0.00594363377691851,-0.00975967509485631
10.5,0.00589212358454183,-0.0102808351659229,0.980227748334096,-0.123591337743282,0.980227748371385,-0.123591337738728,0.0059095856355014,-0.0102659629186803
11,0.00585370462166512,-0.0107903152996425,0.97919532146755,-0.129213747993699,0.979195321505454,-0.129213747991171,0.00587270420767666,-0.010774634449584
11.5,0.00581219900867008,-0.0113022202126776,0.978134959617999,-0.134813858577834,0.978134959656302,-0.134813858577339,0.00583284042759334,-0.0112857370094064
12,0.00576745244373934,-0.0118165852272689,0.977047554679865,-0.140392525622417,0.977047554718362,-0.140392525623941,0.00578984227456186,-0.011799309935407
12.5,0.00571930840537001,-0.0123334373178565,0.975933864827471,-0.145950606376703,0.975933864865968,-0.145950606380213,0.0057435552239293,-0.012315384477005
13,0.00566760862899467,-0.0128527950635955,0.974794524931077,-0.151488946408947,0.974794524969395,-0.15148894641439,0.00569382269972055,-0.012833983719974
13.5,0.00561219358047441,-0.0133746686301977,0.973630057404744,-0.157008369145366,0.973630057442717,-0.157008369152674,0.00564048652726884,-0.0133551225379311
14,0.00555290292455193,-0.0138990597804494,0.972440883148002,-0.162509667548317,0.972440883185479,-0.162509667557412,0.0055833873840546,-0.0138788075707899
14.5,0.00548957598642377,-0.0144259619126554,0.971227332313792,-0.16799359770956,0.971227332350638,-0.167993597720352,0.00552236524706104,-0.0144050372297886
15,0.00542205220468152,-0.0149553601260384,0.969989654698697,-0.173460874127083,0.969989654734793,-0.173460874139476,0.00545725983495621,-0.0149338017285197
15.5,0.00535017157397655,-0.0154872313121701,0.9687280296071,-0.178912166436933,0.968728029642338,-0.178912166450825,0.00538791104351138,-0.0154650831393575
16,0.00527377507585669,-0.016021544271219,0.967442575088198,-0.184348097381737,0.967442575122488,-0.18434809739702,0.00531415937270374,-0.0159988554744928
16.5,0.005192705096359,-0.0165582598518763,0.966133356484031,-0.189769241812956,0.966133356517295,-0.189769241829521,0.00523584634404017,-0.0165350847907422
17,0.00510680582902451,-0.0170973311136504,0.964800394258225,-0.195176126542213,0.964800394290399,-0.195176126559953,0.00515281490670472,-0.017073729317203
17.5,0.0050159236621557,-0.0176387035101522,0.963443671100031,-0.200569230876745,0.963443671131061,-0.200569230895548,0.00506490983124203,-0.0176147396046962
18,0.00491990754923399,-0.0181823150920013,0.962063138317025,-0.205948987694161,0.962063138346869,-0.205948987713921,0.00497197808953895,-0.0181580586959433
18.5,0.00481860936155432,-0.0187280967278509,0.96065872154371,-0.21131578493112,0.960658721572337,-0.211315784951729,0.00487386922001107,-0.0187036223152659
19,0.00471188422225371,-0.0192759723420539,0.959230325802789,-0.21666996737896,0.959230325830175,-0.216669967400317,0.00477043567695631,-0.019251359076597
19.5,0.00459959082102673,-0.0198258591674532,0.957777839962125,-0.222011838696245,0.957777839988257,-0.222011838718251,0.00466153316316392,-0.0198011907085425
20,0.00448159170896645,-0.0203776680117547,0.956301140633865,-0.227341663563397,0.956301140658737,-0.227341663585953,0.00454702094496179,-0.0203530322951315
20.5,0.00435775357306045,-0.0209313035359417,0.954800095563568,-0.232659669918156,0.954800095587181,-0.232659669941172,0.00442676214899212,-0.0209067925309445
21,0.00422794749001848,-0.0214866645431893,0.953274566557016,-0.237966051222402,0.953274566579377,-0.237966051245791,0.00430062404011267,-0.0214623739891935
21.5,0.00409204915920042,-0.0220436442767706,0.951724411991016,-0.243260968721079,0.951724412012139,-0.243260968744756,0.00416847827992006,-0.022019673401386
22,0.003949939114545,-0.0226021307254487,0.950149488952319,-0.24854455366267,0.950149488972219,-0.248544553686558,0.00403020116550845,-0.0225785819471476
22.5,0.00380150291547626,-0.0231620069348693,0.948549655046131,-0.253816909457961,0.948549655064831,-0.253816909481986,0.00388567384816679,-0.0231389855528028
23,0.00364663131690501,-0.0237231513235465,0.946924769912675,-0.259078113759991,0.946924769930199,-0.259078113784083,0.00373478253183213,-0.0237007651973038
23.5,0.00348522041850097,-0.0242854380020194,0.945274696487086,-0.264328220453055,0.945274696503463,-0.26432822047715,0.00357741865120892,-0.0242637972241158
24,0.00331717179351643,-0.0248487370938679,0.943599302034795,-0.269567261542833,0.943599302050056,-0.26956726156687,0.00341347902955857,-0.0248279536577041
24.5,0.00314239259753718,-0.0254129150572735,0.941898458991421,-0.27479524894291,0.941898459005598,-0.274795248966834,0.00324286601626522,-0.0253931025232657
25,0.00296079565758023,-0.025977835005911,0.94017204563322,-0.280012176155693,0.94017204564635,-0.280012176179452,0.00306548760436437,-0.0259591081684123
25.5,0.00277229954206204,-0.0265433570280089,0.93841994660135,-0.285218019847722,0.938419946613468,-0.285218019871269,0.00288125752830187,-0.0265258315855417
26,0.00257682861220682,-0.0271093385024466,0.936642053300574,-0.290412741320983,0.936642053311719,-0.290412741344274,0.00269009534229014,-0.0270931307336513
26.5,0.00237431305551938,-0.0276756344108879,0.934838264190657,-0.295596287883035,0.934838264200866,-0.29559628790603,0.00249192647966989,-0.0276608608584588
27,0.00216468890199972,-0.0282420976449784,0.933008484986476,-0.300768594119606,0.933008484995789,-0.300768594142268,0.0022866822937867,-0.0282288748096915
27.5,0.00194789802383616,-0.0288085793076973,0.931152628780941,-0.30592958307395,0.931152628789396,-0.305929583096249,0.00207430008093434,-0.0287970233544907
28,0.00172388811931579,-0.0293749290080638,0.929270616102969,-0.311079167337626,0.929270616110608,-0.311079167359531,0.00185472308598167,-0.0293651554859322
28.5,0.00149261268175555,-0.0299409951484333,0.927362374921228,-0.316217250057609,0.92736237492809,-0.316217250079095,0.0016279004913527,-0.0299331187257363
29,0.00125403095426302,-0.0305066252037223,0.925427840602894,-0.321343725864745,0.925427840609017,-0.321343725885788,0.00139378739007112,-0.0305007594202948
29.5,0.00100810787116185,-0.0310716659919441,0.923466955835435,-0.326458481728538,0.923466955840859,-0.326458481749117,0.00115234474361819,-0.031067923029219
30,0.000754813986931058,-0.0316359639355246,0.921479670518332,-0.331561397743189,0.921479670523097,-0.331561397763287,0.00090353932540288,-0.031634454405671
30.5,0.000494125393505351,-0.0321993653129351,0.919465941630639,-0.336652347849675,0.919465941634782,-0.336652347869278,0.000647343650645005,-0.0322001980678208
31,0.000226023626802907,-0.0327617165002405,0.917425733079466,-0.341731200498468,0.917425733083025,-0.341731200517561,0.000383735893514536,-0.0327649984608411
31.5,-4.95044366698449E-005,-0.0333228642022274,0.915359015533691,-0.346797819257266,0.915359015536703,-0.346797819275842,0.000112699792386595,-0.0333287002089082
32,-0.000332466692280764,-0.0338826556728484,0.913265766246581,-0.351852063367943,0.913265766249082,-0.351852063385991,-0.000165775455934825,-0.0338911483567648
32.5,-0.000622865927962402,-0.0344409389247564,0.911145968870417,-0.35689378825659,0.911145968872442,-0.356893788274104,-0.000451695312137845,-0.0344521886004308
33,-0.000920699952306647,-0.0349975629277925,0.908999613265734,-0.361922846000392,0.908999613267318,-0.361922846017368,-0.000745060019607335,-0.0350116675067853
33.5,-0.00122596172924522,-0.0355523777963185,0.906826695307359,-0.366939085754749,0.906826695308536,-0.366939085771183,-0.00104586473803331,-0.0355694327217126
34,-0.00153863951853533,-0.0361052349653419,0.904627216689084,-0.371942354143865,0.904627216689886,-0.371942354159757,-0.00135409968456524,-0.0361253331666507
34.5,-0.00185871702126611,-0.0366559873554502,0.902401184728451,-0.376932495617805,0.902401184728909,-0.376932495633154,-0.00166975028165944,-0.0366792192233847
35,-0.00218617352965961,-0.0372044895265748,0.900148612172912,-0.381909352778757,0.900148612173057,-0.381909352793565,-0.00199279731077856,-0.0372309429070168
35.5,-0.00252098408042956,-0.0377505978206962,0.897869517008353,-0.386872766679083,0.897869517008216,-0.386872766693354,-0.00232321707113015,-0.0377803580270786
36,-0.00286311961102825,-0.0382941704936082,0.895563922270786,-0.391822577093513,0.895563922270394,-0.391822577107249,-0.00266098154264743,-0.0383273203368242
36.5,-0.00321254711809799,-0.0388350678358893,0.893231855861854,-0.396758622767636,0.893231855861234,-0.396758622780844,-0.00300605855243175,-0.0388716876707536
37,-0.00356922981752211,-0.039373152283303,0.890873350368635,-0.401680741644726,0.890873350367815,-0.401680741657412,-0.00335841194392422,-0.0394133200705098
37.5,-0.00393312730545342,-0.0399082885168252,0.888488442888135,-0.40658877107271,0.888488442887141,-0.406588771084881,-0.00371800174807763,-0.0399520798992954
38,-0.00430419571977803,-0.0404403435525607,0.886077174856719,-0.41148254799298,0.886077174855574,-0.411482548004643,-0.00408478435585108,-0.0404878319450099
38.5,-0.00468238790145686,-0.0409691868218214,0.883639591884687,-0.416361909112585,0.883639591883415,-0.41636190912375,-0.00445871269136616,-0.04102044351234
39,-0.00506765355526828,-0.04149469024166,0.881175743596096,-0.421226691061246,0.881175743594719,-0.421226691071923,-0.00483973638511465,-0.0415497845040766
39.5,-0.00545993940946543,-0.0420167282761683,0.878685683473898,-0.426076730534457,0.878685683472438,-0.426076730544655,-0.00522780194662237,-0.0420757274919414
40,-0.00585918937392582,-0.0425351779888672,0.876169468710392,-0.430911864423883,0.876169468708869,-0.430911864433615,-0.00562285293602166,-0.0425981477772499
40.5,-0.00626534469637846,-0.0430499190865361,0.873627160062953,-0.435731929936141,0.873627160061387,-0.435731929945415,-0.00602483013402294,-0.043116923441751
41,-0.00667834411635237,-0.0435608339548093,0.871058821714991,-0.44053676470093,0.8710588217134,-0.440536764709762,-0.00643367170979658,-0.043631935389008
41.5,-0.00709812401649296,-0.0440678076859351,0.868464521142036,-0.445326206869467,0.868464521140437,-0.445326206877866,-0.00684931338633021,-0.0441430673766923
42,-0.00752461857094838,-0.0445707280990193,0.865844328982829,-0.450100095203997,0.86584432898124,-0.450100095211977,-0.00727168860284921,-0.0446502060401899
42.5,-0.00795775989053094,-0.0450694857531522,0.863198318915321,-0.454858269159182,0.863198318913757,-0.454858269166757,-0.00770072867393012,-0.0451532409079149
43,-0.00839747816442205,-0.0455639739537748,0.860526567537413,-0.459600568956038,0.860526567535888,-0.45960056896322,-0.00813636294496695,-0.0456520644087488
43.5,-0.00884370179818306,-0.0460540887526578,0.857829154252296,-0.464326835649045,0.857829154250825,-0.464326835655848,-0.008578518943687,-0.046146571872015
44,-0.00929635754787678,-0.0465397289418646,0.855106161158256,-0.469036911187025,0.855106161156851,-0.469036911193464,-0.00902712252744853,-0.0466366615204152
44.5,-0.00975537065013687,-0.0470207960420622,0.852357672942751,-0.473730638468297,0.852357672941425,-0.473730638474385,-0.00948209802607519,-0.047122234456346
45,-0.0102206649480276,-0.0474971942855446,0.849583776780645,-0.478407861390588,0.849583776779408,-0.47840786139634,-0.0099433683800238,-0.0476031946420188
45.5,-0.0106921630125794,-0.0479688305943319,0.846784562236397,-0.483068424896153,0.84678456223526,-0.483068424901582,-0.0104108552737083,-0.0480794488738008
46,-0.011169786259894,-0.0484356145536848,0.843960121170077,-0.487712175012481,0.843960121169051,-0.487712175017602,-0.0108844792638249,-0.0485509067511927
46.5,-0.0116534550637372,-0.0488974583813935,0.841110547647047,-0.492338958888973,0.841110547646138,-0.492338958893801,-0.0113641599025615,-0.0490174806408546
47,-0.0121430888635657,-0.0493542768931684,0.838235937851133,-0.496948624829906,0.838235937850352,-0.496948624834456,-0.0118498158555926,-0.0494790856360769
47.5,-0.0126386062679397,-0.0498059874644692,0.835336390001176,-0.501541022324,0.835336390000528,-0.501541022328286,-0.0123413650147941,-0.0499356395121046
48,-0.0131399251532924,-0.0502525099890818,0.832412004270783,-0.506116002070855,0.832412004270277,-0.506116002074891,-0.0128387246056131,-0.0503870626776748
48.5,-0.0136469627580632,-0.050693766834764,0.829462882711156,-0.510673416004517,0.829462882710796,-0.510673416008317,-0.013341811289089,-0.0508332781231741
49,-0.0141596357721806,-0.0511296827962495,0.826489129176856,-0.515213117314402,0.826489129176648,-0.515213117317981,-0.0138505412585002,-0.0512742113657494
49.5,-0.0146778604219315,-0.0515601850459124,0.823490849254372,-0.519734960463791,0.82349084925432,-0.519734960467164,-0.0143648303306622,-0.0517097903917496
50,-0.0152015525502417,-0.0519852030823518,0.820468150193372,-0.524238801206086,0.820468150193481,-0.524238801209266,-0.0148845940318985,-0.0521399455968199
50.5,-0.0157306276924131,-0.0524046686771817,0.817421140840513,-0.528724496598996,0.817421140840785,-0.528724496601998,-0.0154097476787345,-0.0525646097239794
51,-0.0162650011473744,-0.0528185158202742,0.814349931575686,-0.533191905016837,0.814349931576125,-0.533191905019674,-0.0159402064533808,-0.052983717800005
51.5,-0.0168045880445138,-0.0532266806636976,0.81125463425061,-0.537640886161061,0.811254634251217,-0.537640886163746,-0.016475885474068,-0.0533972070704047
52,-0.0173493034061601,-0.0536291014645908,0.808135362129633,-0.542071301069174,0.80813536213041,-0.542071301071721,-0.0170166998603352,-0.0538050169332824
52.5,-0.017899062205803,-0.0540257185271932,0.80499222983267,-0.546483012122157,0.804992229833617,-0.546483012124581,-0.0175625647933619,-0.0542070888723543
53,-0.0184537794221359,-0.0544164741442386,0.801825353280172,-0.550875883050501,0.80182535328129,-0.550875883052814,-0.0181133955714497,-0.0546033663893789
53.5,-0.0190133700890198,-0.0548013125379146,0.798634849640024,-0.555249778938955,0.798634849641314,-0.555249778941169,-0.0186691076607836,-0.0549937949362473
54,-0.0195777493414696,-0.0551801798005822,0.795420837276306,-0.559604566230096,0.795420837277766,-0.559604566232224,-0.0192296167415815,-0.0553783218469621
54.5,-0.0201468324577654,-0.055553023835421,0.792183435699812,-0.563940112726788,0.792183435701441,-0.563940112728842,-0.0197948387497708,-0.0557568962697108
55,-0.0207205348978059,-0.0559197942971893,0.788922765520264,-0.568256287593629,0.788922765522061,-0.568256287595621,-0.0203646899143421,-0.0561294690992635
55.5,-0.0212987723378066,-0.0562804425332263,0.785638948400147,-0.572552961357438,0.78563894840211,-0.57255296135938,-0.0209390867904926,-0.0564959929098491
56,-0.021881460701475,-0.0566349215248775,0.782332107010078,-0.576830005906867,0.782332107012204,-0.57683000590877,-0.0215179462887401,-0.056856421888717
56.5,-0.0224685161877609,-0.0569831858294594,0.779002364985666,-0.581087294491186,0.779002364987953,-0.581087294493062,-0.0221011857001284,-0.0572107117705296
57,-0.0230598552953261,-0.0573251915228894,0.775649846885777,-0.585324701718305,0.775649846888221,-0.585324701720163,-0.0226887227176935,-0.0575588197727455
57.5,-0.0236553948438333,-0.0576608961431212,0.772274678152163,-0.589542103552074,0.772274678154761,-0.589542103553926,-0.0232804754543387,-0.0579007045321327
58,-0.0242550519921915,-0.0579902586344749,0.768876985070385,-0.593739377308931,0.768876985073134,-0.593739377310786,-0.0238763624572721,-0.0582363260425343
58.5,-0.0248587442538789,-0.0583132392929715,0.765456894731983,-0.597916401653905,0.765456894734877,-0.597916401655774,-0.0244763027191635,-0.0585656455940103
59,-0.0254663895094575,-0.0586297997127705,0.762014534997837,-0.602073056596054,0.762014535000872,-0.602073056597946,-0.0250802156861754,-0.058888625713461
59.5,-0.0260779060164149,-0.0589399027337855,0.758550034462681,-0.606209223483343,0.758550034465852,-0.606209223485266,-0.0256880212630239,-0.05920523010682
60,-0.026693212416449,-0.0592435123905614,0.755063522420716,-0.610324784997014,0.755063522424018,-0.610324784998978,-0.0262996398152202,-0.0595154236029162
60.5,-0.0273122277403151,-0.0595405938624901,0.751555128832275,-0.614419625145476,0.751555128835703,-0.614419625147489,-0.0269149921686517,-0.0598191720990702
61,-0.0279348714103644,-0.0598311134254156,0.748024984291517,-0.618493629257736,0.748024984295064,-0.618493629259805,-0.0275339996066428,-0.0601164425084998
61.5,-0.0285610632408833,-0.0601150384046945,0.744473219995088,-0.622546683976408,0.744473219998749,-0.62254668397854,-0.0281565838646559,-0.0604072027095889
62,-0.029190723436354,-0.0603923371297634,0.740899967711743,-0.626578677250318,0.740899967715511,-0.626578677252522,-0.0287826671227662,-0.0606914214970761
