"Freq [GHz]","re(St(P1,P1)) []","im(St(P1,P1)) []","re(St(P1,P2)) []","im(St(P1,P2)) []","re(St(P2,P1)) []","im(St(P2,P1)) []","re(St(P2,P2)) []","im(St(P2,P2)) []"
0,0.00506384117261405,0,0.994952396169538,0,0.99495238615782,0,0.00506383293821955,0
0.5,0.00566942332459064,-0.00122587714183098,0.994283821144315,-0.00735995934175193,0.99428382032405,-0.00735996055255939,0.00566971402528083,-0.00122774952493643
1,0.00617730119585147,-0.00319678173651994,0.993618362022083,-0.0139744702692788,0.993618361965364,-0.013974470138308,0.00617798881235743,-0.00320096652171031
1.5,0.00648282041227688,-0.00530569979234485,0.993027738159062,-0.020574000151818,0.993027738169065,-0.0205740000326067,0.00648389266083171,-0.00531217229392666
2,0.00661882866515029,-0.00746388906054207,0.992466165609573,-0.0270132115705692,0.992466165660957,-0.0270132114802344,0.00662016194474369,-0.00747291188341848
2.5,0.00665212744583066,-0.00961438387777314,0.991941581147538,-0.0333772151770333,0.991941581222122,-0.0333772151166336,0.00665355616228958,-0.00962605723599452
3,0.00662143267009885,-0.0117479529384052,0.991432726387815,-0.0397100275349498,0.991432726474988,-0.0397100275006963,0.00662282548942894,-0.0117623075534556
3.5,0.00654653950274486,-0.0138662912202054,0.990917569012931,-0.0460298092803662,0.990917569106684,-0.0460298092677967,0.00654779664541927,-0.013883335532384
4,0.00643774310323142,-0.0159727516040213,0.990379622814584,-0.0523422949267758,0.99037962291135,-0.0523422949318633,0.00643878515830565,-0.0159924892310919
4.5,0.00630064506447825,-0.0180703171514409,0.98980759268449,-0.0586478539482247,0.98980759278194,-0.0586478539674538,0.00630140484511177,-0.0180927528369708
5,0.00613843617356302,-0.0201613125960307,0.989193896317723,-0.0649447083969044,0.989193896414135,-0.0649447084272072,0.00613885368579314,-0.02018645406093
5.5,0.00595300524058873,-0.0222474941463009,0.988533415974873,-0.0712303243847128,0.988533416068817,-0.0712303244233095,0.00595302464056102,-0.0222753525104888
6,0.00574550199395096,-0.0243301885312874,0.987822641563837,-0.0775019956727547,0.987822641653992,-0.0775019957170748,0.00574506971156241,-0.0243607782561561
6.5,0.00551663660832125,-0.0264104097557141,0.98705911711116,-0.0837570777222059,0.987059117196222,-0.0837570777698318,0.00551570014910729,-0.0264437484477336
7,0.00526684634055608,-0.0284889454064281,0.986241088655161,-0.0899930721319917,0.986241088733788,-0.0899930721805946,0.00526535348779689,-0.0285250536016264
7.5,0.00499639205330005,-0.0305664180495739,0.985367279694329,-0.0962076482419443,0.985367279765116,-0.0962076482892762,0.00499429031159448,-0.0306053190176092
8,0.00470541618075104,-0.0326433285301784,0.98443674655622,-0.102398639588593,0.984436746617671,-0.102398639632457,0.00470265236873846,-0.0326850481069796
8.5,0.00439397867437874,-0.0347200866091892,0.983448784065187,-0.108564031483762,0.983448784115713,-0.108564031522027,0.00439049861167629,-0.0347646530569046
9,0.0040620799379415,-0.0367970328239258,0.982402863216756,-0.114701946573079,0.98240286325467,-0.114701946603658,0.00405782819278655,-0.0368444767137657
9.5,0.00370967583610549,-0.0388744542490578,0.981298589496295,-0.120810631084384,0.981298589519818,-0.120810631105244,0.00370459551274083,-0.0389248083623972
10,0.00333668773909768,-0.0409525959842396,0.98013567470001,-0.126888442668434,0.980135674707267,-0.126888442677605,0.00333072029150527,-0.0410058952277366
10.5,0.00287304347325673,-0.0429516537405341,0.978979395903452,-0.133003488473452,0.978979395910738,-0.13300348848516,0.0028719451758602,-0.0430101556839055
11,0.0023878278754117,-0.0449433345375319,0.977782547685129,-0.139095164806685,0.977782547692188,-0.139095164820904,0.0023919253810647,-0.0450075197175792
11.5,0.00188122663706092,-0.0469272139677166,0.97654605608282,-0.145163844404235,0.976546056089407,-0.145163844420912,0.00189085933541866,-0.0469976180568228
12,0.00135344509525967,-0.0489028541069674,0.975270743470054,-0.151209921248214,0.975270743475939,-0.15120992126727,0.00136896533992797,-0.0489800748901201
12.5,0.0008047107756875,-0.0508698019978269,0.973957334725445,-0.157233798723014,0.973957334730419,-0.15723379874435,0.000826483878595491,-0.0509545074440458
13,0.000235276396125222,-0.0528275879641882,0.972606464184528,-0.163235879541043,0.972606464188399,-0.163235879564535,0.000263680300474717,-0.0529205255829215
13.5,-0.000354576574166016,-0.054775723740514,0.971218683065764,-0.169216557350826,0.97121868306836,-0.169216557376343,-0.00031915205991373,-0.0548777314505671
14,-0.000964533681041047,-0.0567137003988831,0.96979446711218,-0.175176209907385,0.969794467113351,-0.175176209934778,-0.000921688243969376,-0.056825719181993
14.5,-0.00159424243133649,-0.0586409860588626,0.96833422423802,-0.181115193664052,0.968334224237637,-0.181115193693166,-0.00154356741642672,-0.0587640747237508
15,-0.00224330623497615,-0.0605570233687081,0.966838302014347,-0.187033839634122,0.966838302012299,-0.18703383966479,-0.00218438788365349,-0.0606923758159637
15.5,-0.00291127711399403,-0.0624612267529954,0.965306994867387,-0.192932450367847,0.965306994863585,-0.192932450399903,-0.00284370124440828,-0.0626101922086844
16,-0.00359764688990605,-0.0643529794334823,0.963740550898239,-0.198811297893644,0.963740550892613,-0.198811297926919,-0.00352100550656055,-0.0645170862119286
16.5,-0.00430183648463789,-0.0662316302485855,0.962139178262119,-0.204670622479639,0.962139178254614,-0.204670622513963,-0.00421573696959909,-0.0664126137146712
17,-0.00502318287193296,-0.0680964903271715,0.960503051069777,-0.210510632082227,0.960503051060358,-0.210510632117434,-0.00492726063269025,-0.0682963258575815
17.5,-0.00576092308879939,-0.069946829719397,0.958832314793525,-0.21633150236032,0.958832314782171,-0.216331502396245,-0.00565485884075592,-0.0701677716113229
18,-0.00651417455114658,-0.0717818741604557,0.957127091175874,-0.222133377146787,0.957127091162579,-0.222133377183271,-0.00639771782608722,-0.0720265016042871
18.5,-0.00728191070237857,-0.0736008022558385,0.955387482650642,-0.227916369281711,0.955387482635413,-0.227916369318601,-0.00715491174068655,-0.07387207366981
19,-0.0080629307429203,-0.0754027435496223,0.953613576295139,-0.23368056172453,0.953613576277995,-0.233680561761676,-0.00792538370630086,-0.0757040607560628
19.5,-0.00885582182273176,-0.0771867782029547,0.951805447338143,-0.239426008874146,0.951805447319113,-0.239426008911405,-0.00870792333927728,-0.077522062080333
20,-0.00965891160327143,-0.0789519394175842,0.949963162252389,-0.245152738036958,0.949963162231512,-0.245152738074199,-0.00950114014446207,-0.0793257187377083
20.5,-0.0104702084812293,-0.0806972203669991,0.948086781462511,-0.250860750992715,0.948086781439834,-0.25086075102981,-0.0103034321331984,-0.0811147354266022
21,-0.0112873259826722,-0.0824215883665924,0.946176361700383,-0.256550025616856,0.946176361675962,-0.256550025653687,-0.0111129490351614,-0.0828889105758028
21.5,-0.012107386857956,-0.0841240105153687,0.944231958039685,-0.262220517525813,0.944231958013581,-0.26222051756227,-0.0119275495958585,-0.0846481780110651
22,-0.0129269012333799,-0.08580349737541,0.94225362564073,-0.267872161718363,0.942253625613009,-0.267872161754342,-0.0127447527728753,-0.0863926644618411
22.5,-0.0137416118691274,-0.0874591748951739,0.940241421235229,-0.273504874191949,0.940241421205963,-0.273504874227354,-0.0135616833201769,-0.0881227687756097
23,-0.0145462983523287,-0.0890904004702016,0.938195404378972,-0.279118553517719,0.938195404348235,-0.279118553552464,-0.014375013540302,-0.0898392707810882
23.5,-0.0153345314761962,-0.0906969479181905,0.936115638498477,-0.284713082362136,0.936115638466348,-0.284713082396142,-0.0151809053140212,-0.0915434804046957
24,-0.0160983703971768,-0.0922792999574789,0.934002191755654,-0.290288328946416,0.934002191722213,-0.290288328979611,-0.0159749605676038,-0.0932374408906576
24.5,-0.0168280011791057,-0.0938391080043615,0.931855137752427,-0.29584414843784,0.931855137717756,-0.29584414847016,-0.0167521951705575,-0.0949242035563693
25,-0.0175113317562156,-0.0953799109397595,0.92967455609528,-0.301380384269269,0.929674556059464,-0.301380384300653,-0.0175070624507626,-0.0966081946312194
25.5,-0.01813359667857,-0.0969082499651646,0.927460532837706,-0.306896869384982,0.927460532800829,-0.306896869415381,-0.0182335702427417,-0.098295695425263
26,-0.0186771073949743,-0.0984353752131164,0.925213160816676,-0.312393427412494,0.925213160778821,-0.31239342744186,-0.0189255622079557,-0.0999954511718331
26.5,-0.0191214502479299,-0.0999797970726255,0.922932539897547,-0.317869873760976,0.922932539858801,-0.317869873789275,-0.0195772719871988,-0.101719403242948
27,-0.0194447484993943,-0.101570936873652,0.920618777140189,-0.323326016647969,0.920618777100634,-0.323326016675164,-0.0201843057750674,-0.103483489676311
27.5,-0.0196271405637291,-0.103253924635974,0.918271986897623,-0.328761658056536,0.918271986857345,-0.328761658082601,-0.0207452525823416,-0.105308357942752
28,-0.019658375390022,-0.105094821743153,0.915892290857192,-0.334176594625574,0.915892290816275,-0.334176594650487,-0.0212641248711322,-0.107219655376267
28.5,-0.0195519777325969,-0.107183578137605,0.913479818032972,-0.339570618476309,0.913479817991494,-0.339570618500054,-0.0217537147915032,-0.10924729596369
29,-0.0193672592069544,-0.109628282203592,0.911034704717122,-0.344943517978129,0.911034704675167,-0.344943518000691,-0.02223957828973,-0.111422805665577
29.5,-0.0192342137284765,-0.112530006853858,0.908557094396866,-0.35029507845711,0.908557094354509,-0.350295078478481,-0.0227635908359926,-0.113773746374459
30,-0.0193623144225619,-0.115929967855242,0.906047137642907,-0.355625082850555,0.906047137600227,-0.355625082870732,-0.0233849069692489,-0.116314779763346
30.5,-0.0200013381264583,-0.119742968089612,0.903504991974348,-0.360933312310868,0.90350499193142,-0.360933312329851,-0.0241753220005074,-0.119036699429239
31,-0.0213414591076176,-0.123730132931725,0.900930821704469,-0.366219546762004,0.900930821661365,-0.366219546779795,-0.0252068670516724,-0.121897600789919
31.5,-0.0234066391066182,-0.127566631552243,0.898324797771133,-0.371483565411651,0.898324797727924,-0.371483565428258,-0.0265332241218011,-0.124822400977723
32,-0.026035895369121,-0.130978163648001,0.895687097555066,-0.376725147222165,0.895687097511821,-0.376725147237598,-0.0281720128234074,-0.127714957172214
32.5,-0.0289731401417363,-0.133839528186126,0.893017904688755,-0.381944071343147,0.893017904645542,-0.381944071357419,-0.0300974197283995,-0.130480110799183
33,-0.0319820753476998,-0.136172256552595,0.890317408858378,-0.387140117508394,0.890317408815259,-0.387140117521521,-0.0322479210222747,-0.13304589132875
33.5,-0.0349069123582655,-0.138079150635434,0.887585805600731,-0.392313066399811,0.887585805557769,-0.39231306641181,-0.0345448007404264,-0.135375739674173
34,-0.0376733251238283,-0.13968045346881,0.884823296096897,-0.39746269998072,0.884823296054152,-0.397462699991613,-0.0369117358444763,-0.137467508827245
34.5,-0.0402628350227662,-0.141079306214928,0.882030086964082,-0.402588801800825,0.88203008692161,-0.402588801810634,-0.0392877502023551,-0.139343502479553
35,-0.0426866887231536,-0.142351872697853,0.87920639004682,-0.407691157274979,0.879206390004678,-0.407691157283729,-0.0416316491841202,-0.141038298700357
35.5,-0.0449681968397901,-0.14354969692861,0.876352422208582,-0.412769553937707,0.876352422166821,-0.412769553945424,-0.0439203208936444,-0.142589014149146
36,-0.0471331223326074,-0.144705699908971,0.873468405124588,-0.41782378167535,0.873468405083259,-0.417823781682061,-0.046144311897267,-0.144029466559234
36.5,-0.0492053088378536,-0.145839959719677,0.870554565076554,-0.422853632937504,0.870554565035704,-0.422853632943241,-0.0483031338228002,-0.145387657206439
37,-0.0512051483558786,-0.146964146349805,0.867611132749904,-0.427858902929372,0.867611132709579,-0.427858902934164,-0.0504014548978575,-0.146685365286691
37.5,-0.0531493955692723,-0.14808460091813,0.864638343033916,-0.432839389786446,0.864638342994159,-0.432839389790326,-0.0524464370421891,-0.14793879889499
38,-0.0550515305719106,-0.149204366232419,0.861636434825164,-0.4377948947329,0.861636434786016,-0.437794894735901,-0.0544460619619584,-0.149159619209786
38.5,-0.0569222848065498,-0.15032448793977,0.858605650834524,-0.442725222224921,0.858605650796023,-0.442725222227078,-0.056408175312478,-0.150355976910482
39,-0.0587701625009527,-0.151444834105327,0.85554623739798,-0.447630180080127,0.855546237360163,-0.447630180081475,-0.0583400007425607,-0.151533407969312
39.5,-0.0606018956055079,-0.152564605431563,0.852458444291375,-0.452509579594129,0.852458444254275,-0.452509579594701,-0.0602479386922132,-0.152695548186404
40,-0.062422817942656,-0.153682649637485,0.849342524549213,-0.457363235645208,0.849342524512863,-0.457363235645043,-0.0621375260059495,-0.153844677099123
40.5,-0.0642371637186805,-0.154797652847288,0.846198734287602,-0.462190966788005,0.846198734252031,-0.462190966787139,-0.064013479033981,-0.154982120106086
41,-0.0660483019551527,-0.155908254110028,0.84302733253136,-0.466992595337031,0.843027332496596,-0.466992595335502,-0.0658797745531154,-0.156108540176568
41.5,-0.0678589191978244,-0.157013112066031,0.839828581045298,-0.47176794744078,0.839828581011366,-0.471767947438625,-0.0677397429190197,-0.157224146765388
42,-0.069671161527275,-0.158110941969542,0.836602744169672,-0.47651685314711,0.836602744136596,-0.476516853144367,-0.0695961599991557,-0.158328844071197
42.5,-0.0714867449729553,-0.15920053448814,0.833350088659767,-0.481239146460555,0.833350088627569,-0.481239146457263,-0.0714513314859673,-0.159422335504768
43,-0.0733070415554492,-0.160280763440089,0.830070883529577,-0.485934665392141,0.830070883498276,-0.485934665388337,-0.0733071671237888,-0.16050419684009
43.5,-0.0751331465720593,-0.161350586956049,0.826765399899511,-0.490603252002258,0.826765399869125,-0.490603251997981,-0.0751652444708247,-0.16157392710522
44,-0.0769659314409064,-0.162409044868594,0.82343391084807,-0.495244752437072,0.823433910818613,-0.495244752432359,-0.0770268628436959,-0.162630983715881
44.5,-0.078806085401893,-0.163455254071935,0.820076691267409,-0.499859016958943,0.820076691238897,-0.499859016953833,-0.078893088526517,-0.163674806489116
45,-0.0806541485912085,-0.164488402924196,0.816694017722726,-0.504445899971277,0.816694017695171,-0.504445899965807,-0.0807647924442408,-0.164704833830502
45.5,-0.0825105384107762,-0.165507745341301,0.813286168315364,-0.509005260038176,0.813286168288776,-0.509005260032384,-0.0826426814583574,-0.165720513428789
46,-0.0843755706626983,-0.166512594964586,0.809853422549572,-0.51353695989927,0.809853422523959,-0.513536959893193,-0.0845273243297309,-0.166721309109763
46.5,-0.0862494765769941,-0.16750231961651,0.806396061202819,-0.518040866480043,0.806396061178189,-0.518040866473719,-0.0864191732556981,-0.167706705017695
47,-0.0881324166019597,-0.168476336154313,0.802914366199584,-0.522516850897963,0.802914366175942,-0.522516850891428,-0.0883185817508779,-0.168676207950352
47.5,-0.0900244916297964,-0.169434105767235,0.799408620488523,-0.526964788464694,0.799408620465873,-0.526964788457983,-0.090225819514721,-0.169629348431074
48,-0.091925752180354,-0.170375129724251,0.795879107922948,-0.531384558684649,0.795879107901292,-0.531384558677799,-0.092141084818214,-0.170565680929622
48.5,-0.0938362059513176,-0.17129894555692,0.792326113144505,-0.535776045250129,0.792326113123845,-0.535776045243175,-0.0940645148479192,-0.17148478352168
49,-0.095755824055209,-0.172205123649804,0.788749921470004,-0.540139136033256,0.788749921450338,-0.540139136026232,-0.0959961943667196,-0.172386257190404
49.5,-0.0976845461958417,-0.173093264205191,0.78515081878128,-0.544473723074923,0.785150818762607,-0.544473723067862,-0.0979361629855168,-0.173269724912037
50,-0.0996222849843147,-0.17396299454702,0.781529091418037,-0.548779702570933,0.781529091400354,-0.54877970256387,-0.0998844212865964,-0.174134830623966
50.5,-0.101568929553822,-0.174813966729358,0.777885026073589,-0.553056974855517,0.777885026056891,-0.553056974848483,-0.101840935995707,-0.174981238142644
51,-0.103524348600618,-0.175645855416637,0.774218909693412,-0.557305444382392,0.774218909677694,-0.55730544437542,-0.103805644364276,-0.17580863007683
51.5,-0.105488392953399,-0.176458356005258,0.770531029376463,-0.5615250197035,0.770531029361716,-0.561525019696622,-0.105778457894167,-0.176616706766071
52,-0.107460897753609,-0.177251182958973,0.766821672279155,-0.565715613445594,0.766821672265373,-0.565715613438837,-0.107759265513857,-0.1774051852634
52.5,-0.109441684313501,-0.178024068333183,0.763091125521975,-0.569877142284771,0.763091125509148,-0.569877142278167,-0.109747936295643,-0.178173798373544
53,-0.111430561706309,-0.178776760466006,0.759339676098629,-0.574009526919114,0.759339676086746,-0.574009526912691,-0.111744321787887,-0.178922293752617
53.5,-0.113427328132951,-0.17950902281646,0.755567610787682,-0.57811269203952,0.755567610776732,-0.578112692033305,-0.113748258023513,-0.179650433071603
54,-0.115431772101641,-0.180220632932368,0.751775216066638,-0.582186566298847,0.751775216056607,-0.582186566292869,-0.115759567255534,-0.180357991243462
54.5,-0.11744367345041,-0.180911381532694,0.747962778028373,-0.586231082279483,0.747962778019249,-0.586231082273766,-0.117778059461831,-0.181044755712107
55,-0.119462804237252,-0.18158107169081,0.744130582299901,-0.590246176459408,0.74413058229167,-0.590246176453977,-0.119803533654393,-0.181710525800411
55.5,-0.121488929518424,-0.182229518106882,0.740278913963397,-0.594231789176866,0.740278913956043,-0.594231789171745,-0.121835779022422,-0.182355112113875
56,-0.123521808031966,-0.182856546458931,0.736408057479436,-0.598187864593715,0.736408057472943,-0.598187864588928,-0.12387457593397,-0.182978335996225
56.5,-0.125561192800679,-0.18346199282347,0.732518296612399,-0.602114350657544,0.73251829660675,-0.602114350653113,-0.125919696816812,-0.183580029033129
57,-0.127606831666474,-0.184045703157644,0.728609914357997,-0.60601119906262,0.728609914353175,-0.606011199058565,-0.127970906935992,-0.184160032600238
57.5,-0.129658467766108,-0.184607532835847,0.724683192872873,-0.609878365209745,0.724683192868858,-0.609878365206087,-0.130027965082779,-0.184718197451893
58,-0.131715839956736,-0.185147346234578,0.720738413406223,-0.613715808165093,0.720738413402997,-0.613715808161852,-0.132090624187485,-0.185254383346982
58.5,-0.133778683198386,-0.185665016360075,0.716775856233431,-0.617523490618079,0.716775856230975,-0.617523490615273,-0.134158631866716,-0.185768458708665
59,-0.135846728899406,-0.186160424513913,0.712795800591631,-0.621301378838333,0.712795800589922,-0.621301378835977,-0.136231730914063,-0.186260300314892
59.5,-0.13791970522998,-0.186633459992283,0.708798524617187,-0.625049442631823,0.708798524616207,-0.625049442629934,-0.138309659741869,-0.18672979301687
60,-0.13999733740807,-0.187084019815224,0.704784305285061,-0.628767655296199,0.704784305284788,-0.628767655294792,-0.140392152780638,-0.187176829482845
60.5,-0.142079347961515,-0.187512008482461,0.700753418350001,-0.632455993575388,0.700753418350411,-0.632455993574476,-0.142478940841661,-0.187601309964802
61,-0.144165456969451,-0.187917337752907,0.696706138289544,-0.636114437613515,0.696706138290616,-0.636114437613112,-0.144569751447698,-0.188003142085877
61.5,-0.146255382285765,-0.188299926445219,0.69264273824879,-0.639742970908175,0.692642738250501,-0.639742970908292,-0.146664309135796,-0.188382240646442
62,-0.148348839746944,-0.188659700257083,0.688563489986909,-0.643341580263113,0.688563489989236,-0.64334158026376,-0.148762335735844,-0.188738527447072
62.5,-0.150445543366303,-0.188996591601157,0.684468663825365,-0.646910255740354,0.684468663828284,-0.64691025574154,-0.150863550627888,-0.189071931126665
63,-0.152545205516332,-0.189310539455852,0.680358528597804,-0.650448990611825,0.680358528601291,-0.650448990613559,-0.152967670980884,-0.189382387014255
