"Freq [GHz]","re(St(P1,P1)) []","im(St(P1,P1)) []","re(St(P1,P2)) []","im(St(P1,P2)) []","re(St(P2,P1)) []","im(St(P2,P1)) []","re(St(P2,P2)) []","im(St(P2,P2)) []"
0,0.0045524934097898,0,0.995465589803644,0,0.995465587839135,0,0.00455249139901071,0
0.5,0.00522831479686658,-0.00294795813502802,0.994695078139252,-0.00851188829854266,0.994695078186034,-0.00851188847477147,0.00522860893856603,-0.00294921348476862
1,0.00578802867243056,-0.00675014577656796,0.993881615853596,-0.0161689618453345,0.993881615918085,-0.0161689618341718,0.00578882228945332,-0.00675300042434657
1.5,0.006064070902152,-0.0107501067070253,0.993197457765071,-0.0236023387217941,0.993197457814905,-0.0236023387264019,0.00606567837948191,-0.0107540059830455
2,0.0061072290665134,-0.0147886786998868,0.992593347944823,-0.0309723060243208,0.992593347981073,-0.0309723060265874,0.00610968127344336,-0.0147943287027239
2.5,0.00600445995435095,-0.018807392436873,0.991985754082584,-0.0383338672199471,0.991985754112436,-0.0383338672155524,0.0060075911754236,-0.0188151094583588
3,0.00580148116817547,-0.0227996121174936,0.991332580717296,-0.0456896086744347,0.991332580745157,-0.0456896086650822,0.00580517976021078,-0.0228095371627042
3.5,0.00552065983497219,-0.0267685723701785,0.990615646158801,-0.0530326911239651,0.990615646185945,-0.0530326911129517,0.00552488001506291,-0.026780782795818
4,0.00517340075159201,-0.0307182152365897,0.989827974684806,-0.0603563726022358,0.989827974710362,-0.0603563725925707,0.00517814159312202,-0.0307327650793585
4.5,0.00476589138553685,-0.0346515614893388,0.988967740662509,-0.0676556561714996,0.988967740684415,-0.0676556561652024,0.00477117826307971,-0.0346684950341416
5,0.0043017051548504,-0.0385706663132694,0.988035449115151,-0.0749272233094072,0.988035449130941,-0.0749272233073128,0.00430757649976687,-0.0385900227636959
5.5,0.00378303098443178,-0.0424768408582938,0.9870325763318,-0.0821690574924574,0.987032576339207,-0.0821690574943137,0.00378952901662322,-0.0424986563851224
6,0.00321128608859755,-0.0463708628012753,0.985960895392265,-0.0893800733480141,0.985960895389655,-0.0893800733527019,0.00321845030227763,-0.046395172050909
6.5,0.00258743790971527,-0.0502531334087433,0.984822143187201,-0.0965598130610434,0.984822143173841,-0.0965598130668788,0.00259530053290691,-0.0502799710573711
7,0.00191218163419782,-0.0541237876114842,0.983617866944994,-0.103708212731499,0.983617866921201,-0.103708212736567,0.00192076456080503,-0.0541531900275363
7.5,0.00118604242140874,-0.0579827700621571,0.982349367971843,-0.110825428843039,0.982349367939023,-0.110825428845507,0.00119535526152781,-0.0580147769797748
8,0.000409436613688641,-0.061829887863496,0.981017697887944,-0.117911713496296,0.981017697848539,-0.117911713494657,0.000419475587356999,-0.0618645439476371
8.5,-0.00041729030815274,-0.0656648475010302,0.979623681862349,-0.124967328044945,0.979623681819748,-0.124967328038267,-0.000406542857440684,-0.0657022037109947
9,-0.00129383943378847,-0.0694872810482501,0.978167953974145,-0.131992486244064,0.978167953932548,-0.131992486232167,-0.00128241508929072,-0.069527395744073
9.5,-0.00221994242682866,-0.0732967650144216,0.976650996070537,-0.138987319516547,0.9766509960348,-0.138987319500102,-0.00220788646040948,-0.0733397047847753
10,-0.00319535071499433,-0.0770928340831141,0.975073175299167,-0.145951858344478,0.975073175274649,-0.145951858325112,-0.00318272167623368,-0.0771386742994888
10.5,-0.004264516340581,-0.080834093762042,0.973415416427736,-0.15290544368058,0.973415416404219,-0.15290544366051,-0.00425241886371852,-0.080882178356398
11,-0.00538376475932945,-0.0845589504268345,0.971698600150664,-0.159823795254634,0.971698600128182,-0.159823795233931,-0.00537222555260253,-0.0846092730296828
11.5,-0.00655280496157751,-0.0882666677152137,0.969923806620387,-0.166707175358457,0.969923806598968,-0.166707175337195,-0.00654185089639525,-0.0883192218009441
12,-0.00777133354146753,-0.0919565153848332,0.968091990859718,-0.173555831670997,0.968091990839381,-0.173555831649254,-0.00776099167236566,-0.0920112942937719
12.5,-0.00903903484950974,-0.0956277695645058,0.966203997423702,-0.180369985768729,0.966203997404461,-0.180369985746578,-0.00902933243587978,-0.0956847665264249
13,-0.010355581151332,-0.0992797130019856,0.964260574824894,-0.187149824609359,0.964260574806755,-0.187149824586879,-0.0103465456810224,-0.0993389211611326
13.5,-0.0117206327925893,-0.102911635308418,0.96226238936411,-0.193895494588429,0.962262389347071,-0.193895494565687,-0.0117122920074897,-0.102973047750177
14,-0.0131338383699358,-0.106522833199181,0.96021003811692,-0.200607097773684,0.960210038100974,-0.200607097750751,-0.0131262202936354,-0.106586442978486
14.5,-0.0145948349080101,-0.110112610731177,0.958104060916098,-0.207284689944045,0.958104060901234,-0.207284689920987,-0.0145879678756549,-0.110178410902784
15,-0.0161032480423717,-0.11368027953641,0.955944951242632,-0.213928280091474,0.955944951228834,-0.213928280068355,-0.0160971607328143,-0.113748263187226
15.5,-0.0176586922083266,-0.117225159051928,0.953733165994189,-0.220537831081225,0.953733165981433,-0.220537831058109,-0.0176534136786937,-0.117295319335473
16,-0.0192607708355788,-0.120746576745964,0.951469134142087,-0.227113261204886,0.951469134130352,-0.227113261181826,-0.0192563305583612,-0.120818906919246
16.5,-0.0209090765486516,-0.124243868340335,0.949153264318155,-0.23365444639922,0.949153264307412,-0.23365444637627,-0.0209055044514443,-0.124318361803281
17,-0.0226031913730278,-0.12771637802906,0.946785951393284,-0.240161222940305,0.946785951383503,-0.240161222917513,-0.0226005178810308,-0.127793028366792
17.5,-0.0243426869469443,-0.131163458693217,0.944367582122277,-0.246633390455633,0.944367582113426,-0.246633390433045,-0.024340943028344,-0.131242259721369
18,-0.0261271247387952,-0.13458447211206,0.941898539936261,-0.2530707151267,0.941898539928306,-0.253070715104355,-0.0261263419531508,-0.134665417925499
18.5,-0.0279560562701084,-0.137978789170444,0.939379208966146,-0.259472932980354,0.939379208959052,-0.259472932958292,-0.0279562668198585,-0.138061874195705
19,-0.029829023344025,-0.141345790062631,0.936809977379577,-0.265839753189471,0.936809977373307,-0.265839753167724,-0.0298302601292308,-0.141431009114429
19.5,-0.0317455582792718,-0.144684864492563,0.934191240110415,-0.27217086132217,0.934191240104934,-0.272170861300772,-0.0317478549557086,-0.14477221283482
20,-0.0337051841495681,-0.147995411870762,0.931523401055075,-0.278465922494391,0.931523401050345,-0.278465922473369,-0.0337085751902726,-0.148084885282621
20.5,-0.0357074150284428,-0.151276841507932,0.928806874804266,-0.284724584393242,0.92880687480025,-0.284724584372619,-0.035711935788814,-0.151368436355278
21,-0.0377517562394404,-0.154528572805557,0.926042087972647,-0.290946480149015,0.926042087969306,-0.290946480128812,-0.0377574430259779,-0.154622286118654
21.5,-0.0398377046116828,-0.157750035443625,0.923229480182687,-0.297131231041776,0.923229480179986,-0.297131231022011,-0.0398445947544238,-0.15784586500153
22,-0.0419647487407621,-0.160940669565813,0.920369504752975,-0.303278449034995,0.920369504750876,-0.303278449015684,-0.0419728806694782,-0.161038613988317
22.5,-0.0441323692549627,-0.164099925962438,0.917462629135445,-0.309387739133577,0.917462629133913,-0.309387739114733,-0.0441417825791217,-0.164199984810367
23,-0.0463400390867819,-0.16722726625153,0.914509335140637,-0.315458701567446,0.914509335139636,-0.315458701549081,-0.0463507746792623,-0.167329440136353
23.5,-0.0485872237497302,-0.170322163058489,0.911510118985159,-0.321490933804611,0.911510118984655,-0.321490933786736,-0.0485993238342274,-0.170426453762285
24,-0.0508733816203991,-0.173384100194832,0.908465491191061,-0.327484032399627,0.908465491191021,-0.327484032382247,-0.0508868898624028,-0.173490510801775
24.5,-0.0531979642257743,-0.176412572836605,0.905375976362789,-0.333437594684723,0.905375976363179,-0.333437594667843,-0.0532129258269223,-0.176521107877312
25,-0.0555604165357398,-0.179407087703147,0.902242112863867,-0.339351220311746,0.902242112864655,-0.339351220295368,-0.0555768783312794,-0.179517753313332
25.5,-0.0579601772607489,-0.182367163236998,0.899064452412251,-0.345224512653571,0.899064452413407,-0.345224512637698,-0.0579781878197122,-0.182479967332088
26,-0.0603966791545693,-0.18529232978582,0.895843559610583,-0.351057080073791,0.895843559612076,-0.351057080058422,-0.0604162888821449,-0.185407282253363
26.5,-0.0628693493220116,-0.188182129787381,0.892580011425111,-0.356848537073501,0.892580011426914,-0.356848537058635,-0.0628906105634296,-0.188299242699282
27,-0.0653776095315,-0.191036117958774,0.889274396624992,-0.362598505323822,0.889274396627076,-0.362598505309457,-0.0654005766765514,-0.191155405805639
27.5,-0.0679208765322813,-0.193853861491196,0.88592731519184,-0.368306614592474,0.885927315194179,-0.368306614578608,-0.0679456061193331,-0.193975341441301
28,-0.0704985623760056,-0.196634940251856,0.882539377707855,-0.373972503572384,0.882539377710423,-0.37397250355901,-0.0705251131941017,-0.196758632437539
28.5,-0.0731100747423165,-0.199378946994712,0.8791112047295,-0.379595820619842,0.879111204732274,-0.379595820606957,-0.073138507929569,-0.199504874829294
29,-0.0757548172679553,-0.202085487582083,0.87564342615256,-0.385176224409318,0.875643426155515,-0.385176224396913,-0.075785196404008,-0.202213678110714
29.5,-0.0784321898787509,-0.204754181219361,0.872136680573417,-0.390713384511562,0.87213668057653,-0.390713384499633,-0.0784645810685698,-0.204884665507563
30,-0.0811415891236286,-0.207384660705429,0.868591614650587,-0.396206981901161,0.868591614653839,-0.396206981889698,-0.0811760610692153,-0.207517474269421
30.5,-0.0838824085095581,-0.209976572701683,0.865008882469793,-0.401656709399263,0.865008882473162,-0.401656709388258,-0.0839190325654483,-0.210111755984965
31,-0.0866540388360063,-0.212529578022987,0.861389144915296,-0.407062272056786,0.861389144918763,-0.407062272046232,-0.0866928890434481,-0.212667176924006
31.5,-0.0894558685270804,-0.215043351954297,0.857733069049676,-0.412423387482983,0.857733069053223,-0.412423387472869,-0.0894970216207065,-0.215183418410368
32,-0.0922872839589989,-0.217517584597156,0.854041327503857,-0.417739786123828,0.854041327507467,-0.417739786114145,-0.0923308193384638,-0.217660177230111
32.5,-0.0951476697799598,-0.219951981250817,0.850314597878755,-0.423011211494411,0.85031459788241,-0.423011211485149,-0.0951936694374146,-0.220097166080107
33,-0.0980364092185948,-0.22234626283325,0.846553562159689,-0.428237420369071,0.846553562163374,-0.42823742036022,-0.0980849576109939,-0.222494114062377
33.5,-0.100952884376288,-0.224700166347965,0.842758906144416,-0.433418182932792,0.842758906148117,-0.43341818292434,-0.101004068229257,-0.224850767230072
34,-0.103896476497353,-0.22701344540311,0.838931318885423,-0.438553282897017,0.838931318889126,-0.438553282888954,-0.103950384524698,-0.227166889191356
34.5,-0.106866566209582,-0.229285870789993,0.835071492146982,-0.443642517582825,0.835071492150675,-0.44364251757514,-0.106923288729386,-0.229442261777743
35,-0.109862533725801,-0.231517231128761,0.831180119877269,-0.448685697974141,0.831180119880939,-0.448685697966822,-0.109922162150402,-0.231676685783621
35.5,-0.112883758994751,-0.233707333589454,0.827257897695789,-0.453682648743429,0.827257897699425,-0.453682648736466,-0.112946385167649,-0.233869981783576
36,-0.115929621786813,-0.235856004697067,0.823305522396217,-0.458633208252128,0.823305522399808,-0.45863320824551,-0.11599533713467,-0.236021991033704
36.5,-0.118999501696681,-0.23796309122943,0.819323691464668,-0.4635372285279,0.819323691468205,-0.463537228521614,-0.119068396159037,-0.23813257646221
37,-0.122092778040893,-0.240028461216443,0.815313102613408,-0.468394575220568,0.815313102616882,-0.468394575214604,-0.122164938733994,-0.240201623752912
37.5,-0.125208829623164,-0.242052005048521,0.811274453329879,-0.473205127538522,0.811274453333282,-0.473205127532867,-0.125284339187499,-0.242229042522708
38,-0.128347034334468,-0.24403363670049,0.807208440440944,-0.477968778167155,0.807208440444268,-0.477968778161799,-0.128425968908326,-0.244214767590144
38.5,-0.131506768547762,-0.245973295074543,0.803115759692179,-0.482685433170843,0.803115759695416,-0.482685433165774,-0.131589195301642,-0.246158760326542
39,-0.134687406258985,-0.247870945461614,0.798997105342019,-0.487355011879817,0.798997105345165,-0.487355011875024,-0.134773380418552,-0.248061010073204
39.5,-0.137888317916514,-0.249726581114084,0.794853169770572,-0.491977446763163,0.794853169773619,-0.491977446758635,-0.137977879195581,-0.249921535597172
40,-0.141108868870634,-0.251540224913506,0.790684643102843,-0.496552683289163,0.790684643105786,-0.496552683284888,-0.141202037231621,-0.251740386543279
40.5,-0.144348417362997,-0.253311931103826,0.786492212846161,-0.50108067977399,0.786492212848996,-0.501080679769958,-0.144445188022002,-0.253517644820554
41,-0.147606311964063,-0.255041787042437,0.782276563541548,-0.505561407219813,0.782276563544272,-0.505561407216013,-0.14770664956333,-0.255253425835663
41.5,-0.150881888354935,-0.256729914896841,0.778038376428775,-0.509994849143187,0.778038376431383,-0.509994849139608,-0.150985720240246,-0.256947879453591
42,-0.154174465340288,-0.258376473182082,0.773778329124849,-0.514381001394631,0.773778329127338,-0.514381001391264,-0.154281673908712,-0.258601190525496
42.5,-0.157483339973594,-0.259981657991795,0.769497095315679,-0.518719871970157,0.769497095318047,-0.51871987196699,-0.157593754103301,-0.260213578774768
43,-0.16080778167783,-0.261545703722092,0.765195344460642,-0.523011480815526,0.765195344462887,-0.523011480812551,-0.160921167322742,-0.261785297775077
43.5,-0.164147025259252,-0.263068883021196,0.760873741509805,-0.527255859623914,0.760873741511926,-0.52725585962112,-0.164263075394316,-0.263316632690031
44,-0.167500262745138,-0.26455150561877,0.756532946633516,-0.531453051627635,0.756532946635511,-0.531453051625012,-0.167618586990808,-0.264807896376633
44.5,-0.170866634037344,-0.265993915598906,0.752173614964132,-0.535603111384542,0.752173614965999,-0.535603111382081,-0.170986748480935,-0.266259423390973
45,-0.174245216472671,-0.267396486584667,0.747796396349594,-0.539706104559669,0.747796396351334,-0.539706104557361,-0.174366534443334,-0.267671561385783
45.5,-0.17763501353045,-0.268759614210186,0.743401935118614,-0.543762107702657,0.743401935120227,-0.543762107700493,-0.177756838370663,-0.269044659372882
46,-0.181034943139586,-0.270083705185611,0.738990869857208,-0.547771208021453,0.738990869858694,-0.547771208019424,-0.18115646433494,-0.270379052362789
46.5,-0.184443826320498,-0.271369162237595,0.734563833196308,-0.551733503152777,0.734563833197668,-0.551733503150875,-0.184564120669548,-0.271675042019295
47,-0.187860377253161,-0.272616364271288,0.730121451610237,-0.555649100929775,0.73012145161147,-0.555649100927991,-0.18797841702454,-0.272932873212848
47.5,-0.191283196276641,-0.273825641297501,0.725664345225743,-0.559518119147309,0.725664345226852,-0.559518119145637,-0.191397866427042,-0.274152706756662
48,-0.194710767758907,-0.274997244056391,0.721193127641411,-0.563340685325251,0.721193127642397,-0.563340685323682,-0.194820894159916,-0.275334589184781
48.5,-0.198141465154342,-0.276131308898013,0.716708405757145,-0.567116936470166,0.71670840575801,-0.567116936468692,-0.198245855267225,-0.276478421177259
49,-0.201573565773862,-0.277227819379085,0.712210779613526,-0.570847018835735,0.712210779614273,-0.570847018834351,-0.201671062196015,-0.277583927103394
49.5,-0.205005277672721,-0.27828656718145,0.707700842240776,-0.574531087682259,0.707700842241405,-0.574531087680956,-0.205094823387815,-0.278650629026318
50,-0.208434780437858,-0.279307116242892,0.703179179517105,-0.578169307035531,0.70317917951762,-0.578169307034302,-0.208515492478926,-0.279677829206418
50.5,-0.211860280379943,-0.280288775193936,0.698646370036212,-0.5817618494454,0.698646370036616,-0.581761849444241,-0.211931526184316,-0.28066460541505
51,-0.215280078653277,-0.281230583975901,0.694102984983691,-0.585308895744296,0.694102984983986,-0.585308895743199,-0.215341547087485,-0.281609822969152
51.5,-0.218692648272538,-0.282131320463997,0.68954958802212,-0.58881063480597,0.68954958802231,-0.588810634804931,-0.218744405754566,-0.282512166134219
52,-0.222096713253273,-0.282989531657352,0.684986735184616,-0.592267263304721,0.684986735184705,-0.592267263303734,-0.222139235274532,-0.283370189395102
52.5,-0.225491320806086,-0.283803591346862,0.680414974776617,-0.595678985475317,0.680414974776606,-0.595678985474376,-0.22552549096512,-0.284182386285277
53,-0.228875896426678,-0.284571782320628,0.675834847285666,-0.599046012873855,0.675834847285559,-0.599046012872955,-0.228902968916949,-0.284947270482979
53.5,-0.232250272503354,-0.285292396760515,0.671246885299003,-0.602368564139762,0.671246885298805,-0.602368564138899,-0.232271799334282,-0.285663461393655
54,-0.235614683969285,-0.285963844542648,0.666651613428706,-0.605646864759129,0.666651613428421,-0.6056468647583,-0.235632413952309,-0.286329765105257
54.5,-0.238969729201342,-0.28658475679553,0.662049548244211,-0.608881146829571,0.662049548243842,-0.60888114682877,-0.238985490510517,-0.286945241858737
55,-0.242316299834672,-0.287154072103919,0.657441198211955,-0.612071648826778,0.657441198211506,-0.612071648826002,-0.24233188051925,-0.287509253050569
55.5,-0.245655488095179,-0.287671095334242,0.652827063641962,-0.61521861537294,0.652827063641437,-0.615218615372185,-0.24567252864509,-0.288021483867467
56,-0.248988483424772,-0.288135523594445,0.648207636641154,-0.618322297007177,0.648207636640558,-0.61832229700644,-0.249008392558757,-0.288481941225059
56.5,-0.252316470894994,-0.288547439160527,0.643583401073179,-0.621382949958131,0.643583401072516,-0.621382949957409,-0.252340371067726,-0.288890929947678
57,-0.255640542227274,-0.288907273996988,0.63895483252455,-0.62440083591886,0.638954832523825,-0.62440083591815,-0.255669246204247,-0.289249012462559
57.5,-0.258961626866125,-0.289215753766694,0.634322398276906,-0.627376221824145,0.634322398276123,-0.627376221823445,-0.258995642271118,-0.289556958389112
58,-0.262280446514336,-0.289473830537621,0.629686557285183,-0.630309379630341,0.629686557284346,-0.630309379629648,-0.262320002270071,-0.289815690326318
58.5,-0.265597492813007,-0.289682612904486,0.625047760161515,-0.633200586097876,0.625047760160628,-0.633200586097188,-0.265642580094044,-0.290026231172857
59,-0.268913025089327,-0.289843300501589,0.620406449164654,-0.636050122576492,0.620406449163722,-0.636050122575808,-0.268963445565871,-0.290189656857957
59.5,-0.272227083547256,-0.289957127568145,0.61576305819473,-0.638858274793345,0.615763058193759,-0.638858274792664,-0.272282498850409,-0.290307056796817
60,-0.275539512844471,-0.290025317928361,0.611118012793171,-0.641625332644017,0.611118012792163,-0.641625332643337,-0.275599490811236,-0.290379502991452
60.5,-0.278849991388495,-0.290049051850066,0.606471730147571,-0.644351589986545,0.606471730146532,-0.644351589985866,-0.278914046323158,-0.290408027627898
61,-0.28215806254684,-0.29002944391364,0.601824619101363,-0.647037344438536,0.601824619100298,-0.647037344437856,-0.282225688188839,-0.29039360831434
61.5,-0.285463164996585,-0.289967530254248,0.597177080168079,-0.649682897177414,0.597177080166992,-0.649682897176733,-0.285533859985656,-0.290337159727728
62,-0.2887646604253,-0.289864263233389,0.59252950555005,-0.65228855274389,0.592529505548945,-0.652288552743209,-0.288837946785187,-0.290239530315613
62.5,-0.292061857619616,-0.289720511613361,0.587882279161358,-0.65485461884868,0.58788227916024,-0.654854618847996,-0.292137293190725,-0.290101502753772
63,-0.295354032597216,-0.289537064519444,0.583235776654869,-0.657381406182532,0.583235776653742,-0.657381406181848,-0.295431218513024,-0.289923797015135
63.5,-0.298640444859058,-0.289314637775312,0.578590365453192,-0.65986922822961,0.578590365452061,-0.659869228228925,-0.298719029159698,-0.289707075105371
