"Freq [GHz]","re(St(P1,P1)) []","im(St(P1,P1)) []","re(St(P1,P2)) []","im(St(P1,P2)) []","re(St(P2,P1)) []","im(St(P2,P1)) []","re(St(P2,P2)) []","im(St(P2,P2)) []"
0,0.00407319730447853,0,0.995937298765057,0,0.995937297702767,0,0.00407318631312137,0
0.5,0.00445249006369153,0.000761674037089932,0.995437100295892,-0.00719520287187336,0.995437100142308,-0.00719520290886422,0.00445257402988375,0.000760963126076319
1,0.00474171066134765,0.00105015738420633,0.994830507708853,-0.0138740239303097,0.994830507634672,-0.013874023932626,0.0047419443809229,0.00104858650540507
1.5,0.00459509786142753,0.00151341917469949,0.994242821569888,-0.0206255960777959,0.994242821500329,-0.0206255960801904,0.00459523208859203,0.00151101737338166
2,0.0044299067023994,0.00192566142239059,0.993518998888692,-0.0272058780648674,0.993518998826048,-0.0272058780668232,0.00442992334668624,0.00192238465725403
2.5,0.00426653101911656,0.00229435216006912,0.992716412592299,-0.0336166190354525,0.992716412538607,-0.0336166190369145,0.00426642530625942,0.00229015464508286
3,0.00411772998594007,0.00263231235357075,0.991876272219926,-0.0398774286272818,0.991876272176584,-0.0398774286285253,0.00411750686956225,0.00262715115302647
3.5,0.00398949967094264,0.00295319015912909,0.991022484322856,-0.0460145765739668,0.991022484290489,-0.046014576575427,0.00398916952101769,0.00294702720754181
4,0.0038832644260749,0.0032692297236494,0.990165185920959,-0.0520536227415622,0.990165185899453,-0.0520536227436246,0.0038828392602388,0.00326203202917696
4.5,0.00379788178614149,0.00359072500340218,0.989305401355455,-0.0580159777336524,0.989305401344079,-0.0580159777365523,0.00379737240509392,0.003582464030357
5,0.00373099455449211,0.00392631666098175,0.988438990718002,-0.0639180685066831,0.988438990715581,-0.0639180685104872,0.00373040837757965,0.00391696763437466
5.5,0.00367978129380897,0.0042835794925038,0.987559396642351,-0.0697717953786414,0.987559396647399,-0.0697717953832928,0.00367912047426788,0.00427312105260924
6,0.00364128822216159,0.00466964538939507,0.986659328185983,-0.0755854320226854,0.986659328196831,-0.0755854320280411,0.00364054757047094,0.00465805982160905
6.5,0.00361249881211934,0.00509178522467035,0.985731689848064,-0.0813645422576128,0.98573168986294,-0.0813645422634988,0.0036116630188654,0.00507905940879461
7,0.00359023555148652,0.00555795684710514,0.984770034829685,-0.087112749031439,0.984770034846793,-0.0871127490377033,0.00358927508837609,0.00554408407164431
7.5,0.00357093230964839,0.00607736056447195,0.983768742015328,-0.0928323217383653,0.983768742032891,-0.0928323217448934,0.0035697971320186,0.00606234339791456
8,0.00355026958460641,0.00666105839512632,0.982723043553519,-0.0985246013584744,0.982723043569819,-0.098524601365221,0.00354887927281217,0.00664491286468305
8.5,0.00352261989615166,0.00732272474030804,0.981628978149284,-0.104190298042226,0.981628978162689,-0.104190298049216,0.0035208479994206,0.00730548609207826
9,0.00348019260010538,0.00807961117312406,0.980483312239835,-0.109829694841192,0.980483312248814,-0.109829694848528,0.00347784138892393,0.00806134136752679
9.5,0.00341167494129927,0.00895382876429141,0.979283451599168,-0.115442785103685,0.979283451602306,-0.115442785111537,0.00340843397107519,0.00893462531536304
10,0.00330000181338345,0.00997407320271515,0.978027354731677,-0.121029364215945,0.978027354727675,-0.121029364224544,0.00329537858314051,0.00995407726006459
10.5,0.00346032779130694,0.0104583786962906,0.976863170718,-0.1266323419963,0.976863170713436,-0.126632342004361,0.00345792300326519,0.0104381961756941
11,0.00362849518884179,0.0109406484445937,0.975681988185044,-0.132204763906325,0.975681988179986,-0.132204763913835,0.0036283918873625,0.0109204112025658
11.5,0.00380450746829239,0.0114208040742589,0.97448460517332,-0.137748994050314,0.974484605167832,-0.13774899405727,0.00380678318292044,0.0114006529932831
12,0.00398836820631229,0.0118987703260602,0.97327154571975,-0.143267252545652,0.973271545713893,-0.143267252552055,0.00399309421463595,0.0118788555693805
12.5,0.00418008102679057,0.0123744753155282,0.97204310210081,-0.148761602538136,0.972043102094639,-0.148761602543992,0.0041873215436356,0.0123549565527949
13,0.00437964951410191,0.0128478508082126,0.970799373467817,-0.154233943658773,0.970799373461381,-0.154233943664094,0.00438946080338196,0.0128288974028119
13.5,0.0045870771035757,0.0133188325093965,0.969540300549704,-0.159686010550123,0.969540300543047,-0.159686010554921,0.00459950650964663,0.0133006236570354
14,0.00480236694579478,0.0137873603677487,0.968265696345253,-0.165119375263834,0.968265696338416,-0.165119375268125,0.00481745184185017,0.0137700851745519
14.5,0.00502552174096901,0.0142533788919894,0.966975272902416,-0.170535452511462,0.966975272895434,-0.170535452515265,0.0050432883929569,0.014237236378964
15,0.0052565435393645,0.0147168374792237,0.965668664400191,-0.175935506924616,0.965668664393095,-0.175935506927949,0.00527700588510713,0.0147020364985155
15.5,0.00549543350346121,0.0151776907529921,0.964345446820853,-0.181320661640515,0.96434544681367,-0.181320661643399,0.00551859184817222,0.015164449799864
16,0.0057421916272602,0.0156358989084504,0.963005154538168,-0.186691907670678,0.963005154530923,-0.186691907673131,0.00576803125850969,0.0156244458114858
16.5,0.00599681640794938,0.0160914280613547,0.961647294159875,-0.192050113632352,0.961647294152588,-0.192050113634394,0.00602530613539015,0.0160819995319779
17,0.00625930446499659,0.0165442505965654,0.960271355957859,-0.197396035524844,0.960271355950547,-0.197396035526495,0.0062903950928459,0.0165370916177467
17.5,0.00652965010167844,0.0169943455108648,0.958876823202975,-0.202730326317189,0.958876823195654,-0.202730326318469,0.00656327284511132,0.0169897085437998
18,0.00680784480414576,0.0174416987436592,0.957463179697928,-0.208053545181674,0.95746317969061,-0.2080535451826,0.00684390966440443,0.01743984273052
18.5,0.00709387667335237,0.0178863034879608,0.956029915774408,-0.213366166261814,0.956029915767103,-0.213366166262405,0.00713227079053685,0.0178874926284727
19,0.00738772978560404,0.0183281604725605,0.954576532992089,-0.218668586905451,0.954576532984805,-0.218668586905722,0.00742831579277242,0.0183326627524105
19.5,0.00768938347818438,0.0187672782049189,0.953102547748832,-0.223961135325811,0.953102547741578,-0.223961135325782,0.00773199788554862,0.0187753636549843
20,0.00799881155747134,0.0192036731626404,0.951607493984524,-0.229244077677548,0.951607493977306,-0.229244077677232,0.00804326320102278,0.019215611829805
20.5,0.00831598142830137,0.0196373699198893,0.950090925136029,-0.234517624552314,0.95009092512885,-0.234517624551724,0.00836205002310281,0.0196534295331117
21,0.00864085314504037,0.0200684011934316,0.948552415478109,-0.239781936910978,0.948552415470972,-0.23978193691013,0.00868828798948662,0.020088844512826
21.5,0.00897337838699891,0.0204968077915209,0.94699156096497,-0.245037131478036,0.946991560957879,-0.245037131476941,0.00902189727039904,0.020521889633724
22,0.00931349936348941,0.0209226384475343,0.94540797966929,-0.250283285629133,0.945407979662245,-0.250283285627803,0.0093627877351064,0.0209526023876812
22.5,0.00966114765697479,0.0213459495191766,0.943801311900013,-0.255520441805722,0.943801311893016,-0.255520441804169,0.00971085811984085,0.0213810242786066
23,0.0100162430164882,0.0217668045334702,0.942171220066827,-0.260748611492152,0.942171220059877,-0.260748611490386,0.0100659952135081,0.0218072000728029
23.5,0.0103786921176889,0.0221852735576875,0.94051738834767,-0.265967778790602,0.940517388340768,-0.265967778788632,0.0104280730802974,0.0222311769072285
24,0.0107483873106131,0.0226014323770671,0.938839522205833,-0.271177903628379,0.938839522198977,-0.271177903626214,0.0107969523410713,0.0226530032504941
24.5,0.0111252053812092,0.0230153614617274,0.937137347794852,-0.276378924630751,0.937137347788042,-0.276378924628401,0.011172479537928,0.0230727277144605
25,0.0115090063580115,0.0234271447079051,0.935410611282432,-0.281570761690598,0.935410611275667,-0.281570761688069,0.0115544866085694,0.0234903977180976
25.5,0.0118996324005869,0.0238368679426082,0.933659078118692,-0.286753318264131,0.93365907811197,-0.28675331826143,0.0119427904987965,0.0239060580097843
26,0.0122969068114087,0.0242446171860922,0.931882532269137,-0.291926483419814,0.931882532262456,-0.291926483416947,0.0123371929424295,0.0243197490593801
26.5,0.012700633217237,0.0246504766734568,0.930080775428659,-0.297090133665388,0.930080775422017,-0.297090133662361,0.0127374804380363,0.0247315053372028
27,0.013110594969553,0.025054526644998,0.928253626229466,-0.302244134575799,0.928253626222863,-0.302244134572617,0.0131434244507753,0.0251413535032559
27.5,0.0135265548156164,0.0254568409247364,0.92640091945305,-0.307388342242779,0.926400919446481,-0.307388342239447,0.0135547818653054,0.0255493105364493
28,0.0139482548918571,0.0258574843175603,0.924522505253985,-0.312522604564862,0.92452250524745,-0.312522604561384,0.0139712957119121,0.0259553818399814
28.5,0.0143754170891421,0.0262565098673371,0.922618248401488,-0.317646762394828,0.922618248394985,-0.317646762391209,0.0143926961826361,0.0263595593650083
29,0.0148077438345248,0.0266539560306331,0.920688027543106,-0.322760650559852,0.920688027536632,-0.322760650556095,0.0148187019473134,0.0267618197999857
29.5,0.0152449193261029,0.0270498438327664,0.918731734493673,-0.327864098768111,0.918731734487226,-0.327864098764219,0.015249021771073,0.0271621228771035
30,0.0156866112464437,0.0274441740839559,0.916749273551672,-0.33295693241417,0.916749273545251,-0.332956932410146,0.0156833564252263,0.0275604098497502
30.5,0.0161324729656894,0.0278369247425065,0.914740560844329,-0.338038973294181,0.914740560837931,-0.338038973290029,0.0161214008729265,0.0279566021954831
31,0.0165821462282749,0.028228048518333,0.912705523702128,-0.343110040240758,0.912705523695751,-0.343110040236478,0.0165628466998786,0.0283506005972547
31.5,0.017035264297671,0.0286174708128029,0.910644100062938,-0.348169949686334,0.910644100056581,-0.34816994968193,0.0170073847493061,0.028742284251468
32,0.0174914555126716,0.0290050880891159,0.908556237905557,-0.353218516162877,0.908556237899218,-0.353218516158349,0.0174547079098991,0.0291315105447121
32.5,0.0179503471874675,0.0293907667606452,0.906441894712163,-0.358255552744946,0.90644189470584,-0.358255552740297,0.0179045139962357,0.0295181151318387
33,0.0184115697674792,0.0297743426726473,0.904301036958943,-0.363280871442354,0.904301036952636,-0.363280871437586,0.0183565086538053,0.0299019124366229
33.5,0.0188747611350741,0.0301556212355651,0.902133639634029,-0.368294283547979,0.902133639627735,-0.368294283543091,0.0188104082158426,0.0302826965831386
34,0.0193395709452399,0.0305343782464171,0.899939685781694,-0.373295599945672,0.899939685775413,-0.373295599940666,0.0192659424371439,0.0306602427515752
34.5,0.0198056648623661,0.0309103614093844,0.897719166071766,-0.378284631382678,0.897719166065496,-0.378284631377556,0.0197228570312229,0.0310343089374583
35,0.020272728566414,0.031283292539106,0.895472078393081,-0.383261188710461,0.89547207838682,-0.383261188705224,0.0201809159415959,0.0314046380787307
35.5,0.0207404714006059,0.0316528704019341,0.893198427469853,-0.388225083097439,0.893198427463601,-0.388225083092086,0.0206399032856324,0.0317709605018048
36,0.0212086295433528,0.0320187741233522,0.89089822449978,-0.393176126216697,0.890898224493536,-0.39317612621123,0.0210996249198653,0.0321329966262403
36.5,0.0216769686041067,0.0323806670656386,0.888571486812741,-0.398114130411472,0.888571486806505,-0.39811413040589,0.0215599095884407,0.0324904598587972
37,0.0221452855651924,0.0327382010603801,0.886218237548966,-0.403038908840806,0.886218237542735,-0.403038908835109,0.0220206096307848,0.0328430596017635
37.5,0.0226134100180276,0.0330910208667756,0.883838505355565,-0.407950275607587,0.883838505349341,-0.407950275601778,0.0224816012397886,0.0331905042978737
38,0.0230812046708861,0.033438768719758,0.881432324100386,-0.412848045870899,0.881432324094167,-0.412848045864975,0.0229427842770401,0.0335325044350325
38.5,0.0235485651345071,0.0337810888320561,0.878999732602154,-0.417732035944381,0.87899973259594,-0.417732035938344,0.0234040816660387,0.0338687754380864
39,0.024015419019686,0.0341176317211789,0.876540774375943,-0.422602063382168,0.876540774369734,-0.422602063376018,0.0238654383972012,0.0341990403818884
39.5,0.0244817244057702,0.0344480582452129,0.874055497393047,-0.427457947053731,0.874055497386843,-0.427457947047468,0.0243268201892247,0.0345230324691528
40,0.0249474677594289,0.0347720432491453,0.871543953854368,-0.432299507208855,0.871543953848169,-0.432299507202478,0.0247882118596044,0.0348404972276687
40.5,0.0254126613982466,0.0350892787446685,0.86900619997649,-0.437126565533825,0.869006199970296,-0.437126565527336,0.0252496154625581,0.0351511943934446
41,0.0258773406031381,0.0353994765696434,0.866442295789656,-0.441938945199777,0.866442295783466,-0.441938945193174,0.0257110482553132,0.0354548994587723
41.5,0.0263415604873071,0.0357023704969651,0.8638523049469,-0.446736470904055,0.863852304940716,-0.446736470897338,0.0261725405537322,0.0357514048762645
42,0.0268053927278602,0.0359977177851074,0.861236294543646,-0.45151896890536,0.861236294537469,-0.451518968898531,0.0266341335359124,0.0360405209211093
42.5,0.0272689222599791,0.036285300183049,0.858594334947101,-0.456286267053341,0.85859433494093,-0.456286267046399,0.027095877048071,0.0363220762237397
43,0.0277322440236406,0.036564924419623,0.855926499634845,-0.461038194813235,0.85592649962868,-0.46103819480618,0.0275578274611642,0.0365959179933938
43.5,0.0281954598403611,0.0368364222211601,0.853232865042024,-0.465774583286109,0.853232865035867,-0.46577458327894,0.0280200456197338,0.0368619119595778
44,0.0286586754833073,0.0370996499113543,0.850513510416622,-0.470495265225144,0.850513510410473,-0.470495265217862,0.0284825949169615,0.0371199420631786
44.5,0.0291219979894235,0.0373544876536172,0.847768517682285,-0.475200075048425,0.847768517676147,-0.47520007504103,0.0289455395221707,0.0373699099318755
45,0.0295855332477428,0.0376008383991155,0.844997971308248,-0.479888848848588,0.844997971302119,-0.47988884884108,0.0294089427794765,0.037611734175844
45.5,0.0300493838845207,0.0378386266036262,0.842201958185893,-0.484561424399671,0.842201958179776,-0.484561424392049,0.029872865789233,0.037845349539622
46,0.0305136474537126,0.0380677967738153,0.839380567511557,-0.489217641161459,0.839380567505452,-0.489217641153725,0.0303373661775409,0.0380707059447317
46.5,0.0309784149309469,0.0382883118991627,0.836533890675173,-0.493857340281612,0.836533890669082,-0.493857340273766,0.030802497053539,0.0382877674554185
47,0.0314437695006512,0.0385001518200211,0.833662021154412,-0.498480364595779,0.833662021148336,-0.498480364587821,0.0312683061495819,0.0384965111969903
47.5,0.0319097856194223,0.0387033115757883,0.830765054413961,-0.503086558625946,0.830765054407902,-0.503086558617875,0.0317348351356901,0.0386969262528911
48,0.0323765283339555,0.0388977997702943,0.827843087809648,-0.507675768577172,0.827843087803607,-0.50767576856899,0.0322021190968497,0.0388890125630983
48.5,0.0328440528287539,0.0390836369846501,0.824896220497107,-0.512247842332916,0.824896220491086,-0.512247842324623,0.0326701861597645,0.0390727798427947
49,0.0333124041771315,0.0392608542612531,0.821924553344713,-0.516802629449068,0.821924553338713,-0.516802629440664,0.0331390572544194,0.0392482465367506
49.5,0.0337816172685678,0.0394294916765933,0.818928188850533,-0.521339981146848,0.818928188844555,-0.521339981138335,0.033608745995221,0.0394154388215113
50,0.03425171688593,0.039589597015092,0.815907231063056,-0.525859750304672,0.815907231057103,-0.525859750296049,0.0340792586664163,0.0395743896644336
50.5,0.0347227179072886,0.0397412245515261,0.812861785505484,-0.530361791449094,0.812861785499557,-0.530361791440363,0.0345505942968574,0.0397251379458636
51,0.0351946256087788,0.0398844339455853,0.809791959103363,-0.534845960744929,0.809791959097464,-0.53484596073609,0.0350227448098665,0.0398677276483798
51.5,0.0356674360470153,0.040019289248888,0.806697860115382,-0.539312115984624,0.806697860109513,-0.539312115975678,0.0354956952348909,0.0400022071149706
52,0.0361411365018374,0.0401458580221713,0.803579598067147,-0.543760116576959,0.80357959806131,-0.543760116567908,0.0359694239687225,0.0401286283763297
52.5,0.036615705962463,0.0402642105583806,0.800437283687766,-0.548189823535153,0.800437283681963,-0.548189823525997,0.0364439030752285,0.0402470465460774
53,0.0370911156424399,0.040374419205963,0.797271028849085,-0.552601099464411,0.797271028843318,-0.552601099455151,0.0369190986137706,0.0403575192816494
53.5,0.0375673295109588,0.0404765577856475,0.794080946507445,-0.55699380854899,0.794080946501715,-0.556993808539627,0.0373949709876792,0.040460106307772
54,0.0380443048301662,0.0405707010934003,0.790867150647794,-0.561367816538809,0.790867150642105,-0.561367816529345,0.0378714753053279,0.040554868998861
54.5,0.0385219926899569,0.0406569244819489,0.787629756230069,-0.565722990735667,0.787629756224422,-0.565722990726103,0.038348561747457,0.0406418700163147
55,0.0390003385334421,0.0407353035132364,0.784368879137684,-0.570059199979077,0.784368879132081,-0.570059199969414,0.0388261759354109,0.0407211729964256
55.5,0.0394792826677359,0.0408059136742817,0.781084636128053,-0.574376314631773,0.781084636122497,-0.574376314622013,0.0393042592958936,0.0407928422845654
56,0.0399587607560244,0.0408688301492548,0.777777144785021,-0.578674206564912,0.777777144779514,-0.578674206555058,0.0397827494186832,0.0408569427113219
56.5,0.0404387042879643,0.0409241276409303,0.774446523473119,-0.582952749142993,0.774446523467663,-0.582952749133045,0.0402615804044862,0.0409135394063581
57,0.0409190410264006,0.0409718802351692,0.771092891293543,-0.587211817208511,0.77109289128814,-0.587211817198471,0.0407406832007706,0.0409626976459485
57.5,0.0413996954291654,0.0410121613025518,0.767716368041787,-0.591451287066391,0.767716368036439,-0.591451287056262,0.0412199859239667,0.041004482730343
58,0.0418805890453559,0.041045043431817,0.76431707416684,-0.595671036468183,0.76431707416155,-0.595671036457967,0.0416994141669224,0.0410389598873716
58.5,0.0423616408860031,0.0410705983902647,0.76089513073188,-0.599870944596069,0.76089513072665,-0.599870944585769,0.0421788912908845,0.041066194198942
59,0.0428427677694477,0.041088897106788,0.757450659376396,-0.604050892046677,0.757450659371229,-0.604050892036294,0.0426583387016327,0.0410862505473725
59.5,0.0433238846420461,0.0411000096736605,0.753983782279673,-0.608210760814716,0.753983782274571,-0.608210760804252,0.0431376761096577,0.0410991935787549
60,0.0438049048750786,0.0411040053636932,0.750494622125582,-0.612350434276451,0.750494622120547,-0.61235043426591,0.0436168217745073,0.0411050876808206
60.5,0.0442857405388797,0.0411009526597371,0.74698330206862,-0.616469797173024,0.746983302063655,-0.616469797162408,0.0440956927335897,0.0411039969730262
61,0.0447663026553462,0.0410909192939531,0.743449945701151,-0.620568735593632,0.743449945696258,-0.620568735582945,0.0445742050158788,0.0410959853068213
61.5,0.0452465014300387,0.0410739722945718,0.739894677021783,-0.624647136958567,0.739894677016964,-0.62464713694781,0.0450522738410502,0.0410811162742979
62,0.0457262464651255,0.0410501780382129,0.736317620404866,-0.628704890002125,0.736317620400124,-0.628704889991301,0.0455298138046639,0.0410594532236102
62.5,0.046205446954431,0.0410196023060955,0.732718900571039,-0.632741884755399,0.732718900566375,-0.632741884744513,0.0460067390500562,0.0410310592797689
63,0.0466840118618312,0.0409823103427426,0.729098642558803,-0.636758012528957,0.72909864255422,-0.636758012518011,0.0464829634276351,0.0409959973695837
63.5,0.0471618500842156,0.0409383669159873,0.725456971697078,-0.640753165895402,0.725456971692579,-0.6407531658844,0.0469584006422865,0.0409543302496883
64,0.047638870600171,0.0408878363772994,0.721794013578714,-0.644727238671837,0.7217940135743,-0.644727238660782,0.0474329643896028,0.0409061205367272
