"Freq [GHz]","re(St(P1,P1)) []","im(St(P1,P1)) []","re(St(P1,P2)) []","im(St(P1,P2)) []","re(St(P2,P1)) []","im(St(P2,P1)) []","re(St(P2,P2)) []","im(St(P2,P2)) []"
0,0.00439180357494706,0,0.995620396774029,0,0.995620397879975,0,0.00439180298889141,0
0.5,0.00478752995620368,0.000996946302301183,0.995117065315608,-0.00713294501482409,0.995117065230051,-0.00713294495683314,0.00478759800145667,0.00099672158558306
1,0.00510832381736215,0.00149991348136425,0.994514725087827,-0.013735833431646,0.99451472509929,-0.013735833453282,0.00510853236188957,0.0014993427523784
1.5,0.004919035042251,0.00208078618610585,0.993944330455269,-0.020415484769515,0.993944330466955,-0.0204154848009779,0.0049189521318791,0.00207955990203246
2,0.00477352845459045,0.00260088630552247,0.993249690715393,-0.0269259814575307,0.993249690727343,-0.0269259814975982,0.00477327011999851,0.00259898291705163
2.5,0.00467284514840083,0.00310081208183277,0.99248760760613,-0.0332737652757995,0.99248760761846,-0.0332737653229032,0.00467245299966645,0.0030982721529913
3,0.00460644460299298,0.00360185421142312,0.991696341878868,-0.0394818629535045,0.991696341891805,-0.0394818630058946,0.00460591019104628,0.0035987184245645
3.5,0.0045643250288645,0.00411403693509982,0.990896002751633,-0.0455778895929413,0.990896002765462,-0.045577889648861,0.00456361613817946,0.00411033336177091
4,0.00453926875498856,0.00464230042790348,0.990093304226562,-0.0515870092609578,0.990093304241566,-0.0515870093187178,0.00453834232291817,0.00463804634099851
4.5,0.004526425561864,0.00518957599416847,0.989286766955102,-0.0575292188033547,0.989286766971496,-0.0575292188614362,0.00452523251456172,0.00518478154548951
5,0.00452256527517025,0.00575814752660442,0.988470707995309,-0.0634191490065668,0.988470708013191,-0.0634191490636251,0.00452105171914541,0.00575281856811305
5.5,0.0045254970016283,0.0063502409586782,0.987637797690569,-0.0692669229136733,0.987637797709903,-0.0692669229685521,0.00452360386675965,0.00634438088789491
6,0.00453368168789925,0.00696828843772312,0.986780505232302,-0.0750792513121992,0.98678050525292,-0.0750792513639329,0.00453134366253016,0.00696189937658787
6.5,0.00454598247182897,0.00761506129844847,0.985891823354185,-0.0808604127731138,0.985891823375799,-0.0808604128209165,0.00454312652539396,0.00760814487433059
7,0.00456150187951587,0.00829375508655161,0.984965572894554,-0.0866130164032368,0.984965572916779,-0.0866130164464867,0.00455804543957056,0.00828631299122229
7.5,0.00457947098562173,0.00900806330301496,0.983996481812784,-0.0923385535799452,0.983996481835161,-0.0923385536181787,0.0045753197334662,0.00900009773648591
8,0.00459916819286305,0.00976225731886426,0.98298015301932,-0.098037779841075,0.982980153041343,-0.0980377798739669,0.00459421338454616,0.00975377138220246
8.5,0.0046198531608076,0.0105612823219854,0.981912983966293,-0.103710971617109,0.981912983987426,-0.103710971644458,0.00461396833421443,0.0105522803974223
9,0.00464070585819241,0.0114108766971648,0.980792070753422,-0.109358095233227,0.980792070773126,-0.109358095254944,0.00463374273601552,0.0114013648372921
9.5,0.00466076286147348,0.0123177222611717,0.979615112737134,-0.114978916349476,0.979615112754877,-0.114978916365564,0.00465254619374423,0.0123077085963597
10,0.00467884355874094,0.013289634265691,0.978380324710998,-0.120573069876227,0.978380324726267,-0.120573069886771,0.00466916455737346,0.0132791294256469
10.5,0.00486254840819734,0.0139362178174451,0.977234536476859,-0.126188080413665,0.977234536491468,-0.12618808042434,0.00485412122191971,0.0139252426059429
11,0.00505499832740378,0.0145801960318792,0.97606906404513,-0.131772968255006,0.976069064059083,-0.131772968265771,0.00504788730504951,0.0145687635220026
11.5,0.00525616334834181,0.0152214482181883,0.974884863796784,-0.137329809780532,0.974884863810086,-0.137329809791351,0.00525043331208892,0.0152095733756856
12,0.00546601233393987,0.0158598541794093,0.973682633376384,-0.14286058214801,0.973682633389045,-0.142860582158848,0.00546172859602839,0.0158475540634906
12.5,0.00568451301311207,0.0164952942414964,0.972462846691533,-0.148367146865241,0.972462846703563,-0.148367146876062,0.00568174138956612,0.0164825882204975
13,0.00591163201839309,0.0171276492837968,0.971225786770148,-0.153851239300321,0.971225786781561,-0.153851239311094,0.00591043883897421,0.0171145592665782
13.5,0.006147334926313,0.0177568007710533,0.969971575994561,-0.159314463053374,0.96997157600537,-0.159314463064071,0.00614778703981766,0.0177433514550813
14,0.00639158630067072,0.0183826307872201,0.968700203458498,-0.164758288210037,0.968700203468718,-0.164758288220627,0.00639375107453,0.0183688499242995
14.5,0.00664434973887229,0.0190050220712901,0.96741154936623,-0.170184052612075,0.967411549375878,-0.170184052622536,0.00664829505186321,0.0189909407519897
15,0.00690558792150639,0.0196238580554562,0.966105406519538,-0.175592965401484,0.966105406528632,-0.175592965411794,0.00691138214819267,0.0196095110133223
15.5,0.00717526266534554,0.0202390229059035,0.964781499025738,-0.180986112212924,0.964781499034295,-0.180986112223062,0.00718297465065246,0.0202244488425971
16,0.00745333497993753,0.0208504015665887,0.963439498416412,-0.186364461499787,0.96343949842445,-0.186364461509732,0.00746303400205486,0.0208356434991064
16.5,0.00773976512800703,0.021457879806468,0.962079037398808,-0.191728871578484,0.962079037406344,-0.191728871588222,0.00775152084751712,0.021442985437679
17,0.00803451268982128,0.022061344270575,0.960699721476024,-0.197080098062525,0.960699721483079,-0.197080098072041,0.00804839508268676,0.0220463663842749
17.5,0.00833753663174042,0.0226606825355384,0.959301138673318,-0.20241880143205,0.959301138679908,-0.20241880144133,0.00835361590342498,0.0226456794172663
18,0.00864879537911045,0.0232557831701201,0.95788286759998,-0.207745554546731,0.957882867606125,-0.207745554555764,0.00866714185675177,0.0232408190549234
18.5,0.00896824689368256,0.0238465358014466,0.956444484062571,-0.213060849961093,0.956444484068287,-0.213060849969869,0.00898893089281025,0.0238316813497865
19,0.00929584875571321,0.0244328311877278,0.95498556642819,-0.218365106942647,0.954985566433495,-0.218365106951157,0.00931894041753295,0.0244181639905843
19.5,0.00963155825086426,0.0250145612983224,0.953505699917671,-0.223658678126235,0.953505699922583,-0.223658678134471,0.00965712734562102,0.0250001664124677
20,0.00997533246201154,0.0255916194021415,0.95200447998938,-0.228941855763731,0.952004479993914,-0.228941855771688,0.0100034481533544,0.0255775899163775
20.5,0.0103271283659981,0.0261639001655001,0.950481514955534,-0.234214877548169,0.950481514959707,-0.234214877555841,0.0103578589306374,0.0261503377983958
21,0.0106869029353182,0.0267312997606666,0.948936427955222,-0.239477932006286,0.948936427959049,-0.239477932013668,0.0107203154315674,0.0267183154900363
21.5,0.0110546132446462,0.0272937159865307,0.947368858391854,-0.24473116346456,0.94736885839535,-0.244731163471651,0.0110907731226503,0.0272814307104547
22,0.0114302165819966,0.0278510484029444,0.94577846292787,-0.249974676601696,0.94577846293105,-0.249974676608492,0.0114691872276289,0.0278395936316373
22.5,0.0118136705641885,0.0284031984805331,0.944164916116154,-0.255208540605927,0.944164916119032,-0.255208540612427,0.0118555127676831,0.028392717057641
23,0.0122049332561257,0.0289500697679235,0.942527910735764,-0.260432792959019,0.942527910738353,-0.260432792965221,0.0122497045955236,0.0289407166190503
23.5,0.0126039632931769,0.0294915680786025,0.9408671578892,-0.265647442870856,0.940867157891514,-0.26564744287676,0.0126517174216494,0.0294835109837712
24,0.0130107200057095,0.0300276016998344,0.939182386909392,-0.270852474389423,0.939182386911442,-0.270852474395031,0.0130615058307231,0.030021022085343
24.5,0.0134251635444954,0.0305580816263182,0.937473345116769,-0.276047849211098,0.937473345118567,-0.27604784921641,0.0134790242856715,0.0305531753698769
25,0.0138472550053475,0.0310829218215614,0.935739797460071,-0.281233509215631,0.935739797461629,-0.281233509220647,0.0139042271167446,0.0310799000627078
25.5,0.0142769565508518,0.0316020395101475,0.933981526068811,-0.286409378749361,0.933981526070139,-0.286409378754083,0.0143370684922981,0.0316011294556771
26,0.0147142315265205,0.0321153555044316,0.932198329740413,-0.291575366678955,0.932198329741521,-0.291575366683386,0.0147775023676042,0.0321168012158621
26.5,0.0151590445679972,0.0326227945693764,0.93039002338094,-0.296731368236686,0.930390023381839,-0.296731368240828,0.0152254824074329,0.0326268577162605
27,0.0156113616951406,0.0331242858295053,0.928556437414813,-0.301877266676791,0.92855643741551,-0.301877266680646,0.0156809618775682,0.0331312463886257
27.5,0.0160711503878418,0.0336197632221173,0.926697417175996,-0.307012934761,0.926697417176502,-0.307012934764571,0.0161438934997728,0.0336299200981747
28,0.0165383796372946,0.0341091660010031,0.924812822290693,-0.312138236089903,0.924812822291015,-0.312138236093194,0.0166142292640558,0.0341228375393128
28.5,0.0170130199651005,0.034592439294898,0.922902526059511,-0.317253026295385,0.922902526059657,-0.317253026298399,0.017091920191375,0.0346099636507282
29,0.0174950434010199,0.0350695347247389,0.920966414845397,-0.322357154108037,0.920966414845375,-0.322357154110776,0.0175769160392152,0.035091270047257
29.5,0.017984423408406,0.0355404110833841,0.919004387472204,-0.327450462312177,0.91900438747202,-0.327450462314648,0.0180691649417765,0.0355667354647327
30,0.0184811347442814,0.0360050350808021,0.917016354637594,-0.332532788599964,0.917016354637255,-0.332532788602169,0.0185686129758789,0.0360363462125366
30.5,0.0189851532387452,0.0364633821566658,0.915002238343055,-0.337603966334921,0.915002238342567,-0.337603966336864,0.0190752036431616,0.0365000966268381
31,0.0194964554758041,0.0369154373607243,0.912961971342994,-0.342663825234259,0.912961971342362,-0.342663825235944,0.0195888772588017,0.0369579895153849
31.5,0.0200150183549874,0.0373611962991562,0.910895496614255,-0.347712191978399,0.910895496613485,-0.347712191979832,0.0201095702368622,0.0374100365822481
32,0.0205408185101392,0.0378006661421422,0.908802766846914,-0.352748890755282,0.908802766846012,-0.352748890756465,0.0206372142626461,0.03785625881808
32.5,0.0210738315588123,0.0382338666839686,0.906683743956757,-0.357773743746269,0.906683743955726,-0.357773743747207,0.0211717353431594,0.0382966868382146
33,0.0216140311527965,0.0386608314419066,0.904538398619549,-0.36278657155975,0.904538398618394,-0.362786571560448,0.0217130527281434,0.0387313611473759
33.5,0.0221613877977427,0.0390816087736638,0.90236670982695,-0.36778719361794,0.902366709825676,-0.3677871936184,0.0222610776963005,0.0391603323058396
34,0.0227158674079563,0.0394962629852347,0.900168664463714,-0.372775428501758,0.900168664462323,-0.372775428501987,0.0228157122044634,0.0395836609678717
34.5,0.0232774295616034,0.0399048753911919,0.897944256905666,-0.377751094258233,0.897944256904163,-0.377751094258234,0.023376847401778,0.0400014177590911
35,0.0238460254224134,0.0403075452779635,0.895693488637849,-0.382714008674314,0.895693488636237,-0.382714008674092,0.0239443620166471,0.0404136829555537
35.5,0.0244215952971644,0.0407043907071234,0.893416367892132,-0.387663989520666,0.893416367890414,-0.387663989520225,0.0245181206314243,0.0408205459239139
36,0.025004065804676,0.0410955490806846,0.89111290930354,-0.392600854768562,0.891112909301718,-0.392600854767907,0.0250979718687464,0.0412221042795826
36.5,0.0255933466427043,0.0414811773739622,0.888783133584499,-0.397524422782721,0.888783133582576,-0.397524422781857,0.025683746524016,0.041618462718799
37,0.0261893269551407,0.0418614519247484,0.886427067216202,-0.402434512492599,0.88642706721418,-0.402434512491529,0.0262752556908434,0.0420097314815729
37.5,0.0267918713243822,0.0422365676514374,0.884044742156283,-0.407330943544383,0.884044742154164,-0.407330943543112,0.026872288939904,0.0423960244063109
38,0.0274008154436346,0.0426067365591698,0.881636195561976,-0.412213536435724,0.881636195559761,-0.412213536434255,0.0274746126262831,0.042777456544232
38.5,0.028015961561904,0.0429721853845454,0.879201469527986,-0.417082112634989,0.879201469525677,-0.417082112633328,0.0280819684151514,0.0431541413132437
39,0.0286370738405584,0.0433331522289881,0.876740610838274,-0.421936494686666,0.876740610835873,-0.421936494684816,0.0286940721294771,0.0435261871873249
39.5,0.0292638738136549,0.0436898820422882,0.874253670731014,-0.426776506304332,0.874253670728522,-0.426776506302297,0.0293106130350879,0.0438936939390608
40,0.0298960362024108,0.0440426208450958,0.871740704675997,-0.431601972452513,0.871740704673415,-0.431601972450298,0.0299312536859631,0.0442567484798116
40.5,0.0305331853931524,0.0443916086264503,0.869201772163768,-0.436412719418548,0.869201772161097,-0.436412719416157,0.0305556304543106,0.0446154203736183
41,0.0311748929416201,0.0447370709227732,0.866636936505854,-0.441208574875517,0.866636936503094,-0.441208574872952,0.0311833548636954,0.0449697571361025
41.5,0.0318206765063463,0.0450792091799631,0.864046264645413,-0.445989367937132,0.864046264642565,-0.445989367934398,0.0318140158273889,0.0453197794664698
42,0.0324700006298105,0.0454181901187819,0.861429826977733,-0.45075492920544,0.861429826974797,-0.450754929202541,0.0324471828667608,0.0456654765964312
42.5,0.0331222797672728,0.0457541344606068,0.85878769717998,-0.455505090812044,0.858787697176957,-0.455505090808984,0.0330824103452911,0.0460068019709692
43,0.0337768838991474,0.0460871055154002,0.856119952049664,-0.460239686453539,0.856119952046554,-0.460239686450321,0.0337192427030853,0.0463436694982977
43.5,0.0344331469460816,0.0464170982713009,0.853426671351303,-0.46495855142171,0.853426671348106,-0.464958551418338,0.0343572206165798,0.0466759506160258
44,0.0350903780344688,0.0467440297353613,0.850707937670805,-0.469661522629069,0.85070793766752,-0.469661522625545,0.0349958879418458,0.0470034724134741
44.5,0.0357478754399169,0.0470677313353667,0.84796383627711,-0.474348438630155,0.847963836273737,-0.474348438626484,0.0356347992326241,0.047326017023675
45,0.036404942782878,0.0473879441816853,0.845194454990658,-0.479019139639065,0.845194454987198,-0.47901913963525,0.0362735275621118,0.047643322451568
45.5,0.0370609067898821,0.0477043178896536,0.842399884058283,-0.48367346754356,0.842399884054736,-0.483673467539603,0.0369116723275266,0.0479550849384369
46,0.0377151356989668,0.0480164134710619,0.839580216034154,-0.488311265916107,0.839580216030516,-0.488311265912012,0.037548866685098,0.0482609628801736
46.5,0.0383670572156814,0.0483237105262007,0.836735545666394,-0.492932380022154,0.836735545662668,-0.492932380017924,0.0381847842558971,0.0485605822245981
47,0.0390161748498298,0.0486256186293325,0.833865969789075,-0.497536656825908,0.833865969785259,-0.497536656821545,0.0388191447629617,0.048853543178646
47.5,0.0396620815057631,0.0489214924384217,0.830971587219227,-0.502123944993867,0.830971587215321,-0.502123944989375,0.0394517183078997,0.0491394279687831
48,0.0403044693666534,0.0492106497208291,0.828052498658617,-0.506694094896319,0.828052498654618,-0.5066940948917,0.0400823280676011,0.0494178093263993
48.5,0.0409431353919821,0.049492391217688,0.825108806599981,-0.511246958607004,0.82510880659589,-0.51124695860226,0.0407108512829229,0.0496882593216866
49,0.0415779821047648,0.0497660211091562,0.822140615237493,-0.51578238990112,0.82214061523331,-0.515782389896255,0.0413372185128468,0.0499503581496188
49.5,0.0422090137347426,0.0500308668129602,0.819148030381186,-0.52030024425183,0.819148030376908,-0.520300244246845,0.0419614112300357,0.0502037024819769
50,0.0428363281548016,0.0502862969508183,0.816131159375134,-0.524800378825396,0.816131159370761,-0.524800378820295,0.0425834579273505,0.0504479130381729
50.5,0.0434601053540822,0.050531736532331,0.813090111019171,-0.529282652475099,0.813090111014703,-0.529282652469883,0.0432034289814897,0.050682641090149
51,0.0440805933991634,0.0507666786986398,0.810024995493945,-0.53374692573402,0.81002499548938,-0.533746925728692,0.0438214305736329,0.0509075736956648
51.5,0.0446980929288975,0.0509906926952053,0.806935924289136,-0.538193060806818,0.806935924284474,-0.538193060801379,0.04443759799485,0.0511224375414755
52,0.0453129412116744,0.051203428061368,0.803823010134651,-0.542620921560572,0.80382301012989,-0.542620921555024,0.0450520886662786,0.0513270013647751
52.5,0.0459254966842721,0.0514046152983906,0.800686366934643,-0.547030373514781,0.800686366929781,-0.547030373509127,0.0456650751834094,0.0515210770004627
53,0.0465361247167958,0.0515940634839336,0.797526109704203,-0.551421283830601,0.797526109699242,-0.551421283824842,0.0462767386550915,0.0517045191676524
53.5,0.047145185139687,0.051771655429568,0.794342354508588,-0.555793521299366,0.794342354503524,-0.555793521293503,0.0468872625568565,0.0518772241579517
54,0.0477530218553456,0.0519373410311117,0.791135218404834,-0.560146956330469,0.791135218399668,-0.560146956324505,0.0474968272609894,0.0520391276192205
54.5,0.0483599546614942,0.0520911294504687,0.787904819385661,-0.564481460938661,0.787904819380391,-0.564481460932597,0.0481056053479343,0.0521902016424551
55,0.0489662732511202,0.0522330807084649,0.78465127632553,-0.568796908730792,0.784651276320155,-0.568796908724629,0.0487137577496479,0.0523304513583218
55.5,0.049572233231981,0.0523632971784187,0.781374708928753,-0.573093174892058,0.781374708923272,-0.573093174885798,0.0493214307286035,0.0524599112367883
56,0.0501780539279655,0.0524819153661337,0.77807523767956,-0.577370136171793,0.778075237673973,-0.577370136165436,0.0499287536582054,0.052578641261658
56.5,0.0507839176811374,0.0525890982567019,0.774752983794023,-0.581627670868826,0.774752983788328,-0.581627670862375,0.0505358375420462,0.0526867231250301
57,0.0513899703603763,0.052685028411385,0.771408069173749,-0.585865658816453,0.771408069167946,-0.585865658809909,0.0511427741904998,0.0527842565577409
57.5,0.0519963227924921,0.0527699019145115,0.768040616361264,-0.59008398136703,0.768040616355351,-0.590083981360393,0.0517496359625968,0.0528713558831098
58,0.052603052856929,0.0528439232033693,0.764650748497002,-0.594282521376241,0.76465074849098,-0.594282521369512,0.0523564759776047,0.052948146854553
58.5,0.0532102080192923,0.0529073007637084,0.761238589277846,-0.598461163187039,0.761238589271714,-0.598461163180218,0.052963328702764,0.0530147638140775
59,0.0538178081165956,0.0529602436383008,0.757804262917131,-0.602619792613295,0.757804262910887,-0.602619792606384,0.0535702108296134,0.0530713471888145
59.5,0.0544258482446737,0.0530029586738476,0.754347894106052,-0.606758296923168,0.754347894099698,-0.606758296916168,0.0541771223599559,0.0531180413268667
60,0.055034301633046,0.0530356484198342,0.750869607976442,-0.610876564822221,0.750869607969976,-0.610876564815133,0.0547840478325746,0.0531549926616304
60.5,0.0556431224232726,0.0530585095891328,0.747369530064819,-0.614974486436287,0.74736953005824,-0.61497448642911,0.0553909576323907,0.053182348185103
61,0.0562522482928484,0.0530717319920228,0.743847786277698,-0.619051953294105,0.743847786271006,-0.619051953286842,0.0559978093341575,0.0532002542049516
61.5,0.0568616028878696,0.0530754978608908,0.740304502858087,-0.623108858309753,0.740304502851283,-0.623108858302403,0.0566045490425191,0.0532088553568767
62,0.0574710980444164,0.0530699814907025,0.736739806353137,-0.627145095764856,0.736739806346219,-0.627145095757419,0.0572111126990726,0.0532082938424954
62.5,0.0580806357912719,0.0530553491291925,0.733153823582895,-0.631160561290617,0.733153823575865,-0.631160561283094,0.0578174273347433,0.0531987088630766
63,0.0586901101358965,0.0530317590598788,0.729546681610132,-0.635155151849662,0.72954668160299,-0.635155151842053,0.0584234122523166,0.0531802362207047
63.5,0.0592994086420486,0.0529993618298058,0.7259185077112,-0.639128765717704,0.725918507703945,-0.63912876571001,0.0590289801293795,0.0531530080603119
64,0.0599084138117139,0.0529583005821131,0.722269429347875,-0.643081302465051,0.722269429340507,-0.643081302457272,0.0596340380362799,0.0531171527283828
