"Freq [GHz]","re(St(P1,P1)) []","im(St(P1,P1)) []","re(St(P1,P2)) []","im(St(P1,P2)) []","re(St(P2,P1)) []","im(St(P2,P1)) []","re(St(P2,P2)) []","im(St(P2,P2)) []"
0,0.0050375951782371,0,0.994972674699966,0,0.994972669912386,0,0.0050375872042423,0
0.5,0.00550294321730149,0.000826829028273579,0.994384109203214,-0.00836680766767728,0.99438410976278,-0.00836680795313782,0.00550286122227206,0.000826957462386702
1,0.00587603029607209,0.00108281449038117,0.993685704856583,-0.0161230069297247,0.993685705033387,-0.0161230068962226,0.00587576512740107,0.00108310857321925
1.5,0.00565440006945561,0.00142769505979956,0.992999362805078,-0.0239573164081417,0.992999362987888,-0.0239573163721651,0.0056541526731344,0.00142949389685754
2,0.00548274153927597,0.00169768863864483,0.992169181433884,-0.0315941478537027,0.992169181614638,-0.0315941478230961,0.00548171675847886,0.00170063848325697
2.5,0.00536432389512109,0.00193987107934923,0.99126196614769,-0.0390472506765196,0.991261966316605,-0.0390472506543773,0.00536228101963365,0.00194344292398974
3,0.00528760801213002,0.00217965221899341,0.990319629473019,-0.046347778931878,0.990319629621838,-0.0463477789174025,0.00528459693695904,0.00218347157520071
3.5,0.0052408871865457,0.0024291470467066,0.989361890245588,-0.0535292962215177,0.989361890368981,-0.053529296211936,0.00523704453238505,0.00243301111118122
4,0.00521538214608586,0.00269427522185062,0.988393419239156,-0.0606201541995102,0.988393419334731,-0.0606201541916951,0.0052108439964782,0.00269810049346209
4.5,0.00520494715120157,0.0029784567515394,0.987410495277435,-0.0676413420331565,0.987410495345129,-0.067641342024551,0.0051998214688832,0.00298223421278632
5,0.0052052365822024,0.00328430913159306,0.986405601336941,-0.0746070717696279,0.986405601378336,-0.0746070717586012,0.00519959797197311,0.00328807682559162
5.5,0.00521300072044417,0.00361441423414011,0.985370103626613,-0.0815262640905985,0.985370103644358,-0.0815262640764622,0.00520689151617904,0.00361824271956124
6,0.00522557555581032,0.00397168592152397,0.98429561759026,-0.0884040542000299,0.984295617587672,-0.088404054182881,0.005219007271273,0.00397567170782853
6.5,0.00524050892067518,0.00435957642082485,0.983174602441768,-0.0952430132414399,0.983174602422552,-0.095243013221963,0.00523346193911323,0.00436384020647385
7,0.00525525867220528,0.00478222621742574,0.982000547723772,-0.10204404415238,0.982000547691861,-0.102044044131651,0.0052476792770014,0.0047869141198138
7.5,0.00526691032114995,0.00524460428120843,0.980767964579183,-0.108807003551106,0.980767964538617,-0.108807003530431,0.00525870436814294,0.00524989104640738
8,0.00527186932412738,0.00575265979618234,0.979472295781797,-0.115531118988268,0.979472295736655,-0.115531118969049,0.00526289160915347,0.0057587533484984
8.5,0.00526548348537778,0.00631349360496403,0.97810980134689,-0.12221526217021,0.978109801301238,-0.122215262153841,0.00525552134161346,0.00632064033636404
9,0.00524154311419109,0.00693554774161065,0.976677445690285,-0.128858124105063,0.976677445648138,-0.128858124092863,0.00523029198874127,0.00694403763241613
9.5,0.00519159001195967,0.00762879833794861,0.975172796596314,-0.13545832478436,0.975172796561606,-0.13545832477752,0.00517861765289143,0.00763896818300891
10,0.00510393940111033,0.00840491370726282,0.973593938724716,-0.142014479766469,0.973593938701273,-0.142014479766025,0.00508863375140129,0.00841714502127866
10.5,0.00525596457553625,0.00880816025269038,0.9721094318708,-0.14861983585359,0.972109431847386,-0.14861983585035,0.00524120457362372,0.0088210388147032
11,0.00541514218374342,0.00920893537460277,0.970594892083477,-0.155187808718004,0.970594892060399,-0.155187808712065,0.00540094799636824,0.00922246887350253
11.5,0.00558143436515465,0.00960712539401465,0.969051513829032,-0.161720725890823,0.969051513806569,-0.16172072588231,0.00556782526105326,0.00962132246499081
12,0.00575480144958521,0.0100026172356062,0.967480188209733,-0.168220807963637,0.967480188188129,-0.168220807952699,0.00574179576189396,0.0100174875386001
12.5,0.00593520195192571,0.0103952984650992,0.965881542801916,-0.174690148269335,0.965881542781388,-0.174690148256138,0.00592281704073236,0.0104108527662103
13,0.00612259256685271,0.0107850573279431,0.964255979294303,-0.181130699483333,0.964255979275033,-0.181130699468053,0.00611084478180615,0.0108013075836717
13.5,0.00631692816357965,0.0111717827893156,0.962603708322399,-0.187544265939176,0.962603708304542,-0.187544265922002,0.0063058328064578,0.0111887422335224
14,0.00651816178069065,0.0115553645754991,0.960924781158585,-0.19393250054944,0.960924781142269,-0.193932500530559,0.00650773306780433,0.0115730478089788
14.5,0.00672624462106383,0.0119356932166732,0.95921911812124,-0.20029690534408,0.959219118106566,-0.200296905323682,0.00671649564536392,0.0119541162991812
15,0.00694112604690933,0.0123126600911641,0.957486533717455,-0.206638834769326,0.957486533704502,-0.206638834747603,0.00693206873964911,0.0123318406357629
15.5,0.00716275357493745,0.0126861574711934,0.955726758640792,-0.212959501020703,0.955726758629617,-0.212959500997838,0.00715439866672626,0.0127061147407517
16,0.00739107287167518,0.0130560785701528,0.95393945881647,-0.219259980807072,0.953939458807109,-0.219259980783243,0.00738342985273535,0.0130768335758167
16.5,0.00762602774893267,0.0134223175914625,0.952124251729098,-0.225541223054747,0.952124251721571,-0.225541223030129,0.00761910482836703,0.0134438931928977
17,0.00786756015943885,0.0137847697790179,0.950280720289351,-0.231804057159843,0.950280720283664,-0.231804057134596,0.00786136422328593,0.0138071907862178
17.5,0.0081156101926414,0.0141433314692887,0.948408424501527,-0.238049201482348,0.948408424497671,-0.238049201456629,0.00811014676047883,0.0141666247456937
18,0.00837011607066424,0.0144979001450576,0.946506911188371,-0.244277271847655,0.946506911186327,-0.24427727182161,0.00836538925051405,0.0145220947117419
18.5,0.00863101414442941,0.0148483744908645,0.944575722016692,-0.250488789880985,0.944575722016428,-0.250488789854752,0.00862702658567921,0.0148735016314898
19,0.00889823888991453,0.0151946544501549,0.942614400049741,-0.256684191049114,0.942614400051219,-0.25668419102282,0.00889499173396791,0.0152207478163842
19.5,0.00917172290453017,0.015536641284152,0.940622495032461,-0.262863832322914,0.940622495035636,-0.262863832296678,0.00916921573287133,0.015563737001165
20,0.0094513969035942,0.0158742376324721,0.938599567594823,-0.269027999405247,0.938599567599642,-0.269027999379176,0.00944962768293178,0.0159023744042133
20.5,0.00973718971685433,0.0162073475754945,0.936545192537788,-0.275176913492855,0.936545192544196,-0.275176913467051,0.00973615474100131,0.0162365667892206
21,0.0100290282850228,0.0165358766984656,0.934458961346605,-0.281310737559259,0.934458961354542,-0.281310737533814,0.0100287221131378,0.0165662225281458
21.5,0.0103268376562599,0.0168597321573847,0.932340484057631,-0.287429582159398,0.932340484067032,-0.287429582134395,0.0103272530470745,0.0168912516654198
22,0.0106305409825447,0.017178822746595,0.930189390587881,-0.293533510766781,0.930189390598681,-0.293533510742295,0.0106316688241762,0.0172115659833334
22.5,0.0109400595158497,0.0174930589681255,0.928005331621239,-0.299622544660925,0.928005331633371,-0.299622544637024,0.0109418887507906,0.0175270790685322
23,0.0112553126040262,0.0178023531027145,0.925787979131579,-0.305696667387563,0.925787979144974,-0.305696667364307,0.0112578301488959,0.0178377063795359
23.5,0.0115762176862993,0.0181066192824983,0.923537026611038,-0.311755828817014,0.923537026625627,-0.311755828794458,0.0115794083459351,0.0181433653151815
24,0.0119026902882482,0.0184057735653096,0.921252189061141,-0.317799948827633,0.921252189076855,-0.317799948805824,0.0119065366637124,0.0184439752838736
24.5,0.0122346440161373,0.0186997340105264,0.918933202795337,-0.323828920641781,0.918933202812106,-0.323828920620762,0.0122391264062191,0.0187394577734976
25,0.012571990550447,0.0189884207563999,0.916579825093604,-0.329842613841497,0.916579825111361,-0.329842613821303,0.0125770868462551,0.0190297364218517
25.5,0.0129146396384298,0.0192717560987541,0.914191833743024,-0.335840877090313,0.9141918337617,-0.335840877070974,0.0129203252106809,0.0193147370873934
26,0.0132624990855095,0.0195496645709632,0.911769026492402,-0.34182354058646,0.911769026511931,-0.341823540568004,0.0132687466641495,0.0195943879201259
26.5,0.0136154747453129,0.0198220730250553,0.909311220444145,-0.347790418271406,0.909311220464461,-0.347790418253853,0.0136222542911434,0.0198686194323627
27,0.0139734705081126,0.0200889107138003,0.906818251402373,-0.353741309816085,0.906818251423412,-0.353741309799454,0.0139807490761396,0.020137364569123
27.5,0.0143363882874317,0.0203501093735758,0.904289973192785,-0.359676002405666,0.904289973214486,-0.359676002389968,0.0143441298817161,0.0204005587778517
28,0.0147041280045458,0.0206056033078066,0.901726256966799,-0.365594272342055,0.901726256989099,-0.365594272327301,0.0147122934244146,0.0206581400771344
28.5,0.0150765875706044,0.0208553294707248,0.899126990500022,-0.371495886481838,0.899126990522863,-0.371495886468035,0.0150851342481685,0.0209100491240346
29,0.0154536628660619,0.0210992275511384,0.896492077493078,-0.377380603525808,0.896492077516403,-0.377380603512957,0.0154625446950996,0.0211562292796315
29.5,0.015835247717103,0.0213372400559015,0.893821436881021,-0.383248175174833,0.893821436904774,-0.383248175162935,0.0158444148735108,0.0213966266723054
30,0.016221233868728,0.0215693123926544,0.891115002156225,-0.389098347165471,0.891115002180351,-0.389098347154525,0.0162306326228782,0.0216311902582413
30.5,0.016611510954141,0.0217953929514376,0.888372720708406,-0.394930860197465,0.888372720732855,-0.394930860187465,0.016621083475699,0.0218598718786127
31,0.017005966460097,0.0220154331846347,0.885594553184511,-0.40074545076412,0.885594553209231,-0.40074545075506,0.0170156506160304,0.0220826263127949
31.5,0.0174044856878258,0.0222293876846937,0.882780472870369,-0.406541851895491,0.882780472895314,-0.406541851887361,0.0174142148346155,0.0222994113269481
32,0.0178069517091794,0.0224372142589707,0.879930465095425,-0.412319793823308,0.879930465120547,-0.412319793816098,0.0178166544804946,0.0225101877172192
32.5,0.0182132453176376,0.0226388740009655,0.877044526661294,-0.418079004575719,0.87704452668655,-0.418079004569415,0.0182228454090759,0.0227149193467644
33,0.0186232449738304,0.0228343313571401,0.874122665294509,-0.423819210509066,0.874122665319856,-0.423819210503654,0.0186326609266519,0.0229135731757063
33.5,0.0190368267452388,0.0230235541883865,0.871164899123473,-0.429540136783232,0.871164899148871,-0.429540136778698,0.0190459717314521,0.0231061192831004
34,0.019453864239813,0.0232065138251538,0.868171256179387,-0.435241507786375,0.868171256204796,-0.4352415077827,0.0194626458513709,0.0232925308799139
34.5,0.0198742285332401,0.0233831851150874,0.865141773920716,-0.4409230475143,0.8651417739461,-0.440923047511466,0.0198825485786064,0.0234727843119311
35,0.0202977880897073,0.0235535464619485,0.862076498780611,-0.446584479909172,0.862076498805935,-0.446584479907162,0.0203055424015595,0.0236468590514819
35.5,0.0207244086760549,0.0237175798544544,0.858975485736575,-0.452225529161786,0.858975485761805,-0.452225529160578,0.0207314869344518,0.0238147376768003
36,0.0211539532693397,0.0238752708835528,0.8558387979016,-0.457845919981143,0.855838797926704,-0.457845919980715,0.0211602388452637,0.023976405837801
36.5,0.0215862819579393,0.0240266087465262,0.85266650613594,-0.463445377834746,0.85266650616089,-0.463445377835078,0.0215916517827565,0.0241318522070061
37,0.0220212518365012,0.0241715862361972,0.849458688678647,-0.469023629162622,0.849458688703412,-0.46902362916369,0.022025576303505,0.0242810684143547
37.5,0.0224587168952062,0.0243101997133921,0.846215430797972,-0.474580401567776,0.846215430822527,-0.474580401569558,0.022461859800073,0.0244240489646199
38,0.0228985279040426,0.0244424490606987,0.842936824459773,-0.480115423985526,0.842936824484091,-0.480115423987999,0.0229003464316643,0.0245607911361689
38.5,0.0233405322930414,0.0245683376154843,0.839622968012996,-0.485628426833868,0.839622968037055,-0.485628426837006,0.0233408770588205,0.0246912948598748
39,0.0237845740297006,0.0246878720800494,0.83627396589142,-0.491119142146827,0.836273965915197,-0.491119142150607,0.0237832891839781,0.0248155625770438
39.5,0.0242304934951675,0.0248010624067507,0.83288992833076,-0.496587303692534,0.832889928354234,-0.496587303696932,0.024227416899946,0.0249335990753712
40,0.0246781273610988,0.024907921655921,0.829470971100354,-0.50203264707759,0.829470971123505,-0.502032647082579,0.0246730908486461,0.0250454113020659
40.5,0.0251273084695418,0.0250084658244577,0.826017215248612,-0.5074549098391,0.826017215271424,-0.507454909844656,0.0251201381927115,0.0251510081535267
41,0.0255778657186002,0.0251027136430197,0.822528786861485,-0.51285383152565,0.822528786883939,-0.512853831531747,0.0255683826028136,0.0252504002411942
41.5,0.0260296239571407,0.0251906863399708,0.819005816833208,-0.518229153768322,0.819005816855292,-0.518229153774936,0.0260176442638433,0.0253435996335383
42,0.0264824038922852,0.0252724073704084,0.81544844064865,-0.523580620342765,0.815448440670348,-0.523580620349869,0.0264677399033001,0.025430619574522
42.5,0.0269360220139473,0.025347902108976,0.811856798176579,-0.528907977223218,0.811856798197878,-0.528907977230787,0.0269184828454474,0.0255114741793133
43,0.0273902905412035,0.0254171975055796,0.808231033473243,-0.534210972629279,0.808231033494131,-0.534210972637287,0.0273696830949564,0.0255861781085615
43.5,0.0278450173957818,0.0254803217036871,0.804571294595658,-0.539489357066163,0.804571294616126,-0.539489357074586,0.0278211474538543,0.0256547462231106
44,0.0283000062084449,0.025537303621558,0.800877733424061,-0.544742883359072,0.800877733444099,-0.544742883367883,0.0282726796756072,0.0257171932216507
44.5,0.0287550563644425,0.0255881724975744,0.797150505492968,-0.549971306682271,0.797150505512567,-0.549971306691446,0.0287240806601277,0.0257735332645291
45,0.0292099630945701,0.0256329574017788,0.793389769830373,-0.555174384583383,0.793389769849529,-0.555174384592897,0.0291751486932992,0.0258237795876558
45.5,0.029664517618574,0.0256716867168183,0.789595688804603,-0.560351877003379,0.789595688823307,-0.560351877013207,0.0296256797343281,0.0258679441111942
46,0.0301185073477115,0.0257043875927011,0.785768427978375,-0.565503546292666,0.785768427996624,-0.565503546302784,0.0300754677537938,0.0259060370485187
46.5,0.0305717161531804,0.0257310853811019,0.781908155969675,-0.570629157223663,0.781908155987463,-0.570629157234047,0.0305243051246964,0.0259380665216683
47,0.0310239247067625,0.0257518030563766,0.77801504431903,-0.575728477000193,0.778015044336354,-0.575728477010817,0.0309719830680476,0.0259640381902412
47.5,0.0314749108994318,0.0257665606319017,0.774089267362836,-0.580801275263989,0.774089267379695,-0.580801275274832,0.0314182921536549,0.0259839549013182
48,0.0319244503427875,0.0257753745818657,0.770131002112392,-0.585847324098614,0.770131002128785,-0.585847324109652,0.0318630228556845,0.0259978163685546
48.5,0.0323723169569225,0.0257782572800715,0.76614042813831,-0.59086639803099,0.766140428154235,-0.590866398042199,0.0323059661613749,0.0260056188889509
49,0.0328182836468053,0.0257752164686331,0.76211772746001,-0.595858274030803,0.762117727475469,-0.59585827404216,0.0327469142299154,0.0260073551060518
49.5,0.0332621230673115,0.025766254770613,0.75806308444002,-0.600822731507952,0.758063084455013,-0.600822731519437,0.033185661097052,0.0260030138282893
50,0.0337036084748237,0.0257513692615179,0.753976685682805,-0.605759552308236,0.753976685697334,-0.605759552319825,0.0336220034194545,0.0259925799109666
50.5,0.0341425146607667,0.0257305511150929,0.749858719937892,-0.610668520707416,0.749858719951961,-0.610668520719089,0.034055741251302,0.0259760342098021
51,0.0345786189596384,0.0257037853389233,0.745709378007054,-0.615549423403833,0.745709378020664,-0.61554942341557,0.0344866788440232,0.0259533536131581
51.5,0.035011702321163,0.0256710506149365,0.741528852655329,-0.620402049509666,0.741528852668486,-0.620402049521445,0.0349146254586676,0.0259245111589188
52,0.0354415504331336,0.0256323192588449,0.737317338525692,-0.625226190540984,0.737317338538401,-0.625226190552785,0.0353393961790786,0.0258894762405373
52.5,0.0358679548785368,0.0255875573108991,0.733075032057169,-0.630021640406675,0.733075032069433,-0.63002164041848,0.0357608127129452,0.0258482149050466
53,0.0362907143077713,0.0255367247680288,0.728802131406226,-0.634788195396359,0.728802131418053,-0.634788195408147,0.0361787041670165,0.0258006902438431
53.5,0.0367096356043158,0.0254797759644433,0.724498836371275,-0.639525654167358,0.724498836382671,-0.639525654179112,0.0365929077822721,0.025746862874852
54,0.037124535020258,0.0254166601042272,0.720165348320129,-0.644233817730813,0.7201653483311,-0.644233817742516,0.0370032696147919,0.0256866915123664
54.5,0.0375352392568089,0.0253473219453908,0.715801870120262,-0.648912489437016,0.715801870130817,-0.648912489448649,0.0374096451483989,0.0256201336184465
55,0.0379415864644106,0.0252717026303884,0.711408606071756,-0.653561474959999,0.711408606081902,-0.653561474971546,0.037811899825981,0.0255471461274065
55.5,0.0383434271374214,0.0251897406534727,0.706985761842786,-0.658180582281476,0.706985761852532,-0.658180582292921,0.0382099094876374,0.0254676862326523
56,0.0387406248796985,0.0251013729505784,0.702533544407538,-0.662769621674155,0.702533544416893,-0.662769621685481,0.0386035607054997,0.0253817122231048
56.5,0.0391330570197151,0.0250065360929838,0.698052161986447,-0.667328405684479,0.69805216199542,-0.667328405695673,0.038992751007167,0.0252891843547107
57,0.0395206150570674,0.0249051675619394,0.693541823988651,-0.671856749114855,0.693541823997252,-0.671856749125901,0.0393773889820944,0.0251900657411822
57.5,0.0399032049263466,0.0247972070780969,0.689002740956559,-0.676354469005372,0.689002740964797,-0.676354469016256,0.039757394267962,0.0250843232472373
58,0.0402807470691134,0.0246825979569815,0.684435124512454,-0.680821384615088,0.684435124520341,-0.680821384625797,0.0401326974168383,0.0249719283671953
58.5,0.0406531763100314,0.0245612884602193,0.679839187307037,-0.685257317402881,0.679839187314583,-0.685257317413403,0.0405032396438397,0.024852858071948
59,0.0410204415387561,0.0244332331117454,0.675215142969831,-0.689662091007925,0.675215142977047,-0.689662091018247,0.0408689724637641,0.0247270956079773
59.5,0.0413825052047914,0.0242983939489179,0.670563206061379,-0.694035531229787,0.670563206068277,-0.694035531239898,0.0412298572238138,0.0245946312332715
60,0.0417393426378644,0.0241567416802426,0.665883592027165,-0.698377466008199,0.665883592033755,-0.698377466018087,0.0415858645428677,0.0244554628766306
60.5,0.0420909412112276,0.0240082567242861,0.661176517153179,-0.702687725402508,0.661176517159474,-0.702687725412164,0.0419369736697606,0.0243095967088746
61,0.04243729936948,0.023852930108085,0.656442198523093,-0.706966141570836,0.656442198529104,-0.706966141580249,0.0422831717745878,0.0241570476167889
61.5,0.0427784255457516,0.0236907642078329,0.651680853976955,-0.711212548748966,0.651680853982694,-0.711212548758128,0.0426244531881585,0.0239978395732008
62,0.0431143369953896,0.0235217733195774,0.646892702071385,-0.715426783228976,0.646892702076865,-0.715426783237878,0.0429608186052995,0.0238320058991991
62.5,0.043445058574491,0.0233459840528748,0.64207796204119,-0.719608683337628,0.642077962046423,-0.719608683346261,0.0432922742678405,0.0236595894171787
63,0.0437706214917556,0.0231634355455432,0.637236853762374,-0.723758089414542,0.637236853767372,-0.723758089422901,0.0436188311427175,0.0234806424959227
63.5,0.0440910620612629,0.0229741795026548,0.632369597716486,-0.727874843790168,0.632369597721263,-0.727874843798245,0.0439405041098441,0.0232952269913168
64,0.044406420482005,0.022778280067467,0.627476414956274,-0.731958790763553,0.627476414960841,-0.731958790771343,0.0442573111732298,0.023103414088393
