"Freq [GHz]","re(St(P1,P1)) []","im(St(P1,P1)) []","re(St(P1,P2)) []","im(St(P1,P2)) []","re(St(P2,P1)) []","im(St(P2,P1)) []","re(St(P2,P2)) []","im(St(P2,P2)) []"
0,0.00518910203953737,0,0.994827145987074,0,0.994827146525495,0,0.00518909779304977,0
0.5,0.00578019054317025,-0.000344682162921828,0.994134517256644,-0.00837710959963545,0.994134517358923,-0.00837710970435879,0.00578004343527994,-0.000344463000395479
1,0.00625298511195993,-0.00141810697127553,0.993389703518949,-0.0160060657278187,0.993389703528136,-0.0160060657473551,0.00625255598093233,-0.00141754190174836
1.5,0.00648397361187136,-0.00263389109293044,0.99272505776381,-0.0234439233754919,0.992725057753582,-0.0234439233925414,0.0064831264909504,-0.00263290961600759
2,0.00654267896155414,-0.0038563911839038,0.992086451337002,-0.0308136302262483,0.99208645131852,-0.0308136302305009,0.00654137725270232,-0.0038548650192034
2.5,0.00650529924940635,-0.00504770412376843,0.991410125716429,-0.0381467765402448,0.991410125699128,-0.0381467765326882,0.00650351544065231,-0.00504555297380094
3,0.00640918046000749,-0.00620556962685725,0.990671224620016,-0.0454389516692846,0.990671224608682,-0.0454389516545088,0.00640688393139532,-0.00620272475536687
3.5,0.00627306020695118,-0.00733307907894876,0.989864377804562,-0.0526825127976007,0.989864377800475,-0.0526825127805708,0.00627022339707484,-0.00732947274411266
4,0.00610757660786465,-0.00843327281802786,0.988992208218242,-0.0598726114753649,0.988992208220413,-0.0598726114602499,0.00610417940930974,-0.00842883764493152
4.5,0.00591966154138657,-0.00950854034505966,0.988060094358907,-0.0670075316283461,0.988060094365026,-0.0670075316181276,0.00591569281999438,-0.00950321145641198
5,0.00571439468772628,-0.0105608160239195,0.987073815972908,-0.0740879450741367,0.987073815980011,-0.0740879450705574,0.00570985185730355,-0.0105545335540223
5.5,0.00549581974042734,-0.0115918142029754,0.986038523629019,-0.0811160868109075,0.986038523633967,-0.0811160868145944,0.00549070717123845,-0.0115845254061862
6,0.00526731888685505,-0.0126031880758335,0.984958351522781,-0.0880950691779336,0.984958351522574,-0.0880950691885802,0.00526164567742038,-0.0125948487767911
6.5,0.00503179150887412,-0.0135966178913129,0.98383635254293,-0.0950283683140052,0.983836352534904,-0.0950283683305893,0.00502556898564543,-0.0135871932333806
7,0.0047917440884242,-0.0145738504137745,0.982674589966205,-0.101919467077004,0.982674589948132,-0.101919467097981,0.00478498328809107,-0.0145633149577566
7.5,0.00454933998976836,-0.0155367081227453,0.981474295367922,-0.108771625341229,0.981474295338037,-0.108771625364718,0.0045420492981168,-0.0155250453947593
8,0.00430643184877844,-0.0164870811490969,0.980236043060424,-0.115587747172886,0.980236043017423,-0.115587747196818,0.00429861490617706,-0.0164742827563096
8.5,0.00406458716033287,-0.0174269105538265,0.978959915021813,-0.122370317604937,0.978959914964812,-0.122370317627161,0.00405624109279062,-0.0174129749895675
9,0.00382511176809075,-0.0183581684507867,0.977645644296449,-0.129121386661773,0.977645644224931,-0.129121386680149,0.00381622576303431,-0.0183430997020242
9.5,0.00358907306762132,-0.0192828383507706,0.97629273298241,-0.135842583445208,0.976292732896171,-0.135842583457655,0.00357962728411998,-0.0192666444056186
10,0.00335732333922749,-0.0202028976682453,0.974900545365928,-0.142535147736387,0.97490054526502,-0.142535147740922,0.00334728812234089,-0.0201855890025882
10.5,0.00312011672935092,-0.0211971842469092,0.973452638556812,-0.149239502100223,0.973452638455146,-0.149239502099482,0.00310979118760864,-0.0211789188516311
11,0.00287140798582844,-0.0221891356369199,0.971968966066627,-0.15591007450085,0.971968965964771,-0.15591007449492,0.00286077935340094,-0.0221699002160753
11.5,0.00261120763373462,-0.0231786372512395,0.970450643322813,-0.162548630767396,0.970450643221292,-0.162548630756424,0.00260026334327817,-0.0231584178917332
12,0.00233952684475913,-0.0241655740482898,0.96889853595451,-0.169156865285497,0.968898535853798,-0.169156865269675,0.0023282545363786,-0.0241443562223167
12.5,0.0020563774583363,-0.0251498305154114,0.96731329047692,-0.175736382484864,0.967313290377443,-0.175736382464424,0.00204476498850054,-0.0251275990830573
13,0.0017617720036382,-0.0261312906529092,0.965695363697293,-0.182288683933261,0.965695363599425,-0.182288683908458,0.00174980745404305,-0.0261080298649068
13.5,0.00145572372243269,-0.0271098379586658,0.964045050281754,-0.188815160142652,0.964045050185822,-0.188815160113767,0.00144339540880795,-0.0270855314593392
14,0.00113824659279249,-0.0280853554133631,0.962362508133044,-0.195317086245966,0.962362508039329,-0.19531708621329,0.00112554307364127,-0.0280599862437381
14.5,0.000809355353633162,-0.0290577254663487,0.960647781396849,-0.201795620779414,0.960647781305589,-0.201795620743248,0.000796265438908428,-0.0290312760674563
15,0.000469065530090629,-0.0300268300221407,0.95890082104273,-0.208251806894073,0.958900820954122,-0.208251806854719,0.000455578289790953,-0.0299992822385176
15.5,0.000117393459707266,-0.0309925504276256,0.957121503059993,-0.214686575413023,0.957121502974193,-0.214686575370781,0.00010349823239264,-0.0309638855110124
16,-0.000245643680591101,-0.0319547674599727,0.955309644374845,-0.221100749240701,0.955309644291979,-0.221100749195869,-0.00025995727936895,-0.0319249660732295
16.5,-0.000620027846715498,-0.032913361315265,0.953465016638319,-0.227495048715507,0.953465016558479,-0.227495048668374,-0.000634769916082023,-0.0328824035365072
17,-0.00100574009887661,-0.0338682115979094,0.951587358059608,-0.233870097573003,0.95158735798286,-0.233870097523848,-0.00102092044440572,-0.0338360769248705
17.5,-0.00140276057228378,-0.0348191973108083,0.949676383471211,-0.240226429254022,0.949676383397594,-0.240226429203114,-0.00141838869788014,-0.0347858646654542
18,-0.00181106844711237,-0.0357661968463643,0.947731792813992,-0.246564493349763,0.947731792743525,-0.246564493297356,-0.00182715354701452,-0.0357316445797418
18.5,-0.00223064191774947,-0.0367090879783039,0.945753278225101,-0.252884662024685,0.945753278157781,-0.252884661971024,-0.00224719286865982,-0.0366732938756744
19,-0.00266145816133001,-0.0376477478543662,0.943740529901857,-0.25918723629846,0.943740529837667,-0.259187236243773,-0.00267848351468825,-0.0376106891405912
19.5,-0.00310349330560067,-0.0385820529898795,0.941693240902058,-0.265472452101349,0.941693240840966,-0.265472452045852,-0.00312100127999954,-0.0385437063351008
20,-0.00355672239611743,-0.0395118792622418,0.939611111027033,-0.271740486044044,0.939611110968991,-0.271740485987938,-0.00357472086988242,-0.0394722207878686
20.5,-0.00402111936280319,-0.0404371019063454,0.937493849919071,-0.27799146086409,0.937493849864026,-0.277991460807564,-0.00403961586673751,-0.0403961071913344
21,-0.00449665698588836,-0.041357595510946,0.93534117949042,-0.284225450527569,0.935341179438306,-0.284225450470797,-0.0045156586962018,-0.0413152395984189
21.5,-0.00498330686125897,-0.0422732340160308,0.933152835787113,-0.290442484977349,0.933152835737858,-0.290442484920493,-0.00500282059268659,-0.0422294914202273
22,-0.00548103936523497,-0.0431838907111817,0.930928570377987,-0.296642554528707,0.930928570331513,-0.296642554471918,-0.00550107156436386,-0.0431387354247594
22.5,-0.00598982361880973,-0.0440894382349748,0.928668151347328,-0.302825613920133,0.928668151303553,-0.302825613863547,-0.00601038035761681,-0.0440428437366902
23,-0.00650962745137018,-0.0449897485754349,0.926371363958848,-0.308991586032018,0.926371363917685,-0.30899158597576,-0.00653071442099806,-0.0449416878381961
23.5,-0.00704041736393896,-0.0458846930715586,0.92403801104909,-0.315140365289299,0.92403801101045,-0.315140365233484,-0.00706203986870729,-0.0458351385708857
24,-0.00758215849195221,-0.0467741424159529,0.921667913199845,-0.321271820766233,0.921667913163636,-0.321271820710965,-0.0076043214436321,-0.046723066138858
24.5,-0.008134814567621,-0.0476579666585724,0.919260908731702,-0.327385799012563,0.91926090869783,-0.327385798957938,-0.00815752247997664,-0.0476053401128758
25,-0.00869834788190083,-0.0485360352116258,0.916816853554341,-0.333482126620834,0.916816853522715,-0.333482126566936,-0.00872160486551887,-0.0484818294357234
25.5,-0.00927271924609901,-0.04940821685562,0.914335620903552,-0.339560612554409,0.914335620874077,-0.339560612501316,-0.00929652900351907,-0.0493524024287366
26,-0.00985788795317061,-0.0502743797466083,0.911817100990042,-0.345621050255353,0.911817100962626,-0.345621050203131,-0.00988225377432872,-0.0502169267995407
26.5,-0.0104538117387264,-0.0511343914246332,0.909261200581005,-0.351663219550467,0.909261200555556,-0.351663219499178,-0.0104787364967321,-0.0510752696510171
27,-0.0110604467417982,-0.0519881188233908,0.906667842531785,-0.357686888372915,0.906667842508211,-0.357686888322613,-0.0110859328890544,-0.0519272974915064
27.5,-0.0116777474654006,-0.0528354282811381,0.904036965281967,-0.363691814315784,0.904036965260178,-0.363691814266516,-0.0117037970300895,-0.0527728762462889
28,-0.0123056667369378,-0.053676185552864,0.901368522327647,-0.369677746032846,0.901368522307555,-0.369677745984652,-0.0123322813198797,-0.0536118712703397
28.5,-0.0129441556684871,-0.0545102558237269,0.898662481679474,-0.375644424500646,0.898662481660993,-0.375644424453561,-0.0129713364403952,-0.0544441473623887
29,-0.0135931636170202,-0.0553375037237838,0.895918825314186,-0.381591584154978,0.895918825297231,-0.381591584109031,-0.0136209113161613,-0.0552695687803
29.5,-0.0142526381445998,-0.0561577933440311,0.893137548625879,-0.387518953913715,0.893137548610368,-0.387518953868931,-0.0142809530748782,-0.0560879992577814
30,-0.0149225249786009,-0.0569709882537581,0.890318659881925,-0.393426258096942,0.890318659867777,-0.393426258053341,-0.0149514070080847,-0.056899302022446
30.5,-0.0156027679720243,-0.0577769515192317,0.887462179687397,-0.39931321725439,0.887462179674535,-0.399313217211988,-0.0156322165319162,-0.0577033398152429
31,-0.0162933090639311,-0.0585755457237327,0.884568140460981,-0.405179548909256,0.884568140449328,-0.405179548868064,-0.0163233231480139,-0.0584999749112529
31.5,-0.0169940882400813,-0.0593666329889326,0.881636585924596,-0.411024968226646,0.88163658591408,-0.41102496818667,-0.0170246664046343,-0.0592890691418828
32,-0.0177050434938082,-0.0601500749976447,0.878667570608377,-0.41684918861412,0.878667570598928,-0.416849188575367,-0.0177361838580231,-0.060070483918458
32.5,-0.018426110787217,-0.0609257330179369,0.875661159372136,-0.422651922261099,0.875661159363684,-0.422651922223571,-0.0184578110341102,-0.0608440802572192
33,-0.0191572240127485,-0.0616934679286343,0.872617426944041,-0.428432880623224,0.87261742693652,-0.428432880586917,-0.0191894813905851,-0.0616097188057463
33.5,-0.019898314955182,-0.0624531402461856,0.869536457476936,-0.434191774857166,0.869536457470284,-0.434191774822077,-0.0199311262794222,-0.0623672598707989
34,-0.0206493132541478,-0.0632046101529389,0.866418344122434,-0.439928316210875,0.86641834411659,-0.439928316176998,-0.0206826749099169,-0.0631165634475961
34.5,-0.0214101463672127,-0.0639477375267894,0.863263188622723,-0.445642216373697,0.863263188617626,-0.445642216341023,-0.021444054312303,-0.0638574892505293
35,-0.022180739533625,-0.0646823819722322,0.860071100919863,-0.451333187790414,0.860071100915459,-0.451333187758931,-0.0222151893020243,-0.0645898967453173
35.5,-0.0229610157387706,-0.0654084028527968,0.85684219878224,-0.457000943942784,0.856842198778475,-0.45700094391248,-0.022996002444726,-0.0653136451826026
36,-0.0237508956794516,-0.0661256593248776,0.853576607447695,-0.462645199601871,0.853576607444516,-0.462645199572732,-0.0237864140220543,-0.066028593632995
36.5,-0.0245502977300359,-0.0668340103729572,0.850274459282843,-0.468265671054049,0.850274459280201,-0.468265671026058,-0.0245863419983272,-0.0667346010235559
37,-0.0253591379095899,-0.067533314846204,0.846935893458001,-0.473862076303322,0.846935893455848,-0.473862076276461,-0.0253957019881673,-0.0674315261757301
37.5,-0.0261773298500634,-0.0682234314964617,0.84356105563712,-0.479434135252311,0.843561055635412,-0.479434135226563,-0.0262144072251793,-0.0681192278447136
38,-0.0270047847656261,-0.0689042190176116,0.84015009768211,-0.484981569864025,0.840150097680802,-0.48498156983937,-0.0270423685317512,-0.0687975647602612
38.5,-0.0278414114232484,-0.0695755360862914,0.836703177370914,-0.490504104306307,0.836703177369967,-0.490504104282724,-0.0278794942900737,-0.0694663956689257
39,-0.0286871161146221,-0.0702372414039958,0.833220458128713,-0.496001465080672,0.833220458128087,-0.496001465058139,-0.0287256904144669,-0.0701255793777238
39.5,-0.0295418026295257,-0.0708891937405135,0.829702108771619,-0.501473381137062,0.829702108771278,-0.501473381115556,-0.0295808603251099,-0.0707749747992248
40,-0.0304053722307355,-0.0715312519787141,0.826148303262262,-0.506919583975887,0.826148303262171,-0.506919583955385,-0.0304449049232651,-0.0714144409980494
40.5,-0.0312777236305889,-0.0721632751606742,0.822559220476652,-0.512339807738602,0.822559220476778,-0.51233980771908,-0.0313177225681041,-0.0720438372387759
41,-0.0321587529693185,-0.072785122535124,0.818935043981754,-0.517733789287909,0.818935043982065,-0.517733789269343,-0.0321992090552309,-0.0726630230352473
41.5,-0.0330483537952657,-0.0733966536062182,0.815275961823197,-0.523101268278599,0.815275961823663,-0.523101268260964,-0.0330892575970115,-0.0732718582012638
42,-0.0339464170470961,-0.0739977281836146,0.811582166322595,-0.528441987219911,0.811582166323189,-0.528441987203182,-0.0339877588048176,-0.0738702029026611
42.5,-0.0348528310381364,-0.0745882064338551,0.807853853883962,-0.533755691530223,0.807853853884658,-0.533755691514374,-0.0348946006732913,-0.0744579177107593
43,-0.0357674814429714,-0.0751679489330529,0.804091224808722,-0.539042129584795,0.804091224809496,-0.539042129569801,-0.0358096685667545,-0.0750348636571865
43.5,-0.036690251286409,-0.0757368167208654,0.800294483118857,-0.544301052757208,0.800294483119685,-0.544301052743043,-0.0367328452078635,-0.0756009022900567
44,-0.037621020934975,-0.0762946713557717,0.796463836387737,-0.549532215455094,0.796463836388598,-0.54953221544173,-0.037664010668647,-0.076155895731511
44.5,-0.0385596680910538,-0.0768413749716406,0.792599495578232,-0.554735375150659,0.792599495579106,-0.554735375138072,-0.0386030423640303,-0.0766997067366124
45,-0.0395060677898299,-0.0773767903356086,0.788701674887682,-0.55991029240651,0.788701674888551,-0.559910292394672,-0.0395498150479856,-0.0772321987535985
45.5,-0.0404600923991685,-0.0779007809072717,0.784770591599372,-0.565056730897165,0.784770591600219,-0.56505673088605,-0.0405042008124236,-0.077753235985494
46,-0.0414216116225812,-0.0784132108992071,0.780806465940144,-0.570174457426665,0.780806465940952,-0.570174457416247,-0.0414660690889572,-0.0782626834530843
46.5,-0.0423904925054431,-0.07891394533886,0.776809520943813,-0.575263241942618,0.776809520944569,-0.575263241932872,-0.0424352866536764,-0.0787604070592813
47,-0.0433665994445882,-0.0794028501318058,0.772779982320086,-0.580322857546978,0.772779982320777,-0.580322857537877,-0.043411717635041,-0.0792462736548637
47.5,-0.0443497942014607,-0.0798797921264504,0.768718078328666,-0.585353080503859,0.768718078329279,-0.585353080495378,-0.0443952235250558,-0.0797201511056558
48,-0.0453399359189662,-0.0803446391802014,0.764624039658281,-0.590353690244617,0.764624039658805,-0.590353690236729,-0.0453856631938284,-0.0801819083611361
48.5,-0.0463368811421795,-0.0807972602271785,0.760498099310371,-0.595324469370438,0.760498099310797,-0.595324469363119,-0.0463828929076631,-0.0806314155245402
49,-0.0473404838430668,-0.0812375253475354,0.756340492487187,-0.600265203652638,0.756340492487506,-0.600265203645862,-0.0473867663508074,-0.0810685439244858
49.5,-0.0483505954493698,-0.0816653058384795,0.752151456484072,-0.605175682030851,0.752151456484277,-0.605175682024593,-0.0483971346509869,-0.081493166188186
50,-0.0493670648778005,-0.0820804742870921,0.747931230585712,-0.610055696609287,0.747931230585796,-0.610055696603524,-0.0494138464088403,-0.0819051563163095
50.5,-0.0503897385716989,-0.0824829046450701,0.743680055966147,-0.614905042651207,0.743680055966105,-0.614905042645913,-0.0504367477313949,-0.0823043897595704
51,-0.0514184605432708,-0.0828724723055275,0.739398175592368,-0.619723518571735,0.739398175592195,-0.619723518566887,-0.0514656822696673,-0.0826907434971365
51.5,-0.0524530724205481,-0.0832490541820112,0.735085834131303,-0.624510925929168,0.735085834130996,-0.624510925924742,-0.0525004912605226,-0.0830640961169539
52,-0.0534934134991751,-0.0836125287899158,0.730743277860042,-0.629267069414856,0.730743277859598,-0.629267069410831,-0.053541013572863,-0.083424327898126
52.5,-0.054539320799119,-0.0839627763304983,0.726370754579136,-0.633991756841794,0.726370754578553,-0.633991756838146,-0.0545870857582466,-0.0837713208954575
53,-0.0555906291263816,-0.0842996787777178,0.721968513528829,-0.638684799131978,0.721968513528106,-0.638684799128685,-0.0556385421059933,-0.0841049590263364
53.5,-0.0566471711397658,-0.0846231199681545,0.717536805308088,-0.643346010302647,0.717536805307224,-0.643346010299688,-0.0566952147028292,-0.0844251281601184
54,-0.0577087774227228,-0.0849329856942884,0.713075881796294,-0.647975207451467,0.71307588179529,-0.64797520744882,-0.0577569334971104,-0.0847317162101976
54.5,-0.0587752765602723,-0.0852291638014384,0.708585996077491,-0.65257221074073,0.708585996076347,-0.652572210738374,-0.0588235263676109,-0.0850246132289829
55,-0.0598464952209432,-0.0855115442886949,0.70406740236706,-0.65713684338064,0.704067402365779,-0.657136843378555,-0.0598948191968699,-0.0853037115059943
55.5,-0.0609222582436487,-0.0857800194142077,0.699520355940738,-0.661668931611732,0.699520355939322,-0.661668931609899,-0.0609706359490336,-0.0855689056693418
56,-0.0620023887293527,-0.0860344838052056,0.694945113065862,-0.666168304686493,0.694945113064313,-0.666168304684892,-0.0620507987520962,-0.0858200927908395
56.5,-0.0630867081373132,-0.086274834573157,0.690341930934756,-0.670634794850221,0.690341930933078,-0.670634794848834,-0.0631351279844106,-0.0860571724950412
57,-0.0641750363856428,-0.0865009714344941,0.685711067600181,-0.675068237321175,0.685711067598377,-0.675068237319983,-0.0642234423652793,-0.0862800470725003
57.5,-0.0652671919558355,-0.0867127968373372,0.681052781912751,-0.679468470270054,0.681052781910827,-0.67946847026904,-0.0653155590493841,-0.0864886215975588
58,-0.066362992000825,-0.086910216094677,0.676367333460264,-0.683835334798849,0.676367333458224,-0.683835334797997,-0.066411293724766,-0.0866828040509865
58.5,-0.0674622524560633,-0.0870931375244541,0.671654982508848,-0.688168674919094,0.671654982506697,-0.688168674918387,-0.0675104607139806,-0.0868625054478058
59,-0.0685647881529787,-0.0872614725969799,0.666915989945883,-0.69246833752956,0.666915989943627,-0.692468337528981,-0.0686128730779944,-0.0870276399706095
59.5,-0.0696704129340952,-0.0874151360901352,0.662150617224618,-0.696734172393415,0.662150617222264,-0.696734172392949,-0.0697183427223059,-0.087178125108708
60,-0.0707789397689487,-0.0875540462527196,0.657359126310441,-0.70096603211488,0.657359126307995,-0.700966032114513,-0.0708266805046882,-0.0873138818033928
60.5,-0.071890180869836,-0.0876781249763141,0.652541779628728,-0.705163772115415,0.652541779626196,-0.705163772115133,-0.071937696343862,-0.0874348345996047
61,-0.0730039478062793,-0.0877872979759222,0.647698840014239,-0.709327250609445,0.647698840011629,-0.709327250609234,-0.0730511993282979,-0.0875409118042368
61.5,-0.0741200516169792,-0.08788149497959,0.642830570662007,-0.713456328579669,0.642830570659325,-0.713456328579515,-0.07416699782428,-0.0876320456512646
62,-0.0752383029178786,-0.0879606499270824,0.637937235079661,-0.717550869751953,0.637937235076916,-0.717550869751844,-0.0752848995822119,-0.0877081724738298
62.5,-0.0763585120048282,-0.0880247011775686,0.63301909704117,-0.721610740569848,0.633019097038369,-0.721610740569772,-0.07640471184009,-0.0877692328833121
