"Freq [GHz]","re(St(P1,P1)) []","im(St(P1,P1)) []","re(St(P1,P2)) []","im(St(P1,P2)) []","re(St(P2,P1)) []","im(St(P2,P1)) []","re(St(P2,P2)) []","im(St(P2,P2)) []"
0,0.0054118829520462,0,0.994603686631308,0,0.99460368794098,0,0.00541187944304511,0
0.5,0.00598399127612481,-0.000133050137364421,0.993942592813049,-0.00823160278109469,0.993942592647667,-0.00823160365117559,0.00598381202318521,-0.000132516699071772
1,0.00645595637038099,-0.000964948850292302,0.993235752028774,-0.015748027890961,0.993235751970241,-0.0157480276176472,0.00645548755197822,-0.000963705370985224
1.5,0.00671024013226784,-0.00193904182608762,0.992608817495258,-0.0230814375134649,0.992608817488906,-0.0230814373797834,0.00670942471647429,-0.00193701648021261
2,0.00680528099533184,-0.00292867733370805,0.99201245004298,-0.0303515585126029,0.992012450029605,-0.0303515584500236,0.00680407165884045,-0.00292583753266484
2.5,0.00681297731996722,-0.00389443054156935,0.991384487048955,-0.0375908519990009,0.991384487023864,-0.0375908519694264,0.00681130873521596,-0.00389075967849628
3,0.00676919497853001,-0.00483342210693749,0.990699605121977,-0.0447960963664045,0.990699605090967,-0.0447960963517087,0.00676699125389746,-0.00482890331096186
3.5,0.00669164504128128,-0.00574869235882147,0.989951261212642,-0.0519603483871105,0.989951261182409,-0.0519603483788469,0.00668882583986985,-0.00574330466225348
4,0.00658997165719244,-0.0066433337744094,0.989140744392471,-0.0590789835976402,0.989140744368591,-0.0590789835922809,0.00658645553425208,-0.00663705163455042
4.5,0.00647012020376492,-0.00751970048943029,0.988272164830291,-0.0661501442951256,0.988272164816729,-0.0661501442918127,0.00646582641931825,-0.00751249412988475
5,0.00633623304570485,-0.00837954409163633,0.987350198996128,-0.0731741044951155,0.987350198995082,-0.0731741044944023,0.00633108262089088,-0.00837138002981597
5.5,0.00619150977099947,-0.00922424425197566,0.986379096807097,-0.0801525396828717,0.986379096818986,-0.0801525396858986,0.00618542615207973,-0.00921508586280151
6,0.00603861557619834,-0.0100549872840858,0.985362297637255,-0.0870879173333732,0.985362297660793,-0.0870879173412575,0.00603152507383642,-0.0100447953694225
6.5,0.0058798821771926,-0.0108728843625956,0.984302349337165,-0.0939830414030007,0.984302349369513,-0.0939830414163634,0.00587171425989708,-0.010861617722826
7,0.00571740921184705,-0.0116790442510428,0.983200974251989,-0.100840736456912,0.983200974288954,-0.100840736475533,0.00570809669243355,-0.0116666602587081
7.5,0.00555311652373375,-0.0124746150358073,0.982059198115548,-0.107663644908287,0.982059198151825,-0.107663644930851,0.0055425956596088,-0.0124610702096408
8,0.005388772004284,-0.0132608055221413,0.980877496043968,-0.114454109848138,0.980877496073371,-0.114454109872085,0.00537698252446717,-0.0132460560980938
8.5,0.00522600753666755,-0.0140388936117413,0.979655931775423,-0.121214119089765,0.979655931791121,-0.121214119111203,0.00521289260531144,-0.0140228961065247
9,0.00506632956135977,-0.0148102266148609,0.978394279125419,-0.127945290612648,0.978394279120138,-0.127945290626315,0.00505183568655099,-0.0147929383775089
9.5,0.00491112766049556,-0.015576216849114,0.977092121992165,-0.134648884260369,0.977092121958383,-0.134648884259649,0.00489520455710724,-0.0155575965966905
10,0.00476168288399116,-0.0163383347970498,0.975748933244517,-0.141325828694429,0.975748933174609,-0.141325828671379,0.00474428329957152,-0.0163183431317413
10.5,0.00459005590816287,-0.0171474294096674,0.974349041590754,-0.148018008031609,0.97434904152181,-0.148018008006708,0.0045724720944172,-0.0171268888521667
11,0.00441002369471397,-0.0179553745707701,0.972910933068976,-0.154678097194225,0.972910933001142,-0.154678097167555,0.00439221273660708,-0.017934346071546
11.5,0.00422158142527158,-0.0187621145120889,0.971435816959813,-0.161307490498504,0.971435816893219,-0.161307490470159,0.0042034954601203,-0.0187406606433131
12,0.00402472402496856,-0.019567593352638,0.969924684243758,-0.16790755564203,0.969924684178521,-0.167907555612115,0.00400630999345421,-0.0195457780994097
12.5,0.00381944615310584,-0.0203717551003644,0.96837832944903,-0.174479614167145,0.968378329385252,-0.17447961413577,0.00380064554938742,-0.0203496436351993
13,0.00360574219218213,-0.0211745436545452,0.966797372473174,-0.181024926470706,0.966797372410939,-0.181024926437989,0.00358649081352663,-0.0211522020940436
13.5,0.00338360623509126,-0.0219759028089221,0.965182279793245,-0.18754468080364,0.965182279732626,-0.187544680769704,0.003363833931538,-0.0219533979514668
14,0.00315303207027171,-0.0227757762555547,0.963533384640391,-0.194039985697638,0.963533384581444,-0.194039985662603,0.0031326624949421,-0.0227531752987913
14.5,0.00291401316456116,-0.0235741075893348,0.961850905851345,-0.20051186527626,0.961850905794115,-0.200511865240251,0.00289296352535656,-0.0235514778261625
15,0.00266654264352884,-0.0243708403131211,0.960134965221689,-0.206961256944926,0.960134965166209,-0.206961256908063,0.00264472345706551,-0.0243482488048086
15.5,0.00241061326898179,-0.0251659178433949,0.958385603275059,-0.213389011001988,0.95838560322135,-0.21338901096439,0.0023879281177801,-0.0251434310683836
16,0.00214621741336307,-0.0259592835163764,0.956602793431282,-0.219795891765836,0.956602793379354,-0.219795891727616,0.00212256270745814,-0.0259369669932643
16.5,0.00187334703072217,-0.0267508805944243,0.95478645460741,-0.226182579866769,0.954786454557264,-0.226182579828041,0.00184861177505313,-0.0267287984775644
17,0.00159199362390161,-0.0275406522726289,0.952936462321644,-0.232549675404668,0.952936462273274,-0.232549675365537,0.00156605919303304,-0.0275188669186868
17.5,0.00130214820759023,-0.0283285416853447,0.951052658394168,-0.238897701722053,0.95105265834756,-0.238897701682621,0.00127488812955318,-0.028307113189157
18,0.00100380126682326,-0.0291144919124968,0.949134859353163,-0.245227109586438,0.949134859308296,-0.245227109546802,0.000975081018112667,-0.0290934776104672
18.5,0.00069694271052656,-0.0298984459853475,0.947182863661339,-0.251538281614975,0.947182863618186,-0.251538281575225,0.00066661952457181,-0.0298778999246427
19,0.000381561819651932,-0.0306803468914159,0.945196457879718,-0.257831536808429,0.945196457838249,-0.257831536768649,0.000349484511388498,-0.0306603192631578
19.5,5.76471894169206E-005,-0.0314601375781867,0.943175421882904,-0.264107135090712,0.943175421843084,-0.264107135050983,2.36559989266194E-005,-0.0314406741128699
20,-0.000274813334829649,-0.0322377609551181,0.941119533234841,-0.270365281774639,0.941119533196631,-0.270365281735035,-0.000310886876260796,-0.0322189022784931
20.5,-0.000615832728658172,-0.0330131598934642,0.939028570827051,-0.276606131895004,0.93902857079041,-0.276606131855591,-0.000654165906308957,-0.0329949408411896
21,-0.000965424867063525,-0.0337862772232793,0.936902317873331,-0.282829794366761,0.936902317838216,-0.282829794327606,-0.00100620386016204,-0.0337687261127257
21.5,-0.0013236046109929,-0.0345570557269039,0.934740564346436,-0.289036335939578,0.934740564312801,-0.289036335900737,-0.00136702453500714,-0.0345401935846235
22,-0.00169038790246218,-0.0353254381280916,0.932543108933739,-0.295225784930813,0.932543108901538,-0.295225784892338,-0.00173665281107038,-0.0353092778716788
22.5,-0.00206579186886469,-0.0360913670758745,0.930309760580594,-0.301398134727485,0.93030976054978,-0.301398134689426,-0.00211511470978093,-0.0360759126491383
23,-0.00244983493703277,-0.0368547851220111,0.928040339682265,-0.307553347054259,0.928040339652789,-0.307553347016659,-0.00250243745526169,-0.0368400305827437
23.5,-0.00284253695763986,-0.0376156346908401,0.925734678977949,-0.31369135500955,0.925734678949762,-0.313691354972449,-0.00289864953906321,-0.0376015632508351
24,-0.00324391934047708,-0.0383738580400872,0.923392624193717,-0.319812065875449,0.923392624166772,-0.319812065838883,-0.00330378078798638,-0.0383604410575733
24.5,-0.00365400520110487,-0.039129397210999,0.921014034475091,-0.325915363709825,0.921014034449338,-0.325915363673825,-0.0037178624347502,-0.0391165931362649
25,-0.0040728195193161,-0.0398821939660003,0.918598782644499,-0.332001111730794,0.91859878261989,-0.332001111695388,-0.00414092719119119,-0.0398699472417312
25.5,-0.00450038930974861,-0.0406321897117961,0.916146755313971,-0.338069154504858,0.916146755290461,-0.338069154470072,-0.0045730093235542,-0.0406204296305295
26,-0.00493674380487863,-0.0413793254055919,0.913657852879132,-0.344119319950684,0.913657852856672,-0.344119319916538,-0.0050141447293105,-0.0413679649277852
26.5,-0.00538191465043142,-0.0421235414418268,0.911131989416732,-0.350151421170711,0.911131989395278,-0.350151421137224,-0.00546437101478309,-0.0421124759792726
27,-0.00583593611307304,-0.0428647775165318,0.908569092504667,-0.356165258122785,0.908569092484173,-0.356165258089972,-0.00592372757270476,-0.0428538836873467
27.5,-0.00629884529996672,-0.0436029724660776,0.905969102980522,-0.362160619143685,0.905969102960944,-0.362160619111561,-0.00639225565860263,-0.0435921068292033
28,-0.00677068238943984,-0.0443380640767601,0.903331974652186,-0.368137282336056,0.903331974633481,-0.368137282304631,-0.00686999846469705,-0.0443270618559186
28.5,-0.00725149087162452,-0.0450699888613471,0.900657673971917,-0.374095016829689,0.900657673954044,-0.374095016798972,-0.00735700118973248,-0.0450586626706502
29,-0.00774131779742782,-0.0457986817983078,0.89794617968338,-0.380033583927533,0.897946179666299,-0.38003358389753,-0.00785331110284893,-0.0457868203843295
29.5,-0.00824021403360636,-0.0465240760291925,0.895197482449577,-0.385952738146172,0.895197482433247,-0.385952738116887,-0.00835897759928561,-0.0465114430472331
30,-0.00874823452099199,-0.0472461025092104,0.892411584468228,-0.391852228159858,0.892411584452611,-0.391852228131295,-0.00887405224531668,-0.04723243535473
30.5,-0.00926543853212081,-0.0479646896058843,0.889588499080012,-0.397731797656562,0.889588499065073,-0.397731797628721,-0.00939858880941424,-0.0479496983257093
31,-0.00979188992348612,-0.048679762640331,0.88672825037407,-0.403591186113833,0.886728250359773,-0.403591186086714,-0.00993264327616838,-0.0486631289521711
31.5,-0.0103276573765571,-0.0493912433656669,0.883830872794334,-0.409430129501705,0.883830872780644,-0.409430129475308,-0.0104762738390037,-0.049372619818753
32,-0.0108728146203578,-0.0500990493769717,0.880896410749572,-0.415248360919231,0.880896410736456,-0.415248360893551,-0.0110295408671837,-0.0500780586911245
32.5,-0.0114274406269521,-0.0508030934474335,0.8779249182294,-0.421045611170746,0.877924918216826,-0.421045611145779,-0.0115925068420379,-0.0507793280726108
33,-0.0119916197695328,-0.0515032827856168,0.874916458428042,-0.426821609287388,0.87491645841598,-0.426821609263129,-0.0121652362567382,-0.051476304728783
33.5,-0.0125654419309619,-0.0521995182094717,0.871871103377196,-0.432576082998962,0.871871103365616,-0.432576082975404,-0.0127477954733447,-0.0521688591803737
34,-0.0131490025486609,-0.052891693233623,0.868788933589004,-0.438308759160735,0.868788933577879,-0.438308759137871,-0.013340252530211,-0.0528568551655539
34.5,-0.0137424025796304,-0.0535796930679033,0.865670037709865,-0.4440193641394,0.865670037699166,-0.444019364117223,-0.0139426768922722,-0.0535401490735168
35,-0.0143457483671954,-0.0542633935269008,0.862514512185542,-0.449707624161994,0.862514512175244,-0.449707624140495,-0.0145551391361399,-0.0542185893523184
35.5,-0.0149591513888951,-0.0549426598527973,0.859322460937888,-0.455373265631266,0.859322460927967,-0.455373265610434,-0.0151777105614865,-0.0548920158952111
36,-0.0155827278628254,-0.0556173454568076,0.85609399505329,-0.461016015410609,0.856093995043722,-0.461016015390436,-0.0158104627198004,-0.0555602594111253
36.5,-0.0162165981878847,-0.056287290588422,0.852829232482843,-0.466635601081448,0.852829232473605,-0.466635601061922,-0.0164534668514003,-0.0562231407866374
37,-0.0168608861918585,-0.0569523209462616,0.849528297754156,-0.472231751175634,0.849528297745227,-0.472231751156744,-0.0171067932215906,-0.0568804704486516
37.5,-0.0175157181604215,-0.0576122462498572,0.846191321694598,-0.477804195385189,0.846191321685958,-0.477804195366925,-0.0177705103471012,-0.0575320477390974
38,-0.0181812216200494,-0.058266858798007,0.842818441165745,-0.483352664751546,0.842818441157374,-0.483352664733894,-0.0184446841045952,-0.0581776603152775
38.5,-0.0188575238489274,-0.0589159320464855,0.839409798808723,-0.488876891836156,0.839409798800603,-0.488876891819106,-0.0191293767140343,-0.0588170835919115
39,-0.0195447500924554,-0.0595592192457206,0.835965542800131,-0.494376610874237,0.835965542792245,-0.494376610857775,-0.0198246455912348,-0.0594500802434992
39.5,-0.0202430214642541,-0.0601964521873267,0.832485826618177,-0.499851557913202,0.832485826610508,-0.499851557897315,-0.0205305420660568,-0.0600763997882187
40,-0.0209524525199771,-0.0608273401168139,0.828970808818658,-0.505301470937201,0.82897080881119,-0.505301470921877,-0.0212471099653875,-0.0606957782770672
40.5,-0.0216731485000851,-0.0614515688779231,0.825420652820395,-0.510726089979046,0.825420652813114,-0.510726089964271,-0.0219743840635716,-0.0613079381142931
41,-0.0224052022492101,-0.0620688003612937,0.821835526699754,-0.516125157220689,0.821835526692646,-0.51612515720645,-0.0227123884071224,-0.0619125880371217
41.5,-0.0231486908339913,-0.0626786723357508,0.818215602993837,-0.521498417083286,0.818215602986889,-0.521498417069569,-0.0234611345255211,-0.0625094232841791
42,-0.023903671898219,-0.0632807987437316,0.814561058511984,-0.526845616307806,0.814561058505184,-0.526845616294598,-0.0242206195456333,-0.0630981259827111
42.5,-0.0246701798134887,-0.0638747705420636,0.810872074155199,-0.532166504027038,0.810872074148536,-0.532166504014326,-0.0249908242336098,-0.0636783657843421
43,-0.0254482217047487,-0.0644601571647697,0.807148834743128,-0.53746083182976,0.807148834736591,-0.53746083181753,-0.0257717109950637,-0.0642498007776051
43.5,-0.0262377734522247,-0.0650365086746938,0.80339152884824,-0.542728353817784,0.803391528841819,-0.542728353806022,-0.0265632218715072,-0.0648120787024721
44,-0.0270387757928959,-0.065603358654837,0.799600348636857,-0.547968826656501,0.799600348630543,-0.547968826645194,-0.027365276578272,-0.0653648384874594
44.5,-0.0278511306644139,-0.0661602278679999,0.795775489716703,-0.553182009619501,0.795775489710488,-0.553182009608635,-0.0281777706360706,-0.065907712123414
45,-0.0286746979501423,-0.0667066286844666,0.791917150990657,-0.558367664627789,0.791917150984533,-0.558367664617352,-0.0290005736544823,-0.0664403268797326
45.5,-0.0295092927938035,-0.0672420702428023,0.788025534516386,-0.563525556284059,0.788025534510347,-0.563525556274035,-0.0298335278305465,-0.0669623078584888
46,-0.030354683653987,-0.0677660642694404,0.784100845371592,-0.568655451902455,0.78410084536563,-0.568655451892833,-0.0306764467287426,-0.0674732808699796
46.5,-0.0312105912606685,-0.0682781314406925,0.780143291524567,-0.573757121534208,0.780143291518677,-0.573757121524974,-0.03152911440936,-0.0679728755997421
47,-0.0320766886166299,-0.0687778081287354,0.776153083709808,-0.578830337989488,0.776153083703983,-0.578830337980628,-0.0323912849702231,-0.0684607290227212
47.5,-0.0329526021556634,-0.0692646533341951,0.772130435308425,-0.58387487685579,0.772130435302662,-0.583874876847293,-0.0332626825613446,-0.0689364890054618
48,-0.0338379141271831,-0.0697382555757708,0.768075562233133,-0.588890516513149,0.768075562227426,-0.588890516505002,-0.0341430019232555,-0.0693998180228775
48.5,-0.0347321662249787,-0.0701982394853284,0.763988682817546,-0.593877038146425,0.763988682811893,-0.593877038138615,-0.0350319094872802,-0.0698503969031193
49,-0.0356348644190245,-0.0706442718481696,0.759870017709624,-0.598834225754913,0.759870017704022,-0.598834225747427,-0.0359290450601156,-0.0702879285032902
49.5,-0.0365454848874366,-0.0710760668349426,0.75571978976902,-0.603761866159475,0.755719789763466,-0.603761866152301,-0.0368340240961986,-0.070712141211244
50,-0.0374634808852961,-0.071493390194907,0.751538223968157,-0.608659749007407,0.751538223962647,-0.608659749000535,-0.0377464405401478,-0.071122792165255
50.5,-0.0383882903330723,-0.0718960622194641,0.747325547296852,-0.613527666775197,0.747325547291385,-0.613527666768612,-0.0386658701991128,-0.0715196700846927
51,-0.0393193438643761,-0.0722839593380125,0.743081988670318,-0.618365414769343,0.743081988664893,-0.618365414763036,-0.0395918745823111,-0.0719025976113929
51.5,-0.040256073044643,-0.0726570142716856,0.738807778840374,-0.62317279112539,0.738807778834991,-0.62317279111935,-0.0405240051237138,-0.0722714330732688
52,-0.0411979184616598,-0.0730152147398029,0.734503150309731,-0.627949596805294,0.734503150304387,-0.627949596799507,-0.0414618076851559,-0.0726260715985714
52.5,-0.0421443373966681,-0.0733586007835529,0.730168337249178,-0.632695635593248,0.730168337243874,-0.632695635587706,-0.0424048272223883,-0.0729664455304292
53,-0.0430948108103246,-0.0736872608362452,0.72580357541758,-0.637410714090091,0.725803575412317,-0.637410714084783,-0.0433526124868085,-0.073292524115788
53.5,-0.0440488494187783,-0.0740013267245773,0.72140910208452,-0.642094641706375,0.721409102079297,-0.64209464170129,-0.0443047206316563,-0.0736043124693653
54,-0.0450059986878058,-0.0743009678269805,0.716985155955484,-0.646747230654203,0.716985155950302,-0.646747230649331,-0.0452607215936541,-0.0739018498401521
54.5,-0.0459658426328143,-0.0745863846410328,0.712531977099488,-0.651368295937918,0.712531977094348,-0.651368295933249,-0.0462202021294288,-0.0741852072337634
55,-0.046928006374667,-0.0748578020211791,0.708049806879021,-0.655957655343706,0.708049806873924,-0.655957655339231,-0.0471827694000346,-0.0744544844670614
55.5,-0.0478921574610638,-0.0751154623415546,0.703538887882216,-0.660515129428212,0.703538887877164,-0.660515129423921,-0.0481480540156335,-0.0747098067506048
56,-0.0488580060166565,-0.0753596188184257,0.698999463857162,-0.665040541506202,0.698999463852156,-0.665040541502087,-0.0491157124746687,-0.0749513209086187
56.5,-0.0498253038291445,-0.0755905291957301,0.694431779648257,-0.669533717637351,0.6944317796433,-0.669533717633403,-0.0500854289562682,-0.0751791913547085
57,-0.0507938425115806,-0.075808449958829,0.689836081134532,-0.67399448661221,0.689836081129625,-0.67399448660842,-0.0510569164496764,-0.0753935959442686
57.5,-0.0517634509022278,-0.0760136311994637,0.685212615169864,-0.678422679937389,0.68521261516501,-0.67842267993375,-0.0520299172287003,-0.07559472182164
58,-0.0527339918730965,-0.0762063122123507,0.680561629525,-0.682818131820026,0.680561629520202,-0.68281813181653,-0.053004202701337,-0.0757827613721693
58.5,-0.0537053587178183,-0.0763867178636257,0.675883372831342,-0.687180679151555,0.675883372826603,-0.687180679148193,-0.0539795726837076,-0.0759579083772158
59,-0.0546774712806923,-0.0765550557355602,0.671178094526405,-0.691510161490841,0.671178094521726,-0.691510161487607,-0.0549558541626095,-0.076120354454971
59.5,-0.0556502719734958,-0.0767115140219928,0.666446044800908,-0.695806421046706,0.666446044796293,-0.695806421043592,-0.055932899621889,-0.0762702858527292
60,-0.0566237218071975,-0.0768562601254367,0.661687474547437,-0.700069302659875,0.66168747454289,-0.700069302656876,-0.056910585014431,-0.0764078806382282
60.5,-0.057597796543933,-0.0769894398898708,0.656902635310618,-0.704298653784387,0.656902635306142,-0.704298653781495,-0.0578888074640101,-0.076533306319762
61,-0.0585724830522282,-0.0771111773924839,0.652091779238761,-0.708494324468491,0.652091779234359,-0.708494324465701,-0.0588674827800302,-0.076646717907955
61.5,-0.0595477759268326,-0.0772215752123144,0.647255159036922,-0.712656167335059,0.647255159032597,-0.712656167332364,-0.0598465428638532,-0.0767482564169635
62,-0.0605236744146268,-0.0773207150929849,0.642393027921346,-0.716784037561544,0.642393027917102,-0.716784037558939,-0.0608259330786187,-0.0768380477899569
62.5,-0.0615001796705531,-0.0774086589195542,0.637505639575237,-0.720877792859503,0.637505639571077,-0.720877792856982,-0.061805609646002,-0.0769162022232791
