"Freq [GHz]","re(St(P1,P1)) []","im(St(P1,P1)) []","re(St(P1,P2)) []","im(St(P1,P2)) []","re(St(P2,P1)) []","im(St(P2,P1)) []","re(St(P2,P2)) []","im(St(P2,P2)) []"
0,0.00603370112423818,0,0.993982922271243,0,0.993982920859708,0,0.00603369410271171,0
0.5,0.00668711523782406,-0.000449671012255237,0.993251675117133,-0.00828679944502397,0.993251675062588,-0.00828679953929168,0.00668688855363797,-0.000448619344929568
1,0.00722266988063325,-0.00169618174559361,0.992513294152385,-0.0157693310331695,0.992513294060277,-0.0157693310275917,0.00722208375897893,-0.00169381927145196
1.5,0.00753104335672816,-0.00309347496180123,0.991880007862125,-0.0230735829406239,0.991880007750812,-0.0230735829894524,0.00752999251937503,-0.00308972776980276
2,0.00766346776734572,-0.00452184121321686,0.991309921416949,-0.0303107585392119,0.991309921280771,-0.0303107586015265,0.00766196687586174,-0.0045165525686226
2.5,0.00769724799013982,-0.00593169986262687,0.990732328945604,-0.0375297035295556,0.990732328797928,-0.0375297035866655,0.00769531664984147,-0.00592479913512456
3,0.00767261470909553,-0.00731807026118503,0.990112139279256,-0.0447324506431546,0.990112139133648,-0.0447324506884339,0.00767025288410217,-0.00730951444685068
3.5,0.00760933698754318,-0.00868423894270798,0.9894354105395,-0.0519127097506047,0.989435410406948,-0.0519127097829042,0.00760653323991756,-0.00867399046375894
4,0.0075176879187091,-0.0100340282321145,0.98869813299993,-0.0590646035127289,0.988698132888833,-0.0590646035335993,0.00751442731784868,-0.010022049037703
4.5,0.00740345134551701,-0.0113704845617164,0.987900743721855,-0.0661841883484851,0.987900743638214,-0.0661841883609888,0.0073997200168181,-0.0113567355995983
5,0.00727016670382774,-0.0126958805571533,0.987045525881408,-0.0732693504523301,0.987045525828858,-0.0732693504603246,0.0072659540004183,-0.012680322828329
5.5,0.00712017774115714,-0.0140119216157402,0.986135343607321,-0.0803193901100325,0.986135343587126,-0.0803193901175909,0.00711547697335058,-0.0139945175465197
6,0.00695514780809425,-0.0153199311184027,0.985173020859312,-0.0873346049191008,0.985173020870389,-0.0873346049299997,0.00694995611306859,-0.0153006458139497
6.5,0.00677632538661244,-0.0166209833432482,0.984161050410603,-0.0943159408734084,0.984161050449616,-0.0943159408906311,0.0067706430910347,-0.0165997855724536
7,0.0065846868515288,-0.0179159924584491,0.983101479968483,-0.101264719710839,0.983101480030026,-0.101264719736151,0.00657851655101049,-0.0178928553281406
7.5,0.00638101627258403,-0.0192057702948079,0.981995894644662,-0.108182435309882,0.981995894721487,-0.108182435343445,0.00637436177805606,-0.0191806716177609
8,0.00616595179801466,-0.0204910630549637,0.980845450184085,-0.115070608116205,0.980845450267398,-0.115070608156309,0.00615881705320454,-0.0204639854389104
8.5,0.0059400138286636,-0.0217725740935757,0.979650930215812,-0.121930686243376,0.979650930295581,-0.121930686286222,0.00593240187118987,-0.0217435047897609
9,0.00570362308121419,-0.0230509775878733,0.978412811750429,-0.128763982782369,0.978412811815695,-0.128763982821943,0.00569553509621767,-0.0230199081430893
9.5,0.0054571129617238,-0.0243269263201231,0.977131329874335,-0.135571640242629,0.97713132991352,-0.135571640270634,0.00544854745853129,-0.0242938520770499
10,0.00520073870026072,-0.0256010557222188,0.975806536813391,-0.142354614599482,0.975806536814575,-0.14235461460532,0.00519169082805798,-0.0255659752110713
10.5,0.00491129929945079,-0.0268647954420893,0.97441328381645,-0.149149912822776,0.974413283817087,-0.149149912827099,0.00490325140054361,-0.0268287447878124
11,0.0046077868365129,-0.0281261527638645,0.972976428108267,-0.155915132675286,0.972976428108539,-0.155915132678092,0.00460074284668589,-0.0280892427779338
11.5,0.00429020759995277,-0.0293850157339191,0.971497156652084,-0.162651186594073,0.971497156652162,-0.162651186595378,0.00428416462032018,-0.0293473614245041
12,0.00395856806511917,-0.030641272715064,0.969976484321664,-0.16935899221841,0.969976484321706,-0.169358992218249,0.0039535159452684,-0.0306029930832739
12.5,0.00361287486519873,-0.0318948124252394,0.96841526769394,-0.176039454849187,0.968415267694094,-0.176039454847608,0.0036087957734549,-0.0318560302383739
13,0.00325313475716892,-0.0331455239792451,0.966814219504021,-0.182693453191658,0.96681421950442,-0.182693453188725,0.00325000273772115,-0.0331063655186497
13.5,0.0028793545820454,-0.0343932969335512,0.965173923264462,-0.189321828092923,0.965173923265226,-0.18932182808871,0.00287713509879503,-0.0343538917144679
14,0.00249154121870693,-0.0356380213342233,0.963494847656844,-0.195925373952297,0.963494847658078,-0.195925373946886,0.00249019068582215,-0.035598501794758
14.5,0.00208970153048421,-0.0368795877679173,0.961777360399391,-0.202504832470884,0.961777360401188,-0.202504832464362,0.00208916682981947,-0.0368400889239933
15,0.00167384230364964,-0.0381178874158548,0.960021741377669,-0.209060888410891,0.960021741380107,-0.209060888403352,0.00167406028937067,-0.0380785464786957
15.5,0.00124397017682121,-0.0393528121106583,0.958228194895833,-0.215594167050964,0.958228194898978,-0.215594167042501,0.00124486716782385,-0.0393137680630735
16,0.00080009156022709,-0.0405842543958643,0.956396860963743,-0.222105233047129,0.956396860967648,-0.222105233037839,0.000801582821205654,-0.04054564752325
16.5,0.000342212543656795,-0.0418121075877886,0.95452782558141,-0.228594590436576,0.954527825586118,-0.228594590426554,0.000344201756028062,-0.0417740789594023
17,-0.000129661208170484,-0.043036265839389,0.952621130018024,-0.235062683551342,0.952621130023566,-0.235062683540683,-0.0001272824839052,-0.0429989567351261
17.5,-0.000615524574227699,-0.0442566242056315,0.950676779109485,-0.241509898638877,0.950676779115884,-0.241509898627675,-0.000612877442622617,-0.0442201754830878
18,-0.0011153731113005,-0.0454730787097013,0.948694748617611,-0.247936566015292,0.948694748624879,-0.247936566003636,-0.00111259189000967,-0.0454376301059605
18.5,-0.00162920320526827,-0.0466855264092678,0.946674991707019,-0.254342962604191,0.946674991715159,-0.254342962592168,-0.00162643597375339,-0.0466512157714276
19,-0.00215701224133502,-0.0478938654618002,0.944617444603706,-0.260729314738471,0.944617444612718,-0.260729314726166,-0.00215442138625394,-0.0478608278998358
19.5,-0.00269879879513069,-0.0490979951877124,0.942522031503401,-0.267095801124523,0.942522031513275,-0.267095801112012,-0.00269656154756343,-0.0490663621429039
20,-0.0032545628467785,-0.0502978161298153,0.940388668798798,-0.273442555887494,0.940388668809521,-0.273442555874853,-0.00325287180544187,-0.0502677143515622
20.5,-0.00382430602013106,-0.0514932301072972,0.938217268693784,-0.279769671632995,0.938217268705334,-0.279769671620296,-0.00382336965358476,-0.0514647805308197
21,-0.0044080318495423,-0.0526841402620124,0.936007742270063,-0.286077202474787,0.936007742282417,-0.286077202462095,-0.00440807496906304,-0.0526574567791329
21.5,-0.00500574607664817,-0.0538704510944772,0.933760002067979,-0.292365166990033,0.933760002081111,-0.29236516697741,-0.00500701026994033,-0.0538456392094757
22,-0.00561745697977561,-0.0550520684864682,0.931473964238961,-0.298633551073654,0.931473964252838,-0.298633551061155,-0.00562020099395188,-0.055029223848881
22.5,-0.00624317573862432,-0.056228899706507,0.929149550322427,-0.304882310671496,0.929149550337016,-0.304882310659176,-0.00624767579895114,-0.0562081065127824
23,-0.00688291683698977,-0.0574008533939006,0.926786688695186,-0.311111374378773,0.926786688710452,-0.311111374366678,-0.00688946688567227,-0.0573821826500325
23.5,-0.00753669850621047,-0.0585678395161979,0.92438531573672,-0.317320645895515,0.924385315752624,-0.31732064588369,-0.00754561034304424,-0.0585513471539256
24,-0.00820454321201824,-0.0597297692940877,0.92194537674915,-0.32351000633508,0.921945376765654,-0.323510006323564,-0.00821614651596631,-0.0597154941339979
24.5,-0.00888647818724392,-0.0608865550867486,0.919466826666476,-0.329679316385027,0.919466826683539,-0.329679316373855,-0.00890112039498475,-0.0608745166427596
25,-0.00958253601259351,-0.0620381102295795,0.916949630583643,-0.335828418322252,0.916949630601225,-0.335828418311458,-0.00960058202675013,-0.0620283063508877
25.5,-0.010292755247217,-0.0631843488149526,0.914393764132378,-0.341957137886112,0.914393764150438,-0.341957137875723,-0.0103145869433974,-0.0631767531636993
26,-0.0110171811102096,-0.0643251854052789,0.911799213727369,-0.348065286014696,0.911799213745864,-0.348065286004736,-0.0110431966081317,-0.0643197447710724
26.5,-0.0117558662132568,-0.0654605346661277,0.909165976703365,-0.354152660450313,0.909165976722255,-0.354152660440804,-0.0117864788732133,-0.0654571661222469
27,-0.0125088713434962,-0.0665903109055257,0.906494061361106,-0.36021904722094,0.906494061380348,-0.360219047211901,-0.0125445084452452,-0.0665888988163288
27.5,-0.0132762662940956,-0.0677144275037316,0.903783486937537,-0.366264222004653,0.903783486957091,-0.366264221996098,-0.0133173673511034,-0.0677148203986151
28,-0.0140581307380798,-0.06883279621599,0.90103428351369,-0.372287951384283,0.901034283533515,-0.372287951376225,-0.0141051453960301,-0.0688348035524442
28.5,-0.0148545551384078,-0.0699453263288494,0.898246491871698,-0.378289993999495,0.898246491891754,-0.378289993991943,-0.014907940603246,-0.0699487151758236
29,-0.0156656416841618,-0.0710519236487444,0.895420163310779,-0.384270101603372,0.895420163331026,-0.384270101596334,-0.0157258596219403,-0.0710564153319688
29.5,-0.016491505238837,-0.0721524892998329,0.892555359430589,-0.390228020030351,0.892555359450989,-0.390228020023831,-0.0165590180876354,-0.07215775606302
30,-0.0173322742820142,-0.0732469183065705,0.889652151889072,-0.396163490082123,0.889652151909587,-0.396163490076124,-0.0174075409156771,-0.0732525800567467
30.5,-0.0181880918200327,-0.074335097935442,0.886710622140856,-0.402076248337743,0.88671062216145,-0.402076248332267,-0.0182715625049632,-0.0743407191570897
31,-0.0190591162346049,-0.0754169057698735,0.88373086116129,-0.407966027893888,0.883730861181926,-0.407966027888932,-0.0191512268250477,-0.0754219927111019
31.5,-0.0199455220305116,-0.0764922074928664,0.880712969160413,-0.413832559040823,0.880712969181058,-0.413832559036385,-0.0200466873554476,-0.0764962057473861
32,-0.0208475004345912,-0.0775608543537563,0.877657055290413,-0.419675569879298,0.877657055311032,-0.419675569875373,-0.0209581068414631,-0.077563146984619
32.5,-0.0217652597881736,-0.0786226802989993,0.874563237349574,-0.425494786883204,0.874563237370135,-0.425494786879786,-0.0218856568261922,-0.0786225866734482
33,-0.0226990256641396,-0.0796774987527444,0.871431641485142,-0.431289935412524,0.871431641505614,-0.431289935409606,-0.02282951691393,-0.0796742742811603
33.5,-0.0236490406280153,-0.080725099041455,0.868262401897136,-0.43706074018071,0.868262401917488,-0.437060740178281,-0.0237898737159761,-0.0807179360361101
34,-0.0246155635505063,-0.0817652424689022,0.865055660544735,-0.442806925680356,0.86505566056494,-0.442806925678408,-0.0247669194264609,-0.0817532723583621
34.5,-0.0255988683672545,-0.0827976580639376,0.86181156685654,-0.448528216570723,0.861811566876569,-0.448528216569244,-0.0257608499735587,-0.0827799552142139
35,-0.0265992421711975,-0.0838220380441492,0.858530277445772,-0.454224338030336,0.858530277465599,-0.454224338029313,-0.0267718626908656,-0.0837976254454784
35.5,-0.027616982515152,-0.0848380330645231,0.855211955831207,-0.45989501607767,0.855211955850806,-0.459895016077091,-0.0278001534555741,-0.084805890139428
36,-0.0286523937985435,-0.0858452473515978,0.851856772164452,-0.465539977862675,0.851856772183799,-0.465539977862526,-0.0288459132449258,-0.0858043201219638
36.5,-0.029705782614637,-0.0868432338603846,0.848464902964046,-0.471158951931617,0.848464902983119,-0.471158951931882,-0.0299093240712113,-0.0867924476744066
37,-0.0307774519454365,-0.0878314896328973,0.845036530856677,-0.476751668467554,0.845036530875454,-0.476751668468218,-0.0309905542690235,-0.0877697645926434
37.5,-0.0318676941131035,-0.0888094515820814,0.841571844325742,-0.482317859508537,0.841571844344202,-0.482317859509584,-0.032089753127363,-0.0887357207251784
38,-0.0329767824318435,-0.0897764929710334,0.838071037467345,-0.487857259145449,0.83807103748547,-0.487857259146863,-0.0332070448841102,-0.0896897231425666
38.5,-0.0341049615550032,-0.0907319209011799,0.834534309753799,-0.493369603701222,0.834534309771568,-0.493369603702984,-0.0343425221316567,-0.0906311361031016
39,-0.0352524365802251,-0.0916749751600242,0.830961865804573,-0.498854631893033,0.830961865821972,-0.498854631895126,-0.0354962387200608,-0.0915592819864035
39.5,-0.0364193610613256,-0.0926048288032292,0.827353915164644,-0.50431208497893,0.827353915181655,-0.504312084981338,-0.0366682022872431,-0.0924734433654916
40,-0.037605824177754,-0.0935205908505009,0.823710672090111,-0.509741706890202,0.823710672106721,-0.509741706892904,-0.0378583665931098,-0.0933728663766321
40.5,-0.0388118374272646,-0.0944213114526818,0.82003235534095,-0.515143244350703,0.820032355357143,-0.515143244353683,-0.0390666238838193,-0.0942567655225509
41,-0.0400373213281311,-0.0953059898317018,0.816319187980717,-0.520516446984233,0.816319187996481,-0.52051644698747,-0.0402927975604821,-0.0951243300065777
41.5,-0.0412820927340443,-0.0961735852001524,0.812571397183038,-0.525861067410954,0.812571397198362,-0.52586106741443,-0.0415366354693655,-0.0959747316420546
42,-0.0425458534649197,-0.0970230307306242,0.808789214044662,-0.531176861333784,0.808789214059536,-0.531176861337479,-0.0427978041633831,-0.0968071343128832
42.5,-0.0438281810252745,-0.0978532504681465,0.804972873404885,-0.536463587615562,0.804972873419298,-0.536463587619459,-0.0440758845020379,-0.0976207048791665
43,-0.0451285222028447,-0.0986631788694792,0.801122613671115,-0.54172100834777,0.80112261368506,-0.541721008351848,-0.0453703689540772,-0.0984146253299016
43.5,-0.046446190299527,-0.0994517824239888,0.797238676650383,-0.546948888911466,0.797238676663851,-0.546948888915708,-0.0466806609394922,-0.0991881058880231
44,-0.0477803666343848,-0.100218082582239,0.793321307386557,-0.552146998031092,0.793321307399542,-0.552146998035476,-0.0480060764924071,-0.0999403986788132
44.5,-0.0491301067711095,-0.100961179014637,0.789370754003069,-0.557315107821685,0.789370754015565,-0.557315107826194,-0.0493458484431946,-0.100670811489354
45,-0.0504943516659021,-0.101680272070292,0.785387267550924,-0.562452993830058,0.785387267562926,-0.562452993834672,-0.0506991332090293,-0.101378721083164
45.5,-0.0518719436224457,-0.102374683230692,0.781371101861799,-0.567560435070369,0.781371101873303,-0.567560435075069,-0.0520650201524036,-0.102063585499161
46,-0.053261646604533,-0.103043872373249,0.777322513406013,-0.572637214054571,0.777322513417016,-0.57263721405934,-0.0534425433252491,-0.102724954764502
46.5,-0.0546621701273592,-0.103687450785436,0.773241761155196,-0.577683116818083,0.773241761165695,-0.5776831168229,-0.0548306952730246,-0.103362479490848
47,-0.0560721956620003,-0.104305189097422,0.769129106449436,-0.582697932941072,0.769129106459431,-0.58269793294592,-0.0562284424408343,-0.10397591690379
47.5,-0.0574904042782382,-0.104897019612629,0.764984812868764,-0.587681455565673,0.764984812878253,-0.587681455570533,-0.0576347416146736,-0.104565133971704
48,-0.0589155041448375,-0.105463032881644,0.760809146108751,-0.59263348140943,0.760809146117735,-0.592633481414286,-0.0590485567560807,-0.10513010744544
48.5,-0.0603462565172785,-0.106003468747708,0.756602373860101,-0.597553810775255,0.756602373868581,-0.597553810780089,-0.060468875555777,-0.105670920782582
49,-0.0617814989695315,-0.106518702451065,0.752364765692037,-0.602442247558134,0.752364765700014,-0.602442247562927,-0.061894725045007,-0.106187758096136
49.5,-0.0632201648526992,-0.107009226677896,0.748096592939358,-0.607298599248825,0.748096592946833,-0.607298599253562,-0.0633251856612885,-0.106680895423193
50,-0.0646612982613624,-0.107475630649619,0.743798128592995,-0.612122676934754,0.743798128599973,-0.612122676939418,-0.0647594032626584,-0.107150689741524
50.5,-0.0661040641232263,-0.107918577454762,0.739469647193956,-0.616914295298296,0.73946964720044,-0.616914295302871,-0.0661965987117625,-0.107597566260925
51,-0.0675477533627403,-0.108338780827156,0.735111424730499,-0.621673272612629,0.735111424736492,-0.621673272617098,-0.0676360747963811,-0.108022004575015
51.5,-0.06899178339219,-0.108736982482094,0.730723738538427,-0.626399430735311,0.730723738543935,-0.626399430739658,-0.0690772204032086,-0.108424524276155
52,-0.0704356944297217,-0.109113930957059,0.72630686720438,-0.631092595099741,0.726306867209408,-0.631092595103953,-0.0705195120045581,-0.108805670613309
52.5,-0.0718791423183118,-0.109470362691491,0.721861090472013,-0.635752594704634,0.721861090476566,-0.635752594708696,-0.0719625126427232,-0.109166000715895
53,-0.0733218886186072,-0.109806985847586,0.717386689150945,-0.640379262101638,0.717386689155031,-0.640379262105536,-0.073405868696505,-0.109506070824162
53.5,-0.0747637887765292,-0.110124467145415,0.712883945028395,-0.644972433381213,0.712883945032022,-0.644972433384933,-0.0748493047846909,-0.109826424867996
54,-0.0762047791346663,-0.110423421779433,0.708353140783393,-0.649531948156872,0.708353140786567,-0.6495319481604,-0.0762926172010989,-0.110127584630806
54.5,-0.0776448634796678,-0.110704406312332,0.703794559903482,-0.654057649547894,0.703794559906211,-0.654057649551219,-0.0777356662871963,-0.110410041631844
55,-0.0790840997119349,-0.110967914312384,0.699208486603826,-0.658549384160598,0.69920848660612,-0.658549384163706,-0.0791783681350542,-0.110674250765899
55.5,-0.0805225871037892,-0.111214374412701,0.694595205748649,-0.663007002068252,0.694595205750516,-0.663007002071132,-0.0806206859810336,-0.110920625658639
56,-0.0819604544903866,-0.111444150421838,0.689955002774912,-0.667430356789717,0.689955002776362,-0.667430356792359,-0.0820626216047166,-0.111149535631658
56.5,-0.0833978496233588,-0.11165754309914,0.685288163618176,-0.671819305266886,0.685288163619218,-0.671819305269277,-0.0835042069939643,-0.11136130412447
57,-0.0848349298166248,-0.111854793217786,0.680594974640567,-0.676173707840981,0.680594974641211,-0.676173707843112,-0.0849454964805209,-0.111556208390617
57.5,-0.0862718539303942,-0.112036085566505,0.675875722560789,-0.680493428227796,0.675875722561047,-0.680493428229658,-0.0863865594954059,-0.111734480269889
58,-0.0877087756740214,-0.112201553580476,0.671130694386123,-0.684778333491921,0.671130694386005,-0.684778333493504,-0.0878274740424002,-0.111896307836112
58.5,-0.0891458381603862,-0.112351284337533,0.666360177346342,-0.689028294020009,0.666360177345859,-0.689028294021306,-0.0892683209432551,-0.112041837727151
59,-0.0905831696120213,-0.112485323702707,0.661564458829508,-0.69324318349316,0.661564458828672,-0.693243183494161,-0.0907091788708299,-0.112171177978146
59.5,-0.0920208800998988,-0.112603681449509,0.656743826319588,-0.697422878858428,0.656743826318411,-0.697422878859128,-0.0921501201565406,-0.112284401197937
60,-0.0934590591870125,-0.112706336227661,0.651898567335836,-0.701567260299552,0.65189856733433,-0.701567260299942,-0.0935912073359505,-0.112381547950112
60.5,-0.0948977743481256,-0.112793240283369,0.647028969373908,-0.705676211206901,0.647028969372085,-0.705676211206977,-0.0950324903804572,-0.112462630222326
61,-0.096337070042032,-0.112864323868966,0.642135319848655,-0.709749618146717,0.642135319846528,-0.709749618146471,-0.0964740045528568,-0.112527634889211
61.5,-0.0977769673214904,-0.11291949930395,0.637217906038561,-0.713787370829667,0.637217906036142,-0.713787370829094,-0.0979157688192391,-0.112576527094492
62,-0.0992174638770508,-0.112958664669449,0.632277015031784,-0.717789362078759,0.632277015029086,-0.717789362077858,-0.0993577847480662,-0.112609253496131
62.5,-0.100658534423136,-0.112981707133474,0.627312933673755,-0.721755487796649,0.627312933670793,-0.721755487795413,-0.100800035828625,-0.112625745334236
