"Freq [GHz]","re(St(P1,P1)) []","im(St(P1,P1)) []","re(St(P1,P2)) []","im(St(P1,P2)) []","re(St(P2,P1)) []","im(St(P2,P1)) []","re(St(P2,P2)) []","im(St(P2,P2)) []"
0,0.00581407621069729,0,0.994199819804635,0,0.994199831737205,0,0.00581408574021225,0
0.5,0.00630669131818351,0.00140339762435815,0.993611849634664,-0.00820734975781789,0.993611842428887,-0.00820734922690036,0.00630657701213977,0.00140385588355585
1,0.00670839780910271,0.00222650891596032,0.992960850559644,-0.0158083274933425,0.99296085126854,-0.0158083300141172,0.00670810422177048,0.00222754456330776
1.5,0.00672096576597614,0.00285230887524968,0.992324318192279,-0.0234867066919033,0.992324317736898,-0.0234867094566926,0.00672010263956402,0.0028541269877902
2,0.00674768944486992,0.00357875438271904,0.991570163902452,-0.0309810852940711,0.991570162570683,-0.0309810877405319,0.00674657737000839,0.00358129240549943
2.5,0.00678472661469476,0.00434813483027163,0.990759310842971,-0.0383148836828227,0.990759309064976,-0.0383148855494824,0.00678344477970372,0.00435137729233404
3,0.00683125531430395,0.00514183453621264,0.989924342437264,-0.045523566050008,0.989924340594809,-0.0455235673124239,0.00682982292268797,0.00514577945359385
3.5,0.00688713413679332,0.00595243840160986,0.989076375274737,-0.0526399154951518,0.989076373629678,-0.0526399162532334,0.0068855495095963,0.0059570899360768
4,0.00695245601125816,0.00677674862364164,0.988214146415754,-0.0596886139682624,0.988214145113015,-0.0596886143603745,0.00695070840850742,0.00678211474779733
4.5,0.00702742810448986,0.00761345757802712,0.987330757280316,-0.0666860905551463,0.987330756377096,-0.0666860907116984,0.00702550210049058,0.00761954917846097
5,0.00711233270912959,0.00846221896385213,0.986417579185293,-0.0736422610654826,0.986417578681187,-0.0736422610905922,0.00711021003341472,0.00846904947526461
5.5,0.00720751360874627,0.00932322780553818,0.985466157101058,-0.0805624723423941,0.985466156960932,-0.0805624723106693,0.00720517398017517,0.00933081308032779
6,0.0073133720433739,0.0101970126900737,0.984468975272802,-0.0874490749139669,0.984468975441988,-0.0874490748737538,0.00731079355433767,0.0102053709901382
6.5,0.00743036694048527,0.0110843261319191,0.983419657959596,-0.0943025437201861,0.983419658373254,-0.0943025436988618,0.00742752621979292,0.0110934781942236
7,0.00755901740693044,0.0119860841702133,0.982312923586762,-0.101122227868803,0.982312924175375,-0.101122227878041,0.00755588966407658,0.0119960533241645
7.5,0.00769990667919629,0.0129033323968359,0.981144450954413,-0.107906834705256,0.981144451646905,-0.107906834745553,0.00769646567950222,0.0129141447235392
8,0.0078536872142746,0.0138372270341502,0.979910729527556,-0.114654735270842,0.979910730253011,-0.114654735335143,0.00784990521007187,0.0138489115636142
8.5,0.00802108682127281,0.0147890250579419,0.978608922686097,-0.121364153483569,0.978608923374695,-0.121364153560052,0.00801693445240358,0.0148016140038227
9,0.00820291584422862,0.0157600800515798,0.977236752768811,-0.128033280882205,0.977236753352333,-0.128033280956375,0.00819836201499404,0.0157736090851235
9.5,0.00840007547168004,0.0167518418952493,0.975792408181352,-0.134660344153628,0.975792408593472,-0.134660344209849,0.00839508720804388,0.0167663504617432
10,0.00861356729470526,0.0177658591757361,0.97427446968592,-0.141243642894305,0.974274469862383,-0.141243642916896,0.00860810958368646,0.0177813908581212
10.5,0.00891116491283135,0.0186158737904671,0.972828108576028,-0.147889120278042,0.972828108756152,-0.147889120334701,0.00890542221373609,0.0186322471037341
11,0.00922242297878884,0.0194603826926909,0.971345139165644,-0.154498504176139,0.971345139345757,-0.154498504266408,0.00921638298367036,0.0194776069935805
11.5,0.00954722214963027,0.0202991462270896,0.969827043933666,-0.161073384889662,0.969827044110337,-0.161073385012687,0.00954087277498809,0.0203172312791899
12,0.00988543821920745,0.0211319277733941,0.968275057701851,-0.167615340810366,0.968275057871926,-0.167615340964944,0.00987876761564122,0.0211508837417278
12.5,0.0102369422076708,0.0219584938605264,0.96669018978977,-0.174125914803074,0.966690189950393,-0.174125914987723,0.0102299387694236,0.0219783313058795
13,0.0106016004540391,0.0227786142777604,0.965073246646946,-0.180606595503819,0.965073246795568,-0.180606595716823,0.0105942528284124,0.022799344150779
13.5,0.010979274711712,0.023592062182801,0.963424854271276,-0.18705880301635,0.963424854405654,-0.187058803255822,0.0109715718083557,0.0236136958178275
14,0.0113698222468228,0.0243986142066968,0.961745479889869,-0.193483878460913,0.961745480008069,-0.19348387872483,0.0113617532468886,0.0244211633153721
14.5,0.0117730959393114,0.0251980505554985,0.960035452524587,-0.199883076830768,0.96003545262497,-0.199883077117022,0.0117646503044627,0.0252215272201202
15,0.0121889443866014,0.0259901551086212,0.958294982188169,-0.206257562635127,0.95829498226938,-0.206257562941557,0.0121801118678719,0.0260145717752502
15.5,0.0126172120097549,0.0267747155137694,0.956524177558367,-0.212608407844892,0.956524177619318,-0.212608408169318,0.0126079826562521,0.0268000849851058
16,0.0130577391619904,0.0275515232784416,0.954723062058339,-0.218936591703645,0.954723062098194,-0.218936592043895,0.013048103329432,0.027577858706459
16.5,0.0135103622394328,0.0283203738578703,0.952891588333909,-0.225243002016583,0.952891588352063,-0.225243002370517,0.0135003105985091,0.0283476887362142
17,0.0139749137939713,0.0290810667394084,0.951029651164689,-0.231528437580769,0.951029651160749,-0.231528437946297,0.0139644373385273,0.0291093748955562
17.5,0.0144512226480949,0.0298334055232556,0.949137098879065,-0.237793611469157,0.949137098852833,-0.237793611844253,0.0144403127031276,0.0298627211104545
18,0.0149391140115872,0.0305771979995193,0.947213743365121,-0.244039154926594,0.947213743316571,-0.244039155309311,0.0149277622410389,0.0306075354884889
18.5,0.0154384095999311,0.0313122562215389,0.945259368782902,-0.250265621677593,0.945259368712165,-0.25026562206607,0.015426608014284,0.0313436303919501
19,0.0159489277543141,0.0320383965754387,0.943273739090083,-0.256473492482678,0.943273738997425,-0.256473492875146,0.0159366687179692,0.0320708225071742
19.5,0.0164704835630857,0.0327554398459,0.941256604494599,-0.262663179812384,0.941256604380411,-0.262663180207174,0.0164577598015236,0.032788932910097
20,0.0170028889845488,0.0334632112780944,0.939207706945667,-0.268835032535818,0.939207706810442,-0.26883503293136,0.0169896935912586,0.0334977871279707
20.5,0.0175459529709405,0.0341615406357698,0.937126784769837,-0.274989340544186,0.937126784614161,-0.274989340939014,0.0175322794141145,0.0341972151972492
21,0.0180994815934834,0.0348502622554756,0.935013576552343,-0.281126339249418,0.935013576376882,-0.281126339642166,0.0180853237224653,0.0348870517176052
21.5,0.0186632781683675,0.0355292150969084,0.932867824356494,-0.28724621391425,0.932867824161976,-0.287246214303656,0.018648630219847,0.0355671359020773
22,0.0192371433835317,0.036198242789363,0.930689276365952,-0.293349103783454,0.930689276153162,-0.293349104168355,0.0192219999874814,0.0362373116233339
22.5,0.0198208754261214,0.0368571936742987,0.928477689026687,-0.299435105996521,0.928477688796454,-0.299435106375848,0.0198052316114605,0.0368974274560498
23,0.0204142701104832,0.0375059208440127,0.926232828757498,-0.305504279270652,0.926232828510686,-0.305504279643435,0.0203981213104677,0.0375473367154016
23.5,0.0210171210065784,0.0381442821764333,0.923954473290453,-0.311556647349528,0.923954473027955,-0.311556647714885,0.0210004630639059,0.0381868974916892
24,0.0216292195686798,0.0387721403660355,0.921642412695546,-0.317592202218448,0.921642412418272,-0.317592202575584,0.021612048740302,0.0388159726810864
24.5,0.0222503552642291,0.0393893629508999,0.919296450137291,-0.323610907090286,0.919296449846169,-0.323610907438491,0.0222326682258654,0.0394344300125398
25,0.0228803157027295,0.0399958223359322,0.916916402405069,-0.32961269916952,0.916916402101034,-0.329612699508164,0.0228621095530749,0.0400421420708399
25.5,0.0235188867645563,0.0405913958122646,0.914502100253582,-0.335597492203588,0.914502099937569,-0.335597492532116,0.0235001590291726,0.0406389863158834
26,0.0241658527295539,0.0411759655728743,0.912053388584972,-0.341565178832143,0.912053388257917,-0.341565179150071,0.0241466013644437,0.0412248450981558
26.5,0.0248209964053106,0.04174941872444,0.909570126499847,-0.347515632745617,0.909570126162681,-0.347515633052531,0.0248012198001624,0.0417996056704644
27,0.0254840992549888,0.0423116472954805,0.907052187240624,-0.353448710664863,0.907052186894267,-0.353448710960411,0.025463796236088,0.0423631601959631
27.5,0.0261549415245979,0.0428625482408076,0.90449945804727,-0.359364254153769,0.904499457692632,-0.35936425443766,0.0261341113573991,0.0429154057525032
28,0.0268333023695988,0.0434020234423445,0.90191183994256,-0.365262091276569,0.901911839580537,-0.365262091548569,0.0268119447609511,0.0434562443333517
28.5,0.0275189599807286,0.0439299797063537,0.899289247461421,-0.371142038111284,0.899289247092892,-0.371142038371213,0.0274970750807508,0.043985582844339
29,0.0282116917089395,0.0444463287571137,0.896631608336689,-0.377003900130274,0.896631607962514,-0.377003900378,0.0281892801125375,0.0445033330974596
29.5,0.0289112741893494,0.0449509872271163,0.893938863151673,-0.382847473458346,0.893938862772694,-0.382847473693787,0.0288883369373727,0.0450094118010056
30,0.0296174834641003,0.0454438766438228,0.891210964968285,-0.388672546018335,0.891210964585321,-0.388672546241448,0.0295940220441303,0.0455037405462768
30.5,0.0303300951040278,0.0459249234130525,0.888447878937999,-0.394478898573419,0.888447878551848,-0.394478898784203,0.0303061114507999,0.0459862457909228
31,0.0310488843290468,0.0463940587990552,0.885649581901739,-0.400266305674863,0.885649581513174,-0.400266305873356,0.0310243808244913,0.0464568588389882
31.5,0.0317736261271597,0.046851218901336,0.882816061983688,-0.406034536523257,0.882816061593461,-0.406034536709533,0.031748605600071,0.0469155158177226
32,0.0325040953720007,0.0472963446283002,0.879947318183147,-0.41178335575072,0.879947317791984,-0.411783355924882,0.0324785610973202,0.047362157651223
32.5,0.0332400669388278,0.0477293816677881,0.877043359967785,-0.417512524130976,0.877043359576388,-0.417512524293161,0.0332140226365465,0.0477967300309714
33,0.0339813158188811,0.0481502804545645,0.874104206870987,-0.423221799223675,0.874104206480033,-0.423221799374044,0.0339547656525527,0.0482191833833505
33.5,0.0347276172320298,0.048558996134847,0.87112988809545,-0.428910935958773,0.87112988770559,-0.428910936097516,0.0347005658068964,0.0486294728342037
34,0.0354787467376312,0.0489554885279412,0.868120442124716,-0.434579687166359,0.868120441736577,-0.434579687293688,0.0354511990983596,0.0490275581705156
34.5,0.036234480343524,0.0493397220850542,0.865075916343948,-0.44022780405681,0.865075915958129,-0.440227804172958,0.0362064419715513,0.0494134037992879
35,0.0369945946131028,0.049711665845384,0.861996366670913,-0.445855036655753,0.861996366287991,-0.445855036760974,0.0369660714235877,0.0497869787037013
35.5,0.0377588667703863,0.0500712933895393,0.858881857197894,-0.451461134197949,0.858881856818421,-0.451461134292515,0.037729865108772,0.0501482563966218
36,0.0385270748030376,0.0504185827903908,0.855732459844994,-0.457045845483784,0.855732459469493,-0.457045845567985,0.0384976014412195,0.0504972148715507
36.5,0.0392989975632637,0.0507535165614252,0.852548254025125,-0.462608919201805,0.8525482536541,-0.462608919275943,0.0392690596953698,0.0508338365510964
37,0.0400744148665498,0.0510760816026863,0.849329326320848,-0.468150104220351,0.849329325954774,-0.468150104284743,0.0400440201043273,0.0511581082330402
37.5,0.0408531075881665,0.0513862691443913,0.846075770173041,-0.47366914985112,0.846075769812372,-0.473669149906095,0.0408222639559848,0.0514700210340933
38,0.0416348577574143,0.0516840746882983,0.84278768558135,-0.4791658060872,0.842787685226512,-0.479165806133098,0.0416035736868786,0.0517695703314224
38.5,0.0424194486495473,0.0519694979469142,0.839465178816231,-0.484639823817896,0.839465178467632,-0.484639823855067,0.0423877329737294,0.0520567557020253
39,0.0432066648753457,0.0522425427806307,0.836108362142387,-0.490090955022454,0.836108361800408,-0.490090955051256,0.0431745268226361,0.0523315808600474
39.5,0.0439962924682943,0.0525032171328602,0.832717353553293,-0.495518952944591,0.832717353218294,-0.495518952965391,0.0439637416558743,0.0525940535921197
40,0.0447881189693286,0.0527515329632747,0.829292276516524,-0.50092357224957,0.829292276188841,-0.500923572262738,0.0447551653962743,0.052844185690803
40.5,0.0455819335091283,0.0529875061792134,0.825833259729537,-0.506304569165381,0.825833259409486,-0.506304569171296,0.0455485875491427,0.053081992886223
41,0.0463775268879209,0.0532111565653575,0.82234043688556,-0.511661701609468,0.822340436573435,-0.511661701608512,0.0463437992817015,0.0533074947759823
41.5,0.0471746916527675,0.0534225077117445,0.818813946449205,-0.516994729302292,0.818813946145277,-0.516994729294849,0.0471405935000214,0.0535207147534265
42,0.0479732221723236,0.0536215869402124,0.815253931441445,-0.522303413868896,0.815253931145968,-0.522303413855355,0.0479387649234241,0.0537216799343542
42.5,0.0487729147090402,0.0538084252293526,0.811660539233584,-0.527587518929542,0.811660538946788,-0.527587518910294,0.0487381101563411,0.0539104210822493
43,0.049573567488795,0.0539830571380511,0.808033921349821,-0.532846810180394,0.808033921071918,-0.53284681015583,0.0495384277576065,0.0540869725321136
43.5,0.0503749807679479,0.0541455207277022,0.804374233278075,-0.538081055465103,0.804374233009258,-0.538081055435616,0.050339518307178,0.054251372112986
44,0.0511769568977977,0.0542958574831679,0.800681634288684,-0.543290024838106,0.800681634029126,-0.543290024804088,0.0511411844702703,0.0544036610692228
44.5,0.0519793003864404,0.0544341122325631,0.79695628726063,-0.548473490620351,0.796956287010487,-0.548473490582193,0.0519432310589001,0.054543883980615
45,0.0527818179580263,0.0545603330659505,0.79319835851497,-0.553631227448099,0.793198358274377,-0.553631227406191,0.0527454650908309,0.0546720886814243
45.5,0.0535843186094025,0.054674571252998,0.789408017655102,-0.558763012315412,0.789408017424179,-0.558763012270142,0.0535476958459221,0.0547883261784043
46,0.0543866136641554,0.0547768811597,0.785585437413594,-0.563868624610844,0.785585437192443,-0.563868624562597,0.0543497349198798,0.0548926505678891
46.5,0.0551885168240452,0.0548673201642097,0.781730793505238,-0.568947846148842,0.781730793293944,-0.568947846098002,0.0551513962754105,0.0549851189520072
47,0.0559898442178358,0.0549459485718657,0.777844264486048,-0.574000461196291,0.777844264284679,-0.574000461143237,0.055952496290787,0.0550657913541083
47.5,0.0567904144475375,0.0550128295294705,0.773926031617922,-0.579026256494614,0.773926031426531,-0.57902625643972,0.056752853805829,0.0551347306334472
48,0.057590048632061,0.0550680289388985,0.769976278738704,-0.584025021277785,0.769976278557329,-0.584025021221422,0.0575522901653112,0.0551920023992105
48.5,0.0583885704482938,0.0551116153700819,0.765995192137383,-0.588996547286602,0.765995191966045,-0.588996547229136,0.0583506292598058,0.0552376749239357
49,0.0591858061696177,0.0551436599734448,0.761982960434197,-0.593940628779506,0.761982960272905,-0.593940628721298,0.0591476975639764,0.055271819056389
49.5,0.0599815847018754,0.0551642363918358,0.75793977446541,-0.598857062540244,0.757939774314155,-0.598857062481648,0.0599433241723328,0.0552945081339554
50,0.0607757376168019,0.0551734206720296,0.753865827172533,-0.603745647882602,0.753865827031295,-0.603745647823969,0.0607373408324653,0.0553058178946023
50.5,0.0615680991829415,0.0551712911758301,0.749761313495805,-0.608606186652462,0.749761313364549,-0.608606186594133,0.0615295819757775,0.0553058263884639
51,0.0623585063940591,0.0551579284908376,0.745626430271716,-0.613438483227374,0.745626430150395,-0.613438483169686,0.0623198847457285,0.055294613889099
51.5,0.0631467989950785,0.0551334153409302,0.741461376134406,-0.618242344513843,0.74146137602296,-0.618242344457124,0.0631080890236123,0.0552722628044688
52,0.0639328195055516,0.0550978364964914,0.737266351420746,-0.623017579942497,0.737266351319102,-0.623017579887069,0.0638940374518883,0.0552388575876799
52.5,0.0647164132406907,0.0550512786844355,0.733041558078954,-0.627764001461309,0.733041557987027,-0.627764001407484,0.0646775754550866,0.05519448464753
53,0.0654974283299796,0.0549938304980696,0.728787199580581,-0.632481423526991,0.728787199498278,-0.632481423475078,0.0654585512583102,0.055139232258902
53.5,0.0662757157333867,0.0549255823068164,0.724503480835724,-0.637169663094736,0.724503480762936,-0.637169663045032,0.0662368159033529,0.0550731904730319
54,0.0670511292551994,0.0548466261658396,0.72019060811132,-0.641828539606374,0.720190608047929,-0.641828539559167,0.0670122232624577,0.0549964510276876
54.5,0.0678235255555024,0.0547570557255982,0.715848788952398,-0.646457874977105,0.715848788898277,-0.646457874932676,0.0677846300497387,0.0549091072572851
55,0.0685927641593255,0.0546569661413487,0.711478232106164,-0.651057493580875,0.711478232061174,-0.651057493539496,0.0685538958302855,0.0548112540029714
55.5,0.0693587074634739,0.0545464539826221,0.707079147448803,-0.655627222234511,0.707079147412796,-0.655627222196445,0.0693198830269725,0.0547029875226777
56,0.0701212207410669,0.0544256171426882,0.702651745914884,-0.660166890180687,0.702651745887705,-0.660166890146187,0.0700824569249994,0.0545844054011858
56.5,0.0708801721438098,0.0542945547480229,0.698196239429273,-0.664676329069804,0.698196239410756,-0.664676329039114,0.0708414856741753,0.054455606460198
57,0.0716354327020005,0.0541533670677866,0.693712840841451,-0.669155372940861,0.693712840831422,-0.669155372914215,0.0715968402889735,0.0543166906684271
57.5,0.0723868763223112,0.0540021554233134,0.689201763862145,-0.673603858201383,0.689201763860421,-0.673603858179004,0.0723483946463695,0.0541677590517172
58,0.0731343797833418,0.0538410220976212,0.684663223002194,-0.678021623606457,0.684663223008586,-0.67802162358856,0.0730960254814843,0.0540089136031812
58.5,0.073877822728972,0.0536700702449253,0.680097433513557,-0.682408510236955,0.680097433527868,-0.682408510223743,0.0738396123810461,0.0538402571933654
59,0.0746170876595145,0.0534894038001582,0.675504611332399,-0.686764361476976,0.675504611354424,-0.686764361468643,0.0745790377746808,0.0536618934804193
59.5,0.075352059920691,0.0532991273884718,0.670884973024174,-0.691089022990568,0.670884973053704,-0.691089022987297,0.0753141869240478,0.0534739268202637
60,0.0760826276904217,0.0530993462347075,0.666238735730643,-0.695382342697772,0.66623873576746,-0.695382342699734,0.0760449479098273,0.0532764621767353
60.5,0.0768086819634485,0.0528901660728083,0.661566117118757,-0.699644170750031,0.661566117162639,-0.699644170757388,0.0767712116165605,0.0530696050316787
61,0.0775301165337829,0.052671693055141,0.65686733533136,-0.70387435950501,0.656867335382078,-0.703874359517911,0.0774928717153529,0.0528534612949659
61.5,0.0782468279749749,0.0524440336616922,0.652142608939626,-0.708072763500849,0.652142608996947,-0.708072763519433,0.0782098246444312,0.0526281372143907
62,0.0789587156182002,0.0522072946090987,0.64739215689722,-0.712239239429899,0.647392156960907,-0.712239239454296,0.0789219695875502,0.0523937392854115
62.5,0.0796656815281487,0.0519615827594588,0.642616198496088,-0.716373646111971,0.642616198565898,-0.716373646142297,0.0796292084502467,0.0521503741606809
63,0.0803676304766966,0.0517070050288682,0.637814953323862,-0.720475844467121,0.637814953399549,-0.720475844503481,0.0803314458339086,0.0518981485593144
63.5,0.0810644699143392,0.0514436682956252,0.632988641222817,-0.724545697488004,0.63298864130413,-0.724545697530493,0.081028589007654,0.0516371691758276
64,0.0817561099393514,0.0511716793080251,0.628137482250345,-0.72858307021183,0.628137482337031,-0.728583070260529,0.0817205478779814,0.051367542588678
