"Freq [GHz]","re(St(P1,P1)) []","im(St(P1,P1)) []","re(St(P1,P2)) []","im(St(P1,P2)) []","re(St(P2,P1)) []","im(St(P2,P1)) []","re(St(P2,P2)) []","im(St(P2,P2)) []"
0,0.00477781056514459,0,0.995238309871638,0,0.995238315008464,0,0.00477780880083856,0
0.5,0.00532705821026624,-0.000648847390397833,0.994575523431507,-0.00845024594505617,0.994575525571278,-0.00845024366025626,0.00532675707185248,-0.000647780613018512
1,0.00576020602720817,-0.00198689247576311,0.993836513842719,-0.0161881778766961,0.993836512339943,-0.0161881772426042,0.00575942788141148,-0.00198440627625374
1.5,0.0057384108397347,-0.00355807238095807,0.99314252217107,-0.0240118261437061,0.993142520995804,-0.0240118254011357,0.00573695687452336,-0.0035537930473879
2,0.00566691848078094,-0.00500935331908536,0.992340899826123,-0.0316276745794539,0.992340898958844,-0.0316276738541514,0.00566503801782137,-0.00500331953152333
2.5,0.00556419755084736,-0.00640682514361757,0.991497901921575,-0.0390722475449152,0.991497901306118,-0.0390722469111697,0.00556191825900587,-0.00639905371707705
3,0.00543523301651616,-0.00777182073135485,0.990643503565956,-0.0463906725152388,0.990643503142597,-0.0463906720038896,0.00543252862886812,-0.00776230682919454
3.5,0.00528214541056737,-0.00911261387823537,0.989783656067562,-0.0536204074978084,0.989783655786914,-0.0536204071127173,0.00527897352681661,-0.0091013386911829
4,0.00510624281871541,-0.0104325677725132,0.988912378791541,-0.0607873063612683,0.988912378616763,-0.0607873060925215,0.00510255689817507,-0.0104195029516969
4.5,0.00490857884357498,-0.0117328898651969,0.988019393199412,-0.0679072105209766,0.988019393103942,-0.0679072103528586,0.00490433300502047,-0.0117180000956143
5,0.00469013826931564,-0.0130137453056953,0.987093939304456,-0.0749888216071106,0.987093939268969,-0.0749888215221883,0.00468528958086689,-0.0129969899757363
5.5,0.00445190625874026,-0.0142747682330278,0.986126330423184,-0.0820362109198252,0.986126330433024,-0.0820362109008954,0.00444641598550088,-0.0142561026555219
6,0.00419489473837542,-0.0155153204155827,0.985108394817954,-0.0890506160778797,0.985108394861308,-0.0890506161087767,0.00418872908538304,-0.0154946968145442
6.5,0.00392015101387266,-0.0167346324074042,0.984033445041922,-0.0960316188573467,0.984033445108591,-0.0960316189232184,0.00391328158607696,-0.016712000773599
7,0.00362875829066189,-0.0179318853712056,0.982896084725632,-0.102977882937666,0.982896084806258,-0.102977883025038,0.00362116237096843,-0.0179071942368747
7.5,0.00332183225078925,-0.019106260786014,0.981691986818473,-0.109887603674074,0.981691986904069,-0.109887603770821,0.00331349294677741,-0.0190794579428806
8,0.00300051563795223,-0.0202569716897463,0.980417693666919,-0.1167587767558,0.980417693748606,-0.11675877685109,0.00299142192534951,-0.0202280048609946
8.5,0.00266597184989803,-0.0213832827133693,0.979070452692452,-0.123589355147316,0.97907045276132,-0.123589355231544,0.00265611853037609,-0.0213521001833872
9,0.0023193780927922,-0.0224845229657564,0.977648086916304,-0.130377337788569,0.977648086963366,-0.130377337853278,0.00230876567858823,-0.0224510741677921
9.5,0.00196191842975328,-0.0235600941468368,0.976148894821468,-0.13712081686386,0.976148894837667,-0.137120816901694,0.00195055296511172,-0.0235243302071151
10,0.00159477693644902,-0.0246094753436448,0.974571573294522,-0.143818000085714,0.974571573270765,-0.143818000090351,0.00158266976463654,-0.0245713495798068
10.5,0.00130011174355918,-0.0258137401584171,0.973082221146305,-0.150554847532945,0.973082221129093,-0.150554847573369,0.00128770768423084,-0.0257734961775333
11,0.000991213038789809,-0.0270141947051052,0.971558040426897,-0.15725686437403,0.971558040412713,-0.157256864449677,0.000978497285517049,-0.026971803441449
11.5,0.000668102538435147,-0.0282106632217021,0.970000051855537,-0.163926027214374,0.97000005184116,-0.16392602732433,0.000655060329191735,-0.0281660946549667
12,0.000330803324197299,-0.0294029706427823,0.968409011476788,-0.170564207986081,0.968409011459306,-0.170564208129159,0.000317419961338397,-0.0293561938477844
12.5,-2.06601172284548E-005,-0.0305909426123008,0.966785447178259,-0.177173157372517,0.966785447155068,-0.177173157547309,-3.43992454399505E-005,-0.0305419258089561
13,-0.000386261854485315,-0.0317744054946307,0.965129692892298,-0.183754494376235,0.965129692861099,-0.183754494581167,-0.000400371250883824,-0.0317231160980769
13.5,-0.000765974471916897,-0.0329531863839776,0.963441919998605,-0.190309700900588,0.963441919957398,-0.190309701133973,-0.000780468506086762,-0.0328995910546435
14,-0.00115976903012696,-0.0341271131122132,0.961722165679996,-0.196840120320604,0.961722165627061,-0.196840120580674,-0.00117466191279036,-0.0340711778057092
14.5,-0.00156761502682301,-0.0352960142552043,0.95997035816197,-0.2033469591419,0.959970358095848,-0.203346959426849,-0.0015829207830946,-0.0352377042718826
15,-0.00198948035809141,-0.0364597191377474,0.958186338896217,-0.20983129097508,0.958186338815694,-0.209831291283086,-0.0020052127997075,-0.0363989991718094
15.5,-0.00242533128018663,-0.0376180578371867,0.956369881837138,-0.216294062178066,0.956369881741223,-0.216294062507316,-0.00244150397684548,-0.0375548920252142
16,-0.00287513237195441,-0.0387708611858262,0.954520710017102,-0.222736098634921,0.954520709905008,-0.22273609898363,-0.00289175862189117,-0.0387052131546217
16.5,-0.00333884649796135,-0.0399179607722466,0.952638509657836,-0.229158113243661,0.95263850952896,-0.229158113610089,-0.00335593929789874,-0.0398497936858968
17,-0.00381643477242888,-0.0410591889416194,0.950722942068514,-0.235560713776142,0.950722941922414,-0.235560714158602,-0.00383400678702883,-0.0409884655476822
17.5,-0.0043078565240291,-0.042194378795156,0.948773653580871,-0.241944410850247,0.948773653417252,-0.241944411247118,-0.00432592005499305,-0.0421210614698988
18,-0.00481306926161673,-0.0433233641887814,0.946790283762398,-0.248309625819044,0.946790283581097,-0.248309626228768,-0.00483163621656335,-0.0432474149814044
18.5,-0.0053320286409495,-0.0444459797311754,0.944772472133523,-0.254656698434381,0.944772471934485,-0.254656698855478,-0.00535111050220893,-0.0443673604069641
19,-0.00586468843243981,-0.0455620607812639,0.942719863596149,-0.260985894185015,0.942719863379419,-0.260985894616076,-0.00588429622589498,-0.0454807328636195
19.5,-0.00641100048998655,-0.0466714434453128,0.940632112760861,-0.2672974112432,0.940632112526574,-0.267297411682895,-0.00643114475408935,-0.0465873682566271
20,-0.006970914720901,-0.047773964573711,0.938508887339746,-0.273591386980063,0.938508887088104,-0.273591387427134,-0.00699160547600042,-0.047687103275059
20.5,-0.00754437905696936,-0.0488694617575718,0.936349870751933,-0.279867904030298,0.936349870483206,-0.279867904483563,-0.00756562577505676,-0.0487797753871932
21,-0.00813133942665395,-0.0499577733252539,0.934154764070384,-0.286126995901959,0.934154763784895,-0.286126996360309,-0.00815315100165825,-0.0498652228358225
21.5,-0.00873173972844693,-0.0510387383389188,0.931923287421216,-0.292368652138238,0.931923287119331,-0.292368652600632,-0.00875412444718215,-0.0509432846335824
22,-0.00934552180538684,-0.0521121965912188,0.92965518093126,-0.298592823046025,0.929655180613384,-0.29859282351149,-0.00936848731926021,-0.0520138005584232
22.5,-0.0099726254207233,-0.053177988602227,0.927350205305679,-0.304799424011455,0.92735020497225,-0.304799424479083,-0.0099961787183015,-0.0530766111493202
23,-0.0106129882347328,-0.0542359556167047,0.92500814210514,-0.310988339426016,0.925008141756618,-0.31098833989496,-0.0106371356152648,-0.0541315577023385
23.5,-0.0112665457826745,-0.055285939601784,0.922628793781238,-0.317159426248727,0.922628793418105,-0.317159426718199,-0.0112912928306462,-0.0551784822671297
24,-0.0119332314538615,-0.0563277832451794,0.920211983519589,-0.323312517230715,0.920211983142343,-0.323312517699982,-0.0119585830146721,-0.0562172276439821
24.5,-0.0126129764718373,-0.0573613299539886,0.917757554931851,-0.329447423828431,0.917757554541002,-0.329447424296812,-0.0126389366286595,-0.0572476373814739
25,-0.0133057098756298,-0.0583864238541727,0.915265371631066,-0.33556393883118,0.915265371227134,-0.335563939298044,-0.0133322819275281,-0.0582695557748421
25.5,-0.0140113585020646,-0.0594029097907891,0.912735316718785,-0.341661838727593,0.912735316302293,-0.341661839192354,-0.0140385449434182,-0.0592828278651332
26,-0.0147298469691043,-0.0604106333290357,0.910167292207413,-0.347740885834367,0.91016729177889,-0.347740886296484,-0.0147576494703919,-0.0602872994391916
26.5,-0.0154610976601861,-0.0614094407561916,0.907561218396984,-0.353800830209185,0.90756121795696,-0.353800830668156,-0.0154895170501785,-0.0612828170305768
27,-0.0162050307095375,-0.0623991790844733,0.904917033221996,-0.359841411368134,0.904917032770999,-0.359841411823498,-0.0162340669589215,-0.0622692279214396
27.5,-0.0169615639884256,-0.0633796960549138,0.902234691580913,-0.365862359826477,0.902234691119471,-0.365862360277805,-0.0169912161949056,-0.0632463801454353
28,-0.0177306130923244,-0.0643508401422599,0.899514164658487,-0.371863398480021,0.899514164187124,-0.371863398926922,-0.0177608794672125,-0.064214122491709
28.5,-0.0185120913289564,-0.0653124605609652,0.896755439248898,-0.377844243842911,0.896755438768136,-0.37784424428502,-0.0185429691852743,-0.0651723045099966
29,-0.0193059097071881,-0.0662644072723102,0.893958517086038,-0.383804607156219,0.893958516596388,-0.383804607593205,-0.0193373954492913,-0.0661207765168892
29.5,-0.0201119769267509,-0.0672065309926735,0.891123414185779,-0.389744195380436,0.891123413687753,-0.389744195811995,-0.0201440660414778,-0.0670593896032796
30,-0.0209301993687467,-0.0681386832029975,0.888250160203951,-0.395662712083671,0.888250159698051,-0.39566271250952,-0.0209628864180965,-0.0679879956430307
30.5,-0.0217604810869275,-0.0690607161594627,0.885338797812709,-0.401559858236267,0.885338797299432,-0.401559858656151,-0.0217937597022598,-0.0689064473028953
31,-0.0226027237997101,-0.0699724829054111,0.882389382097259,-0.407435332921494,0.882389381577092,-0.407435333335181,-0.0226365866774585,-0.069814598053684
31.5,-0.0234568268829124,-0.0708738372845088,0.879401979974219,-0.413288833970968,0.879401979447644,-0.413288834378244,-0.0234912657817934,-0.0707123021827281
32,-0.0243226873631809,-0.0717646339551921,0.876376669632402,-0.419120058532627,0.876376669099892,-0.419120058933301,-0.0243576931028858,-0.0715994148076284
32.5,-0.025200199912093,-0.0726447284063798,0.873313539996406,-0.424928703578263,0.873313539458427,-0.42492870397216,-0.0252357623734349,-0.0724757918913028
33,-0.0260892568409137,-0.0735139769744873,0.870212690213029,-0.430714466356898,0.870212689670039,-0.430714466743859,-0.0261253649674097,-0.0733412902583499
33.5,-0.026989748095995,-0.0743722368617223,0.867074229160332,-0.436477044799634,0.867074228612781,-0.436477045179519,-0.0270263898968476,-0.0741957676127145
34,-0.0279015612548025,-0.0752193661556801,0.863898274978917,-0.442216137881034,0.863898274427246,-0.442216138253718,-0.0279387238092511,-0.0750390825566682
34.5,-0.0288245815225508,-0.0760552238502326,0.860684954624878,-0.447931445941549,0.860684954069523,-0.447931446306921,-0.028862250985561,-0.0758710946110945
35,-0.029758691729449,-0.0768796698677021,0.857434403443772,-0.453622670975023,0.857434402885157,-0.453622671332984,-0.0297968533386967,-0.0766916642370747
35.5,-0.0307037723285444,-0.0776925650823241,0.854146764764833,-0.459289516884913,0.854146764203377,-0.459289517235378,-0.0307424104126597,-0.0775006528587703
36,-0.0316597013941575,-0.0784937713449814,0.850822189514675,-0.464931689712437,0.850822188950788,-0.464931690055333,-0.0316987993821815,-0.0782979228875831
36.5,-0.0326263546209131,-0.0792831515092074,0.847460835849621,-0.470548897839563,0.847460835283707,-0.470548898174827,-0.032665895052929,-0.0790833377475952
37,-0.0336036053233597,-0.0800605694584386,0.844062868805838,-0.476140852169407,0.844062868238291,-0.476140852496989,-0.0336435698622491,-0.0798567619022592
37.5,-0.0345913244361837,-0.0808258901345045,0.84062845996642,-0.48170726628636,0.840628459397627,-0.481707266606218,-0.0346316938804633,-0.0806180608823299
38,-0.0355893805150282,-0.0815789795673487,0.83715778714458,-0.487247856598013,0.837157786574923,-0.487247856910116,-0.035630134812717,-0.08136710131503
38.5,-0.0365976397379088,-0.0823197049059469,0.833651034082141,-0.492762342460716,0.833651033511991,-0.492762342765042,-0.0366387580013806,-0.0821037509544088
39,-0.0376159659072546,-0.0830479344504129,0.830108390162506,-0.498250446290435,0.83010838959223,-0.498250446586968,-0.0376574264290198,-0.0828278787128978
39.5,-0.0386442204525656,-0.0837635376852737,0.826530050137346,-0.503711893660369,0.826530049567303,-0.503711893949106,-0.0386860007219366,-0.0835393546940216
40,-0.0396822624337178,-0.0844663853138892,0.82291621386625,-0.509146413386676,0.822916213296791,-0.509146413667618,-0.0397243391543069,-0.0842380502262607
40.5,-0.0407299485449165,-0.0851563492939906,0.819267086068623,-0.514553737603445,0.819267085500093,-0.514553737876602,-0.0407722976529099,-0.0849238378980187
41,-0.0417871331193235,-0.0858333028743158,0.815582876087153,-0.519933601828017,0.81558287551989,-0.519933602093405,-0.0418297298024838,-0.085596591593698
41.5,-0.0428536681343706,-0.0864971206323208,0.811863797662189,-0.52528574501756,0.811863797096525,-0.525285745275206,-0.042896486851714,-0.0862561865308307
42,-0.0439294032177882,-0.0871476785129358,0.808110068716412,-0.530609909617784,0.808110068152671,-0.530609909867717,-0.0439724177198814,-0.086902499298257
42.5,-0.0450141856543535,-0.0877848538683343,0.804321911149226,-0.535905841604516,0.804321910587726,-0.535905841846772,-0.0450573690041874,-0.0875354078953121
43,-0.0461078603934053,-0.0884085254986978,0.800499550640295,-0.541173290518835,0.800499550081349,-0.541173290753458,-0.0461511849877737,-0.0881547917720015
43.5,-0.0472102700571223,-0.0890185736939368,0.796643216461725,-0.546412009496378,0.796643215905638,-0.546412009723417,-0.0472537076484787,-0.0887605318701246
44,-0.048321254949619,-0.0896148802763475,0.792753141298383,-0.551621755291352,0.792753140745452,-0.551621755510861,-0.048364776668337,-0.0893525106653315
44.5,-0.0494406530668552,-0.0901973286441553,0.7888295610759,-0.556802288295731,0.78882956052642,-0.55680228850777,-0.0494842294438561,-0.0899306122100647
45,-0.050568300107417,-0.0907658038159362,0.784872714795924,-0.561953372554108,0.78487271425018,-0.561953372758742,-0.0506119010970978,-0.0904947221773644
45.5,-0.0517040294841674,-0.0913201924758631,0.780882844378203,-0.567074775774564,0.780882843836476,-0.567074775971865,-0.051747624487601,-0.091044727905502
46,-0.0528476723368247,-0.0918603830197532,0.776860194509134,-0.572166269335918,0.776860193971697,-0.572166269525961,-0.0528912302251547,-0.0915805184434104
46.5,-0.0539990575454717,-0.0923862656018758,0.772805012496399,-0.577227628291684,0.772805011963521,-0.577227628474547,-0.0540425466834744,-0.092101984596867
47,-0.055158011745046,-0.0928977321824893,0.768717548129373,-0.582258631370999,0.768717547601315,-0.582258631546769,-0.0552014000147946,-0.0926090189754085
47.5,-0.0563243593408321,-0.093394676576068,0.76459805354497,-0.587259060976809,0.764598053021988,-0.587259061145575,-0.056367614165422,-0.0931015160399281
48,-0.0574979225249828,-0.0938769945001762,0.760446783098647,-0.592228703181507,0.76044678258099,-0.592228703343361,-0.0575410108922709,-0.0935793721509253
48.5,-0.0586785212941148,-0.0943445836249603,0.756263993240283,-0.597167347720261,0.756263992728194,-0.597167347875302,-0.0587214097804161,-0.0940424856173713
49,-0.0598659734679918,-0.0947973436232107,0.752049942394681,-0.602074787982207,0.752049941888399,-0.602074788130536,-0.059908628261699,-0.0944907567461389
49.5,-0.0610600947093413,-0.0952351762209535,0.747804890846453,-0.606950820999668,0.747804890346207,-0.60695082114139,-0.0611024816344121,-0.0949240878919778
50,-0.062260698544827,-0.0956579852485341,0.74352910062905,-0.611795247435572,0.743529100135065,-0.611795247570798,-0.0623027830840934,-0.0953423835079745
50.5,-0.063467596387211,-0.0960656766921492,0.739222835417752,-0.616607871569184,0.739222834930247,-0.616607871698026,-0.0635093437054779,-0.095745550196467
51,-0.0646805975587337,-0.0964581587457748,0.734886360426403,-0.621388501280291,0.73488635994559,-0.621388501402866,-0.0647219725256057,-0.0961334967603651
51.5,-0.0658995093157483,-0.0968353418634619,0.730519942307708,-0.626136948031951,0.730519941833794,-0.62613694814838,-0.0659404765281579,-0.0965061342548402
52,-0.0671241368746271,-0.0971971388119345,0.72612384905694,-0.630853026851901,0.726123848590124,-0.630853026962307,-0.0671646606790143,-0.0968633760393309
52.5,-0.0683542834389816,-0.0975434647234568,0.721698349918867,-0.635536556312727,0.721698349459343,-0.635536556417235,-0.0683943279530843,-0.0972051378298247
53,-0.0695897502282155,-0.0978742371489186,0.717243715297787,-0.640187358510868,0.717243714845742,-0.64018735860961,-0.0696292793624383,-0.0975313377513697
53.5,-0.0708303365074408,-0.0981893761110879,0.712760216670495,-0.644805259044548,0.712760216226111,-0.644805259137656,-0.0708693139857539,-0.0978418963907617
54,-0.0720758396187849,-0.098488804157977,0.708248126502085,-0.649390086990689,0.708248126065534,-0.649390087078298,-0.0721142289991246,-0.0981367368493701
54.5,-0.0733260550141135,-0.0987724464162842,0.703707718164432,-0.653941674880875,0.703707717735883,-0.653941674963123,-0.0733638197082401,-0.09841578479604
55,-0.0745807762891869,-0.099040230644843,0.699139265857282,-0.658459858676433,0.699139265436896,-0.658459858753462,-0.0746178795819761,-0.0986789685200283
55.5,-0.0758397952192882,-0.0992920872880365,0.694543044531801,-0.662944477742676,0.694543044119733,-0.662944477814629,-0.0758762002874087,-0.0989262189839222
56,-0.0771029017963256,-0.0995279495291199,0.689919329816516,-0.667395374822358,0.689919329412913,-0.667395374889381,-0.0771385717262827,-0.0991574698764806
56.5,-0.078369884267446,-0.0997477533433974,0.685268397945541,-0.671812396008391,0.685268397550545,-0.671812396070632,-0.0784047820729556,-0.0993726576653539
57,-0.0796405291751709,-0.0999514375511938,0.680590525689002,-0.676195390715864,0.680590525302746,-0.676195390773473,-0.0796746178138296,-0.0995717216496198
57.5,-0.0809146213990714,-0.10013894387057,0.675885990285588,-0.680544211653402,0.675885989908201,-0.680544211706531,-0.0809478637883034,-0.0997546040120894
58,-0.0821919441990013,-0.10031021696972,0.671155069377145,-0.684858714793903,0.671155069008747,-0.684858714842706,-0.0822243032312497,-0.0999212498713133
58.5,-0.0834722792598995,-0.100465204518992,0.666398040945239,-0.689138759344687,0.666398040585943,-0.68913875938932,-0.083503717817039,-0.100071607333245
59,-0.0847554067381806,-0.100603857242481,0.661615183249638,-0.693384207717083,0.661615182899551,-0.693384207757702,-0.0847858877051249,-0.100205627542496
59.5,-0.0860411053097138,-0.100726128969118,0.656806774768633,-0.697594925495493,0.656806774427854,-0.697594925532258,-0.0860705915871998,-0.100323264733122
60,-0.0873291522194064,-0.100831976683211,0.651973094141146,-0.701770781405956,0.651973093809767,-0.701770781439027,-0.0873576067359347,-0.10042447627889
60.5,-0.0886193233323992,-0.10092136057437,0.647114420110578,-0.705911647284233,0.647114419788683,-0.705911647313771,-0.0886467090553054,-0.100509222742952
61,-0.0899113931868699,-0.10099424408675,0.642231031470334,-0.710017398043449,0.642231031158001,-0.710017398069615,-0.0899376731325174,-0.100577467926882
61.5,-0.0912051350484572,-0.101050593967554,0.637323207010986,-0.7140879116413,0.637323206708284,-0.714087911664259,-0.0912302722915358,-0.100629178918995
62,-0.0925003209662998,-0.101090380314737,0.632391225469023,-0.718123069046871,0.632391225176015,-0.718123069066787,-0.0925242786482087,-0.100664326141905
62.5,-0.0937967218306892,-0.101113576623838,0.627435365477151,-0.722122754207058,0.627435365193891,-0.722122754224093,-0.0938194631669998,-0.100682883399243
