"Freq [GHz]","re(St(P1,P1)) []","im(St(P1,P1)) []","re(St(P1,P2)) []","im(St(P1,P2)) []","re(St(P2,P1)) []","im(St(P2,P1)) []","re(St(P2,P2)) []","im(St(P2,P2)) []"
0,0.005789447127313,0,0.994225286267465,0,0.99422524482361,0,0.00578940886617829,0
0.5,0.0063578773323627,0.000106534062549457,0.993579466308514,-0.00812100435540586,0.993579461757712,-0.00812099994036686,0.00635777737703691,0.000106928643923254
1,0.0068307965589014,-0.000468584969574692,0.99290664419039,-0.0155461514119999,0.992906642359589,-0.0155461554456693,0.00683054855699439,-0.000467680427490791
1.5,0.00711822769781101,-0.00117719553865037,0.99229683820556,-0.0228086522507596,0.992296835743808,-0.022808653964125,0.00711783958252354,-0.00117574292928602
2,0.00725583630838678,-0.00191830732009635,0.99172773393949,-0.0299959176586508,0.99172773190787,-0.0299959182455609,0.00725528289958621,-0.00191629137784943
2.5,0.00730956118846837,-0.00264362770063364,0.991142132897877,-0.0371552097243182,0.991142131348008,-0.0371552098679668,0.0073088105355037,-0.00264101971983344
3,0.00731578830504009,-0.00334648672348514,0.990510378291786,-0.0442901084873757,0.990510377100788,-0.0442901084810359,0.00731481398854905,-0.00334324793092655
3.5,0.00729319287823404,-0.00402891482974255,0.989821140843546,-0.051395564684686,0.989821139901995,-0.051395564641096,0.0072919770791593,-0.00402500099736081
4,0.00725193408697278,-0.00469406482631207,0.989072004796624,-0.05846660526921,0.989072004033404,-0.0584666052255276,0.00725046795768458,-0.00468942952340612
4.5,0.00719803262352792,-0.00534473382102174,0.988264535957188,-0.0655000411207913,0.988264535332,-0.0655000410850848,0.0071963157469328,-0.00533933073288928
5,0.0071353674429695,-0.00598322694307907,0.987401861416309,-0.0724944591261369,0.987401860908623,-0.0724944590974603,0.00713340688418906,-0.0059770115518063
5.5,0.00706661621238669,-0.00661146792665246,0.986487474423384,-0.0794498368074406,0.986487474023408,-0.079449836784045,0.00706442537421892,-0.00660439868851181
6,0.00699372166407197,-0.00723111621138628,0.985524651359229,-0.0863671255642382,0.985524651061457,-0.0863671255462561,0.00699131907827877,-0.00722315531095319
6.5,0.00691813731572088,-0.00784364969387585,0.984516190096284,-0.0932478915960786,0.984516189895226,-0.0932478915856088,0.00691554546522166,-0.00783476344468514
7,0.00684096636293463,-0.00845041624808474,0.983464322789585,-0.100094032422755,0.983464322677169,-0.100094032422789,0.0068382106008481,-0.00844057521012953
7.5,0.00676304673684069,-0.00905266387153603,0.9823707230606,-0.106907565550103,0.982370723024813,-0.106907565563077,0.00676015434252797,-0.00904184275475028
8,0.00668500779773523,-0.00965155781179838,0.98123656144189,-0.113690479139874,0.981236561466283,-0.113690479166192,0.00668200718831113,-0.00963973522938666
8.5,0.006607311218148,-0.0102481904109499,0.980062581799217,-0.120444632900601,0.980062581862999,-0.120444632937352,0.00660423131735416,-0.0102353485377629
9,0.00653028237327194,-0.010843587254616,0.978849182730427,-0.127171697842436,0.97884918280893,-0.127171697882353,0.00652715212824112,-0.0108297114353597
9.5,0.00645413549343407,-0.0114387117148422,0.977596494981361,-0.133873124882335,0.977596495046708,-0.133873124913068,0.00645098352303763,-0.0114237900563348
10,0.00637899431754146,-0.0120344690102887,0.97630445035484,-0.140550133977405,0.976304450376701,-0.140550133981009,0.00637584867285518,-0.0120184919822446
10.5,0.00629913721432829,-0.0126493836872825,0.97494520177166,-0.147249939066736,0.974945201793417,-0.147249939070896,0.00629637786001212,-0.0126328583120081
11,0.00621443979723055,-0.0132660590304918,0.973544973545465,-0.153919405537009,0.973544973567069,-0.153919405541716,0.00621206097916076,-0.0132490114281252
11.5,0.00612477170799765,-0.0138845378526873,0.972105031299077,-0.160559540520141,0.972105031320476,-0.160559540525382,0.0061227650741087,-0.0138669931037883
12,0.00602999774975468,-0.0145048570874291,0.970626459767436,-0.167171363440504,0.970626459788586,-0.167171363446261,0.00602835242757248,-0.0144868389872017
12.5,0.00592997809792298,-0.0151270475045302,0.969110176164834,-0.173755887168491,0.969110176185692,-0.173755887174741,0.00592868079420567,-0.0151085783219802
13,0.00582456852868683,-0.0157511334285272,0.96755694442332,-0.180314102491435,0.967556944443848,-0.180314102498152,0.00582360365098088,-0.0157322336725163
13.5,0.00571362066559583,-0.0163771324613622,0.965967389779004,-0.186846965643247,0.965967389799168,-0.186846965650404,0.00571297046534713,-0.0163578206554962
14,0.00559698224478755,-0.017005055210586,0.964342013286794,-0.193355388592959,0.964342013306564,-0.193355388600525,0.00559662698145486,-0.0169853476789057
14.5,0.00547449739923606,-0.0176349050244395,0.962681205939307,-0.199840231773136,0.962681205958656,-0.199840231781079,0.00547441552469344,-0.0176148156898686
15,0.00534600696231158,-0.0182666777353271,0.960985262149982,-0.206302298927043,0.960985262168888,-0.206302298935331,0.00534617532462997,-0.0182462179327842
15.5,0.00521134879082341,-0.0189003614132437,0.959254392432766,-0.212742333763868,0.959254392451212,-0.212742333772467,0.00521174285634529,-0.0188795397193027
16,0.00507035810759066,-0.0195359361307976,0.957488735171181,-0.219161018130359,0.95748873518915,-0.219161018139237,0.00507095220001433,-0.0195147582116668
16.5,0.00492286786343019,-0.0201733737415273,0.955688367418631,-0.225558971431799,0.955688367436111,-0.225558971440924,0.00492363541844631,-0.0201518422211033
17,0.00476870911830696,-0.0208126376732993,0.953853314710578,-0.231936751062713,0.953853314727562,-0.23193675107205,0.00476962295214206,-0.0207907520228643
17.5,0.0046077114412198,-0.0214536827385454,0.951983559898884,-0.238294853636129,0.951983559915364,-0.23829485364565,0.00460874403126882,-0.0214314391896226
18,0.00443970332823151,-0.0220964549632012,0.950079051040478,-0.244633716828309,0.950079051056452,-0.244633716837981,0.00444082710379429,-0.0220738464448829
18.5,0.00426451263785915,-0.0227408914361478,0.948139708387969,-0.250953721682485,0.948139708403434,-0.250953721692278,0.00426570027883671,-0.0227179075380692
19,0.00408196704286312,-0.0233869201809773,0.946165430539911,-0.257255195239822,0.946165430554869,-0.257255195249709,0.00408319178413163,-0.0233635471429259
19.5,0.00389189449727134,-0.0240344600518827,0.944156099814357,-0.263538413388155,0.944156099828811,-0.263538413398109,0.00389313043632378,-0.0240106807807983
20,0.00369412371729716,-0.0246834206553863,0.942111586912019,-0.269803603838847,0.942111586925972,-0.269803603848842,0.00369534612263017,-0.0246592147703288
20.5,0.00348848467460072,-0.0253337022995868,0.940031754935506,-0.276050949159489,0.940031754948964,-0.276050949169501,0.00348967029223624,-0.0253090462049699
21,0.00327480910015193,-0.0259851959724742,0.937916462829541,-0.282280589805094,0.93791646284251,-0.282280589815101,0.00327593645563096,-0.0259600629596379
21.5,0.00305293099678261,-0.0266377833507983,0.935765568304158,-0.288492627103207,0.935765568316647,-0.288492627113186,0.00305398068990814,-0.0266121437277087
22,0.00282268715830558,-0.0272913368407646,0.933578930299182,-0.294687126159031,0.933578930311199,-0.294687126168964,0.00282364214792541,-0.0272651580893819
22.5,0.00258391769295113,-0.0279457196517425,0.931356411044081,-0.300864118655661,0.931356411055637,-0.300864118665526,0.0025847635690634,-0.027918966612293
23,0.00233646654866121,-0.0286007859039488,0.929097877762834,-0.307023605531772,0.929097877773938,-0.307023605541554,0.00233719178919289,-0.0285734209850834
23.5,0.00208018203768984,-0.0292563807708699,0.926803204068949,-0.313165559525159,0.926803204079612,-0.313165559534842,0.00208077824736796,-0.0292283641843842
24,0.00181491735779787,-0.0299123406569959,0.924472271091341,-0.31928992757528,0.924472271101574,-0.319289927584849,0.00181537948664517,-0.0298836306755363
24.5,0.00154053110725266,-0.0305684934111439,0.922104968367565,-0.32539663308174,0.92210496837738,-0.325396633091182,0.00154085764637985,-0.0305390466470459
25,0.0012568877907374,-0.0312246585754627,0.919701194536858,-0.331485578018683,0.919701194546265,-0.331485578027984,0.0012570809432807,-0.0311944302786196
25.5,0.000963858313249299,-0.0318806476698956,0.917260857861791,-0.337556644907238,0.917260857870803,-0.337556644916388,0.00096392413850277,-0.031849592042311
26,0.000661320459014125,-0.032536264511607,0.914783876603874,-0.343609698649956,0.914783876612501,-0.343609698658943,0.000661268988035535,-0.0325043350360803
26.5,0.000349159352454109,-0.0331913055686268,0.912270179275363,-0.349644588232324,0.912270179283618,-0.34964458824114,0.000349004673687037,-0.033158455348814
27,2.72678982871088E-005,-0.0338455603466301,0.909719704786748,-0.355661148297357,0.909719704794643,-0.355661148305993,2.70282120155008E-005,-0.0338117424555757
27.5,-0.00030445280212138,-0.0344988118075336,0.907132402506808,-0.361659200599781,0.907132402514354,-0.361659200608231,-0.000304755161365355,-0.0344639796416129
28,-0.000646093060915676,-0.0351508368182494,0.904508232249966,-0.36763855534665,0.904508232257175,-0.367638555354906,-0.000646431634548694,-0.0351149444533756
28.5,-0.000997734243079806,-0.0358014066277104,0.901847164203614,-0.373599012431346,0.901847164210497,-0.373599012439403,-0.00099807849149719,-0.0357644091746006
29,-0.00135944843741609,-0.0364502873699861,0.899149178806345,-0.379540362567933,0.899149178812914,-0.379540362575785,-0.00135976381574759,-0.0364121413252254
29.5,-0.00173129816148448,-0.0370972405910455,0.896414266586501,-0.385462388332638,0.896414266592766,-0.385462388340281,-0.00173154622762162,-0.0370579041807362
30,-0.00211333610259978,-0.0377420237965262,0.893642427969037,-0.391364865119114,0.893642427975008,-0.391364865126543,-0.00211347465669148,-0.0377014573093306
30.5,-0.00250560489671853,-0.0383843910176151,0.890833673057573,-0.397247562013789,0.890833673063262,-0.397247562021002,-0.00250558815101032,-0.0383425571241065
31,-0.0029081369468219,-0.0390240933919914,0.887988021397436,-0.403110242597374,0.887988021402852,-0.403110242604369,-0.00290791572437132,-0.0389809574473441
31.5,-0.0033209542820678,-0.0396608797565923,0.885105501724599,-0.40895266567823,0.885105501729752,-0.408952665685004,-0.00332047624256837,-0.0396164100838241
32,-0.00374406845872438,-0.0402944972488575,0.882186151704677,-0.414774585962972,0.882186151709577,-0.414774585969523,-0.00374327834937727,-0.0402486654000223
32.5,-0.00417748050355299,-0.0409246919130082,0.879230017665424,-0.420575754669368,0.879230017670079,-0.420575754675696,-0.00417632043265737,-0.040877472905976
33,-0.00462118089998098,-0.0415512093078254,0.87623715432564,-0.426355920086199,0.876237154330061,-0.426355920092303,-0.00461959063068151,-0.0415025818365538
33.5,-0.00507514961709238,-0.0421737951124168,0.87320762452287,-0.432114828084485,0.873207624527064,-0.432114828090365,-0.0050730668785044,-0.0421237417288978
34,-0.00553935618109475,-0.0427921957264079,0.870141498941863,-0.437852222584091,0.870141498945838,-0.437852222589745,-0.00553671699387609,-0.0427407029927962
34.5,-0.00601375978861268,-0.0434061588610986,0.867038855845396,-0.443567845979476,0.867038855849161,-0.443567845984906,-0.00601049880189608,-0.0433532174708355
35,-0.00649830946082408,-0.0440154341181564,0.863899780808761,-0.449261439528038,0.863899780812324,-0.449261439533245,-0.00649436029734396,-0.0439610389852669
35.5,-0.00699294423712882,-0.0446197735525702,0.860724366458929,-0.454932743704222,0.860724366462298,-0.454932743709207,-0.00698823984331587,-0.0445639238686275
36,-0.00749759340675432,-0.0452189322167005,0.857512712219213,-0.460581498522324,0.857512712222394,-0.460581498527087,-0.00749206640455108,-0.0451616314753327
36.5,-0.00801217677639987,-0.045812668682476,0.854264924060029,-0.466207443830669,0.85426492406303,-0.466207443835212,-0.00800575981359092,-0.0457539246716066
37,-0.00853660497178282,-0.0464007455389643,0.850981114256234,-0.471810319579625,0.85098111425906,-0.471810319583951,-0.00852923106767473,-0.0463405703013311
37.5,-0.00907077977069137,-0.0469829298627895,0.847661401151337,-0.477389866065707,0.847661401153995,-0.477389866069816,-0.00906238265410331,-0.0469213396256088
38,-0.00961459446494645,-0.0475589936591169,0.844305908928828,-0.482945824153821,0.844305908931323,-0.482945824157716,-0.00960510890159288,-0.0474960087340649
38.5,-0.0101679342485132,-0.0481287142712046,0.840914767390718,-0.488477935479552,0.840914767393056,-0.488477935483234,-0.0101572963550322,-0.0480643589261762
39,-0.010730676628823,-0.0486918747567969,0.837488111743349,-0.4939859426332,0.837488111745536,-0.493985942636672,-0.010718824170909,-0.0486261770611714
39.5,-0.011302691858271,-0.0492482642299392,0.83402608239046,-0.499469589327141,0.834026082392501,-0.499469589330406,-0.0112895645305891,-0.0491812558753019
40,-0.0118838433827755,-0.0497976781670996,0.830528824733426,-0.504928620547962,0.830528824735326,-0.504928620551021,-0.0118693830685823,-0.0497293942655894
40.5,-0.012473988304216,-0.0503399186767751,0.826996488978583,-0.510362782694648,0.826996488980346,-0.510362782697505,-0.0124581393128748,-0.0502703975393981
41,-0.0130729778535694,-0.0508747947320884,0.823429229951475,-0.515771823704052,0.823429229953106,-0.51577182370671,-0.0130556871344248,-0.0508040776294659
41.5,-0.013680657871553,-0.0514021223661546,0.819827206917885,-0.521155493164705,0.819827206919387,-0.521155493167166,-0.0136618752029217,-0.0513302532742987
42,-0.0142968692936693,-0.0519217248303218,0.816190583411437,-0.526513542419979,0.816190583412814,-0.526513542422245,-0.014276547445983,-0.0518487501640875
42.5,-0.0149214486365657,-0.0524334327156332,0.8125195270676,-0.531845724661492,0.812519527068857,-0.531845724663568,-0.0148995435090039,-0.0523594010525472
43,-0.0155542284827693,-0.0529370840381702,0.808814209463866,-0.537151795013601,0.808814209465006,-0.537151795015488,-0.0155306992130058,-0.0528620458353271
43.5,-0.0161950379609532,-0.0534325242891359,0.805074805965899,-0.542431510609701,0.805074805966924,-0.542431510611403,-0.0161698470079151,-0.0533565315958462
44,-0.0168437032190517,-0.0539196064508187,0.801301495579432,-0.547684630661048,0.801301495580346,-0.547684630662567,-0.0168168164188658,-0.0538427126196186
44.5,-0.0175000478876893,-0.0543981909797455,0.797494460807705,-0.552910916518709,0.797494460808511,-0.552910916520049,-0.0174714344832477,-0.0543204503783091
45,-0.0181638935315894,-0.0548681457585569,0.793653887514217,-0.558110131729216,0.793653887514917,-0.55811013173038,-0.0181335261763989,-0.0547896134849338
45.5,-0.0188350600868044,-0.055329346018267,0.789779964790586,-0.563282042084437,0.789779964791182,-0.563282042085427,-0.0188029148240157,-0.0552500776217505
46,-0.0195133662818237,-0.0557816742327441,0.785872884829302,-0.568426415666137,0.785872884829797,-0.568426415666957,-0.0194794224995282,-0.0557017254425143
46.5,-0.0201986300408188,-0.0562250199873535,0.781932842801173,-0.573543022885669,0.781932842801568,-0.573543022886322,-0.0201628704048851,-0.0561444464508736
47,-0.0208906688675089,-0.0566592798237798,0.777960036737262,-0.578631636519174,0.77796003673756,-0.578631636519662,-0.0208530792333855,-0.0565781368567646
47.5,-0.0215893002083383,-0.0570843570631488,0.773954667415125,-0.583692031738655,0.773954667415328,-0.583692031738981,-0.0215498695133812,-0.0570026994127095
48,-0.0222943417938783,-0.0575001616095905,0.769916938249165,-0.588723986139251,0.769916938249274,-0.588723986139418,-0.0222530619318673,-0.0574180432319836
48.5,-0.0230056119575813,-0.0579066097364219,0.765847055184909,-0.593727279763013,0.765847055184925,-0.593727279763024,-0.0229624776371791,-0.0578240835906219
49,-0.0237229299312134,-0.0583036238571305,0.761745226597063,-0.598701695119443,0.761745226596988,-0.598701695119301,-0.0236779385201812,-0.0582207417152402
49.5,-0.0244461161165057,-0.058691132283319,0.75761166319115,-0.60364701720306,0.757611663190985,-0.603647017202767,-0.0243992674735253,-0.0586079445586525
50,-0.0251749923327437,-0.0590690689717563,0.7534465779086,-0.608563033508208,0.753446577908346,-0.608563033507767,-0.025126288628717,-0.0589856245651984
50.5,-0.0259093820402026,-0.059437373262607,0.749250185835117,-0.613449534041316,0.749250185834775,-0.61344953404073,-0.0258588275708993,-0.0593537194276978
51,-0.0266491105395119,-0.0597959896108732,0.745022704112201,-0.618306311330809,0.745022704111771,-0.618306311330081,-0.0265967115314069,-0.0597121718378535
51.5,-0.0273940051471716,-0.0601448673129871,0.740764351851669,-0.623133160434826,0.740764351851152,-0.623133160433957,-0.0273397695582903,-0.0600609292318876
52,-0.0281438953476121,-0.0604839602304275,0.736475350053065,-0.627929878946922,0.736475350052463,-0.627929878945916,-0.0280878326651352,-0.0603999435331046
52.5,-0.0288986129223079,-0.0608132265121125,0.732155921523815,-0.632696266999891,0.732155921523128,-0.632696266998749,-0.0288407339586266,-0.0607291708929911
53,-0.029657992056566,-0.0611326283172444,0.727806290802023,-0.63743212726784,0.72780629080125,-0.637432127266565,-0.0295983087454041,-0.061048571432383
53.5,-0.0304218694247373,-0.0614421315401581,0.723426684081793,-0.642137264966644,0.723426684080935,-0.642137264965238,-0.0303603946188643,-0.0613581089841208
54,-0.031190084254667,-0.061741705538607,0.719017329140968,-0.64681148785289,0.719017329140026,-0.646811487851356,-0.0311268315266273,-0.0616577508385315
54.5,-0.03196247837229,-0.0620313228668394,0.714578455271198,-0.651454606221416,0.714578455270172,-0.651454606219755,-0.0318974618194797,-0.0619474674929502
55,-0.0327388962273442,-0.0623109590146446,0.71011029321022,-0.656066432901532,0.71011029320911,-0.656066432899746,-0.0326721302826525,-0.0622272324064252
55.5,-0.033519184901209,-0.0625805921534854,0.705613075076284,-0.660646783252021,0.705613075075091,-0.660646783250112,-0.0334506841503318,-0.0624970217606045
56,-0.0343031940979489,-0.0628402028906964,0.70108703430463,-0.665195475154994,0.701087034303353,-0.665195475152965,-0.0342329731043724,-0.0627568142277446
56.5,-0.0350907761196363,-0.0630897740325969,0.69653240558593,-0.669712329008674,0.696532405584569,-0.669712329006525,-0.0350188492581729,-0.0630065907466434
57,-0.0358817858270726,-0.0633292903572906,0.691949424806632,-0.674197167719173,0.691949424805187,-0.674197167716907,-0.0358081671267192,-0.0632463343072205
57.5,-0.0366760805870254,-0.0635587383977921,0.687338328991122,-0.678649816691337,0.687338328989594,-0.678649816688956,-0.0366007835838064,-0.0634760297443666
58,-0.0374735202071016,-0.0637781062360241,0.682699356245653,-0.683070103818704,0.682699356244041,-0.683070103816209,-0.0373965578074462,-0.0636956635415945
58.5,-0.0382739668593726,-0.0639873833081333,0.678032745703951,-0.687457859472634,0.678032745702254,-0.687457859470026,-0.038195351214479,-0.0639052236449267
59,-0.0390772849938512,-0.0641865602214816,0.673338737474471,-0.691812916490665,0.67333873747269,-0.691812916487945,-0.0389970273853787,-0.0641046992873869
59.5,-0.0398833412429023,-0.0643756285835735,0.668617572589212,-0.696135110164136,0.668617572587347,-0.696135110161306,-0.0398014519802533,-0.0642940808243599
60,-0.0406920043176384,-0.0645545808431062,0.663869492954072,-0.70042427822512,0.663869492952123,-0.700424278222182,-0.0406084926469826,-0.0644733595800373
60.5,-0.0415031448973316,-0.0647234101432508,0.659094741300656,-0.704680260832713,0.659094741298622,-0.704680260829667,-0.0414180189224606,-0.0646425277050696
61,-0.0423166355128257,-0.0648821101872029,0.654293561139522,-0.708902900558708,0.654293561137403,-0.708902900555556,-0.0422299021278288,-0.0648015780455024
61.5,-0.0431323504249129,-0.0650306751159754,0.649466196714797,-0.713092042372699,0.649466196712595,-0.713092042369442,-0.043044015258605,-0.064950504023005
62,-0.0439501654985756,-0.0651690993983478,0.644612892960136,-0.717247533626639,0.644612892957849,-0.717247533623276,-0.0438602328705386,-0.0650892995263381
62.5,-0.0447699580739778,-0.0652973777328356,0.639733895455968,-0.72136922403888,0.639733895453595,-0.721369224035414,-0.0446784309620096,-0.0652179588139753
