"Freq [GHz]","re(St(P1,P1)) []","im(St(P1,P1)) []","re(St(P1,P2)) []","im(St(P1,P2)) []","re(St(P2,P1)) []","im(St(P2,P1)) []","re(St(P2,P2)) []","im(St(P2,P2)) []"
0,0.00455012382417408,0,0.995462871578638,0,0.995462879742263,0,0.00455011682373652,0
0.5,0.00503276968000677,8.94409560103782E-006,0.994835995875057,-0.00851896486507897,0.994835992386829,-0.00851896618653569,0.00503259302655934,9.5932921837516E-006
1,0.00538523774583233,-0.00058923932706989,0.994091963091888,-0.0163835345151071,0.994091963907808,-0.0163835350823867,0.00538475029020269,-0.000587695603112337
1.5,0.00524506165107219,-0.00135872013129301,0.993366555993165,-0.0243400490165051,0.993366556546309,-0.024340049694711,0.00524544104343327,-0.00135618758180556
2,0.00509883967364555,-0.00201387473062731,0.992483123210249,-0.0320874053603326,0.99248312351753,-0.0320874060305965,0.0050994143168932,-0.00201023654403798
2.5,0.00492997706221265,-0.00260553959205012,0.99151249266754,-0.0396356539597438,0.991512492787303,-0.0396356545433392,0.00493052683374584,-0.00260078244790662
3,0.00473757064657709,-0.0031487791673328,0.990501470422135,-0.047014655156401,0.99050147042275,-0.0470146556174598,0.00473800195818042,-0.00314289652484057
3.5,0.0045244231646937,-0.00364870672348694,0.989474046992892,-0.0542588504146853,0.989474046933563,-0.0542588507487736,0.0045246943449353,-0.00364169273857051
4,0.00429451725480368,-0.00410725420242031,0.988437820620937,-0.06139872632113,0.988437820544727,-0.061398726541535,0.00429461440425594,-0.00409910628678212
4.5,0.00405217607171959,-0.00452543240131043,0.987390636845888,-0.0684578037989372,0.987390636780028,-0.0684578039262806,0.00405210264975797,-0.0045161539954961
5,0.00380167382066543,-0.00490417720378478,0.986325502213046,-0.0754526928040979,0.986325502172113,-0.0754526928601313,0.00380144478495681,-0.00489377966213222
5.5,0.00354701675216085,-0.00524466082586628,0.985233634909708,-0.082394347643417,0.985233634899242,-0.0823943476479538,0.00354665452071001,-0.00523316435423649
6,0.00329181361209396,-0.00554837498017591,0.984106132932739,-0.0892895271640963,0.984106132952271,-0.0892895271338698,0.00329134496488237,-0.00553580875988313
6.5,0.00303920491523507,-0.00581711194798462,0.982934776312504,-0.0961420574469685,0.982934776357815,-0.0961420573955207,0.00303865854149737,-0.00580351362416209
7,0.00279183490749724,-0.00605290213444043,0.981712341726392,-0.102953797149023,0.981712341791073,-0.102953797087022,0.00279123949271914,-0.00603831685283218
7.5,0.00255185486729953,-0.00625793762448712,0.980432665613561,-0.109725328598167,0.98043266569005,-0.109725328533903,0.00255123766415497,-0.00624241678768644
8,0.00232094854963447,-0.00643449701542842,0.97909059000276,-0.116456433144062,0.979090590083006,-0.116456433083923,0.00232033438119933,-0.00641809690513728
8.5,0.00210037211413791,-0.00658487909580163,0.977681862243588,-0.12314640920489,0.97768186231947,-0.123146409153787,0.00209978275038389,-0.00656765947758675
9,0.00189100231240533,-0.00671134852380328,0.976203023940134,-0.129794280358188,0.97620302400372,-0.129794280319921,0.00189045615494852,-0.006693371319618
9.5,0.001693388096258,-0.00681609410047512,0.97465130508443,-0.136398928541078,0.974651305128126,-0.136398928518598,0.00169290010514423,-0.00679742218547608
10,0.00150780208944234,-0.00690119880828588,0.973024529521,-0.142959177152793,0.973024529537642,-0.14295917714843,0.00150738388944176,-0.00688189496418534
10.5,0.00150051483454422,-0.00722973348591394,0.971510832477755,-0.149552590993627,0.971510832494763,-0.149552590989428,0.00150247295727583,-0.0072066374026476
11,0.00149224805623739,-0.00755584977940016,0.969971756778861,-0.156108793582197,0.969971756796217,-0.156108793578178,0.00149639497857697,-0.00752869910258847
11.5,0.00148289813581162,-0.00787944189676759,0.968408093349451,-0.162630611368497,0.968408093367136,-0.162630611364674,0.00148901847793292,-0.00784799357535482
12,0.00147235455080466,-0.00820040807182343,0.966820312085148,-0.16912066926864,0.966820312103142,-0.16912066926503,0.00148020713473057,-0.00816444130814409
12.5,0.00146049997693617,-0.00851865121768025,0.965208615698249,-0.175581379344062,0.965208615716535,-0.175581379340676,0.00146982022192785,-0.0084779701948956
13,0.0014472104677026,-0.00883407959458093,0.963572988171457,-0.182014937088045,0.963572988190015,-0.182014937084892,0.00145771309909173,-0.00878851593846042
13.5,0.00143235571580688,-0.00914660748212759,0.961913237619016,-0.188423323525472,0.961913237637831,-0.188423323522561,0.00144373775758094,-0.00909602241647045
14,0.00141579939922182,-0.00945615584524306,0.960229033641407,-0.194808311598443,0.960229033660459,-0.194808311595781,0.00142774341459342,-0.00940044200358026
14.5,0.00139739961326402,-0.00976265298244838,0.958519939452674,-0.201171475571717,0.958519939471949,-0.20117147556931,0.00140957715170098,-0.00970173584304224
15,0.00137700938834773,-0.0100660351445874,0.956785439178958,-0.207514202433759,0.956785439198439,-0.207514202431611,0.00138908459241413,-0.00999987406116176
15.5,0.00135447729136071,-0.0103662471119681,0.955024960790563,-0.21383770448405,0.955024960810235,-0.213837704482164,0.00136611061233616,-0.0102948359188861
16,0.0013296481067544,-0.0106632427178974,0.953237895153232,-0.220143032482027,0.953237895173082,-0.220143032480407,0.00134050007456943,-0.0105866098956287
16.5,0.0013023635915686,-0.0109569853070237,0.951423611679485,-0.226431088888079,0.951423611699499,-0.226431088886726,0.00131209858228748,-0.0108751937014699
17,0.00127246329680281,-0.0112474481175595,0.94958147103753,-0.232702640853877,0.949581471057694,-0.232702640852791,0.00128075323979737,-0.0111605942149908
17.5,0.0012397854457718,-0.0115346145775472,0.947710835340811,-0.238958332721465,0.947710835361113,-0.238958332720648,0.0012463134129822,-0.0114428273452893
18,0.00120416785852756,-0.0118184785065361,0.94581107620094,-0.245198697870821,0.945811076221368,-0.245198697870271,0.00120863147983363,-0.0117219178179364
18.5,0.0011654489100329,-0.0120990442157598,0.943881580984418,-0.251424169817841,0.943881581004962,-0.25142416981756,0.00116756356173908,-0.0119978988860248
19,0.00112346850865264,-0.0123763265016583,0.941921757571712,-0.257635092511778,0.941921757592361,-0.257635092511765,0.00112297022640573,-0.0122708119687414
19.5,0.0010780690807401,-0.0126503505296767,0.939931037877558,-0.263831729816141,0.939931037898301,-0.263831729816393,0.00107471715370472,-0.0125407062211897
20,0.00102909654661892,-0.0129211516073939,0.937908880354736,-0.270014274182222,0.937908880375566,-0.270014274182738,0.00102267575631682,-0.0128076380403472
20.5,0.000976401273177441,-0.0131887748483406,0.935854771670539,-0.276182854542079,0.935854771691445,-0.276182854542858,0.000966723747838683,-0.0130716705131664
21,0.000919838988586941,-0.0134532747300227,0.933768227715786,-0.282337543459414,0.93376822773676,-0.282337543460455,0.000906745651939656,-0.0133328728137261
21.5,0.000859271645317128,-0.0137147145518952,0.931648794080558,-0.288478363584082,0.931648794101591,-0.288478363585382,0.000842633247218616,-0.013591319557138
22,0.000794568218642489,-0.0139731658010351,0.929496046108528,-0.294605293459776,0.929496046129613,-0.294605293461333,0.000774285943572595,-0.0138470901185217
22.5,0.000725605429188758,-0.0142287074350638,0.927309588622645,-0.300718272735881,0.927309588643774,-0.300718272737693,0.00070161108709399,-0.0141002679257236
23,0.00065226837968696,-0.0144814250934546,0.925089055398605,-0.306817206834131,0.925089055419771,-0.306817206836195,0.00062452419177722,-0.0143509397347132
23.5,0.000574451097960005,-0.0147314102495912,0.922834108448761,-0.312901971119147,0.922834108469958,-0.312901971121458,0.000542949097545264,-0.014599194896554
24,0.000492056980169076,-0.0149787593168547,0.920544437167473,-0.318972414619585,0.920544437188694,-0.318972414622144,0.000456818055316666,-0.0148451246247054
24.5,0.000404999130460826,-0.0152235727225938,0.918219757379197,-0.32502836334378,0.918219757400436,-0.325028363346583,0.00036607174096237,-0.015088821271048
25,0.000313200595283392,-0.0154659539639781,0.915859810322491,-0.331069623230591,0.915859810343741,-0.331069623233635,0.000270659201064671,-0.0153303776185043
25.5,0.000216594492716105,-0.0157060086596161,0.913464361596398,-0.337095982773024,0.913464361617655,-0.337095982776306,0.000170537734292597,-0.0155698861975291
26,0.000115124039163916,-0.0159438436102961,0.91103320009012,-0.343107215348925,0.911033200111377,-0.343107215352443,6.56727130272095E-005,-0.0158074386329483
26.5,8.74247758164692E-006,-0.0161795658814146,0.90856613691231,-0.349103081289954,0.908566136933564,-0.349103081293705,-4.39626494797563E-005,-0.0160431250268185
27,-0.000102587086986239,-0.0164132819186258,0.906063004332605,-0.355083329717105,0.90606300435385,-0.355083329721086,-0.000158387580623254,-0.0162770333821036
27.5,-0.000218891937367016,-0.0166450967069571,0.90352365474494,-0.361047700168234,0.903523654766171,-0.361047700172442,-0.000277614072490162,-0.0165092490710088
28,-0.000340190071421942,-0.0168751129822307,0.900947959659746,-0.366995924040496,0.900947959680959,-0.366995924044928,-0.00040164724205799,-0.0167398543509321
28.5,-0.000466490597251068,-0.0171034305021258,0.898335808730112,-0.372927725868218,0.898335808751302,-0.37292772587287,-0.000530485721117135,-0.0169689279300518
29,-0.000597794186723621,-0.0173301453826,0.895687108815408,-0.378842824454543,0.89568710883657,-0.378842824459414,-0.000664122069519157,-0.0171965445837261
29.5,-0.000734093577289596,-0.0175553495038725,0.893001783084587,-0.384740933873275,0.893001783105718,-0.384740933878361,-0.000802543205528417,-0.0174227748220455
30,-0.000875374111986849,-0.0177791299885746,0.890279770160383,-0.390621764355468,0.890279770181478,-0.390621764360767,-0.000945730847321413,-0.0176476846081421
30.5,-0.00102161430773245,-0.018001568753292,0.887521023304799,-0.396485023073824,0.887521023325854,-0.396485023079332,-0.00109366196001948,-0.017871335126181
31,-0.0011727864423477,-0.0182227421333097,0.884725509645729,-0.402330414836407,0.884725509666742,-0.402330414842121,-0.00124630920306457,-0.018093782597389
31.5,-0.00132885715132486,-0.0184427205792428,0.881893209444027,-0.408157642699981,0.881893209464993,-0.408157642705898,-0.00140364137319904,-0.0183150781419481
32,-0.00148978802601263,-0.0186615684231115,0.879024115400023,-0.413966408512072,0.879024115420938,-0.413966408518189,-0.00156562383882786,-0.0185352676842108
32.5,-0.00165553620566855,-0.0188793437106034,0.876118231998232,-0.41975641338984,0.876118232019093,-0.419756413396155,-0.00173221896203862,-0.0187543918983317
33,-0.00182605495669858,-0.0190960980954811,0.873175574888798,-0.425527358142954,0.873175574909602,-0.425527358149463,-0.00190338650509952,-0.0189724861912144
33.5,-0.00200129423326434,-0.019311876791591,0.870196170304125,-0.431278943646808,0.87019617032487,-0.431278943653509,-0.00207908401876228,-0.0191895807194782
34,-0.00218120121436188,-0.0195267185774808,0.867180054509057,-0.437010871171738,0.867180054529737,-0.437010871178627,-0.0022592672102007,-0.0194057004370811
34.5,-0.00236572081335207,-0.0197406558484186,0.864127273282931,-0.442722842673213,0.864127273303545,-0.442722842680287,-0.0024438902889084,-0.0196208651702188
35,-0.00255479615677406,-0.0199537147104559,0.861037881431866,-0.448414561047443,0.86103788145241,-0.448414561054699,-0.00263290628930574,-0.0198350897161326
35.5,-0.00274836903010778,-0.0201659151111945,0.857911942329589,-0.454085730356318,0.857911942350061,-0.454085730363754,-0.00282626736924835,-0.0200483839625764
36,-0.00294638028886335,-0.0203772710019978,0.854749527485233,-0.459736056025152,0.854749527505629,-0.459736056032764,-0.00302392508398219,-0.0202607530247741
36.5,-0.00314877023408866,-0.0205877905265753,0.851550716136491,-0.465365245016309,0.851550716156808,-0.465365245024093,-0.0032258306354378,-0.0204721973968969
37,-0.00335547895197663,-0.0207974762311306,0.848315594866651,-0.470973005981437,0.848315594886886,-0.470973005989392,-0.0034319350970507,-0.0206827131152508
37.5,-0.00356644661778188,-0.021006325291529,0.845044257244039,-0.476559049394737,0.845044257264191,-0.47655904940286,-0.00364218961455143,-0.0208922919305581
38,-0.00378161376471708,-0.0212143297533302,0.841736803482508,-0.482123087669387,0.841736803502573,-0.482123087677673,-0.00385654558336851,-0.0211009214869491
38.5,-0.00400092151887971,-0.0214214767808465,0.838393340121627,-0.487664835259031,0.838393340141602,-0.487664835267478,-0.00407495480349002,-0.0213085855054828
39,-0.00422431180155103,-0.021627748911799,0.835013979725366,-0.493184008746025,0.835013979745249,-0.493184008754629,-0.00429736961274968,-0.021515263970236
39.5,-0.00445172750047151,-0.0218331243145091,0.83159884059807,-0.498680326917895,0.831598840617858,-0.498680326926654,-0.00452374299962255,-0.0217209333152275
40,-0.00468311261186599,-0.0220375770449424,0.82814804651662,-0.504153510833379,0.828148046536311,-0.50415351084229,-0.00475402869670161,-0.0219255666106518
40.5,-0.00491841235511603,-0.0222410773012806,0.824661726477753,-0.509603283879171,0.824661726497345,-0.50960328388823,-0.00498818125606043,-0.0221291337470887
41,-0.00515757326205968,-0.0224435916740533,0.821140014459543,-0.515029371818453,0.821140014479033,-0.515029371827657,-0.00522615610776767,-0.0223316016165724
41.5,-0.00540054324293499,-0.0226450833901812,0.817583049196137,-0.520431502832096,0.817583049215523,-0.520431502841442,-0.00546790960279475,-0.0225329342895551
42,-0.00564727163098233,-0.0228455125495861,0.813990973964885,-0.525809407553387,0.813990973984164,-0.525809407562872,-0.00571339904158752,-0.0227330931870008
42.5,-0.00589770920768595,-0.0230448363532981,0.810363936385062,-0.531162819096965,0.810363936404231,-0.531162819106585,-0.00596258268951816,-0.0229320372469668
43,-0.00615180821059313,-0.0232430093222509,0.806702088227418,-0.536491473082644,0.806702088246477,-0.536491473092396,-0.00621541978042534,-0.0231297230851968
43.5,-0.00640952232556574,-0.0234399835061649,0.803005585233885,-0.541795107654678,0.80300558525283,-0.54179510766456,-0.00647187050939402,-0.0233261051493637
44,-0.00667080666523767,-0.0236357086821297,0.799274586946746,-0.547073463496973,0.799274586965575,-0.54707346350698,-0.00673189601588231,-0.0235211358667136
44.5,-0.00693561773534851,-0.0238301325426703,0.795509256546695,-0.552326283844697,0.795509256565407,-0.552326283854826,-0.00699545835824295,-0.0237147657849641
45,-0.00720391339052234,-0.0240232008732229,0.791709760699198,-0.557553314492694,0.791709760717788,-0.557553314502942,-0.00726252048063758,-0.0239069437064049
45.5,-0.00747565278095319,-0.0242148577190835,0.787876269408619,-0.562754303801047,0.787876269427087,-0.56275430381141,-0.00753304617326073,-0.0240976168152087
46,-0.00775079629133818,-0.0244050455419987,0.784008955879649,-0.567929002698102,0.784008955897992,-0.567929002708577,-0.0078070000267535,-0.0242867307980416
46.5,-0.00802930547329683,-0.024593705366652,0.78010799638554,-0.573077164681247,0.780107996403756,-0.573077164691831,-0.00808434738160191,-0.0244742299581036
47,-0.00831114297240548,-0.0247807769173752,0.776173570142744,-0.578198545815674,0.77617357016083,-0.578198545826363,-0.00836505427326434,-0.0246600573227903
47.5,-0.00859627245086536,-0.0249661987454786,0.772205859191549,-0.583292904731356,0.772205859209505,-0.583292904742146,-0.00864908737370879,-0.024844154745186
48,-0.00888465850672432,-0.0251499083476144,0.768205048282344,-0.588360002618424,0.768205048300166,-0.588360002629312,-0.00893641392998445,-0.0250264629996435
48.5,-0.00917626659048615,-0.0253318422756553,0.764171324767158,-0.593399603221139,0.764171324784845,-0.593399603232122,-0.00922700170039614,-0.0252069218717241
49,-0.00947106291982897,-0.0255119362385542,0.760104878496177,-0.598411472830575,0.760104878513726,-0.598411472841649,-0.00952081888878564,-0.0253854702427828
49.5,-0.00976901439309641,-0.0256901251966919,0.75600590171891,-0.603395380276184,0.75600590173632,-0.603395380287344,-0.00981783407739856,-0.0255620461695025
50,-0.0100700885021258,-0.0258663434492138,0.751874588989751,-0.608351096916343,0.75187458900702,-0.608351096927586,-0.0101180161587425,-0.025736586958691
50.5,-0.0103742532449237,-0.0260405247148551,0.747711137077667,-0.613278396628004,0.747711137094792,-0.613278396639326,-0.0104213342668134,-0.0259090292376423
51,-0.0106814770386189,-0.0262126022067438,0.743515744879769,-0.618177055795525,0.743515744896748,-0.618177055806924,-0.0107277577080224,-0.0260793090203849
51.5,-0.0109917286330731,-0.026382508701689,0.739288613338553,-0.623046853298786,0.739288613355385,-0.623046853310255,-0.0110372558921235,-0.0262473617701254
52,-0.011304977025474,-0.0265501766043932,0.735029945362597,-0.627887570500641,0.735029945379279,-0.627887570512178,-0.0113497982633919,-0.0264131224581835
52.5,-0.0116211913761834,-0.0267155380070722,0.730739945750512,-0.632698991233803,0.730739945767044,-0.632698991245404,-0.0116653542322991,-0.0265765256197265
53,-0.0119403409260785,-0.0268785247449047,0.726418821117986,-0.637480901787187,0.726418821134364,-0.637480901798847,-0.0119838931078728,-0.0267375054065897
53.5,-0.0122623949155692,-0.0270390684477341,0.72206677982773,-0.642233090891791,0.722066779843953,-0.642233090903507,-0.0123053840309268,-0.0268959956374528
54,-0.0125873225054702,-0.027197100588414,0.717684031922193,-0.646955349706144,0.717684031938258,-0.646955349717912,-0.0126297959083154,-0.0270519298456612
54.5,-0.0129150926998373,-0.0273525525281809,0.713270789058875,-0.651647471801368,0.713270789074781,-0.651647471813184,-0.0129570973483382,-0.02720524132492
55,-0.0132456742708956,-0.0275053555593948,0.708827264448129,-0.656309253145893,0.708827264463875,-0.656309253157752,-0.0132872565974214,-0.0273558631731343
55.5,-0.013579035686122,-0.0276554409459936,0.704353672793303,-0.660940492089851,0.704353672808887,-0.660940492101749,-0.0136202414781659,-0.0275037283346079
56,-0.0139151450375575,-0.0278027399619559,0.699850230233119,-0.665540989349184,0.699850230248538,-0.665540989361117,-0.0139560193288563,-0.0276487696408287
56.5,-0.0142539699733998,-0.0279471839280739,0.695317154286166,-0.670110547989486,0.695317154301418,-0.670110548001448,-0.0142945569444938,-0.027790919850047
57,-0.0145954776318938,-0.0280887042472971,0.690754663797423,-0.674648973409604,0.690754663812507,-0.674648973421592,-0.0146358205194261,-0.0279301116858383
57.5,-0.0149396345775613,-0.0282272324388999,0.686162978886697,-0.679156073325027,0.686162978901612,-0.679156073337037,-0.0149797755916218,-0.0280662778748348
58,-0.0152864067397673,-0.0283627001716921,0.681542320898902,-0.683631657751059,0.681542320913645,-0.683631657763085,-0.0153263869886345,-0.0281993511837959
58.5,-0.0156357593536349,-0.0284950392965,0.676892912356082,-0.688075538985817,0.676892912370653,-0.688075538997855,-0.0156756187752981,-0.028329264456171
59,-0.0159876569033079,-0.0286241818780918,0.672214976911119,-0.692487531593055,0.672214976925514,-0.6924875316051,-0.0160274342031849,-0.0284559506483045
59.5,-0.016342063067551,-0.0287500602267411,0.66750873930303,-0.696867452384824,0.667508739317248,-0.696867452396872,-0.0163817956618576,-0.0285793428654176
60,-0.016698940667678,-0.0288726069295698,0.662774425313811,-0.701215120403996,0.662774425327851,-0.701215120416043,-0.0167386646319349,-0.0286993743974851
60.5,-0.0170582516178026,-0.0289917548818365,0.658012261726745,-0.705530356906644,0.658012261740605,-0.705530356918683,-0.0170980016400008,-0.0288159787551283
61,-0.0174199568773852,-0.0291074373182792,0.653222476286122,-0.709812985344296,0.6532224762998,-0.709812985356323,-0.0174597662153669,-0.0289290897056166
61.5,-0.0177840164060754,-0.0292195878446475,0.648405297658323,-0.714062831346079,0.648405297671818,-0.714062831358089,-0.0178239168487176,-0.0290386413090802
62,-0.018150389120823,-0.029328140469516,0.643560955394201,-0.718279722700749,0.643560955407511,-0.718279722712736,-0.0181904109526427,-0.0291445679550068
