"Freq [GHz]","re(St(P1,P1)) []","im(St(P1,P1)) []","re(St(P1,P2)) []","im(St(P1,P2)) []","re(St(P2,P1)) []","im(St(P2,P1)) []","re(St(P2,P2)) []","im(St(P2,P2)) []"
0,0.00580018964137707,0,0.99421245548001,0,0.99421248852741,0,0.00580022299550365,0
0.5,0.00631241576783381,0.00105219793159606,0.993611608124755,-0.00812875010282355,0.993611607196609,-0.00812875535946489,0.00631230291181595,0.00105237023434412
1,0.00673550437080372,0.00150193352503791,0.992960406596959,-0.0156311286883266,0.992960406634735,-0.0156311284098187,0.00673517661673984,0.00150240132791524
1.5,0.00684426012995942,0.00173599389897738,0.992331607959626,-0.0232060387984117,0.992331608086246,-0.0232060384757187,0.00684328372455312,0.00173677385176774
2,0.0068976560799765,0.00206197998859814,0.991602568305043,-0.0305956589910075,0.991602568486631,-0.0305956586714942,0.00689632530105566,0.00206321270788834
2.5,0.00693755768523019,0.00243122734434564,0.990832639556945,-0.0378322946702792,0.990832639752045,-0.0378322943729756,0.00693595105471045,0.00243292040383203
3,0.00697520738228263,0.00282513602949663,0.99004894147203,-0.0449561083007346,0.99004894164791,-0.0449561080258238,0.00697333555982649,0.00282728274909161
3.5,0.00701467088323082,0.00323557011881981,0.989257135480429,-0.0520005566330806,0.989257135617072,-0.0520005563731356,0.00701251810018633,0.00323816456590009
4,0.00705776778441858,0.00365867439978373,0.988452159073038,-0.0589887890799741,0.988452159161152,-0.0589887888270297,0.0070553056781526,0.00366171318609076
4.5,0.00710547492245173,0.00409259822308616,0.98762504344183,-0.0659350054410206,0.987625043479559,-0.0659350051896279,0.00710266783580726,0.00409608030963149
5,0.00715841565385966,0.00453653690043954,0.986766340137552,-0.0728469916168768,0.986766340127748,-0.0728469913648615,0.00715522282100145,0.00454046319742218
5.5,0.00721705771039705,0.00499028388488121,0.985867525819086,-0.079728352629302,0.985867525767482,-0.0797283523774848,0.00721343414134989,0.00499465693756029
6,0.0072818032438563,0.00545400452339173,0.984921406376299,-0.0865801193022735,0.984921406290401,-0.0865801190538322,0.00727769999599504,0.00545882830586919
6.5,0.00735303432399126,0.00592811504595847,0.983922093892964,-0.0934018061148834,0.983922093781413,-0.0934018058746995,0.0073483984482387,0.00593339484148903
7,0.00743113845944626,0.00641321544330786,0.982864835209659,-0.100192076935947,0.982864835081871,-0.100192076710028,0.00742591274956605,0.00641895778961654
7.5,0.00751652465186631,0.006910051799915,0.981745813463366,-0.106949153391911,0.981745813329332,-0.106949153186929,0.00751064725568026,0.00691626448438853
8,0.00760963486629715,0.00741949572540079,0.980561968670742,-0.113671060959865,0.980561968540894,-0.113671060782784,0.00760303878442048,0.00742618782090432
8.5,0.00771095336805094,0.00794253432355951,0.979310850243946,-0.120355774694542,0.979310850129074,-0.120355774552343,0.00770356584843164,0.00794971625992336
9,0.00782101525940748,0.00848026708781058,0.977990501057335,-0.127001303424554,0.977990500968503,-0.127001303324018,0.00781275708576913,0.00848795075735653
9.5,0.0079404150154294,0.00903390769332901,0.976599368250797,-0.13360573637822,0.976599368199276,-0.133605736325782,0.00793119968093802,0.00904210659123628
10,0.0080698155600441,0.00960478954783595,0.97513623518169,-0.14016726693802,0.975136235178884,-0.140167266939645,0.00805954831207323,0.00961351895036699
10.5,0.00826485292109904,0.0100531232186722,0.973737921099454,-0.146790492834393,0.973737921096401,-0.146790492834991,0.0082536547623357,0.0100623404852915
11,0.00846847710766395,0.0104969288389443,0.97230249194782,-0.153379787366154,0.972302491944637,-0.153379787365727,0.00845629823634472,0.0105066432392191
11.5,0.00868056177543014,0.0109360234114293,0.970831368054464,-0.159936566041687,0.97083136805126,-0.159936566040256,0.00866735188518071,0.0109462450448437
12,0.00890097606824915,0.0113702281849557,0.969325743176257,-0.166462242574414,0.969325743173133,-0.166462242572006,0.0088866843510481,0.0113809680265056
12.5,0.00912958478687917,0.0117993687815181,0.967786603475208,-0.172958206575923,0.967786603472259,-0.17295820657258,0.00911415993899495,0.0118106387275847
13,0.00936624856163867,0.0122232753157094,0.966214747171281,-0.179425805620268,0.966214747168589,-0.179425805616036,0.0093496387925435,0.0122350882300366
13.5,0.00961082402858687,0.0126417825063472,0.964610804230423,-0.185866331261263,0.964610804228062,-0.185866331256198,0.00959297707284418,0.0126541522659105
14,0.00986316400882437,0.0130547297801913,0.962975255590782,-0.192281008548668,0.962975255588818,-0.192281008542828,0.00984402714092855,0.0130676713208056
14.5,0.0101231176905373,0.0134619613677009,0.961308451558705,-0.198670988580888,0.961308451557192,-0.198670988574333,0.0101026377426718,0.013475490729145
15,0.0103905308133616,0.0138633263907382,0.959610629116699,-0.205037343644236,0.959610629115684,-0.20503734363703,0.0103686541960442,0.0138774607612526
15.5,0.0106652458547132,0.014258678942257,0.957881927977881,-0.211381064515231,0.957881927977403,-0.211381064507442,0.0106419185802615,0.0142734367022075
16,0.0109471022176558,0.0146478781578763,0.956122405296167,-0.217703059538063,0.956122405296256,-0.217703059529753,0.0109222699264205,0.0146632789224457
16.5,0.0112359364199479,0.0150307882794301,0.954332049000336,-0.224004155129613,0.954332049001014,-0.22400415512085,0.0112095444092308,0.01504685294014
17,0.0115315822838749,0.0154072787104784,0.952510789764858,-0.230285097406669,0.952510789766142,-0.230285097397515,0.0115035755394532,0.0154240294754133
17.5,0.0118338711265004,0.0157772240638583,0.95065851166323,-0.236546554671451,0.95065851166513,-0.236546554661969,0.0118041943566602,0.015794684496409
18,0.0121426319499575,0.0161405042012923,0.948775061572377,-0.242789120531213,0.948775061574897,-0.242789120521462,0.0121112296219373,0.0161586992573104
18.5,0.0124576916314394,0.016497004265225,0.946860257411553,-0.249013317463971,0.946860257414692,-0.249013317454009,0.0124245080101701,0.0165159603284164
19,0.0127788751125232,0.0168466147029067,0.944913895307586,-0.255219600675384,0.94491389531134,-0.255219600665267,0.0127438543015512,0.0168663596183698
19.5,0.0131060055874988,0.0171892312828976,0.942935755781916,-0.261408362120833,0.942935755786274,-0.261408362110612,0.013069091571961,0.0172097943886564
20,0.0134389046903685,0.0175247551041124,0.940925609054753,-0.267579934591918,0.940925609059703,-0.267579934581643,0.0134000413818994,0.0175461672605597
20.5,0.0137773926802053,0.0178530925975491,0.93888321955902,-0.273734595788376,0.938883219564543,-0.273734595778092,0.0137365239636277,0.0178753862146825
21,0.014121288624565,0.0181741555208872,0.936808349752149,-0.279872572314574,0.936808349758229,-0.279872572304325,0.0140783584062344,0.0181973645832607
21.5,0.0144704105806525,0.0184878609461052,0.934700763308183,-0.285994043555172,0.934700763314798,-0.285994043544996,0.0144253628383058,0.0185120210354008
22,0.0148245757739811,0.0187941312403332,0.932560227766212,-0.292099145397028,0.93256022777334,-0.292099145386962,0.0147773546079392,0.0188192795554927
22.5,0.0151836007742394,0.0190928940401214,0.930386516704579,-0.298187973774787,0.930386516712195,-0.298187973764866,0.0151341504598205,0.0191190694149701
23,0.015547301668135,0.019384082219349,0.928179411503619,-0.304260588025864,0.928179411511698,-0.304260588016118,0.0154955667091201,0.0194113251376657
23.5,0.0159154942289663,0.0196676338509811,0.925938702753208,-0.31031701404707,0.925938702761722,-0.310317014037527,0.0158614194119647,0.0196959864589656
24,0.0162879940827099,0.0199434921629151,0.923664191355284,-0.316357247250303,0.923664191364206,-0.316357247240988,0.0162315245322708,0.0199729982790295
24.5,0.0166646168704058,0.0202116054881294,0.9213556893657,-0.322381255318711,0.921355689375001,-0.322381255309647,0.0166056981047236,0.0202423106102843
25,0.0170451784066676,0.0204719272094094,0.919013020614507,-0.328388980767614,0.91901302062416,-0.328388980758819,0.0169837563937251,0.0205038785194847
25.5,0.0174294948341243,0.0207244156988542,0.916636021138872,-0.334380343316777,0.916636021148847,-0.334380343308271,0.0173655160481179,0.0207576620645551
26,0.0178173827736381,0.0209690342524511,0.914224539458501,-0.340355242082043,0.914224539468771,-0.34035524207384,0.0177507942515461,0.0210036262265005
26.5,0.0182086594701588,0.0212057510199481,0.911778436719486,-0.346313557595407,0.911778436730021,-0.346313557587519,0.0181394088682897,0.0212417408366319
27,0.0186031429340774,0.0214345389303023,0.909297586728995,-0.352255153663202,0.909297586739767,-0.352255153655642,0.0185311785844633,0.0214719804993895
27.5,0.0190006520779548,0.0216553756129245,0.906781875900119,-0.35817987907239,0.906781875911101,-0.358179879065167,0.018925923044446,0.0216943245109986
28,0.0194010068485438,0.0218682433150261,0.904231203123489,-0.364087569154913,0.904231203134651,-0.364087569148033,0.0193234629824626,0.0219087567742617
28.5,0.0198040283539939,0.02207312881529,0.901645479579809,-0.36997804722003,0.901645479591126,-0.369978047213498,0.0197236203492189,0.0221152657097237
29,0.0202095389861818,0.0222700233341384,0.89902462850544,-0.375851125864202,0.899024628516884,-0.375851125858023,0.0201262184335279,0.0223138441634874
29.5,0.020617362538095,0.0224589224408511,0.89636858492126,-0.381706608167773,0.896368584932806,-0.38170660816195,0.0205310819788717,0.0225044893119439
30,0.0210273243162307,0.0226398259577882,0.893677295333504,-0.387544288787225,0.893677295345126,-0.387544288781758,0.0209380372948523,0.0226872025636691
30.5,0.0214392512479683,0.0228127378619702,0.890950717413879,-0.393363954951333,0.890950717425553,-0.393363954946222,0.0213469123635062,0.0228619894587523
31,0.0218529719838942,0.0229776661842569,0.888188819665075,-0.39916538736903,0.888188819676776,-0.399165387364274,0.0217575369404653,0.0230288595658035
31.5,0.0222683169950754,0.0231346229063767,0.885391581076786,-0.404948361056298,0.885391581088491,-0.404948361051894,0.0221697426509591,0.023187826376893
32,0.0226851186652679,0.0232836238560399,0.882558990776464,-0.410712646088885,0.882558990788153,-0.410712646084829,0.0225833630806633,0.0233389072006622
32.5,0.0231032113780922,0.0234246886003723,0.879691047678303,-0.416458008287171,0.879691047689951,-0.416458008283458,0.0229982338614209,0.0234821230538496
33,0.0235224315991763,0.0235578403378994,0.876787760133274,-0.422184209839018,0.876787760144861,-0.422184209835643,0.0234141927518499,0.023617498551455
33.5,0.0239426179533149,0.0236831057892968,0.87384914558255,-0.427891009865996,0.873849145594057,-0.427891009862952,0.0238310797128902,0.023745061795778
34,0.0243636112966757,0.0238005150871347,0.870875230216144,-0.433578164937926,0.870875230227552,-0.433578164935207,0.0242487369783327,0.023864844264545
34.5,0.0247852547841109,0.0239101016648143,0.867866048638214,-0.439245429540324,0.867866048649504,-0.43924542953792,0.0246670091203799,0.0239768806983353
35,0.0252073939316234,0.0240119021449112,0.864821643540176,-0.444892556498875,0.86482164355133,-0.444892556496779,0.0250857431103185,0.0240812089875159
35.5,0.0256298766740599,0.0241059562271089,0.861742065382465,-0.450519297364801,0.861742065393466,-0.450519297363003,0.0255047883743578,0.0241778700588782
36,0.0260525534181025,0.0241923065759232,0.858627372085572,-0.456125402764575,0.858627372096405,-0.456125402763066,0.0259239968447295,0.0242669077621669
36.5,0.0264752770906381,0.0242709987083927,0.855477628730786,-0.4617106227172,0.855477628741436,-0.46171062271597,0.0263432230061261,0.0243483687566896
37,0.0268979031825899,0.024342080881907,0.852292907270906,-0.46727470692194,0.852292907281358,-0.467274706920978,0.0267623239375721,0.0244223023981688
37.5,0.0273202897883041,0.0244056039823451,0.849073286251073,-0.47281740501917,0.849073286261314,-0.472817405018465,0.0271811593498256,0.0244887606260141
38,0.0277422976405851,0.0244616214126725,0.845818850539739,-0.478338466826743,0.845818850549757,-0.478338466826284,0.0275995916184134,0.0245477978511636
38.5,0.0281637901414871,0.0245101889821608,0.842529691069741,-0.483837642554092,0.842529691079523,-0.483837642553867,0.0280174858124022,0.0245994708446472
39,0.0285846333889557,0.0245513647963571,0.839205904589328,-0.489314682996043,0.839205904598864,-0.489314682996041,0.0284347097190247,0.0246438386270189
39.5,0.029004696199436,0.0245852091479485,0.835847593422989,-0.494769339708179,0.835847593432268,-0.494769339708387,0.0288511338642651,0.0246809623587767
40,0.0294238501265552,0.0246117844086419,0.832454865241838,-0.500201365165401,0.832454865250851,-0.500201365165807,0.0292666315295244,0.0247109052319099
40.5,0.0298419694759984,0.0246311549221849,0.829027832843313,-0.505610512905177,0.82902783285205,-0.505610512905769,0.0296810787644872,0.0247337323626827
41,0.0302589313166778,0.0246433868986277,0.825566613939902,-0.510996537656868,0.825566613948354,-0.510996537657633,0.0300943543963079,0.0247495106857648
41.5,0.0306746154883365,0.0246485483099431,0.822071330956604,-0.516359195458346,0.822071330964766,-0.516359195459271,0.0305063400352374,0.0247583088498108
42,0.0310889046056867,0.0246467087870863,0.818542110836814,-0.52169824376105,0.818542110844678,-0.521698243762123,0.0309169200768168,0.0247601971145806
42.5,0.0315016840592099,0.0246379395185989,0.814979084856316,-0.527013441524496,0.814979084863875,-0.527013441525705,0.0313259817007608,0.024755247249689
43,0.0319128420127333,0.0246223131508222,0.811382388445057,-0.532304549301172,0.811382388452307,-0.532304549302502,0.0317334148666544,0.0247435324350572
43.5,0.0323222693979194,0.0245999036898055,0.807752161016416,-0.537571329312655,0.807752161023352,-0.537571329314095,0.0321391123065914,0.0247251271631471
44,0.0327298599057633,0.0245707864049747,0.80408854580361,-0.542813545517729,0.804088545810228,-0.542813545519267,0.0325429695148712,0.0247001071430356
44.5,0.0331355099752408,0.0245350377346149,0.800391689702959,-0.548030963673203,0.800391689709255,-0.548030963674825,0.0329448847348836,0.0246685492063827
45,0.0335391187792109,0.0244927351932321,0.796661743123705,-0.553223351388038,0.796661743129676,-0.553223351389732,0.0333447589433018,0.0246305312153583
45.5,0.0339405882077011,0.0244439572808356,0.792898859844078,-0.558390478171386,0.792898859849723,-0.558390478173139,0.0337424958317046,0.0245861319725559
46,0.034339822848683,0.0243887833941818,0.789103196873339,-0.563532115475049,0.789103196878655,-0.56353211547685,0.0341380017857473,0.0245354311329443
46.5,0.0347367299664603,0.0243272937400157,0.78527491431951,-0.568648036730843,0.785274914324495,-0.568648036732678,0.0345311858619952,0.0244785091178807
47,0.03513121947778,0.0242595692503521,0.781414175262551,-0.573738017383277,0.781414175267206,-0.573738017385136,0.0349219597625445,0.0244154470312185
47.5,0.0355232039257753,0.0241856914997979,0.777521145632701,-0.578801834917973,0.777521145637026,-0.578801834919843,0.035310237807535,0.024346326577526
48,0.0359125984518511,0.0241057426249588,0.773595994093762,-0.583839268886156,0.773595994097758,-0.583839268888027,0.0356959369056664,0.0242712299824353
48.5,0.0362993207656222,0.0240198052459296,0.769638891931085,-0.588850100925551,0.769638891934752,-0.588850100927409,0.0360789765228338,0.024190239915131
49,0.0366832911130033,0.0239279623898903,0.765650012944035,-0.593834114777981,0.765650012947374,-0.593834114779816,0.0364592786489813,0.0241034394129863
49.5,0.0370644322425505,0.023830297416797,0.76162953334273,-0.598791096303938,0.761629533345744,-0.598791096305739,0.0368367677632747,0.0240109118083476
50,0.0374426693701596,0.0237268939471884,0.757577631648847,-0.60372083349437,0.757577631651538,-0.603720833496126,0.0372113707977023,0.0239127406574623
50.5,0.037817930142213,0.0236178357920909,0.753494488600308,-0.608623116479901,0.753494488602678,-0.608623116481603,0.0375830170991893,0.0238090096715492
51,0.0381901445972632,0.0235032068850186,0.749380287059662,-0.613497737537704,0.749380287061715,-0.613497737539341,0.0379516383903272,0.0236998026499966
51.5,0.0385592451263494,0.0233830912160642,0.745235211925995,-0.618344491096192,0.745235211927736,-0.618344491097754,0.0383171687288041,0.0235852034156772
52,0.0389251664320296,0.023257572768058,0.741059450050205,-0.623163173737713,0.741059450051638,-0.623163173739192,0.0386795444656228,0.0234652957523562
52.5,0.0392878454862081,0.0231267354547859,0.736853190153479,-0.627953584199402,0.736853190154607,-0.627953584200786,0.0390387042021925,0.0233401633441861
53,0.0396472214868429,0.0229906630612409,0.73261662274884,-0.632715523372314,0.732616622749669,-0.632715523373596,0.0393945887463678,0.0232098897172458
53.5,0.0400032358136033,0.0228494391858912,0.72834994006562,-0.637448794298993,0.728349940066154,-0.637448794300163,0.0397471410675186,0.0230745581831169
54,0.0403558319825543,0.0227031471849306,0.724053335976721,-0.642153202169573,0.724053335976967,-0.642153202170624,0.040096306250696,0.0229342517844534
54.5,0.0407049555999315,0.0225518701184988,0.719727005928562,-0.646828554316536,0.719727005928526,-0.64682855431746,0.0404420314499671,0.0227890532425267
55,0.0410505543150755,0.0223956906988245,0.71537114687357,-0.651474660208213,0.715371146873258,-0.651474660209002,0.0407842658409814,0.0226390449067007
55.5,0.0413925777725829,0.0222346912402729,0.710985957205124,-0.656091331441121,0.710985957204543,-0.656091331441768,0.0411229605728319,0.0224843087058145
56,0.0417309775637374,0.0220689536112562,0.706571636694843,-0.660678381731229,0.706571636694,-0.660678381731727,0.0414580687192663,0.0223249261014238
56.5,0.0420657071772662,0.0218985591879804,0.70212838643212,-0.665235626904217,0.702128386431021,-0.66523562690456,0.0417895452293029,0.0221609780428759
57,0.0423967219494779,0.021723588809978,0.697656408765809,-0.669762884884807,0.697656408764463,-0.669762884884988,0.0421173468772997,0.0219925449241637
57.5,0.0427239790138292,0.0215441227374071,0.693155907247983,-0.67425997568522,0.693155907246396,-0.674259975685236,0.0424414322125269,0.0218197065425324
58,0.0430474372499556,0.0213602406100605,0.688627086579676,-0.678726721392836,0.688627086577857,-0.67872672139268,0.04276176150828,0.0216425420587861
58.5,0.043367057232214,0.0211720214080568,0.684070152558535,-0.683162946157091,0.684070152556494,-0.683162946156758,0.0430782967105739,0.021461129959257
59,0.0436828011777621,0.0209795434141638,0.679485312028313,-0.687568476175677,0.679485312026056,-0.687568476175163,0.0433910013864533,0.0212755480193892
59.5,0.0439946328942178,0.0207828841777217,0.674872772830122,-0.691943139680084,0.674872772827658,-0.691943139679385,0.0436998406719523,0.0210858732688979
60,0.0443025177269148,0.0205821204801191,0.670232743755399,-0.696286766920534,0.670232743752737,-0.696286766919647,0.0440047812197243,0.0208921819584533
60.5,0.0446064225057823,0.0203773283017714,0.665565434500511,-0.70059919015034,0.66556543449766,-0.700599190149261,0.0443057911463731,0.0206945495278456
61,0.0449063154918737,0.0201685827905765,0.660871055622951,-0.704880243609727,0.660871055619921,-0.704880243608453,0.0446028399794989,0.0204930505755858
61.5,0.0452021663235474,0.0199559582317866,0.656149818499061,-0.709129763509161,0.65614981849586,-0.709129763507691,0.0448958986044756,0.0202877588298949
62,0.0454939459623278,0.0197395280192655,0.65140193528324,-0.713347588012202,0.651401935279878,-0.713347588010534,0.0451849392109785,0.0200787471210373
62.5,0.0457816266384413,0.0195193646280802,0.64662761886859,-0.717533557217929,0.646627618865076,-0.717533557216061,0.0454699352392581,0.0198660873549448
63,0.0460651817960371,0.0192955395883872,0.641827082848944,-0.721687513142946,0.641827082845289,-0.721687513140878,0.0457508613261755,0.0196498504880962
63.5,0.0463445860380954,0.0190681234605699,0.637000541482249,-0.725809299703013,0.637000541478462,-0.725809299700744,0.046027693250993,0.019430106503595
64,0.0466198150710114,0.0188371858115843,0.632148209655247,-0.729898762694315,0.632148209651338,-0.729898762691846,0.0463004078809195,0.0192069243884063
