"Freq [GHz]","re(St(P1,P1)) []","im(St(P1,P1)) []","re(St(P1,P2)) []","im(St(P1,P2)) []","re(St(P2,P1)) []","im(St(P2,P1)) []","re(St(P2,P2)) []","im(St(P2,P2)) []"
0,0.00546555436773133,0,0.994548467584536,0,0.994548511545872,0,0.00546559256133605,0
0.5,0.00590894643162798,0.00146609698100164,0.99393767948909,-0.00987111011098563,0.993937679870626,-0.00987111099156124,0.00590906162494775,0.00146574677581057
1,0.00623140259465238,0.00240249238300549,0.993156685646042,-0.019155607466292,0.993156685725625,-0.0191556075056525,0.00623169997378348,0.00240161178938436
1.5,0.00636353113799792,0.00324464950427128,0.992290456238317,-0.0282392115553538,0.992290456290468,-0.0282392116013241,0.00636393467104313,0.00324313627246653
2,0.0063507332598336,0.00410357488337709,0.991341059623881,-0.0371924143125231,0.991341059656062,-0.0371924143517681,0.00635117238695404,0.00410140674318882
2.5,0.00625751740002523,0.00501866536220241,0.990278501507711,-0.0460420213471568,0.990278501528045,-0.0460420213774562,0.00625794578609851,0.00501584335837713
3,0.00612171232067982,0.00599735123024114,0.989097402755036,-0.0547837948667977,0.989097402767925,-0.0547837948900858,0.00612209771389116,0.00599388069316298
3.5,0.00596718478109159,0.00703962303173711,0.987807172858485,-0.0634115971300231,0.987807172865376,-0.0634115971489075,0.00596750176532734,0.00703550934779518
4,0.00581109774581434,0.00814304097185747,0.986422658671232,-0.0719236914187311,0.986422658671888,-0.0719236914352219,0.00581132416258201,0.00813828910357017
4.5,0.00566686632371283,0.00930374508723109,0.984959196089954,-0.0803229228671514,0.98495919608346,-0.0803229228823437,0.00566698161583834,0.00929835987675709
5,0.0055453138385762,0.0105167717859036,0.983430308905998,-0.0886154849964909,0.983430308891445,-0.088615485010668,0.00554529831307693,0.0105107583233677
5.5,0.00545515423340881,0.0117763094044046,0.98184682877873,-0.096809554262161,0.981846828755625,-0.0968095542750378,0.00545498876404976,0.01176967330625
6,0.00540324547210838,0.0130759737796167,0.980216769044212,-0.104914151450878,0.980216769012693,-0.104914151461904,0.00540291141195395,0.013068721362778
6.5,0.00539478087141371,0.0144090826886272,0.978545578589295,-0.112938307303422,0.978545578550198,-0.112938307312068,0.00539426006173693,0.0144012210591291
7,0.00543347392025974,0.0157689017404516,0.976836558923806,-0.120890511812282,0.976836558878643,-0.120890511818267,0.00543274873829982,0.0157604388194001
7.5,0.00552174827488246,0.017148845571584,0.975091320008308,-0.12877839337057,0.975091319959176,-0.128778393374049,0.00552080169149165,0.0171397900785575
8,0.00566092896650181,0.0185426292695512,0.973310208033405,-0.136608568097244,0.973310207982876,-0.136608568098921,0.0056597445998469,0.0185329906789735
8.5,0.00585142707337467,0.0199443724393675,0.971492674272823,-0.144386605901425,0.971492674223827,-0.144386605902631,0.00584998923289148,0.0199341609212875
9,0.00609291100569126,0.0213486623935841,0.969637575567397,-0.152117070491372,0.969637575523095,-0.152117070494093,0.00609120472475193,0.021337888746797
9.5,0.00638445989673905,0.0227505845111424,0.967743408791778,-0.159803601604279,0.967743408755468,-0.159803601611182,0.00638247095457156,0.0227392600939322
10,0.00672469698112518,0.02414572779738,0.965808487296323,-0.167449017388115,0.96580848727134,-0.167449017402517,0.00672241191541431,0.0241338644591913
10.5,0.00718582801652196,0.0255257004972496,0.963833524561532,-0.17504867590803,0.963833524536874,-0.175048675918963,0.00718301691302201,0.0255134093885752
11,0.00767326656289097,0.0268850365678825,0.96182616927081,-0.182609614159417,0.961826169246855,-0.182609614167148,0.00766996702412281,0.0268723285277801
11.5,0.00818605137587028,0.0282245515121957,0.959785500017933,-0.190134987645085,0.959785499994997,-0.190134987649894,0.00818229376841656,0.028211434571741
12,0.00872334960040072,0.02954487747893,0.957710439068994,-0.197627457406528,0.95771043904734,-0.197627457408711,0.00871915839787324,0.0295313576759129
12.5,0.00928442570412788,0.0308464984542005,0.955599821517288,-0.205089241564768,0.955599821497129,-0.205089241564618,0.00927982054623935,0.0308325804169887
13,0.00986861842935222,0.0321297782178913,0.953452447973902,-0.212522166367931,0.953452447955405,-0.212522166365744,0.00986361496342461,0.032115465587867
13.5,0.0104753235186226,0.0333949827081104,0.951267123799353,-0.219927714846645,0.951267123782644,-0.21992771484271,0.0104699340731362,0.0333802784479293
14,0.0111039806496751,0.0346422980341454,0.949042687524833,-0.227307071953082,0.949042687510004,-0.227307071947678,0.0110982147772317,0.0346272046543961
14.5,0.0117540634750007,0.0358718450796518,0.946778030726369,-0.234661165611678,0.946778030713476,-0.234661165605071,0.0117479283930123,0.035856364806631
15,0.012425071975996,0.0370836914154817,0.944472111241069,-0.241990703489268,0.944472111230144,-0.241990703481715,0.0124185729267389,0.0370678263161288
15.5,0.0131165265600606,0.0382778610752996,0.942123961273508,-0.249296205542602,0.942123961264556,-0.249296205534343,0.0131096671067201,0.0382616131506941
16,0.0138279634824203,0.0394543426219935,0.939732691641335,-0.256578032557074,0.93973269163434,-0.256578032548334,0.0138207457539994,0.0394377138776236
16.5,0.0145589312835249,0.0406130958383204,0.937297493155004,-0.263836410979219,0.93729749314993,-0.263836410970208,0.014551356178657,0.0405960883370888
17,0.0153089880112473,0.0417540573031232,0.934817635914784,-0.271071454388125,0.934817635911581,-0.271071454379037,0.0153010553687816,0.0417366732054139
17.5,0.0160776990540201,0.0428771450592527,0.932292467134912,-0.278283181962525,0.932292467133516,-0.278283181953537,0.0160694077965901,0.0428593866532829
18,0.0168646354527479,0.0439822625368085,0.929721407964739,-0.285471534292261,0.929721407965076,-0.285471534283535,0.0168559837082668,0.0439641322616211
18.5,0.0176693725902514,0.0450693018622992,0.927103949664918,-0.292636386862773,0.927103949666901,-0.292636386854455,0.017660357795259,0.0450508023251754
19,0.0184914891799839,0.0461381466585717,0.924439649408192,-0.299777561514855,0.924439649411732,-0.299777561507076,0.0184821081680287,0.0461192806481783
19.5,0.0193305664931631,0.0471886744201997,0.921728125904999,-0.306894836152565,0.921728125909996,-0.30689483614544,0.0193208155707524,0.0471694449164639
20,0.020186187776571,0.0482207585330428,0.918969055000064,-0.313987952942457,0.918969055006417,-0.313987952936089,0.0201760627887799,0.0482011687145287
20.5,0.0210579378233603,0.0492342699941077,0.916162165344498,-0.321056625218608,0.916162165352102,-0.321056625213084,0.0210474342107758,0.0492143232434432
21,0.021945402666933,0.0502290788777109,0.913307234215942,-0.328100543281056,0.913307234224689,-0.328100543276451,0.0219345155153194,0.0502087787855159
21.5,0.0228481693739552,0.0512050555859063,0.910404083535017,-0.335119379250799,0.910404083544802,-0.335119379247174,0.0228368934577834,0.0511844059535482
22,0.0237658259172723,0.0521620719146267,0.907452576108094,-0.342112791122469,0.90745257611881,-0.342112791119875,0.0237541557380406,0.0521410767560613
22.5,0.0246979611131408,0.0531000019617209,0.904452612112729,-0.349080426136307,0.904452612124269,-0.349080426134783,0.0246858909332744,0.053078665504614
23,0.0256441646101203,0.0540187228988105,0.901404125832147,-0.356021923573833,0.901404125844407,-0.356021923573408,0.0256316884830959,0.0539970495850888
23.5,0.0266040269192747,0.0549181156253795,0.89830708263792,-0.362936917066693,0.898307082650799,-0.362936917067386,0.0265911387165043,0.0548961101113301
24,0.0275771394771728,0.0557980653206711,0.895161476214849,-0.369825036495083,0.895161476228249,-0.369825036496904,0.0275638329121079,0.0557757324766717
24.5,0.0285630947346812,0.0566584619065786,0.891967326018608,-0.376685909540969,0.891967326032435,-0.376685909543919,0.0285493633845096,0.0566358068165413
25,0.0295614862657252,0.057499200432826,0.888724674954388,-0.383519162951568,0.888724674968552,-0.383519162955641,0.0295473235909872,0.0574762283933913
25.5,0.0305719088911975,0.0583201813940423,0.885433587263442,-0.390324423560327,0.885433587277857,-0.39032442356551,0.0305573082535878,0.0582968979135757
26,0.031593958813971,0.0591213109870546,0.882094146603711,-0.397101319105428,0.882094146618296,-0.397101319111701,0.0315789134925589,0.0590977217844754
26.5,0.0326272337616563,0.0599025013155703,0.878706454310534,-0.40384947887979,0.878706454325213,-0.403849478887129,0.0326117369677195,0.0598786123190372
27,0.0336713331342663,0.0606636705484596,0.875270627823563,-0.410568534241339,0.875270627838267,-0.410568534249713,0.0336553780249001,0.0606394878939305
27.5,0.0347258581544252,0.0614047430370865,0.871786799266439,-0.417258119007835,0.871786799281101,-0.417258119017208,0.0347094378450729,0.061380273066774
28,0.035790412018121,0.0621256493964334,0.868255114166296,-0.423917869756792,0.868255114180859,-0.423917869767128,0.0357735195941485,0.062100898657163
28.5,0.0368646000443373,0.0628263265542032,0.864675730300912,-0.430547426047791,0.864675730315318,-0.430547426059047,0.0368472285717488,0.0628013017956863
29,0.0379480298221512,0.0635067177716055,0.861048816661953,-0.437146430581704,0.861048816676155,-0.437146430593835,0.0379301723575471,0.0634814259446351
29.5,0.0390403113541317,0.0641667726390761,0.85737455252363,-0.44371452930908,0.857374552537584,-0.44371452932204,0.0390219609539739,0.0641412208936553
30,0.0401410571950548,0.0648064470498814,0.853653126606774,-0.450251371497893,0.853653126620441,-0.450251371511633,0.040122206924313,0.0647806427332868
30.5,0.041249882585121,0.0654257031541862,0.84988473632913,-0.456756609769184,0.849884736342479,-0.456756609783656,0.0412305255253597,0.0653996538089755
31,0.0423664055770178,0.0660245092959429,0.84606958713341,-0.463229900107731,0.846069587146413,-0.463229900122883,0.0423465348339679,0.0659982226579089
31.5,0.0434902471562764,0.0666028399346927,0.842207891885315,-0.469670901853614,0.84220789189795,-0.469670901869395,0.043469855866942,0.066576323930771
32,0.0446210313544915,0.0671606755541877,0.838299870334428,-0.476079277679546,0.838299870346676,-0.476079277695905,0.0446001126938254,0.0671339383003227
32.5,0.0457583853550698,0.0676980025595512,0.834345748631501,-0.482454693557982,0.83434574864335,-0.482454693574869,0.0457369325422538,0.0676710523585229
33,0.0469019395912425,0.068214813164536,0.83034575889623,-0.488796818721239,0.830345758907671,-0.488796818738603,0.0468799458956031,0.0681876585037585
33.5,0.0480513278361671,0.0687111052703151,0.826300138830167,-0.495105325617291,0.826300138841196,-0.495105325635083,0.0480287865827524,0.0686837548195993
34,0.0492061872849939,0.0691868823370816,0.822209131369916,-0.50137988986334,0.822209131380533,-0.501379889881514,0.0491830918598326,0.0691593449463837
34.5,0.0503661586288339,0.0696421532496664,0.81807298437622,-0.507620190198871,0.818072984386429,-0.507620190217378,0.0503425024839012,0.0696144379468124
35,0.0515308861206146,0.0700769321782456,0.813891950354983,-0.513825908439457,0.81389195036479,-0.513825908458253,0.0515066627785228,0.0700490481666438
35.5,0.0527000176328578,0.0704912384351422,0.809666286206638,-0.519996729432382,0.809666286216053,-0.519996729451424,0.0526752206912875,0.0704631950914886
36,0.0538732047074397,0.0708850963286285,0.805396253000666,-0.526132341014787,0.805396253009705,-0.526132341034035,0.0538478278433289,0.0708569032006092
36.5,0.0550501025974461,0.0712585350145882,0.801082115772355,-0.532232433974897,0.801082115781034,-0.532232433994311,0.0550241395709517,0.0712302018185801
37,0.0562303703012508,0.0716115883467824,0.796724143339221,-0.538296702016707,0.796724143347558,-0.53829670203625,0.0562038149594919,0.0715831249655665
37.5,0.0574136705889777,0.071944294726467,0.792322608134751,-0.544324841728325,0.792322608142767,-0.544324841747965,0.0573865168695806,0.0719157112069473
38,0.0585996700215335,0.0722566969519827,0.787877786057404,-0.550316552554118,0.787877786065124,-0.550316552573823,0.0585719119559825,0.072228003502926
38.5,0.0597880389624144,0.0725488420689427,0.783389956333013,-0.556271536770633,0.783389956340462,-0.556271536790374,0.0597596706792238,0.0725200490587401
39,0.0609784515825096,0.072820781221565,0.77885940138892,-0.562189499466273,0.778859401396125,-0.562189499486023,0.060949467310227,0.0727918991760167
39.5,0.0621705858581423,0.0730725695056498,0.77428640673838,-0.568070148524585,0.774286406745369,-0.568070148544323,0.0621409799281903,0.0730436091057841
40,0.0633641235625985,0.0733042658236831,0.769671260873926,-0.573913194611015,0.76967126088073,-0.573913194630718,0.0633338904119686,0.0732752379036109
40.5,0.0645587502514111,0.0735159327424811,0.765014255168536,-0.579718351162916,0.765014255175184,-0.579718351182567,0.0645278844252163,0.0734868482872896
41,0.0657541552416743,0.0737076363537756,0.76031568378356,-0.58548533438261,0.760315683790084,-0.585485334402192,0.065722651395571,0.0736785064974684
41.5,0.0669500315856689,0.0738794461380898,0.755575843582523,-0.59121386323325,0.755575843588955,-0.591213863252753,0.0669178844881557,0.073850282161571
42,0.0681460760390916,0.0740314348322297,0.750795034049986,-0.596903659437249,0.750795034056358,-0.59690365945666,0.0681132805736958,0.074002248161349
42.5,0.0693419890241855,0.0741636783006917,0.745973557214765,-0.602554447477009,0.745973557221108,-0.602554447496323,0.0693085401915435,0.0741344805043358
43,0.0705374745880719,0.0742762554112404,0.741111717576908,-0.608165954597716,0.741111717583256,-0.608165954616928,0.0705033675079146,0.074247058199492
43.5,0.0717322403565837,0.0743692479149027,0.736209822037869,-0.61373791081194,0.736209822044254,-0.613737910831048,0.0716974702696344,0.0743400631372577
44,0.0729259974839198,0.0744427403305886,0.731268179833429,-0.619270048905795,0.731268179839881,-0.619270048924799,0.072890559753711,0.0744135799742401
44.5,0.0741184605984115,0.0744968198345247,0.726287102468944,-0.624762104446431,0.726287102475495,-0.624762104465333,0.0740823507130348,0.0744676960227154
45,0.0753093477447301,0.0745315761546688,0.721266903656583,-0.630213815790627,0.721266903663262,-0.630213815809432,0.0752725613185178,0.0745025011451144
45.5,0.0764983803228249,0.0745471014702479,0.716207899254235,-0.635624924094267,0.716207899261074,-0.635624924112982,0.0764609130979846,0.0745180876536305
46,0.0776852830239191,0.0745434903165426,0.711110407205852,-0.640995173322496,0.711110407212876,-0.640995173341131,0.0776471308721172,0.0745145502150809
46.5,0.0788697837638555,0.0745208394950208,0.705974747482974,-0.646324310260367,0.705974747490213,-0.646324310278931,0.0788309426877671,0.0744919857611143
47,0.0800516136141112,0.0744792479889108,0.700801242027294,-0.651612084523785,0.700801242034773,-0.651612084542291,0.0800120797489359,0.0744504934038585
47.5,0.0812305067307691,0.0744188168842669,0.695590214694061,-0.656858248570596,0.695590214701805,-0.65685824858906,0.0811902763457366,0.0743901743570715
48,0.0824062002817632,0.0743396492966092,0.690341991196234,-0.662062557711658,0.690341991204266,-0.662062557730096,0.0823652697816114,0.074311131862841
48.5,0.0835784343726799,0.074241850303125,0.685056899049255,-0.66722477012174,0.685056899057596,-0.66722477014017,0.0835368002991416,0.0742134711238818
49,0.084746951971417,0.0741255268804985,0.679735267516369,-0.672344646850139,0.67973526752504,-0.672344646868579,0.0847046110047031,0.0740972992414293
49.5,0.0859114988319863,0.0739907878483459,0.67437742755442,-0.677421951830868,0.674377427563439,-0.677421951849339,0.0858684477922855,0.0739627251587553
50,0.0870718234177454,0.0738377438182509,0.66898371176008,-0.682456451892334,0.668983711769464,-0.682456451910857,0.08702805926674,0.073809859610278
50.5,0.0882276768243382,0.0736665071483927,0.663554454316465,-0.68744791676638,0.663554454326228,-0.687447916784978,0.0881831966667492,0.0736388150762579
51,0.0893788127026186,0.073477191903709,0.658089990940115,-0.692396119096622,0.658089990950271,-0.692396119115318,0.0893336137877879,0.0734497057430381
51.5,0.0905249871818291,0.0732699138215719,0.652590658828335,-0.697300834445996,0.652590658838895,-0.697300834464814,0.0904790669053428,0.073242647468782
52,0.0916659587932959,0.0730447902828975,0.64705679660687,-0.702161841303443,0.647056796617844,-0.702161841322408,0.0916193146986613,0.0730177577546525
52.5,0.0928014883949042,0.0728019402886354,0.64148874427794,-0.706978921089676,0.641488744289334,-0.706978921108813,0.092754118175283,0.0727751557213613
53,0.0939313390966019,0.0725414844415526,0.63588684316862,-0.711751858161972,0.63588684318044,-0.711751858181307,0.0938832405966101,0.0725149620910094
53.5,0.0950552761871814,0.0722635449332165,0.630251435879592,-0.716480439817949,0.630251435891841,-0.716480439837507,0.0950064474047639,0.0722372991741292
54,0.0961730670625832,0.0719682455360918,0.62458286623429,-0.721164456298288,0.62458286624697,-0.721164456318094,0.0961235061509669,0.0719422908618259
54.5,0.0972844811559507,0.0716557116006268,0.618881479228439,-0.725803700788366,0.61888147924155,-0.725803700808447,0.097234186425686,0.0716300626229114
55,0.0983892898696733,0.071326070057224,0.613147620980042,-0.730397969418784,0.613147620993581,-0.730397969439165,0.0983382597907669,0.071300741505914
55.5,0.099487266509631,0.0709794494229605,0.607381638679808,-0.734947061264762,0.607381638693771,-0.734947061285469,0.099435499713782,0.0709544561458317
56,0.100578186221865,0.0706159798129276,0.60158388054208,-0.739450778344395,0.60158388055646,-0.739450778365452,0.100525681504806,0.070591336775501
56.5,0.101661825931879,0.0702357929560463,0.595754695756266,-0.743908925615749,0.595754695771055,-0.743908925637181,0.101608582255828,0.0702115152414333
57,0.10273796428677,0.0698390222152066,0.58989443443883,-0.74832131097282,0.589894434454017,-0.748321310994651,0.102683980783004,0.0698151250239686
57.5,0.103806381600402,0.0694258026115782,0.584003447585843,-0.752687745240318,0.584003447601418,-0.752687745262571,0.103751657571948,0.0694023012615925
58,0.104866859801782,0.068996270852917,0.578082087026158,-0.757008042167318,0.578082087042106,-0.757008042190016,0.104811394726243,0.0689731807792451
58.5,0.105919182386847,0.0685505653657073,0.572130705375208,-0.761282018419757,0.572130705391514,-0.76128201844292,0.105862975919357,0.0685279021204526
59,0.106963134373825,0.0680888263309536,0.566149655989483,-0.765509493571805,0.566149656006129,-0.765509493595453,0.106906186350139,0.0680666055831043
59.5,0.107998502262331,0.0676111957234384,0.560139292921704,-0.769690290096117,0.560139292938672,-0.76969029012027,0.107940812702065,0.0675894332586828
60,0.109025073996373,0.0671178173542525,0.554099970876722,-0.773824233352986,0.554099970893992,-0.773824233377661,0.108966643106378,0.067096529074764
60.5,0.110042638931401,0.0666088369164048,0.548032045168183,-0.777911151578409,0.548032045185733,-0.777911151603624,0.109983467109293,0.066588038840579
61,0.11105098780556,0.0660844020333012,0.541935871675964,-0.781950875871097,0.54193587169377,-0.781950875896866,0.1109910756434,0.0660641102954462
61.5,0.112049912715272,0.0655446623098904,0.535811806804438,-0.785943240178444,0.535811806822476,-0.785943240204781,0.111989261003394,0.0655248931598463
62,0.113039207095279,0.0649897693862529,0.529660207441567,-0.789888081281482,0.529660207459812,-0.789888081308399,0.112977816826278,0.0649705391889452
62.5,0.114018665703264,0.0644198769934211,0.523481430918862,-0.793785238778854,0.523481430937285,-0.793785238806361,0.113956538076138,0.064401202228326
63,0.11498808460916,0.0638351410111986,0.517275834972224,-0.797634555069819,0.517275834990798,-0.797634555097925,0.114925221033612,0.0638170382717157
63.5,0.115947261189261,0.0632357195277516,0.511043777703707,-0.801435875336336,0.511043777722401,-0.801435875365048,0.115883663290153,0.0632182055204716
64,0.116895994125201,0.0626217729007366,0.504785617544197,-0.80518904752424,0.504785617562982,-0.805189047553563,0.11683166374717,0.0626048644445927
