"Freq [GHz]","re(St(P1,P1)) []","im(St(P1,P1)) []","re(St(P1,P2)) []","im(St(P1,P2)) []","re(St(P2,P1)) []","im(St(P2,P1)) []","re(St(P2,P2)) []","im(St(P2,P2)) []"
0,0.00603849366893883,0,0.993972328942618,0,0.993972328855307,0,0.00603848817485186,0
0.5,0.00659371921390317,0.000857227977078878,0.993294730227678,-0.00947690231875953,0.993294730249456,-0.00947690232171183,0.00659383827813542,0.000856935154775584
1,0.00702961891276033,0.001061685339522,0.99253384667697,-0.0182663739238542,0.992533846673274,-0.0182663739316666,0.00702989532205223,0.00106092342776876
1.5,0.00725764708671939,0.00114178409144294,0.991776591684926,-0.0268696056561648,0.991776591296375,-0.0268696060950706,0.00725804256664819,0.00114047796921035
2,0.00733766607032837,0.00121757418387247,0.990994726559252,-0.0353801946112515,0.990994725961555,-0.0353801949455281,0.0073381202964109,0.00121566487794489
2.5,0.0073386511576623,0.00132650813065816,0.990138096401504,-0.0438285508152827,0.990138095905846,-0.0438285509477723,0.00733911173294777,0.00132396147495228
3,0.00729581735387841,0.00147257256493738,0.989189113866371,-0.0522104799965035,0.98918911367347,-0.0522104800126542,0.00729623645102162,0.00146935952952987
3.5,0.00722785926564451,0.00165418191354139,0.988147790137242,-0.0605187392346052,0.988147790335919,-0.0605187392661053,0.00722818761966826,0.00165027471925061
4,0.0071462951565826,0.00186931645567778,0.987021220721803,-0.0687493380945181,0.987021221320543,-0.0687493382639213,0.0071464792134488,0.00186468949165519
4.5,0.00705939706196057,0.00211611911105702,0.985818488891287,-0.076901909421089,0.985818489846518,-0.0769019098204273,0.00705937847567906,0.00211075080095746
5,0.00697381203552638,0.00239270976344486,0.984548325889788,-0.0849788324537837,0.984548327127313,-0.0849788331378329,0.00697352854890931,0.00238658417559989
5.5,0.00689522086165711,0.00269695655805879,0.983218119358764,-0.0929842329566961,0.983218120789302,-0.0929842339431231,0.00689460791224389,0.00269006436528763
6,0.00682858040558848,0.00302633131733909,0.981833604162345,-0.100923139995172,0.981833605692384,-0.10092314126792,0.00682757298825726,0.00301867000623712
6.5,0.00677818210477033,0.00337785355149745,0.980398899419676,-0.108800854629531,0.980398900958664,-0.108800856143549,0.00677671653844641,0.0033694269304787
7,0.00674763376770532,0.00374810621998778,0.97891670873293,-0.116622517003106,0.978916710197696,-0.116622518689331,0.00674564910869324,0.00373892337177528
7.5,0.00673981841627268,0.00413330499375375,0.977388580670765,-0.124392836463075,0.977388581987924,-0.124392838233066,0.00673725735685038,0.00412337887873715
8,0.00675685881503876,0.00452940430131976,0.97581517280867,-0.132115945273129,0.975815173915635,-0.132115947023082,0.0067536680044752,0.00451875024318982
8.5,0.00680010289742809,0.00493222497472523,0.974196490578877,-0.139795340001321,0.974196491423964,-0.139795341615365,0.00679623271512638,0.0049208592493204
9,0.00687013699579182,0.00533758980829102,0.972532088985519,-0.147433881134538,0.972532089527507,-0.147433882487345,0.00686554088193599,0.0053255285152165
9.5,0.00696682807805325,0.00574145513593205,0.970821234893441,-0.155033828457258,0.970821235100837,-0.155033829416037,0.00696146157689535,0.00572871347010206
10,0.00708939215998423,0.00614002878161424,0.96906303267952,-0.162596896032396,0.969063032529712,-0.162596896458383,0.00708321185064836,0.00612662075065495
10.5,0.00728078070020192,0.00652505349179044,0.967274086140984,-0.170111232617377,0.96727408588716,-0.170111233038462,0.0072732217700576,0.00651130051462356
11,0.00748048198913501,0.00689848972426743,0.96544704909779,-0.177592682521328,0.965447048748304,-0.177592682920392,0.00747160345966413,0.00688438830099747
11.5,0.00768816584511189,0.00726083895987362,0.963581352754298,-0.185043375345703,0.963581352319332,-0.185043375708629,0.0076780094103038,0.00724638591252802
12,0.00790351653087848,0.00761249665309549,0.961676344960951,-0.192465092573581,0.96167634445183,-0.192465092889153,0.00789210992668354,0.00759768949477513
12.5,0.0081262286882727,0.00795377556919874,0.959731333869834,-0.199859310501488,0.959731333298461,-0.199859310761215,0.00811358828661279,0.00793861276159724
13,0.00835600449483948,0.00828492376116463,0.957745619739863,-0.207227240698654,0.957745619118257,-0.207227240896521,0.00834213732620739,0.00826940489799011
13.5,0.00859255168505585,0.00860613855793124,0.955718517404271,-0.214569867038796,0.955718516744213,-0.214569867170999,0.0085774570348825,0.00859026449842748
14,0.00883558219060668,0.0089175775469954,0.953649371513827,-0.221887978873337,0.953649370826583,-0.221887978937997,0.00881925287410973,0.00890135051536411
14.5,0.00908481122822932,0.00921936726546235,0.951537566289353,-0.229182200263987,0.951537565585483,-0.229182200260872,0.00906723462021169,0.00920279092653242
15,0.00933995671359406,0.00951161012494817,0.949382531177292,-0.236453015412943,0.94938253046651,-0.236453015343193,0.00932111558966037,0.00949468964295086
15.5,0.0096007389138883,0.00979438996141502,0.947183743509898,-0.243700790558129,0.947183742800995,-0.243700790424014,0.0095806121452181,0.00977713204637709
16,0.00986688027550325,0.0100677765042125,0.944940729027832,-0.250925792667063,0.944940728328633,-0.250925792471749,0.00984544340892995,0.0100501894489791
16.5,0.0101381053800004,0.0103318289881227,0.942653060923692,-0.258128205287048,0.942653060241046,-0.258128205034392,0.0101153311275069,0.0103139226980029
17,0.0104141409934501,0.0105865990802732,0.940320357905198,-0.265308141906672,0.940320357244994,-0.265308141601039,0.0103899996495609,0.0105683850966212
17.5,0.0106947161828822,0.0108321332550665,0.937942281650143,-0.272465657164813,0.937942281017345,-0.272465656810922,0.0106691759842001,0.0108136247736588
18,0.0109795624799222,0.0110684747212952,0.935518533926408,-0.279600756215498,0.935518533325105,-0.279600755818285,0.010952589917871,0.0110496866060859
18.5,0.0112684140763507,0.01129566498357,0.933048853573844,-0.286713402525283,0.933048853007305,-0.286713402089782,0.011239974171768,0.0112766137762028
19,0.0115610080398333,0.0115137451033536,0.930533013486407,-0.293803524347153,0.930533012957144,-0.293803523878406,0.0115310645862022,0.0114944490286728
19.5,0.0118570845407377,0.0117227567119456,0.927970817688698,-0.300871020083417,0.927970817198535,-0.30087101958639,0.0118256003214068,0.0117032356797018
20,0.0121563870829655,0.0119227428176589,0.925362098568006,-0.307915762720696,0.925362098118146,-0.307915762200216,0.0121233240666098,0.0119030184205335
20.5,0.0124586627333234,0.0121137484415577,0.922706714298504,-0.314937603493446,0.922706713889593,-0.314937602954154,0.0124239822510177,0.0120938439496232
21,0.0127636623451657,0.01229582110991,0.920004546476514,-0.321936374908792,0.920004546108707,-0.321936374355102,0.0127273252517837,0.0122757614616231
21.5,0.0130711407730444,0.0124690112265589,0.917255497973085,-0.328911893244618,0.917255497646111,-0.328911892680687,0.0130331075951343,0.0124488230164044
22,0.0133808570758363,0.0126333723444816,0.914459491001302,-0.335863960614857,0.914459490714517,-0.335863960044565,0.0133410881477321,0.0126130838073617
22.5,0.0136925747064795,0.0127889613526251,0.911616465389818,-0.3427923666804,0.911616465142263,-0.342792366107341,0.0136510302960478,0.012768602345121
23,0.0140060616869253,0.0129358385915146,0.908726377050339,-0.349696890070842,0.908726376840791,-0.349696889498316,0.0139627021121003,0.0129154405701502
23.5,0.0143210907673474,0.013074067909064,0.905789196624588,-0.356577299571027,0.905789196451606,-0.356577299002036,0.0142758765043793,0.0130536639057115
24,0.0146374395689654,0.0132037166662575,0.902804908295204,-0.363433355116915,0.902804908157167,-0.36343335455417,0.0145903313531565,0.0131833412608364
24.5,0.0149548907101316,0.0133248557009511,0.899773508744799,-0.370264808637345,0.899773508639952,-0.370264808083269,0.0149058496296837,0.0133045449915854
25,0.0152732319155553,0.0134375592568918,0.896695006247719,-0.377071404771589,0.896695006174199,-0.377071404228328,0.0152222194990628,0.0134173508276889
25.5,0.0155922561087285,0.0135419048839875,0.893569419879707,-0.383852881487114,0.893569419835579,-0.383852880956547,0.0155392344067509,0.0135218377706197
26,0.0159117614877731,0.0136379733151024,0.890396778831625,-0.390608970617302,0.89039677881491,-0.390608970101054,0.0158566931488616,0.0136180879683727
26.5,0.016231551585051,0.0137258483238749,0.887177121814421,-0.397339398335155,0.887177121823113,-0.397339397834611,0.0161743999265566,0.0137061865714478
27,0.0165514353110044,0.013805616567494,0.883910496543652,-0.404043885575807,0.883910496575744,-0.404043885092126,0.0164921643849389,0.013786221573983
27.5,0.016871226982751,0.0138773674178281,0.880596959292985,-0.410722148418168,0.880596959346485,-0.410722147952296,0.016809801636952,0.0138582836434256
28,0.017190746338053,0.0139411927838609,0.877236574507219,-0.417373898433852,0.877236574580164,-0.417373897986542,0.017127132272874,0.0139224659416941
28.5,0.0175098185353128,0.0139971869279892,0.873829414466374,-0.423998843009901,0.873829414556847,-0.423998842581723,0.0174439823560388,0.0139788639403939
29,0.0178282741403039,0.0140454462784243,0.870375558993416,-0.430596685650358,0.870375559099553,-0.430596685241716,0.0177601834054756,0.014027575232306
29.5,0.0181459491003642,0.0140860692396069,0.866875095199043,-0.437167126260679,0.866875095319041,-0.437167125871823,0.0180755723661936,0.014068699341076
30,0.0184626847068092,0.0141191560023223,0.863328117257824,-0.443709861418023,0.863328117389952,-0.443709861049069,0.0183899915678432,0.0141023375307663
30.5,0.0187783275463231,0.0141448083549396,0.859734726210712,-0.4502245846298,0.859734726353312,-0.450224584280734,0.0187032886725202,0.0141285926167005
31,0.0190927294421076,0.0141631294970346,0.856095029789608,-0.456710986582202,0.856095029941104,-0.456710986252901,0.0190153166124795,0.0141475687788469
31.5,0.0194057473855462,0.0141742238564283,0.852409142260288,-0.463168755380084,0.852409142419183,-0.463168755070326,0.0193259335185117,0.014159371378768
32,0.0197172434591492,0.0141781969105733,0.848677184280503,-0.46959757677913,0.848677184445388,-0.469597576488603,0.0196350026397561,0.0141641067810564
32.5,0.0200270847515375,0.0141751550130146,0.844899282770549,-0.475997134411028,0.844899282940099,-0.475997134139341,0.0199423922556858,0.0141618821799827
33,0.0203351432651853,0.0141652052255874,0.841075570794014,-0.482367110002122,0.841075570966989,-0.482367109748818,0.0202479755810029,0.0141528054320001
33.5,0.0206412958176509,0.0141484551568526,0.837206187446751,-0.488707183585888,0.837206187621998,-0.488707183350452,0.0205516306641625,0.0141369848946025
34,0.0209454239369858,0.0141250128072008,0.833291277752472,-0.495017033709451,0.833291277928921,-0.495017033491318,0.0208532402802079,0.0141145292719612
34.5,0.0212474137519919,0.0140949864209612,0.829330992563594,-0.501296337634265,0.829330992740258,-0.501296337432828,0.0211526918186002,0.0140855474676569
35,0.0215471558779781,0.0140584843457625,0.825325488466221,-0.507544771531046,0.825325488642193,-0.507544771345663,0.0214498771666777,0.0140501484447569
35.5,0.021844545298627,0.0140156148993335,0.821274927688342,-0.513762010668986,0.821274927862796,-0.513762010498991,0.0217446925893626,0.014008441093409
36,0.0221394812445767,0.0139664862438685,0.817179478010499,-0.519947729599277,0.817179478182684,-0.51994772944398,0.0220370386057108,0.0139605341060719
36.5,0.0224318670692633,0.0139112062680218,0.813039312678313,-0.526101602332922,0.813039312847552,-0.52610160219162,0.0223268198628587,0.0139065358604351
37,0.022721610122575,0.0138498824765564,0.808854610316402,-0.532223302512864,0.808854610482088,-0.532223302384842,0.022613945007904,0.0138465543100459
37.5,0.0230086216228091,0.0137826218876106,0.804625554843298,-0.538312503580416,0.804625555004892,-0.538312503464954,0.0228983265582128,0.0137806968826057
38,0.0232928165274163,0.0137095309375475,0.800352335387091,-0.544368878936003,0.800352335544119,-0.54436887883238,0.0231798807706427,0.0137090703858797
38.5,0.0235741134029731,0.0136307153932671,0.796035146201576,-0.550392102094245,0.796035146353625,-0.550392102001743,0.0234585275101033,0.0136317809211037
39,0.023852434294805,0.0135462802718836,0.791674186582748,-0.556381846833408,0.791674186729463,-0.556381846751315,0.0237341901178899,0.0135489338037806
39.5,0.0241277045966494,0.0134563297676147,0.787269660785542,-0.56233778733926,0.787269660926624,-0.562337787266872,0.0240067952801643,0.0134606334917051
40,0.0243998529207143,0.0133609671857171,0.782821777940747,-0.568259598343403,0.782821778075948,-0.568259598280027,0.0242762728969412,0.0133669835200457
40.5,0.0246688109684838,0.0132602948832994,0.778330751972074,-0.574146955256128,0.778330752101195,-0.574146955201089,0.0245425559519253,0.0132680864433073
41,0.0249345134025684,0.0131544142168027,0.773796801513348,-0.579999534293904,0.773796801636237,-0.579999534246538,0.0248055803834907,0.0131640437839655
41.5,0.0251968977198898,0.0130434254959551,0.769220149825867,-0.585817012601556,0.769220149942414,-0.585817012561219,0.0250652849570946,0.0130549559875658
42,0.0254559041264696,0.0129274279439838,0.764601024715925,-0.591599068369256,0.76460102482606,-0.591599068335324,0.0253216111393842,0.0129409223840719
42.5,0.0257114754140506,0.0128065196638555,0.759939658452569,-0.597345380944437,0.759939658556257,-0.597345380916304,0.0255745029742241,0.012822041155225
43,0.0259635568387775,0.0126807976103271,0.755236287685611,-0.603055630938726,0.755236287782856,-0.60305563091581,0.0258239069608686,0.0126984093077011
43.5,0.026212096002138,0.0125503575675743,0.750491153363979,-0.608729500330038,0.750491153454813,-0.608729500311779,0.0260697719344695,0.0125701226518183
44,0.0264570427343298,0.0124152941321645,0.745704500654438,-0.614366672559954,0.745704500738923,-0.614366672545814,0.0263120489490879,0.0124372757855653
44.5,0.0266983489802294,0.0122757007011443,0.740876578860759,-0.619966832626503,0.740876578938984,-0.619966832615968,0.0265506911633794,0.0122999620837144
45,0.0269359686881006,0.0121316694650097,0.736007641343384,-0.6255296671725,0.736007641415463,-0.625529667165079,0.0267856537290797,0.0121582736917927
45.5,0.0271698577011614,0.0119832914053263,0.731097945439662,-0.631054864569564,0.73109794550573,-0.631054864564791,0.0270168936824196,0.0120123015246609
46,0.0273999736521423,0.0118306562967804,0.726147752384696,-0.636542114997957,0.726147752444908,-0.636542114995393,0.0272443698385821,0.0118621352694918
46.5,0.0276262758609136,0.0116738527134205,0.721157327232865,-0.641991110522393,0.721157327287395,-0.641991110521619,0.0274680426892842,0.011707863392906
47,0.0278487252352787,0.0115129680388905,0.71612693878008,-0.647401545163928,0.716126938829117,-0.647401545164549,0.0276878743035798,0.0115495731520536
47.5,0.0280672841750091,0.011348088480418,0.711056859486811,-0.652773114968105,0.711056859530559,-0.652773114969753,0.0279038282319432,0.0113873506094171
48,0.0282819164791749,0.0111792990863617,0.705947365401933,-0.658105518069459,0.705947365440607,-0.65810551807179,0.0281158694136973,0.0112212806511264
48.5,0.0284925872568295,0.0110066837670993,0.700798736087447,-0.663398454752541,0.700798736121275,-0.663398454755231,0.0283239640878311,0.0110514470085799
49,0.0286992628410943,0.010830325319066,0.695611254544093,-0.668651627509569,0.695611254573312,-0.668651627512318,0.0285280797072523,0.0108779322831641
49.5,0.0289019107066706,0.0106503054517361,0.690385207137911,-0.673864741094856,0.690385207162763,-0.673864741097389,0.0287281848565015,0.010700817973886
50,0.0291004993908116,0.0104667048173686,0.68512088352776,-0.679037502576142,0.685120883548496,-0.679037502578205,0.0289242491729534,0.0105201845077123
50.5,0.0292949984177728,0.010279603043323,0.679818576593846,-0.684169621382933,0.679818576610721,-0.684169621384292,0.0291162432715212,0.0103361112724465
51,0.029485378226756,0.0100890787667746,0.674478582367266,-0.689260809351991,0.674478582380539,-0.689260809352434,0.0293041386728785,0.0101486766519557
51.5,0.02967161010335,0.00989520967164248,0.669101199960594,-0.694310780770085,0.669101199970527,-0.694310780769421,0.0294879077351949,0.00995795806356986
52,0.0298536661144797,0.00969807252758237,0.663686731499532,-0.699319252414118,0.663686731506388,-0.699319252412175,0.0296675235893984,0.00976403199750203
52.5,0.0300315190468543,0.00949774323085845,0.658235482055635,-0.70428594358873,0.658235482059679,-0.704285943585356,0.0298429600779486,0.00956697405810336
53,0.0302051423489114,0.00929429684695354,0.652747759580127,-0.70921057616151,0.652747759581623,-0.70921057615657,0.0300141916971173,0.00936685900681866
53.5,0.0303745100762503,0.00908780765475709,0.647223874838818,-0.714092874595892,0.647223874838029,-0.71409287458927,0.0301811935427675,0.00916376080667264
54,0.0305395968405392,0.0088783491921835,0.64166414134812,-0.718932565981856,0.641664141345307,-0.718932565973454,0.0303439412596097,0.0089577526681503
54.5,0.0307003777618817,0.00866599430307874,0.636068875312189,-0.723729380064523,0.636068875307611,-0.723729380054258,0.0305024109939243,0.00874890709632187
55,0.0308568284246286,0.00845081518527452,0.630438395561174,-0.728483049270736,0.630438395555085,-0.728483049258541,0.0306565793497261,0.00853729593907987
55.5,0.0310089248366074,0.00823288343965795,0.624773023490582,-0.733193308733721,0.624773023483234,-0.733193308719545,0.0308064233483525,0.00832299043634804
56,0.0311566433917598,0.00801227012011924,0.619073083001774,-0.737859896315915,0.619073082993413,-0.73785989629972,0.0309519203914473,0.00810606127013408
56.5,0.0312999608361512,0.0077890457842551,0.613338900443559,-0.742482552630039,0.613338900434427,-0.742482552611804,0.031093048227321,0.00788657861530223
57,0.0314388542373389,0.00756328054470057,0.607570804554922,-0.747061021058506,0.607570804545256,-0.747061021038219,0.0312297849206574,0.00766461219093656
57.5,0.0315733009570655,0.00733504412096941,0.601769126408846,-0.751595047771227,0.601769126398876,-0.751595047748891,0.0313621088255376,0.00744023131217669
58,0.0317032786272561,0.00710440589168171,0.595934199357243,-0.756084381741908,0.595934199347193,-0.756084381717537,0.0314899985617595,0.0072135049424118
58.5,0.0318287651292872,0.0068714349470641,0.590066358976986,-0.760528774762889,0.590066358967075,-0.760528774736508,0.0316134329944163,0.00698450174571041
59,0.0319497385764997,0.00663620014160571,0.584165943017033,-0.764927981458613,0.58416594300747,-0.764927981430259,0.0317323912167061,0.00675329013937925
59.5,0.0320661772999304,0.00639877014676538,0.578233291346622,-0.769281759297773,0.578233291337611,-0.769281759267491,0.0318468525359434,0.00651993834653558
60,0.0321780598372237,0.00615921350360571,0.572268745904557,-0.773589868604219,0.572268745896294,-0.773589868572064,0.031956796462738,0.00628451444858635
60.5,0.0322853649246998,0.00591759867525887,0.566272650649548,-0.777852072566663,0.566272650642221,-0.777852072532699,0.0320622027033105,0.00604708643750557
61,0.0323880714925417,0.00567399409910802,0.560245351511606,-0.782068137247266,0.560245351505396,-0.782068137211564,0.032163051154909,0.00580772226780296
61.5,0.0324861586630708,0.00542846823858162,0.554187196344489,-0.786237831589138,0.554187196339568,-0.786237831551777,0.0322593219042938,0.00556648990807623
62,0.0325796057520728,0.00518108963444702,0.548098534879174,-0.790360927422829,0.548098534875708,-0.790360927383896,0.0323509952292537,0.00532345739204759
62.5,0.0326683922731461,0.00493192695551198,0.541979718678359,-0.794437199471839,0.541979718676504,-0.794437199431426,0.0324380516031195,0.00507869286897444
63,0.0327524979450262,0.00468104904861283,0.535831101091973,-0.798466425357221,0.535831101091875,-0.798466425315425,0.0325204717022316,0.0048322646533327
63.5,0.0328319027018536,0.0044285249877985,0.529653037213679,-0.802448385601296,0.529653037215481,-0.802448385558223,0.0325982364163314,0.0045842412736718
