"Freq [GHz]","re(St(P1,P1)) []","im(St(P1,P1)) []","re(St(P1,P2)) []","im(St(P1,P2)) []","re(St(P2,P1)) []","im(St(P2,P1)) []","re(St(P2,P2)) []","im(St(P2,P2)) []"
0,0.00412237823849182,0,0.995892117221956,0,0.995892104794621,0,0.00412236511095898,0
0.5,0.00462211422615866,-0.000364459016765295,0.995340432838461,-0.00581703828214231,0.995340434063102,-0.00581704186475562,0.00462187621197074,-0.000363912838221125
1,0.00509431481517808,-0.0013710425589224,0.994745903419389,-0.0109874787678415,0.994745902941094,-0.0109874784093833,0.00509366094186703,-0.00136965980620118
1.5,0.00535113276629318,-0.00255839619778442,0.994251064049088,-0.0161838112527697,0.994251063758888,-0.0161838109038115,0.00534980726559908,-0.00255611051174753
2,0.00546300542276512,-0.0037469323591921,0.993761848768182,-0.0212169776655458,0.993761848605743,-0.0212169773844977,0.00546118236707116,-0.00374340358783343
2.5,0.00550395796356895,-0.00491112202552202,0.993310080547179,-0.0261519115846269,0.993310080459844,-0.0261519113810138,0.0055018007338159,-0.00490626206737232
3,0.00550646103744334,-0.00605377396535545,0.992892004710524,-0.0310340701609739,0.992892004665393,-0.0310340700244858,0.00550406643271373,-0.00604757139554479
3.5,0.00548503897638319,-0.00718023428991188,0.992493082017457,-0.0358885381816823,0.992493081996519,-0.0358885380976943,0.00548246058147939,-0.00717269636109208
4,0.00544671781203743,-0.00829464811030078,0.992098537928074,-0.0407273257535472,0.992098537921898,-0.0407273257085823,0.00544398477019925,-0.00828578410852288
4.5,0.00539517568519976,-0.00939986693996708,0.991696297954002,-0.0455553716802903,0.991696297957566,-0.0455553716633013,0.00539230332199514,-0.0093896837494718
5,0.0053324777984769,-0.0104978098754955,0.9912771543495,-0.0503741086512584,0.991277154359845,-0.0503741086535019,0.0053294734199909,-0.0104863111123912
5.5,0.00525985693480191,-0.0115897708424022,0.990834215143338,-0.055183351082567,0.990834215158377,-0.0551833510971456,0.00525672306468561,-0.0115769569963451
6,0.00517809022397575,-0.0126766277206798,0.99036231067153,-0.0599822440422777,0.990362310689461,-0.0599822440638,0.00517482647942469,-0.0126624965295488
6.5,0.00508769271386345,-0.0137589782165559,0.989857523517365,-0.0647697235484177,0.989857523536409,-0.0647697235726383,0.00508429693727841,-0.0137435250441325
7,0.00498902234375431,-0.0148372279682576,0.989316850037568,-0.069544729604468,0.989316850055876,-0.0695447296280953,0.00498549131276338,-0.0148204461260182
7.5,0.00488233959146478,-0.0159116484206763,0.988737964448878,-0.074306295739837,0.988737964464509,-0.0743062957603327,0.00487866948145932,-0.0158935294277285
8,0.00476784276337483,-0.0169824155340006,0.988119055198922,-0.0790535777441219,0.988119055209871,-0.0790535777596082,0.00476402945981902,-0.016962949323891
8.5,0.00464568962052458,-0.0180496361808142,0.98745871029926,-0.0837858533591076,0.987458710303492,-0.0837858533682407,0.00464172893716497,-0.0180288112662375
9,0.00451601104424171,-0.0191133664963914,0.986755835373261,-0.0885025090732086,0.986755835368753,-0.0885025090751075,0.00451189888066661,-0.0190911701017269
9.5,0.00437891990666983,-0.0201736248716911,0.98600959357534,-0.0932030222119433,0.986009593560119,-0.093203022206116,0.00437465236568102,-0.0201500430411672
10,0.00423451696590327,-0.0212304013134181,0.985219360282437,-0.0978869424200122,0.985219360254609,-0.0978869424062871,0.00423009044357414,-0.0212054190009363
10.5,0.00407392250606742,-0.0222867734006096,0.984479286239333,-0.10260251697228,0.984479286212006,-0.102602516957838,0.00406913655190866,-0.0222604747692241
11,0.00390548143902331,-0.0233423959397223,0.983716993511188,-0.107300765901114,0.983716993484402,-0.107300765885984,0.00390031798207657,-0.0233147704508374
11.5,0.00372919155335127,-0.0243972341437484,0.982933321985783,-0.111982198040877,0.982933321959574,-0.111982198025086,0.0037236324850437,-0.0243682705898962
12,0.00354505043848835,-0.025451253350476,0.982129016703952,-0.116647350407463,0.982129016678355,-0.116647350391042,0.00353907762047184,-0.0254209398322853
12.5,0.00335305546999631,-0.0265044190274644,0.981304731897534,-0.121296777111854,0.981304731872579,-0.121296777094838,0.00334665074344298,-0.026472742929692
13,0.00315320379381828,-0.0275566967768208,0.980461035919344,-0.125931039663148,0.980461035895058,-0.125931039645577,0.00314634899027272,-0.0275236447434626
13.5,0.00294549230946797,-0.0286080523397256,0.979598416800952,-0.130550698634994,0.979598416777359,-0.130550698616902,0.00293816926336046,-0.0285736102482339
14,0.00272991765210776,-0.0296584516006844,0.978717288207995,-0.135156306635406,0.978717288185115,-0.135156306616839,0.00272210821503119,-0.0296226045353452
14.5,0.0025064761734413,-0.0307078605914564,0.977817995597566,-0.139748402495446,0.977817995575417,-0.139748402476441,0.00249816223031299,-0.0306705928159481
15,0.00227516392140728,-0.0317562454946145,0.976900822416119,-0.144327506576298,0.976900822394714,-0.144327506556894,0.0022663274086179,-0.0317175404238093
15.5,0.00203597661856772,-0.0328035726466354,0.975965996208021,-0.148894117085178,0.97596599618737,-0.148894117065418,0.0020265995442533,-0.0327634128176948
16,0.00178890963916753,-0.0338498085405496,0.975013694533778,-0.153448707287188,0.975013694513889,-0.153448707267107,0.00177897410572522,-0.0338081755833621
16.5,0.00153395798479249,-0.0348949198279858,0.974044050622437,-0.157991723501118,0.974044050603314,-0.157991723480759,0.00152344621376635,-0.034851794435045
17,0.00127111625855464,-0.035938873320601,0.973057158704671,-0.162523583771546,0.973057158686315,-0.162523583750947,0.00126001061803852,-0.0358942352163636
17.5,0.00100037863775973,-0.0369816359907671,0.97205307899165,-0.167044677115961,0.972053078974061,-0.167044677095161,0.000988661672448599,-0.036935463900623
18,0.000721738844971925,-0.0380231749714652,0.971031842280094,-0.171555363253724,0.971031842263269,-0.171555363232756,0.000709393309015635,-0.0379754465903752
18.5,0.000435190117427819,-0.039063457555244,0.969993454176242,-0.176055972732348,0.969993454160176,-0.176055972711251,0.000422199010229649,-0.0390141495162002
19,0.000140725174719358,-0.0401024511921593,0.96893789894117,-0.180546807375746,0.968937898925855,-0.18054680735455,0.00012707177984167,-0.0400515390345459
19.5,-0.000161663815315849,-0.0411401234865809,0.967865142967257,-0.185028140988031,0.967865142952684,-0.18502814096677,-0.000175995887981673,-0.0410875816246188
20,-0.000471985272550296,-0.0421764421926789,0.966775137901039,-0.189500220255117,0.966775137887198,-0.189500220233824,-0.000487012041194917,-0.0421222438840774
20.5,-0.00079024824246185,-0.0432113752085352,0.965667823431462,-0.193963265794538,0.965667823418342,-0.19396326577324,-0.000805985304169116,-0.0431554925235296
21,-0.00111646243599606,-0.0442448905686232,0.964543129764997,-0.198417473311239,0.964543129752585,-0.198417473289964,-0.00113292491380146,-0.0441872943595971
21.5,-0.00145063827148545,-0.0452769564345803,0.963400979810447,-0.202863014824029,0.96340097979873,-0.202863014802805,-0.00146784075750378,-0.0452176163064633
22,-0.00179278691866508,-0.0463075410839955,0.962241291096825,-0.207300039933221,0.962241291085788,-0.20730003991207,-0.00181074341311699,-0.0462464253656845
22.5,-0.0021429203448409,-0.047336612897094,0.961063977447523,-0.211728677105445,0.96106397743715,-0.211728677084392,-0.00216164419081388,-0.0472736886141361
23,-0.00250105136326545,-0.0483641403410369,0.959868950433419,-0.216149034956195,0.959868950423694,-0.216149034935263,-0.00252055517703212,-0.0482993731898591
23.5,-0.00286719368374161,-0.0493900919516332,0.958656120626632,-0.220561203514645,0.958656120617538,-0.220561203493852,-0.0028874892804816,-0.0493234462756189
24,-0.00324136196551345,-0.0504144363122077,0.957425398675386,-0.224965255458742,0.957425398666907,-0.224965255438108,-0.00326246028026561,-0.0503458750799597
24.5,-0.00362357187243506,-0.051437142029334,0.956176696219208,-0.229361247311429,0.956176696211327,-0.229361247290972,-0.00364548287613664,-0.0513666268154678
25,-0.00401384013044703,-0.0524581777051507,0.954909926662183,-0.233749220591289,0.954909926654882,-0.233749220571026,-0.00403657274091401,-0.052385668674042
25.5,-0.00441218458735237,-0.0534775119059612,0.953625005820599,-0.238129202912949,0.953625005813861,-0.238129202892893,-0.00443574657506557,-0.0534029677988364
26,-0.00481862427485663,-0.0544951131267202,0.952321852459904,-0.242501209034138,0.952321852453711,-0.242501209014304,-0.00484302216343957,-0.0544184912525938
26.5,-0.00523317947285229,-0.0555109497511346,0.951000388734459,-0.246865241847807,0.951000388728794,-0.246865241828209,-0.00525841843414115,-0.055432205982064
27,-0.00565587177586496,-0.0565249900069018,0.949660540542322,-0.251221293318618,0.949660540537167,-0.251221293299266,-0.00568195551949713,-0.0564440787781137
27.5,-0.00608672416158562,-0.0575372019157436,0.948302237806004,-0.255569345364111,0.948302237801342,-0.255569345345016,-0.00611365481904969,-0.0574540762312163
28,-0.00652576106136632,-0.0585475532377626,0.946925414689009,-0.259909370681443,0.946925414684823,-0.259909370662615,-0.00655353906450307,-0.0584621646818793
28.5,-0.00697300843252552,-0.0595560114096774,0.945530009756894,-0.264241333521156,0.945530009753166,-0.264241333502602,-0.00700163238649582,-0.059468310165621
29,-0.00742849383228644,-0.0605625434764439,0.944115966090592,-0.268565190409756,0.944115966087306,-0.268565190391486,-0.00745796038306196,-0.0604724783520547
29.5,-0.00789224649310977,-0.0615671160157607,0.942683231358868,-0.272880890823223,0.942683231356007,-0.272880890805245,-0.0079225501895992,-0.061474634477602
30,-0.00836429739914657,-0.0625696950549139,0.941231757855954,-0.277188377813699,0.941231757853502,-0.277188377796017,-0.0083954305501231,-0.0624747432713546
30.5,-0.00884467936348832,-0.0635702459794243,0.939761502509677,-0.28148758859173,0.939761502507616,-0.281487588574351,-0.00887663188954685,-0.0634727688735945
31,-0.00933342710581903,-0.064568733432889,0.938272426864747,-0.285778455066515,0.938272426863063,-0.285778455049442,-0.00936618638666548,-0.0644686747463856
31.5,-0.0098305773300259,-0.0655651212074484,0.936764497045285,-0.290060904346571,0.936764497043964,-0.29006090432981,-0.0098641280474755,-0.0654624235757435
32,-0.0103361688012509,-0.0665593721242739,0.935237683700131,-0.294334859203288,0.935237683699155,-0.294334859186841,-0.0103704927784165,-0.0664539771647854
32.5,-0.0108502424217585,-0.0675514479033978,0.933691961934025,-0.298600238499656,0.93369196193338,-0.298600238483526,-0.0108853184590009,-0.0674432963172449
33,-0.0113728413049761,-0.0685413090223372,0.932127311227349,-0.302856957586531,0.93212731122702,-0.302856957570721,-0.0114086450132985,-0.0684303407108109
33.5,-0.0119040108468833,-0.06952891456281,0.930543715346718,-0.307104928668593,0.930543715346691,-0.307104928653105,-0.0119405144795907,-0.0694150687596358
34,-0.0124437987939027,-0.0705142220449542,0.928941162248429,-0.311344061142123,0.928941162248691,-0.311344061126959,-0.0124809710774661,-0.0703974374654222
34.5,-0.0129922553062886,-0.0714971872484342,0.927319643976475,-0.315574261906578,0.927319643977012,-0.315574261891738,-0.0130300612715105,-0.0713774022564788
35,-0.0135494330159108,-0.0724777640198302,0.925679156556571,-0.31979543565188,0.925679156557371,-0.319795435637364,-0.0135878338306543,-0.0723549168141633
35.5,-0.0141153870772022,-0.0734559040657969,0.924019699887455,-0.324007485123184,0.924019699888503,-0.324007485108994,-0.0141543398821081,-0.0733299328861248
36,-0.0146901752099117,-0.0744315567314378,0.922341277630501,-0.328210311364804,0.922341277631786,-0.328210311350938,-0.0147296329587204,-0.0743024000858239
36.5,-0.0152738577321485,-0.0754046687635095,0.920643897098553,-0.332403813944868,0.920643897100063,-0.332403813931327,-0.0153137690384517,-0.0752722656778206
37,-0.0158664975820834,-0.0763751840580544,0.918927569144709,-0.336587891162156,0.918927569146431,-0.336587891148938,-0.0159068065745153,-0.0762394743484043
37.5,-0.0164681603264999,-0.0773430433922515,0.917192308051682,-0.340762440236509,0.917192308053606,-0.340762440223613,-0.0165088065146262,-0.0772039679612151
38,-0.0170789141542406,-0.0783081841403037,0.915438131422263,-0.344927357484044,0.915438131424376,-0.344927357471468,-0.0171198323076063,-0.0781656852975678
38.5,-0.017698829852451,-0.0792705399734301,0.913665060071281,-0.349082538478396,0.913665060073573,-0.349082538466138,-0.0177399498954986,-0.0791245617813514
39,-0.0183279807633424,-0.0802300405441052,0.91187311791943,-0.353227878199039,0.911873117921891,-0.353227878187099,-0.0183692276891365,-0.080080529188481
39.5,-0.0189664427190644,-0.0811866111549662,0.910062331889212,-0.357363271167731,0.910062331891832,-0.357363271156105,-0.0190077365250053,-0.0810335153410442
40,-0.0196142939521275,-0.0821401724130109,0.908232731803217,-0.361488611574004,0.908232731805985,-0.361488611562691,-0.0196555496010576,-0.0819834437865095
40.5,-0.0202716149786778,-0.0830906398699667,0.906384350284892,-0.365603793390565,0.9063843502878,-0.365603793379561,-0.0203127423890055,-0.0829302334625275
41,-0.020938488451801,-0.0840379236500495,0.904517222661935,-0.36970871047941,0.904517222664972,-0.369708710468713,-0.0209793925204809,-0.0838737983481674
41.5,-0.0216149989819583,-0.0849819280666344,0.902631386872372,-0.373803256689393,0.902631386875531,-0.373803256678999,-0.0216555796443302,-0.0848140471026801
42,-0.0223012329215587,-0.0859225512297594,0.900726883373389,-0.377887325945915,0.900726883376659,-0.377887325935822,-0.0223413852522053,-0.0857508826932221
42.5,-0.0229972781106503,-0.0868596846468037,0.898803755052919,-0.381960812333379,0.898803755056293,-0.381960812323584,-0.0230368924695342,-0.0866842020133292
43,-0.023703223580712,-0.0877932128191079,0.896862047144017,-0.386023610170964,0.896862047147488,-0.386023610161464,-0.0237421858089093,-0.0876138954943282
43.5,-0.0244191592135922,-0.0887230128378385,0.894901807141977,-0.390075614082277,0.894901807145535,-0.390075614073067,-0.0244573508829267,-0.0885398467123217
44,-0.0251451753527325,-0.0896489539828627,0.892923084724181,-0.394116719059336,0.892923084727819,-0.394116719050413,-0.0251824740735247,-0.0894619319938348
44.5,-0.025881362364012,-0.0905708973290189,0.890925931672628,-0.398146820521365,0.890925931676338,-0.398146820512725,-0.025917642154994,-0.0903800200237284
45,-0.0266278101438057,-0.0914886953646747,0.888910401799099,-0.402165814368798,0.888910401802875,-0.402165814360438,-0.0266629418679623,-0.0912939714595471
45.5,-0.0273846075721812,-0.0924021916281053,0.886876550872881,-0.406173597032875,0.886876550876717,-0.40617359702479,-0.0274184594418919,-0.0922036385569762
46,-0.0281518419096007,-0.0933112203677782,0.884824436551013,-0.410170065521168,0.8848244365549,-0.410170065513355,-0.0281842800639426,-0.0931088648117158
46.5,-0.0289295981360636,-0.0942156062332438,0.882754118310945,-0.41415511745938,0.882754118314879,-0.414155117451835,-0.0289604872924552,-0.0940094846236412
47,-0.0297179582322351,-0.0951151640038632,0.88066565738558,-0.418128651129689,0.880665657389553,-0.418128651122407,-0.0297471624138111,-0.0949053229897008
47.5,-0.0305170004029316,-0.0960096983631558,0.878559116700581,-0.42209056550592,0.878559116704588,-0.422090565498898,-0.0305443837420452,-0.095796195232599
48,-0.0313267982441811,-0.0968990037269646,0.8764345608139,-0.426040760285787,0.876434560817934,-0.426040760279019,-0.0313522258613021,-0.0966819067727955
48.5,-0.0321474198561433,-0.0977828641340674,0.874292055857423,-0.429979135920436,0.87429205586148,-0.42997913591392,-0.0321707588121079,-0.0975622529519051
49,-0.0329789269052556,-0.0986610532080765,0.872131669480683,-0.433905593641507,0.872131669484757,-0.433905593635238,-0.033000047223362,-0.0984370189159061
49.5,-0.0338213736402853,-0.0995333341996492,0.86995347079653,-0.437820035485879,0.869953470800616,-0.437820035479853,-0.0338401493930773,-0.0993059795669575
50,-0.0346748058682599,-0.10039946011798,0.867757530328714,-0.441722364318318,0.867757530332807,-0.44172236431253,-0.0346911163221066,-0.100168899592753
50.5,-0.0355392598977273,-0.101259173960355,0.865543919961282,-0.445612483852145,0.865543919965377,-0.445612483846591,-0.0355529907063976,-0.101025533582419
51,-0.0364147614582847,-0.102112209048109,0.863312712889729,-0.449490298668113,0.863312712893822,-0.449490298662789,-0.0364258058947454,-0.101875626237801
51.5,-0.0373013246068331,-0.102958289476695,0.861063983573826,-0.453355714231601,0.861063983577913,-0.453355714226502,-0.0373095848204946,-0.102718912688648
52,-0.0381989506325692,-0.103797130686624,0.858797807692063,-0.457208636908263,0.858797807696139,-0.457208636903385,-0.0382043389171738,-0.103555118919658
52.5,-0.0391076269741968,-0.104628440160877,0.856514262097624,-0.46104897397825,0.856514262101685,-0.461048973973588,-0.0391100670295921,-0.104383962316483
53,-0.0400273261642384,-0.105451918252893,0.854213424775848,-0.46487663364911,0.85421342477989,-0.46487663364466,-0.0400267543334468,-0.105205152336733
53.5,-0.0409580048165915,-0.10626725914749,0.851895374803096,-0.468691525067451,0.851895374807116,-0.468691525063209,-0.0409543712779479,-0.106018391310638
54,-0.0418996026745084,-0.107074151955038,0.849560192306985,-0.472493558329479,0.849560192310979,-0.47249355832544,-0.0418928725672707,-0.10682337537432
54.5,-0.0428520417370095,-0.107872281936889,0.847207958427898,-0.476282644490477,0.847207958431862,-0.476282644486637,-0.0428421961978398,-0.107619795536751
55,-0.0438152254821816,-0.10866133185756,0.84483875528175,-0.480058695573306,0.844838755285682,-0.48005869556966,-0.0438022625692984,-0.108407338879146
55.5,-0.0447890382059715,-0.109440983456433,0.842452665923934,-0.483821624575997,0.84245266592783,-0.48382162457254,-0.0447729736877104,-0.109185689883145
56,-0.0457733444947429,-0.110210919028878,0.840049774314398,-0.487571345478502,0.840049774318255,-0.487571345475231,-0.0457542124797297,-0.109954531881407
56.5,-0.0467679888491339,-0.110970823103832,0.837630165283811,-0.491307773248658,0.837630165287627,-0.491307773245568,-0.0467458422364085,-0.110713548621384
57,-0.0477727954754579,-0.111720384201883,0.835193924500767,-0.495030823847422,0.83519392450454,-0.49503082384451,-0.0477477062046417,-0.111462425930127
57.5,-0.048787568259155,-0.112459296655198,0.832741138439988,-0.498740414233426,0.832741138443714,-0.498740414230685,-0.0487596273432292,-0.112200853464982
58,-0.0498120909325199,-0.113187262467955,0.830271894351458,-0.502436462366889,0.830271894355135,-0.502436462364317,-0.0497814082588768,-0.112928526532134
58.5,-0.0508461274461483,-0.113903993193684,0.827786280230495,-0.506118887212959,0.827786280234121,-0.506118887210551,-0.0508128313353796,-0.113645147952233
59,-0.051889422550368,-0.114609211803938,0.825284384788668,-0.509787608744476,0.825284384792241,-0.509787608742228,-0.0518536590665559,-0.114350429949828
59.5,-0.0529417025892798,-0.115302654521361,0.822766297425566,-0.513442547944237,0.822766297429083,-0.513442547942143,-0.0529036346004164,-0.115044096041225
60,-0.0540026765061543,-0.11598407258926,0.820232108201353,-0.51708362680677,0.820232108204814,-0.517083626804828,-0.0539624824984838,-0.115725882893745
60.5,-0.0550720370547806,-0.116653233949625,0.817681907810097,-0.520710768339658,0.817681907813498,-0.520710768337863,-0.0550299097102969,-0.116395542128183
61,-0.0561494622071618,-0.117309924801945,0.815115787553821,-0.524323896564439,0.815115787557161,-0.524323896562786,-0.0561056067589676,-0.117052842035867
61.5,-0.0572346167437371,-0.117953951016333,0.812533839317268,-0.527922936517102,0.812533839320546,-0.527922936515588,-0.0571892491293495,-0.117697569181835
62,-0.0583271540082987,-0.118585139376342,0.809936155543331,-0.531507814248219,0.809936155546546,-0.531507814246839,-0.0582804988460494,-0.118329529866621
62.5,-0.0594267178060174,-0.119203338629403,0.807322829209135,-0.535078456822714,0.807322829212284,-0.535078456821465,-0.0593790062242925,-0.118948551420779
