"Freq [GHz]","re(St(P1,P1)) []","im(St(P1,P1)) []","re(St(P1,P2)) []","im(St(P1,P2)) []","re(St(P2,P1)) []","im(St(P2,P1)) []","re(St(P2,P2)) []","im(St(P2,P2)) []"
0,0.0047600415724105,0,0.995257493457757,0,0.995257489848882,0,0.00476004346967329,0
0.5,0.00538945708787963,-0.00231962607698932,0.99444052394146,-0.0104261096478915,0.994440523947773,-0.0104261103792496,0.00538978936048906,-0.00232016915108346
1,0.00581611055598685,-0.0054673689182998,0.993489591734289,-0.0199829218324616,0.993489591326297,-0.0199829220644112,0.00581686682085447,-0.00546885239552708
1.5,0.0058812031105262,-0.00875615969685484,0.992580079717344,-0.0293048831976357,0.992580079458467,-0.0293048831257146,0.00588234077358685,-0.00875870008372814
2,0.00569081999761867,-0.012016385506584,0.99164431054157,-0.0385318081026771,0.991644310444846,-0.0385318079857502,0.00569229925115788,-0.0120200151800542
2.5,0.00533805420807631,-0.0152091960060528,0.99061324679473,-0.0476917800162298,0.990613246782152,-0.0476917799357341,0.00533988122198359,-0.0152139034529846
3,0.00486920364875321,-0.018331425141076,0.989464614381383,-0.0567749181285055,0.98946461439713,-0.0567749180920334,0.00487141290271165,-0.0183371905135612
3.5,0.00431017670734235,-0.0213851519151778,0.988198622375747,-0.0657699147748758,0.988198622391515,-0.0657699147676603,0.00431281856784382,-0.0213919550610466
4,0.00367812365937326,-0.0243730791675727,0.986824263443425,-0.0746702678162983,0.98682426344956,-0.0746702678206912,0.00368125852718393,-0.024380901145884
4.5,0.00298586725153038,-0.0272981701618225,0.985353076120812,-0.083474253479114,0.985353076118197,-0.0834742534814445,0.00298956293822639,-0.0273069935180938
5,0.00224361952188845,-0.0301637767129224,0.983796317727343,-0.0921837446307947,0.983796317721573,-0.0921837446231608,0.0022479500368171,-0.0301735856849339
5.5,0.0014596895509893,-0.0329736800568075,0.98216373429724,-0.100802980030282,0.982163734294694,-0.1008029800102,0.00146473446725215,-0.0329844609096579
6,0.000640817771022317,-0.0357320192724266,0.98046313278743,-0.10933753512508,0.98046313279283,-0.109337535094217,0.000646661798853976,-0.0357437607379856
6.5,-0.000207621365056476,-0.0384431591652357,0.978700369340186,-0.117793537900266,0.978700369355228,-0.117793537862894,-0.000200888757881268,-0.0384558529222838
7,-0.00108145775404828,-0.0411115422442112,0.97687954485649,-0.126177112688869,0.976879544879269,-0.126177112650359,-0.00107374273505895,-0.0411251833835307
7.5,-0.00197757458816494,-0.0437415521240867,0.975003288155949,-0.134494014809761,0.975003288180922,-0.134494014775294,-0.00196877937901241,-0.0437561395606849
8,-0.00289376111943043,-0.0463374017873806,0.973073057929268,-0.142749414177705,0.973073057947553,-0.142749414151226,-0.00288378443223511,-0.046352938599572
8.5,-0.00382857092778233,-0.0489030509712007,0.971089426057012,-0.150947788554958,0.971089426056876,-0.150947788538425,-0.00381730840320205,-0.0489195446602153
9,-0.00478118939037611,-0.0514421515690779,0.969052324467731,-0.159092892998202,0.969052324435166,-0.159092892991066,-0.00476853402134891,-0.0514596142425496
9.5,-0.00575131353836855,-0.0539580172150957,0.966961249604945,-0.167187778991627,0.966961249524253,-0.167187778990527,-0.00573715606648997,-0.0539764657037818
10,-0.00673904620939916,-0.0564536122012305,0.964815425342896,-0.175234843409579,0.964815425197237,-0.175234843408193,-0.00672327548506138,-0.056473068121238
10.5,-0.00770000822113989,-0.0589220843541693,0.962614528824914,-0.183234456762414,0.962614528684238,-0.183234456747669,-0.00768239617172486,-0.0589424903927971
11,-0.00869156812439557,-0.0613824333640922,0.960367334001371,-0.191188154538381,0.960367333866845,-0.191188154511775,-0.00867201890257088,-0.0614038529495136
11.5,-0.00971491946821623,-0.0638336188738409,0.958073551713625,-0.199098794987289,0.958073551586132,-0.19909879495032,-0.00969333999368813,-0.0638561159716828
12,-0.0107710061364535,-0.066274595711608,0.955732670471726,-0.206968811200162,0.955732670351892,-0.206968811154292,-0.0107473057861531,-0.0662982350144166
12.5,-0.0118605658465333,-0.0687043286633604,0.953344027930255,-0.214800242599258,0.953344027818488,-0.214800242545888,-0.0118346562257818,-0.0687291757528881
13,-0.0129841652425849,-0.0711218015164832,0.950906868299924,-0.222594769788166,0.950906868196446,-0.222594769728615,-0.0129559600169315,-0.0711479230006637
13.5,-0.0141422282394685,-0.0735260223082088,0.94842038766988,-0.230353750455074,0.948420387574755,-0.23035375039057,-0.0141116430122817,-0.0735534859353071
14,-0.0153350589662182,-0.0759160260794864,0.945883769146128,-0.23807825473018,0.945883769059289,-0.238078254661852,-0.015302011191006,-0.0759449008321647
14.5,-0.0165628603927183,-0.0782908760093508,0.943296209555005,-0.245769098944967,0.943296209476278,-0.245769098873846,-0.0165272693119765,-0.0783212321812332
15,-0.0178257495043274,-0.0806496635181615,0.940656939261955,-0.253426877151419,0.940656939191082,-0.25342687707843,-0.0177875361087709,-0.0806815727752337
15.5,-0.0191237697116947,-0.082991507734254,0.937965236444734,-0.261051990058254,0.937965236381392,-0.261051989984227,-0.0190828567152297,-0.0830250431632074
16,-0.0204569010411558,-0.0853155545875572,0.93522043695481,-0.268644671252711,0.935220436898622,-0.26864467117838,-0.0204132128680691,-0.0853507907328548
16.5,-0.0218250685385876,-0.0876209757048785,0.932421940711457,-0.276205010720636,0.932421940662013,-0.276205010646644,-0.0217785313202482,-0.0876579885960949
17,-0.0232281492306678,-0.08990696722124,0.929569215405037,-0.283732975771447,0.929569215361899,-0.283732975698355,-0.023178690809653,-0.0899458343920023
17.5,-0.0246659779174332,-0.0921727485809565,0.926661798140403,-0.291228429531701,0.926661798103117,-0.291228429459989,-0.0246135278574626,-0.0922135490805807
18,-0.0261383520147486,-0.0944175613744265,0.923699295528058,-0.29869114720179,0.923699295496164,-0.298691147131865,-0.0260828416151495,-0.0944603757732065
18.5,-0.0276450356217064,-0.0966406682380825,0.920681382627643,-0.306120830282843,0.920681382600676,-0.306120830215048,-0.0275863979354173,-0.0966855786270262
19,-0.0291857629535401,-0.09884135183253,0.917607801063333,-0.313517118981255,0.917607801040838,-0.313517118915868,-0.029123932807846,-0.0988884418182123
19.5,-0.0307602412532939,-0.101018913905622,0.91447835656146,-0.320879602990557,0.914478356542986,-0.320879602927803,-0.030695155272668,-0.10106826860075
20,-0.0323681532738612,-0.103172674441972,0.911292916104497,-0.328207830838075,0.911292916089606,-0.328207830778128,-0.0322997499043917,-0.103224380452117
20.5,-0.0340091594047044,-0.105301970896931,0.908051404850619,-0.335501317968745,0.90805140483889,-0.335501317911733,-0.0339373789396928,-0.105356116303873
21,-0.0356828995037623,-0.107406157511079,0.904753802932147,-0.342759553722526,0.904753802923172,-0.342759553668539,-0.0356076841101531,-0.107462831853105
21.5,-0.0373889944840121,-0.109484604700065,0.90140014221778,-0.349982007345749,0.901400142211172,-0.34998200729484,-0.0373102882293728,-0.109543898949521
22,-0.0391270476952186,-0.111536698514087,0.897990503101232,-0.357168133161246,0.897990503096625,-0.357168133113434,-0.0390447965750341,-0.111598705052468
22.5,-0.0408966461342385,-0.113561840161157,0.894525011361396,-0.364317375007625,0.894525011358442,-0.364317374962902,-0.0408107980993323,-0.113626652751936
23,-0.0426973615114267,-0.115559445588326,0.891003835125628,-0.371429170044692,0.891003835124,-0.371429170003025,-0.0426078664953353,-0.115627159347741
23.5,-0.0445287511959402,-0.117528945115319,0.887427181957326,-0.378502952009947,0.887427181956718,-0.378502951971282,-0.0444355611421111,-0.117599656481283
24,-0.0463903590589051,-0.119469783115333,0.883795296080986,-0.385538154000231,0.883795296081114,-0.385538153964493,-0.0462934279475916,-0.119543589814616
24.5,-0.0482817162302335,-0.121381417738112,0.880108455751908,-0.392534210843005,0.880108455752508,-0.392534210810106,-0.0481810001049877,-0.121458418751937
25,-0.0502023417823001,-0.123263320670835,0.876366970773199,-0.399490561113247,0.876366970774028,-0.399490561083081,-0.0500977987759749,-0.123343616199
25.5,-0.0521517433515395,-0.125114976932666,0.872571180159449,-0.406406648844447,0.872571180160285,-0.4064066488169,-0.0520433337117183,-0.125198668356304
26,-0.0541294177072735,-0.126935884699264,0.868721449944014,-0.413281924975755,0.868721449944653,-0.413281924950702,-0.0540171038210648,-0.127023074542341
26.5,-0.0561348512756087,-0.128725555153833,0.864818171125219,-0.420115848571549,0.864818171125477,-0.420115848548858,-0.0560185976937358,-0.128816347043456
27,-0.0581675206250345,-0.130483512361652,0.860861757745627,-0.426907887844853,0.860861757745338,-0.426907887824383,-0.0580472940851759,-0.130578010987284
27.5,-0.060226892919326,-0.132209293165303,0.856852645097829,-0.433657521011668,0.856852645096846,-0.433657520993276,-0.0601026623686521,-0.132307604236953
28,-0.0623124263425188,-0.133902447098096,0.852791288049836,-0.440364236999635,0.852791288048025,-0.440364236983174,-0.0621841629593788,-0.134004677303545
28.5,-0.0644235705000076,-0.135562536313437,0.848678159482936,-0.447027536031202,0.848678159480186,-0.447027536016524,-0.0642912477147316,-0.135668793274571
29,-0.06655976679922,-0.137189135528087,0.844513748834979,-0.45364693009872,0.844513748831187,-0.453646930085675,-0.0664233603139982,-0.137299527756392
29.5,-0.0687204488128091,-0.138781831977502,0.840298560742086,-0.460221943346486,0.84029856073717,-0.460221943334923,-0.0685799366206126,-0.138896468828783
30,-0.0709050426268865,-0.140340225381569,0.83603311377212,-0.466752112372688,0.836033113766009,-0.466752112362459,-0.0707604050294023,-0.140459217009939
30.5,-0.073112967176446,-0.141863927919262,0.831717939243432,-0.473236986462434,0.831717939236069,-0.473236986453393,-0.0729641868009966,-0.141987385230456
31,-0.0753436345698274,-0.143352564210864,0.827353580122799,-0.479676127761504,0.82735358011414,-0.479676127753505,-0.0751906963852493,-0.143480598814927
31.5,-0.0775964504038011,-0.144805771306529,0.822940589996761,-0.486069111399129,0.822940589986772,-0.486069111392029,-0.077439341735258,-0.144938495469924
32,-0.0798708140706249,-0.146223198680083,0.818479532110952,-0.492415525566983,0.818479532099611,-0.492415525560644,-0.0797095246133366,-0.14636072527727
32.5,-0.0821661190582403,-0.147604508227061,0.813970978472345,-0.498714971560545,0.813970978459641,-0.498714971554834,-0.0820006408901034,-0.147746950691582
33,-0.0844817532446012,-0.14894937426608,0.809415509009698,-0.504967063788191,0.809415508995628,-0.504967063782977,-0.0843120808376876,-0.149096846541204
33.5,-0.0868170991869859,-0.150257483542711,0.804813710787799,-0.511171429752584,0.804813710772372,-0.511171429747744,-0.086643229417898,-0.150410100031682
34,-0.0891715344070163,-0.151528535235117,0.80016617727147,-0.517327710008346,0.800166177254699,-0.51732771000376,-0.0889934665660902,-0.151686410751036
34.5,-0.0915444316720156,-0.15276224096076,0.795473507635527,-0.523435558099402,0.795473507617437,-0.523435558094955,-0.0913621674713491,-0.152925490676156
35,-0.0939351592732108,-0.153958324783571,0.790736306117273,-0.529494640478957,0.790736306097893,-0.529494640474542,-0.0937487028535163,-0.154127064179705
35.5,-0.0963430813012403,-0.15511652322101,0.785955181408276,-0.535504636414631,0.785955181387643,-0.535504636410143,-0.0961524392375023,-0.155290868036934
36,-0.0987675579193327,-0.156236585250507,0.781130746082513,-0.541465237880913,0.781130746060669,-0.541465237876257,-0.0985727392252654,-0.156416651431941
36.5,-0.101207945634467,-0.157318272314797,0.776263616058152,-0.547376149440843,0.776263616035143,-0.547376149435929,-0.101008961765764,-0.157504175962855
37,-0.103663597566767,-0.15836135832575,0.771354410090482,-0.553237088118498,0.771354410066361,-0.553237088113241,-0.103460462423137,-0.158553215645553
37.5,-0.106133863717348,-0.159365629666273,0.766403749293709,-0.559047783263688,0.766403749268532,-0.559047783258011,-0.105926593643325,-0.159563556915495
38,-0.108618091234763,-0.160330885189943,0.761412256689495,-0.564807976410039,0.761412256663322,-0.564807976403869,-0.108406705019306,-0.160534998627332
38.5,-0.111115624680193,-0.16125693621804,0.756380556780335,-0.570517421127483,0.756380556753229,-0.570517421120755,-0.110900143555048,-0.161467352051947
39,-0.113625806291467,-0.162143606533682,0.751309275145992,-0.576175882870029,0.751309275118019,-0.576175882862683,-0.113406253928313,-0.162360440870641
39.5,-0.116147976245976,-0.162990732372781,0.746199038061366,-0.581783138819558,0.746199038032594,-0.58178313881154,-0.115924378752341,-0.163214101166187
40,-0.118681472922524,-0.163798162411597,0.741050472134319,-0.587338977726283,0.741050472104817,-0.587338977717546,-0.118453858836481,-0.164028181410507
40.5,-0.121225633162128,-0.164565757750621,0.735864203962099,-0.592843199746409,0.735864203931939,-0.592843199736913,-0.120994033445774,-0.164802542448738
41,-0.123779792527766,-0.165293391894636,0.730640859805105,-0.598295616277478,0.730640859774359,-0.598295616267187,-0.123544240559488,-0.165537057479487
41.5,-0.126343285563046,-0.165980950728714,0.725381065276866,-0.603696049791759,0.725381065245607,-0.603696049780643,-0.126103817128577,-0.166231612031097
42,-0.12891544604976,-0.166628332490039,0.720085445049181,-0.609044333668061,0.720085445017483,-0.609044333656096,-0.128672099332043,-0.166886103933742
42.5,-0.131495607264266,-0.167235447735347,0.714754622571474,-0.614340312022216,0.714754622539409,-0.614340312009383,-0.131248422832123,-0.167500443287205
43,-0.134083102232635,-0.167802219303904,0.709389219803472,-0.6195838395365,0.709389219771114,-0.619583839522786,-0.133832123028259,-0.168074552424213
43.5,-0.136677263984474,-0.168328582275859,0.703989856960433,-0.624774781288186,0.703989856927854,-0.624774781273581,-0.136422535309764,-0.1686083658692
44,-0.139277425805362,-0.168814483925897,0.698557152270161,-0.629913012577404,0.698557152237433,-0.629913012561907,-0.139018995307096,-0.169101830292395
44.5,-0.141882921487764,-0.169259883672078,0.693091721741162,-0.634998418754465,0.693091721708356,-0.634998418738076,-0.141620839141642,-0.16955490445914
45,-0.144493085580351,-0.169664753019805,0.687594178941313,-0.640030895046755,0.687594178908498,-0.64003089502948,-0.144227403673917,-0.169967559174373
45.5,-0.147107253635601,-0.170029075500841,0.682065134786487,-0.645010346385331,0.68206513475373,-0.645010346367181,-0.146838026750063,-0.170339777222187
46,-0.149724762455546,-0.170352846607313,0.676505197338615,-0.649936687231291,0.676505197305982,-0.64993668721228,-0.149452047446519,-0.17067155330043
46.5,-0.152344950335582,-0.170636073720693,0.67091497161272,-0.654809841402002,0.670914971580275,-0.654809841382148,-0.152068806312763,-0.170962893950291
47,-0.154967157306163,-0.170878776035679,0.665295059392484,-0.659629741897259,0.665295059360291,-0.659629741876585,-0.154687645611973,-0.171213817480846
47.5,-0.157590725372291,-0.171080984478994,0.659646059053955,-0.664396330725428,0.659646059022071,-0.664396330703959,-0.157307909559503,-0.171424353888529
48,-0.160214998750636,-0.171242741623061,0.65396856539702,-0.669109558729629,0.653968565365503,-0.669109558707394,-0.159928944559011,-0.171594544771537
48.5,-0.162839324104164,-0.171364101594577,0.648263169484334,-0.673769385413996,0.648263169453239,-0.673769385391028,-0.162550099436124,-0.171724443239144
49,-0.165463050774131,-0.171445129977973,0.64253045848736,-0.678375778770076,0.642530458456739,-0.678375778746408,-0.1651707256695,-0.171814113815941
49.5,-0.168085531009291,-0.171485903713785,0.636771015539278,-0.682928715103376,0.63677101550918,-0.682928715079047,-0.167790177619123,-0.171863632341017
50,-0.170706120192188,-0.171486510991965,0.630985419594465,-0.687428178860127,0.630985419564936,-0.687428178835177,-0.170407812751729,-0.171873085862107
50.5,-0.173324177062383,-0.171447051140157,0.625174245294332,-0.691874162454271,0.625174245265417,-0.691874162428742,-0.173022991863177,-0.171842572524729
51,-0.175939063936469,-0.171367634506987,0.619338062839285,-0.696266666094717,0.619338062811024,-0.696266666068654,-0.175635079297663,-0.171772201456359
51.5,-0.17855014692474,-0.171248382340402,0.6134774378666,-0.700605697612904,0.613477437839031,-0.700605697586352,-0.1782434431636,-0.171662092645698
52,-0.181156796144364,-0.171089426661144,0.607592931334031,-0.704891272290681,0.607592931307189,-0.70489127226369,-0.180847455546054,-0.17151237681707
52.5,-0.18375838592891,-0.170890910131385,0.60168509940897,-0.709123412688562,0.601685099382886,-0.70912341266118,-0.183446492715563,-0.171323195300025
53,-0.186354295034122,-0.170652985918631,0.595754493362987,-0.713302148474365,0.59575449333769,-0.713302148446644,-0.186039935333239,-0.171094699894221
53.5,-0.18894390683975,-0.170375817554942,0.58980165947161,-0.717427516252283,0.589801659447124,-0.717427516224273,-0.188627168651968,-0.170827052729649
54,-0.191526609547357,-0.170059578791582,0.583827138919187,-0.721499559392407,0.583827138895536,-0.72149955936416,-0.191207582713618,-0.170520426122296
54.5,-0.194101796373917,-0.169704453449159,0.577831467708706,-0.725518327860739,0.577831467685909,-0.725518327832311,-0.193780572542093,-0.170175002425331
55,-0.196668865741115,-0.169310635263391,0.571815176576442,-0.72948387804974,0.571815176554514,-0.729483878021182,-0.19634553833211,-0.169790973875911
55.5,-0.199227221460189,-0.168878327726553,0.565778790911304,-0.733396272609416,0.565778790890259,-0.733396272580783,-0.198901885633576,-0.169368542437705
56,-0.201776272912206,-0.168407743924764,0.559722830678785,-0.737255580279013,0.559722830658633,-0.737255580250359,-0.201449025531432,-0.168907919639249
56.5,-0.204315435223647,-0.167899106371191,0.553647810349392,-0.74106187571933,0.55364781033014,-0.741061875690709,-0.203986374820848,-0.168409326408243
57,-0.206844129437169,-0.167352646835302,0.547554238831465,-0.744815239345698,0.547554238813118,-0.744815239317164,-0.206513356177651,-0.167872992901908
57.5,-0.209361782677455,-0.166768606168304,0.541442619408277,-0.748515757161657,0.541442619390835,-0.748515757133263,-0.209029398323869,-0.167299158333516
58,-0.211867828312013,-0.166147234124876,0.535313449679331,-0.752163520593363,0.535313449662796,-0.752163520565163,-0.211533936188277,-0.16668807079524
58.5,-0.214361706106838,-0.165488789181336,0.529167221505769,-0.755758626324778,0.529167221490134,-0.755758626296825,-0.214026411061853,-0.166039987077442
59,-0.216842862376821,-0.164793538350388,0.523004420959778,-0.759301176133658,0.523004420945037,-0.759301176106004,-0.216506270748024,-0.165355172484527
59.5,-0.219310750130817,-0.164061756992584,0.516825528277951,-0.762791276728393,0.516825528264095,-0.762791276701087,-0.218972969707614,-0.164633900647528
60,-0.221764829211273,-0.16329372862464,0.510631017818491,-0.766229039585721,0.510631017805509,-0.766229039558814,-0.221425969198407,-0.163876453333541
60.5,-0.224204566428328,-0.162489744724769,0.504421358022197,-0.769614580789378,0.504421358010073,-0.769614580762917,-0.223864737409218,-0.163083120252164
61,-0.226629435688298,-0.161650104535166,0.498197011377135,-0.772948020869687,0.498197011365855,-0.77294802084372,-0.226288749588408,-0.162254198859098
61.5,-0.229038918116483,-0.160775114861817,0.491958434386955,-0.776229484644152,0.491958434376499,-0.776229484618727,-0.228697488166754,-0.161389994157054
62,-0.231432502174193,-0.159865089871765,0.485706077542736,-0.779459101059083,0.485706077533084,-0.779459101034242,-0.231090442874601,-0.160490818494115
62.5,-0.233809683769957,-0.158920350888022,0.479440385298334,-0.782637003032273,0.479440385289463,-0.78263700300806,-0.23346711085323,-0.15955699135973
63,-0.236169966364827,-0.157941226182269,0.473161796049122,-0.785763327296797,0.473161796041008,-0.785763327273252,-0.235826996760379,-0.158588839178484
63.5,-0.23851286107173,-0.156928050765499,0.466870742114082,-0.788838214245927,0.466870742106698,-0.788838214223091,-0.238169612869854,-0.157586695101802
