"Freq [GHz]","re(St(P1,P1)) []","im(St(P1,P1)) []","re(St(P1,P2)) []","im(St(P1,P2)) []","re(St(P2,P1)) []","im(St(P2,P1)) []","re(St(P2,P2)) []","im(St(P2,P2)) []"
0,0.00625736799776178,0,0.993757422649651,0,0.993757384087075,0,0.00625734735638162,0
0.5,0.00683046135004162,7.29599687137039E-005,0.993138962944936,-0.00682748609047579,0.993138955984389,-0.00682748828833546,0.00683061080023251,7.21212117955616E-005
1,0.0073045841318411,-0.000536881578760529,0.992559094381289,-0.0129691887642167,0.992559094644619,-0.0129691858571981,0.00730489023124292,-0.000538701294846788
1.5,0.0076287399836179,-0.00122841609721647,0.992049788513347,-0.0191194361244733,0.992049790088595,-0.0191194340371474,0.0076292747766189,-0.00123098160267077
2,0.00782607718705286,-0.00198551144124259,0.991566127894247,-0.0251284473452564,0.991566129829778,-0.0251284462242509,0.00782696183063436,-0.00198893087523189
2.5,0.00794399344929708,-0.00274796963024393,0.99111700531448,-0.0310701508962303,0.991117007113584,-0.031070150461133,0.00794528216109036,-0.00275231011342569
3,0.00801597716694502,-0.003501377611137,0.990684864877558,-0.0369836917847586,0.990684866368897,-0.0369836917442452,0.00801771604904467,-0.00350667428214813
3.5,0.00806079032160856,-0.00424467760094238,0.990250749965663,-0.0428856592859734,0.990250751127449,-0.0428856594358926,0.00806303097466721,-0.00425095137953413
4,0.00808872336348854,-0.00498000927770903,0.989800241388181,-0.0487815783230268,0.989800242253157,-0.0487815785383212,0.0080915239354673,-0.00498727616078476
4.5,0.00810557702313375,-0.00570991039459479,0.989323362047803,-0.0546721083211086,0.989323362662913,-0.0546721085308466,0.00810900102347389,-0.00571818560915993
5,0.00811474686831515,-0.00643663774188674,0.98881336653552,-0.060555917989042,0.988813366947071,-0.0605559181564121,0.00811886202859569,-0.00644593757105838
5.5,0.00811829403149256,-0.00716207282756454,0.988265674474002,-0.0664309472465261,0.988265674723209,-0.0664309473556859,0.00812317154186837,-0.00717241543823999
6,0.00811750861134986,-0.00788777327860668,0.987677125174945,-0.0722949447583447,0.987677125297386,-0.0722949448063757,0.00812322267517729,-0.00789917912340954
6.5,0.00811321690510369,-0.00861504669289292,0.987045491126011,-0.0781456879672717,0.987045491152371,-0.0781456879592639,0.00811984451456582,-0.0086275387321253
7,0.00810595530717628,-0.00934501538019283,0.986369166258387,-0.0839810654418187,0.986369166215482,-0.0839810653878761,0.00811357616580621,-0.00935861923158132
7.5,0.00809607226991993,-0.0100786667692478,0.985646966021977,-0.0897991004920247,0.985646965933735,-0.0897991004054202,0.00810476881332145,-0.0100934108340356
8,0.00808379002616166,-0.0108168911780879,0.984877998003018,-0.0955979507413236,0.984877997891284,-0.0955979506373223,0.0080936475102652,-0.0108328067659391
8.5,0.00806924302012924,-0.0115605098621456,0.984061577175102,-0.101375898832506,0.984061577060279,-0.101375898727604,0.00808034965803939,-0.0115776313257268
9,0.00805250241885402,-0.0123102959382146,0.983197169680184,-0.107131340780413,0.983197169581725,-0.107131340691827,0.0080649495546441,-0.0123286608229867
9.5,0.00803359205467369,-0.0130669901820442,0.982284355090125,-0.11286277462153,0.982284355026901,-0.112862774566842,0.00804747436704828,-0.0130866393944178
10,0.00801249894426542,-0.0138313131568566,0.981322800809841,-0.118568790300913,0.981322800800415,-0.118568790297815,0.00802791467594827,-0.013852291152868
10.5,0.00798502930409511,-0.0145765852794,0.98039902561593,-0.124273084693349,0.980399025608905,-0.124273084698633,0.0080018424910932,-0.0145987792516342
11,0.00795179025374243,-0.0153277845081776,0.979444160349163,-0.129966399590251,0.979444160343002,-0.129966399603915,0.00797006581116969,-0.0153512189044855
11.5,0.00791235040865865,-0.0160848230779398,0.978457865197334,-0.135648675904655,0.978457865190641,-0.135648675926476,0.00793215270874664,-0.0161095234158264
12,0.00786629257358874,-0.0168475850475804,0.977439888766885,-0.141319797526271,0.97743988875842,-0.141319797555844,0.00788768542087039,-0.0168735778831448
12.5,0.00781321543995074,-0.0176159284469057,0.976390057168475,-0.146979610685212,0.976390057157158,-0.146979610721992,0.00783626204975468,-0.0176432413418741
13,0.00775273500415694,-0.0183896874799343,0.975308263405824,-0.152627938455622,0.97530826339073,-0.152627938498965,0.00777749798459884,-0.0184183489672507
13.5,0.00768448571650721,-0.0191686747517328,0.974194457462718,-0.158264591494441,0.974194457443076,-0.15826459154363,0.00771102705409954,-0.0191987143002001
14,0.00760812137364493,-0.0199526834891328,0.973048637279877,-0.163889375880279,0.973048637255059,-0.163889375934549,0.00763650242256367,-0.0199841314675715
14.5,0.00752331577016378,-0.0207414897292137,0.971870840688414,-0.169502098728836,0.971870840657925,-0.169502098787401,0.00755359724513653,-0.0207743773706155
15,0.00742976312695254,-0.0215348544529816,0.970661138292678,-0.175102572110509,0.970661138256147,-0.175102572172571,0.00746200509968942,-0.0215692138190855
15.5,0.00732717831522565,-0.0223325256452283,0.96941962725369,-0.180690615677147,0.969419627210862,-0.180690615741917,0.00736144021423624,-0.0223683895919398
16,0.0072152968959972,-0.0231342402650854,0.968146425903279,-0.186266058312297,0.968146425853999,-0.186266058378999,0.00725163750960622,-0.0231716424090958
16.5,0.00709387499506225,-0.0239397261149286,0.966841669110369,-0.191828739047467,0.966841669054574,-0.191828739115356,0.00713235247738875,-0.0239787008018837
17,0.0069626890334526,-0.024748703598493,0.965505504319731,-0.197378507431509,0.965505504257441,-0.197378507499869,0.00700336091308987,-0.0247892858729748
17.5,0.00682153533284635,-0.0255608873617517,0.964138088186528,-0.202915223497345,0.964138088117832,-0.202915223565501,0.006864458523962,-0.0256031129393284
18,0.00667022961469649,-0.0263759878126102,0.962739583735275,-0.208438757437252,0.96273958366033,-0.208438757504571,0.00671546043024607,-0.0264198930541264
18.5,0.006508606410803,-0.0271937125177781,0.961310157978064,-0.21394898907247,0.961310157897075,-0.213948989138361,0.00655620057755785,-0.0272393344060649
19,0.00633651840196192,-0.0280137674769714,0.959849979933376,-0.219445807183009,0.959849979846597,-0.219445807246932,0.00638653107703341,-0.0280611435960529
19.5,0.00615383570001915,-0.0288358582763122,0.958359218993177,-0.22492910874839,0.958359218900902,-0.224929108809851,0.00620632148857914,-0.0288850267931844
20,0.00596044508733312,-0.0296596911241016,0.95683804359183,-0.230398798138019,0.956838043494383,-0.23039879819657,0.00601545806123405,-0.0297106907731184
20.5,0.00575624922629508,-0.0304849737732447,0.95528662013586,-0.235854786280679,0.955286620033592,-0.235854786335924,0.00581384294330312,-0.0305378438431028
21,0.00554116585017217,-0.0313114163354626,0.953705112158431,-0.241296989835377,0.953705112051711,-0.241296989886963,0.00560139337354415,-0.031366196658742
21.5,0.00531512694522474,-0.0321387319930553,0.952093679666824,-0.246725330380057,0.952093679556036,-0.246725330427676,0.00537804086337751,-0.032195462938267
22,0.00507807793274628,-0.0329666376144364,0.950452478655049,-0.252139733630317,0.950452478540589,-0.252139733673708,0.00514373037878713,-0.0330253600805004
22.5,0.00482997685848124,-0.0337948542799618,0.948781660757203,-0.257540128696701,0.948781660639472,-0.257540128735642,0.00489841952938291,-0.0338556096929983
23,0.00457079359570939,-0.034623107724677,0.947081373020171,-0.262926447386433,0.947081372899573,-0.262926447420743,0.00464207777094322,-0.0346859380370081
23.5,0.00430050906726231,-0.0354511287046546,0.945351757777029,-0.268298623553314,0.945351757653963,-0.268298623582851,0.00437468562671467,-0.0355160763958942
24,0.00401911449075026,-0.036278653293516,0.943592952604774,-0.273656592497824,0.943592952479641,-0.273656592522481,0.00409623393177644,-0.0363457613736002
24.5,0.0037266106504289,-0.0371054231155545,0.941805090352202,-0.279000290418153,0.941805090225393,-0.279000290437855,0.00380672310390595,-0.0371747351295832
25,0.00342300719832966,-0.0379311855216558,0.93998829922549,-0.284329653911906,0.939988299097389,-0.284329653926613,0.00350616244361013,-0.0380027455563947
25.5,0.00310832198661726,-0.0387556937139446,0.93814270292074,-0.289644619527456,0.93814270279172,-0.289644619537155,0.00319456946527397,-0.0388295464058461
26,0.00278258043249791,-0.0395787068247691,0.936268420794143,-0.294945123363338,0.936268420664565,-0.294945123368041,0.0028719692607988,-0.0396548973693598
26.5,0.00244581491650014,-0.0403999899552918,0.93436556806168,-0.300231100713667,0.934365567931893,-0.300231100713413,0.00253839389654248,-0.040478564117796
27,0.00209806421447811,-0.041219314178639,0.932434256021412,-0.305502485757276,0.93243425589175,-0.305502485752128,0.0021938818439397,-0.0413003183056759
27.5,0.001739372963311,-0.0420364565121416,0.930474592292378,-0.310759211288069,0.930474592163158,-0.310759211278106,0.00183847744378518,-0.0421199375443837
28,0.00136979115994873,-0.0428511998629315,0.928486681064993,-0.316001208483958,0.928486680936519,-0.316001208469279,0.00147223040383976,-0.0429372053485713
28.5,0.000989373693176643,-0.0436633329507135,0.926470623358603,-0.321228406711725,0.926470623231161,-0.321228406692448,0.00109519532914643,-0.0437519110596307
29,0.000598179907270013,-0.0444726502112653,0.924426517282525,-0.326440733365123,0.924426517156387,-0.326440733341379,0.000707431284233617,-0.0445638497497556
29.5,0.000196273196522212,-0.0452789516838632,0.922354458297475,-0.331638113733593,0.922354458172892,-0.331638113705524,0.000309001386196939,-0.0453728221098262
30,-0.000216279370499173,-0.0460820428854976,0.920254539474818,-0.336820470898999,0.920254539352028,-0.336820470866759,-0.000100027572471517,-0.0461786343239752
30.5,-0.000639407398195901,-0.0468817346744896,0.918126851751532,-0.341987725657921,0.918126851630756,-0.341987725621675,-0.000519585472542994,-0.0469810979334468
31,-0.00107303748402315,-0.0476778431058207,0.915971484179136,-0.34713979646712,0.915971484060576,-0.347139796427042,-0.000949599189518979,-0.0477800296920796
31.5,-0.00151709351274432,-0.0484701892802224,0.913788524165218,-0.352276599409911,0.913788524049061,-0.352276599366179,-0.00138999288924457,-0.0485752514154592
32,-0.00197149692625037,-0.0492585991888443,0.911578057706459,-0.357398048181296,0.911578057592876,-0.357398048134093,-0.00184068829905104,-0.0493665898255617
32.5,-0.00243616697033006,-0.050042903555112,0.909340169612338,-0.362504054089871,0.909340169501484,-0.362504054039389,-0.00230160495581511,-0.0501538763925211
33,-0.00291102091976492,-0.0508229376751606,0.90707494371888,-0.367594526074621,0.907074943610896,-0.367594526021052,-0.0027726604322999,-0.0509369471748917
33.5,-0.0033959742830969,-0.0515985412580531,0.90478246309205,-0.37266937073484,0.90478246298706,-0.372669370678378,-0.0032537705431373,-0.0517156426596268
34,-0.00389094098839904,-0.0523695582668335,0.902462810220508,-0.377728492371568,0.902462810118623,-0.377728492312409,-0.00374484953176091,-0.0524898076028508
34.5,-0.00439583355132239,-0.0531358367613175,0.900116067197611,-0.38277179303906,0.900116067098928,-0.3827717929774,-0.00424581023958481,-0.0532592908722846
35,-0.00491056322666728,-0.053897228743355,0.897742315892639,-0.387799172604887,0.897742315797241,-0.387799172540922,-0.00475656425864818,-0.0540239452921214
35.5,-0.0054350401446524,-0.0546535900052361,0.89534163811133,-0.392810528817442,0.895341638019288,-0.392810528751367,-0.00527702206893005,-0.0547836274909763
36,-0.00596917343301717,-0.0554047799817237,0.892914115745884,-0.39780575737966,0.892914115657257,-0.397805757311669,-0.00580709316144279,-0.0555381977534328
36.5,-0.00651287132604467,-0.0561506616061886,0.890459830914655,-0.402784752027951,0.89045983082949,-0.402784751958234,-0.00634668614820888,-0.0562875198756454
37,-0.00706604126151755,-0.0568911011711535,0.887978866091814,-0.407747404615364,0.887978866010146,-0.407747404544111,-0.0068957088601212,-0.0570314610253235
37.5,-0.00762858996657445,-0.0576259681935407,0.885471304227284,-0.412693605198148,0.885471304149139,-0.412693605125542,-0.00745406843366875,-0.057769891606378
38,-0.00820042353338174,-0.05835513528481,0.882937228857308,-0.417623242124922,0.882937228782701,-0.417623242051144,-0.00802167138742671,-0.0585026851284336
38.5,-0.00878144748546883,-0.0590784780261404,0.880376724206,-0.422536202127788,0.880376724134938,-0.422536202053015,-0.00859842368917918,-0.0592297180813566
39,-0.00937156683553309,-0.0597958748487415,0.87778987527829,-0.427432370414737,0.877789875210768,-0.427432370339142,-0.00918423081445735,-0.0599508698148878
39.5,-0.00997068613546531,-0.0605072069193511,0.875176767944618,-0.432311630762838,0.875176767880627,-0.43231163068659,-0.00977899779727048,-0.0606660224234408
40,-0.0105787095192886,-0.0612123580309252,0.872537489017817,-0.437173865611695,0.872537488957337,-0.437173865534956,-0.0103826292737015,-0.0613750606360712
40.5,-0.0111955407396723,-0.0619112144985052,0.869872126322552,-0.442018956156752,0.869872126265557,-0.442018956079681,-0.0109950295190442,-0.0620778717116028
41,-0.0118210831986169,-0.0626036650602098,0.867180768757728,-0.446846782442088,0.867180768704184,-0.446846782364838,-0.0116161024790721,-0.0627743453388698
41.5,-0.0124552399728818,-0.0632896007832877,0.864463506352252,-0.451657223452347,0.864463506302121,-0.451657223375065,-0.0122457517960103,-0.0634643735419924
42,-0.0130979138346689,-0.0639689149751335,0.861720430314538,-0.456450157203542,0.861720430267773,-0.456450157126368,-0.0128838808297301,-0.0641478505906143
42.5,-0.0137490072680556,-0.0646415030991638,0.858951633076112,-0.461225460832479,0.858951633032665,-0.461225460755551,-0.0135303926746536,-0.0648246729149844
43,-0.0144084224816063,-0.0653072626954465,0.856157208329707,-0.465983010684602,0.85615720828952,-0.46598301060805,-0.0141851901728071,-0.0654947390257739
43.5,-0.0150760614175959,-0.0659660933059341,0.853337251062157,-0.470722682400072,0.853337251025171,-0.470722682324021,-0.0148481759234448,-0.0661579494384987
44,-0.0157518257582074,-0.0666178964041814,0.850491857582467,-0.475444350997949,0.850491857548619,-0.475444350922519,-0.0155192522896165,-0.066814206602411
44.5,-0.0164356169290571,-0.0672625753293988,0.84762112554536,-0.480147890958342,0.847621125514579,-0.480147890883646,-0.0161983214020299,-0.0674634148337205
45,-0.017127336100377,-0.067900035224699,0.844725153970595,-0.484833176302447,0.844725153942812,-0.484833176228593,-0.0168852851605354,-0.068105480253001
45.5,-0.0178268841861379,-0.0685301829793784,0.841804043258391,-0.489500080670386,0.841804043233531,-0.489500080597476,-0.0175800452335209,-0.0687403107266316
46,-0.0185341618413925,-0.0691529271750972,0.838857895201187,-0.494148477396794,0.838857895179173,-0.494148477324925,-0.0182825030554917,-0.0693678158121196
46.5,-0.0192490694580829,-0.0697681780357897,0.835886812992049,-0.498778239584117,0.835886812972802,-0.498778239513381,-0.0189925598230868,-0.0699879067071664
47,-0.0199715071595407,-0.070375847381175,0.832890901229932,-0.503389240173593,0.832890901213369,-0.503389240104074,-0.0197101164897553,-0.0706004962023126
47.5,-0.0207013747938884,-0.0709758485836974,0.829870265922068,-0.507981352013902,0.829870265908108,-0.50798135194568,-0.0204350737593003,-0.0712054986370242
48,-0.0214385719265288,-0.0715680965287661,0.826825014483691,-0.512554447927484,0.826825014472247,-0.512554447860635,-0.0211673320784875,-0.0718028298590687
48.5,-0.0221829978319041,-0.0721525075781407,0.8237552557353,-0.517108400774541,0.823755255726287,-0.517108400709134,-0.021906791628883,-0.0723924071870373
49,-0.0229345514846694,-0.0727289995363204,0.820661099897678,-0.521643083514722,0.820661099891009,-0.521643083450824,-0.0226533523180869,-0.0729741493758724
49.5,-0.0236931315504404,-0.0732974916198068,0.817542658584836,-0.52615836926654,0.817542658580423,-0.526158369204208,-0.023406913770502,-0.0735479765852639
50,-0.0244586363762292,-0.0738579044290897,0.814400044795069,-0.53065413136452,0.814400044792823,-0.53065413130381,-0.0241673753177687,-0.0741138103507778
50.5,-0.0252309639807072,-0.0744101599232442,0.81123337290027,-0.535130243414147,0.811233372900103,-0.535130243355109,-0.02493463598899,-0.0746715735575851
51,-0.0260100120443805,-0.0749541813969897,0.808042758633687,-0.539586579344626,0.808042758635509,-0.539586579287306,-0.0257085945008495,-0.0752211904166679
51.5,-0.0267956778997954,-0.0754898934601014,0.804828319076225,-0.544023013459514,0.804828319079948,-0.544023013403952,-0.0264891492477204,-0.0757625864433713
52,-0.0275878585218527,-0.0760172220190548,0.801590172641461,-0.548439420485262,0.801590172646997,-0.548439420431495,-0.0272761982918641,-0.0762956884381983
52.5,-0.0283864505183087,-0.0765360942607768,0.79832843905948,-0.552835675617723,0.798328439066739,-0.552835675565783,-0.0280696393537808,-0.0768204244697095
53,-0.0291913501205452,-0.0770464386383988,0.795043239359639,-0.557211654566668,0.795043239368533,-0.557211654516584,-0.0288693698028029,-0.077336723859433
53.5,-0.0300024531746602,-0.0775481848589028,0.791734695852399,-0.56156723359837,0.791734695862843,-0.561567233550165,-0.0296752866479822,-0.0778445171686764
54,-0.0308196551329488,-0.0780412638725567,0.788402932110289,-0.5659022895763,0.788402932122194,-0.565902289529995,-0.0304872865293379,-0.0783437361871231
54.5,-0.0316428510458239,-0.0785256078640333,0.78504807294811,-0.570216700000001,0.785048072961392,-0.570216699955613,-0.0313052657095161,-0.0788343139231344
55,-0.0324719355542145,-0.0790011502451229,0.781670244402481,-0.574510343042185,0.781670244417054,-0.574510342999726,-0.0321291200659041,-0.0793161845956407
55.5,-0.0333068028824991,-0.0794678256489448,0.778269573710771,-0.578783097584101,0.778269573726552,-0.578783097543581,-0.0329587450832441,-0.0797892836275437
56,-0.0341473468319963,-0.0799255699255609,0.77484618928953,-0.583034843249246,0.774846189306438,-0.583034843210671,-0.0337940358467857,-0.0802535476405344
56.5,-0.034993460775053,-0.0803743201389151,0.771400220712463,-0.587265460435452,0.771400220730416,-0.587265460398824,-0.0346348870360025,-0.0807089144512396
57,-0.0358450376497597,-0.0808140145650108,0.767931798688013,-0.591474830345417,0.767931798706931,-0.591474830310737,-0.035481192918915,-0.0811553230686245
57.5,-0.036701969955312,-0.0812445926912444,0.76444105503662,-0.595662835015724,0.764441055056425,-0.595662834982988,-0.036332847347026,-0.0815927136925569
58,-0.0375641497480461,-0.0816659952168254,0.760928122667709,-0.599829357344398,0.760928122688325,-0.5998293573136,-0.0371897437509141,-0.0820210277134703
58.5,-0.0384314686381612,-0.082078164054195,0.75739313555645,-0.603974281117051,0.757393135577801,-0.603974281088183,-0.0380517751364768,-0.0824402077130486
59,-0.0393038177871553,-0.082481042331394,0.753836228720335,-0.608097491031677,0.753836228742349,-0.608097491004726,-0.0389188340818687,-0.0828501974658563
59.5,-0.0401810879059713,-0.0828745743952876,0.750257538195631,-0.612198872722121,0.750257538218235,-0.612198872697075,-0.0397908127351251,-0.0832509419418601
60,-0.0410631692538797,-0.0832587058155982,0.746657201013724,-0.616278312780287,0.746657201036848,-0.616278312757128,-0.0406676028124929,-0.0836423873097566
60.5,-0.0419499516380983,-0.0836333833896773,0.743035355177409,-0.620335698777124,0.743035355200985,-0.620335698755833,-0.0415490955974793,-0.0840244809410694
61,-0.0428413244141609,-0.0839985551479534,0.739392139637147,-0.624370919282434,0.739392139661108,-0.624370919262992,-0.0424351819406187,-0.0843971714149301
61.5,-0.043737176487033,-0.0843541703600034,0.735727694267324,-0.628383863883547,0.735727694291607,-0.62838386386593,-0.043325752259971,-0.0847604085235052
62,-0.0446373963129837,-0.0847001795411817,0.732042159842547,-0.632374423202896,0.732042159867088,-0.63237442318708,-0.0442206965423479,-0.0851141432779949
62.5,-0.0455418719022146,-0.085036534459761,0.728335678013975,-0.636342488914548,0.728335678038713,-0.636342488900506,-0.0451199043452741,-0.0854583279151738
