"Freq [GHz]","re(St(P1,P1)) []","im(St(P1,P1)) []","re(St(P1,P2)) []","im(St(P1,P2)) []","re(St(P2,P1)) []","im(St(P2,P1)) []","re(St(P2,P2)) []","im(St(P2,P2)) []"
0,0.00639501030423162,0,0.993623321439372,0,0.993623328584363,0,0.00639501678239185,0
0.5,0.00705300415431154,-0.000777614571152441,0.992870392265761,-0.00954770189269638,0.992870391550348,-0.00954770120502602,0.00705318529123034,-0.000777905245206156
1,0.00757098307929738,-0.00234121877609894,0.992097344983625,-0.0183005547165891,0.992097344687231,-0.0183005548730826,0.00757137826390597,-0.00234202237054149
1.5,0.00787509277279241,-0.00405156256171324,0.991385996566446,-0.0268749273000335,0.99138599635126,-0.0268749272152871,0.00787565108176125,-0.00405292468098573
2,0.00799817144232495,-0.00580363976964371,0.990709831952524,-0.035368610747593,0.990709831869535,-0.035368610605504,0.00799890338978493,-0.0058055397866621
2.5,0.00801358647682537,-0.00754182775851753,0.990002788543733,-0.0438341660344221,0.990002788546652,-0.0438341659141415,0.00801453221276205,-0.00754425702612771
3,0.0079619038968386,-0.00925827685804492,0.989230705359747,-0.052275255458321,0.989230705403381,-0.052275255380124,0.007963110088133,-0.0092612380321313
3.5,0.00786357510050228,-0.0109551966828025,0.988380159886418,-0.0606859895590208,0.988380159941145,-0.0606859895199587,0.00786508892726845,-0.0109586991525674
4,0.00772931723800574,-0.012636008278295,0.987447752101963,-0.0690605342079005,0.987447752151329,-0.0690605341976127,0.00773118497876557,-0.0126400656502144
4.5,0.00756514282697229,-0.0143035861643428,0.986434578133138,-0.077394961045175,0.986434578169708,-0.0773949610523825,0.00756740955311885,-0.0143082150036085
5,0.00737468560956178,-0.0159600970936982,0.985343544696481,-0.0856872292317075,0.985343544718468,-0.0856872292467719,0.00737739515107494,-0.0159653162473381
5.5,0.00716030926592415,-0.0176071483266682,0.984178051922365,-0.0939367677808782,0.984178051931204,-0.0939367677966443,0.00716350424735535,-0.0176129785145562
6,0.00692366057664062,-0.0192459538768937,0.98294135251172,-0.102144031172158,0.982941352510359,-0.102144031184006,0.00692738247602098,-0.0192524174148581
6.5,0.00666595798990288,-0.020877463679736,0.981636262312495,-0.110310120819989,0.981636262304255,-0.110310120825507,0.00667024721037279,-0.0208845842755583
7,0.00638814811531552,-0.0225024548095139,0.980265059783409,-0.11843648901788,0.980265059771238,-0.118436489016393,0.00639304406737451,-0.0225102574053935
7.5,0.00609099335255031,-0.0241215936727288,0.978829486858799,-0.126524720001092,0.978829486844848,-0.126524719993152,0.00609653454588166,-0.024130104322027
8,0.00577512223805698,-0.0257354776854672,0.977330801403505,-0.134576376373141,0.977330801388906,-0.134576376360046,0.00578134638138922,-0.0257447234579198
8.5,0.00544105898751784,-0.027344662801025,0.975769852140316,-0.142592897911867,0.97576985212513,-0.142592897895263,0.00544800309446036,-0.0273546717133248
9,0.00508924116732269,-0.0289496813368948,0.974147159152054,-0.15057554055498,0.974147159135307,-0.1505755405365,0.00509694166578452,-0.0289604823066272
9.5,0.00472003049924113,-0.0305510531520734,0.972462990583458,-0.158525344984572,0.972462990563247,-0.158525344965594,0.00472852334199392,-0.0305626759734468
10,0.00433371967628833,-0.0321492922670199,0.970717430848942,-0.166443126123072,0.970717430822576,-0.166443126104511,0.0043430404503335,-0.0321617676068251
10.5,0.00393337511292359,-0.0337568372835388,0.968914120570147,-0.174315838611302,0.968914120601734,-0.174315838579591,0.0039435610394397,-0.0337702387144825
11,0.00351072042924876,-0.035363096147099,0.967054138326844,-0.182158320403722,0.967054138411893,-0.182158320370373,0.00352179863276074,-0.0353774631735249
11.5,0.0030654830615362,-0.036967745566431,0.965137372871686,-0.189971292401043,0.965137373004498,-0.189971292375491,0.00307747894283913,-0.0369831186184117
12,0.00259740098804334,-0.0385704387329864,0.96316369973049,-0.197755289619431,0.963163699904634,-0.197755289609148,0.00261033822139833,-0.0385868590795981
12.5,0.00210622440146163,-0.0401708064379518,0.961132999986643,-0.205510690242906,0.961133000195336,-0.205510690253567,0.00212012493670946,-0.0401883161039382
13,0.00159171723672497,-0.0417684582960951,0.95904517262986,-0.213237741470896,0.959045172866267,-0.21323774150656,0.00160660130578782,-0.041787099982161
13.5,0.00105365854984774,-0.0433629840583216,0.956900142115705,-0.220936582028863,0.956900142373162,-0.220936582092185,0.00106954467707715,-0.0433828010652513
14,0.000491843745586418,-0.044953954995294,0.954697862442769,-0.228607261447907,0.954697862714951,-0.228607261540331,0.000508748761446964,-0.0449749911519954
14.5,-9.39143462736491E-005,-0.0465409253350977,0.952438318763589,-0.236249756355149,0.952438319044625,-0.236249756477112,-7.59752887025678E-005,-0.0465632249306296
15,-0.000703784544425157,-0.0481234337387231,0.950121527304914,-0.243863984084044,0.950121527589456,-0.243863984235143,-0.000684797950601279,-0.0481470414582947
15.5,-0.00133791653616055,-0.0497010047981883,0.94774753417913,-0.251449813936332,0.947747534462402,-0.251449814115501,-0.00131787054935217,-0.0497259656631126
16,-0.00199644023956524,-0.0512731505432544,0.94531641351574,-0.25900707642239,0.945316413793547,-0.259007076628041,-0.00197532461865774,-0.0512995098547187
16.5,-0.00267946530203078,-0.0528393719438114,0.942828265222983,-0.266535570785723,0.942828265491713,-0.266535571015871,-0.0026572713982696,-0.0528671752303791
17,-0.00338708072842064,-0.0543991603963891,0.940283212598799,-0.274035071088205,0.940283212855402,-0.274035071340586,-0.00336380146143794,-0.0544284533650625
17.5,-0.00411935463141266,-0.0559519991844826,0.937681399941698,-0.281505331100345,0.937681400183658,-0.281505331372506,-0.00409498446486078,-0.0559828276751282
18,-0.00487633409599425,-0.0574973649036488,0.93502299026095,-0.288946088208392,0.935022990486252,-0.28894608849778,-0.00485086901306764,-0.057529774846619
18.5,-0.00565804514967944,-0.059034728843695,0.932308163147888,-0.296357066519428,0.93230816335498,-0.296357066823442,-0.00563148262876689,-0.0590687662203893
19,-0.00646449282976619,-0.0605635583214104,0.929537112842947,-0.3037379793175,0.929537113030692,-0.303737979633559,-0.00643683182045102,-0.0605992691275956
19.5,-0.00729566133888204,-0.0620833179585576,0.926710046513711,-0.311088530998967,0.926710046681352,-0.311088531324547,-0.00726690223845927,-0.0621207481701826
20,-0.00815151428005884,-0.063593470900867,0.923827182745903,-0.31840841859334,0.923827182893017,-0.318408418926011,-0.00812165891071603,-0.0636326664421636
20.5,-0.00903199496276746,-0.0650934799748992,0.920888750240228,-0.32569733295721,0.920888750366684,-0.325697333294661,-0.00900104654954503,-0.0651344866885279
21,-0.00993702677153391,-0.0665828087805034,0.917894986702302,-0.332954959712775,0.917894986808228,-0.332954960052834,-0.00990498992114702,-0.0666256723995322
21.5,-0.0108665135890891,-0.0680609227175051,0.914846137909535,-0.340180979989017,0.914846137995274,-0.340180980329663,-0.0108333942696718,-0.0681056888389924
22,-0.0118203402663856,-0.069527289946034,0.911742456937127,-0.347375071012279,0.911742457003207,-0.347375071351652,-0.011786145788199,-0.0695740040060189
22.5,-0.0127983731322142,-0.0709813822805461,0.908584203524924,-0.354536906583562,0.908584203572028,-0.354536906919967,-0.0127631121293235,-0.0710300895302431
23,-0.0138004605356218,-0.0724226760182376,0.905371643567137,-0.361666157472134,0.905371643596071,-0.361666157804043,-0.0137641429485547,-0.072473421501253
23.5,-0.0148264334148113,-0.0738506527030078,0.902105048707845,-0.368762491748633,0.902105048719514,-0.36876249207468,-0.0147890704741664,-0.0739034812334047
24,-0.0158761058866709,-0.0752647998266047,0.898784696026359,-0.375825575075644,0.898784696021745,-0.375825575394628,-0.0158377100976561,-0.0753197559676628
24.5,-0.0169492758516254,-0.0766646114689298,0.895410867797903,-0.382855070969571,0.895410867778042,-0.382855071280443,-0.0169098609794709,-0.0767217395124478
25,-0.0180457256089186,-0.0780495888797546,0.891983851316537,-0.389850641044105,0.891983851282504,-0.389850641345964,-0.0180053066651211,-0.0781089328257563
25.5,-0.0191652224779899,-0.0794192410043288,0.888503938768662,-0.396811945242989,0.88850393872155,-0.396811945535077,-0.0191238157073261,-0.0794808445410884
26,-0.0203075194220216,-0.0807730849555699,0.884971427146894,-0.403738642067538,0.884971427087808,-0.403738642349227,-0.0202651422902564,-0.0808369914398033
26.5,-0.0214723556702005,-0.082110646435581,0.8813866181954,-0.410630388802714,0.881386618125436,-0.410630389073502,-0.0214290268524316,-0.0821768988727414
27,-0.0226594573356502,-0.0834314601093389,0.877749818379023,-0.417486841744206,0.877749818299266,-0.417486842003703,-0.0226151967052127,-0.0835001011339509
27.5,-0.0238685380264266,-0.084735069933483,0.874061338869681,-0.424307656427969,0.87406133878119,-0.424307656675891,-0.0238233666442591,-0.0848061417893837
28,-0.0250992994472484,-0.0860210294430055,0.870321495544477,-0.431092487862876,0.870321495448286,-0.431092488099037,-0.0250532395516827,-0.0860945739635164
28.5,-0.0263514319901001,-0.0872889019987786,0.866530608990963,-0.437840990766612,0.866530608888065,-0.437840990990911,-0.0263045069869678,-0.0873649605866995
29,-0.0276246153120734,-0.0885382609986434,0.862689004515694,-0.444552819804466,0.862689004407046,-0.444552820016884,-0.0275768497650637,-0.0886168746060618
29.5,-0.0289185188991256,-0.0897686900548254,0.858797012153018,-0.451227629830433,0.858797012039531,-0.45122763003102,-0.0288699385203228,-0.0898498991627004
30,-0.0302328026147266,-0.0909797831402923,0.854854966671576,-0.457865076129847,0.854854966554115,-0.457865076318718,-0.0301834342552497,-0.0910636277377943
30.5,-0.0315671172325534,-0.0921711447065732,0.850863207576583,-0.464464814662611,0.850863207455966,-0.464464814839936,-0.0315169888732325,-0.0922576642701671
31,-0.032921104952651,-0.0933423897754664,0.846822079106368,-0.4710265023061,0.84682207898336,-0.471026502472097,-0.0328702456946739,-0.0934316232477348
31.5,-0.0342943999006302,-0.0944931440069237,0.842731930222073,-0.477549797096745,0.842731930097393,-0.477549797251675,-0.0342428399560942,-0.094585129775115
32,-0.0356866286096693,-0.0956230437452756,0.838593114589715,-0.484034358469364,0.83859311446403,-0.484034358613525,-0.03563439929198,-0.0957178196196062
32.5,-0.0370974104852042,-0.0967317360458466,0.834405990554108,-0.490479847493341,0.834405990428036,-0.490479847627061,-0.0370445441992664,-0.0968293392375427
33,-0.0385263582523497,-0.0978188786838773,0.830170921104345,-0.496885927104813,0.830170920978455,-0.496885927228446,-0.0384728884844962,-0.0979193457829814
33.5,-0.0399730783861689,-0.0988841401475342,0.825888273830764,-0.503252262334101,0.825888273705576,-0.503252262448022,-0.0399190396937816,-0.0989875071004922
34,-0.0414371715250337,-0.0999271996166777,0.821558420873433,-0.509578520527701,0.821558420749422,-0.5095785206323,-0.0413825995258122,-0.100033501703727
34.5,-0.0429182328673738,-0.100947746928931,0.817181738862345,-0.515864371564232,0.817181738739938,-0.515864371659911,-0.0428631642282058,-0.101057018741312
35,-0.0444158525521824,-0.101945482534474,0.812758608849587,-0.522109488063798,0.81275860872917,-0.522109488150969,-0.0443603249775892,-0.102057757951484
35.5,-0.045929616023714,-0.102920117440874,0.808289416233836,-0.528313545590353,0.808289416115753,-0.528313545669433,-0.0458736682438287,-0.103035429606808
36,-0.0474591043808177,-0.103871373149163,0.803774550677586,-0.53447622284665,0.80377455056214,-0.534476222918059,-0.0474027761388682,-0.103989754450147
36.5,-0.0490038947114246,-0.104798981582263,0.799214406017535,-0.54059720186152,0.799214405904994,-0.540597201925677,-0.0489472267507036,-0.104920463623029
37,-0.0505635604126952,-0.105702685006753,0.794609380168622,-0.546676168169206,0.794609380059214,-0.546676168226527,-0.0505065944629796,-0.105827298587376
37.5,-0.0521376714973719,-0.106582235948916,0.789959875022171,-0.552712810980602,0.789959874916091,-0.5527128110315,-0.0520804502607861,-0.106710011041547
38,-0.0537257948868765,-0.107437397105871,0.785266296338666,-0.55870682334627,0.78526629623608,-0.558706823391151,-0.0536683620231738,-0.107568362831497
38.5,-0.0553274946917113,-0.108267941252549,0.780529053635624,-0.564657902311157,0.780529053536664,-0.564657902350418,-0.055269894802964,-0.108402125857818
39,-0.056942332479708,-0.109073651145183,0.775748560071055,-0.570565749060996,0.775748559975829,-0.570565749095025,-0.056884611094394,-0.109211081979312
39.5,-0.058569867532679,-0.109854319421924,0.770925232322999,-0.576430069060404,0.770925232231585,-0.576430069089579,-0.0585120710891536,-0.109995022913742
40,-0.0602096570919995,-0.110609748501111,0.766059490465576,-0.582250572182721,0.766059490378031,-0.582250572207409,-0.0601518329213546,-0.110753750136248
40.5,-0.0618612565936554,-0.111339750477684,0.761151757842019,-0.588026972831673,0.761151757758377,-0.588026972852226,-0.0618034529019531,-0.111487074775953
41,-0.0635242198932724,-0.11204414701817,0.756202460935101,-0.593758990054959,0.756202460855373,-0.59375899007172,-0.0634664857431556,-0.112194817511163
41.5,-0.0651980994816227,-0.112722769254611,0.75121202923535,-0.599446347649903,0.751212029159531,-0.599446347663198,-0.0651404847733037,-0.112876808463546
42,-0.0668824466910879,-0.113375457677765,0.746180895107477,-0.605088774261298,0.746180895035544,-0.605088774271439,-0.0668250021427177,-0.113532887091607
42.5,-0.0685768118935595,-0.11400206202989,0.741109493655326,-0.610686003471624,0.741109493587239,-0.610686003478911,-0.0685195890209797,-0.114162902083778
43,-0.0702807446902094,-0.114602441197331,0.735998262585734,-0.616237773883806,0.735998262521441,-0.616237773888523,-0.0702237957860933,-0.114766711251341
43.5,-0.0719937940935643,-0.115176463103163,0.730847642071596,-0.621743829196702,0.73084764201103,-0.621743829199119,-0.0719371722059572,-0.115344181421427
44,-0.0737155087022989,-0.115724004600053,0.725658074614443,-0.627203918273512,0.725658074557527,-0.627203918273883,-0.0736592676125619,-0.115895188330272
44.5,-0.0754454368691287,-0.116244951363512,0.720430004906817,-0.632617795203314,0.720430004853465,-0.63261779520188,-0.075389631069298,-0.116419616516871
45,-0.0771831268621844,-0.116739197785677,0.715163879694693,-0.637985219355934,0.715163879644809,-0.63798521935292,-0.0771278115317581,-0.116917359217204
45.5,-0.0789281270202103,-0.117206646869724,0.709860147640198,-0.643305955430349,0.709860147593677,-0.643305955425967,-0.0788733580023762,-0.117388318259106
46,-0.080679985901929,-0.11764721012502,0.704519259184845,-0.648579773496846,0.704519259141576,-0.648579773491293,-0.0806258196792407,-0.117832403957896
46.5,-0.0824382524298815,-0.118060807463075,0.699141666413494,-0.653806449033147,0.699141666373362,-0.653806449026607,-0.082384746099404,-0.118249535012835
47,-0.0842024760290458,-0.118447367094369,0.693727822919222,-0.65898576295469,0.693727822882107,-0.658985762947333,-0.0841496872769831,-0.118639638404477
47.5,-0.0859722067605113,-0.118806825426089,0.688278183669287,-0.664117501639309,0.688278183635065,-0.664117501631291,-0.0859201938363288,-0.119002649292948
48,-0.0877469954504744,-0.11913912696082,0.682793204872329,-0.66920145694649,0.682793204840872,-0.669201456937956,-0.087695817140538,-0.11933851091719
48.5,-0.0895263938148065,-0.119444224196209,0.677273343846974,-0.674237426231427,0.677273343818154,-0.674237426222508,-0.0894761094155501,-0.119647174495211
49,-0.091309954579421,-0.119722077525609,0.671719058891963,-0.679225212354063,0.671719058865648,-0.679225212344879,-0.0912606238700655,-0.119928599125319
49.5,-0.0930972315966643,-0.119972655139736,0.666130809157922,-0.684164623683332,0.666130809133983,-0.684164623673991,-0.0930489148115016,-0.120182751688388
50,-0.0948877799579352,-0.120195932929308,0.660509054520906,-0.689055474096775,0.660509054499211,-0.689055474087373,-0.0948405377581971,-0.120409606751118
50.5,-0.0966811561027197,-0.120391894388676,0.654854255457778,-0.693897582975734,0.654854255438195,-0.693897582966359,-0.096635049548053,-0.120609146470309
51,-0.0984769179242255,-0.120560530520446,0.649166872923556,-0.698690775196307,0.649166872905957,-0.698690775187033,-0.0984320084437896,-0.120781360498123
51.5,-0.100274624871781,-0.120701839741054,0.64344736823078,-0.703434881116228,0.643447368215036,-0.703434881107122,-0.100230974234989,-0.120926245888326
52,-0.102073838050154,-0.120815827787299,0.637696202930978,-0.70812973655788,0.637696202916962,-0.708129736548999,-0.102031508337076,-0.12104380700349
52.5,-0.103874120315946,-0.120902507623801,0.631913838698298,-0.712775182787574,0.631913838685886,-0.712775182778965,-0.103833173887396,-0.121134055423129
53,-0.105675036371176,-0.12096189935136,0.626100737215362,-0.717371066491284,0.626100737204435,-0.717371066482988,-0.105635535838504,-0.121197009852755
53.5,-0.107476152854208,-0.120994030116209,0.620257360061398,-0.721917239746995,0.620257360051835,-0.721917239739043,-0.107438161048812,-0.121232696033818
54,-0.109277038428122,-0.120998934020111,0.614384168602672,-0.726413559993816,0.614384168594359,-0.726413559986232,-0.109240618370705,-0.121241146654518
54.5,-0.111077263866636,-0.120976652031292,0.608481623885296,-0.730859889998006,0.608481623878122,-0.730859889990809,-0.11104247873623,-0.121222401261442
55,-0.112876402137706,-0.120927231896183,0.602550186530406,-0.735256097816077,0.602550186524264,-0.735256097809276,-0.112843315240476,-0.121176506172026
55.5,-0.114674028484865,-0.120850728051931,0.596590316631765,-0.739602056755088,0.59659031662655,-0.739602056748688,-0.114642703222721,-0.121103514387786
56,-0.116469720506416,-0.120747201539667,0.5906024736558,-0.743897645330299,0.590602473651414,-0.7438976453243,-0.11644022034545,-0.121003485508314
56.5,-0.118263058232553,-0.1206167199185,0.5845871163441,-0.748142747220298,0.584587116340446,-0.748142747214692,-0.11823544667132,-0.120876485645994
57,-0.12005362420048,-0.120459357180207,0.578544702618384,-0.752337251219729,0.578544702615372,-0.752337251214507,-0.120027964738149,-0.120722587341433
57.5,-0.121841003527616,-0.1202751936646,0.572475689487959,-0.756481051189764,0.572475689485503,-0.75648105118491,-0.121817359632003,-0.120541869479554
58,-0.123624783982934,-0.120064315975544,0.566380532959664,-0.760574046006424,0.566380532957682,-0.760574046001918,-0.123603219058442,-0.12033441720635
58.5,-0.125404556056516,-0.1198268168976,0.560259687950321,-0.764616139506862,0.560259687948736,-0.764616139502683,-0.125385133412001,-0.120100321846263
59,-0.127179913027359,-0.119562795313273,0.554113608201677,-0.768607240433747,0.554113608200415,-0.768607240429866,-0.127162695843943,-0.119839680820166
59.5,-0.12895045102951,-0.119272356120846,0.547942746197855,-0.772547262377821,0.547942746196849,-0.772547262374209,-0.128935502328357,-0.11955259756393
60,-0.130715769116566,-0.11895561015277,0.5417475530853,-0.776436123718769,0.541747553084486,-0.776436123715397,-0.130703151726643,-0.119239181447554
60.5,-0.132475469324588,-0.11861267409461,0.535528478595217,-0.780273747564489,0.535528478594537,-0.780273747561321,-0.13246524585043,-0.118899547694826
61,-0.134229156733484,-0.118243670404496,0.529285970968497,-0.784060061688849,0.529285970967897,-0.784060061685849,-0.134221389522979,-0.11853381730352
61.5,-0.135976439526883,-0.117848727233102,0.523020476883118,-0.787794998468058,0.523020476882549,-0.787794998465188,-0.1359711906391,-0.118142116966089
62,-0.137716929050565,-0.117427978344107,0.51673244138402,-0.79147849481571,0.516732441383435,-0.791478494812933,-0.137714260223638,-0.11772457899085
62.5,-0.139450239869458,-0.116981563035126,0.510422307815423,-0.795110492116617,0.510422307814782,-0.795110492113891,-0.139450212488554,-0.117281341223636
63,-0.14117598982326,-0.116509626059121,0.504090517755598,-0.798690936159496,0.504090517754865,-0.798690936156784,-0.141178664888629,-0.116812546969915
