"Freq [GHz]","re(St(P1,P1)) []","im(St(P1,P1)) []","re(St(P1,P2)) []","im(St(P1,P2)) []","re(St(P2,P1)) []","im(St(P2,P1)) []","re(St(P2,P2)) []","im(St(P2,P2)) []"
0,0.00432379510931469,0,0.995688873706968,0,0.995688880735543,0,0.00432379815958939,0
0.5,0.00479240279184268,0.000320930808140218,0.995193767611241,-0.00436638726777261,0.995193767102371,-0.00436638599315486,0.00479232392030582,0.000321246103869299
1,0.00523546931035668,5.64462094878593E-005,0.994703789703486,-0.00814522229181236,0.99470378914306,-0.00814522233961057,0.00523530969583419,5.71833620206519E-005
1.5,0.00553337922175601,-0.000311478945519639,0.994321163245043,-0.0119192166556914,0.994321162694938,-0.0119192166253335,0.00553318862016994,-0.000310281945925084
2,0.00571510824880939,-0.000732200137605332,0.993989464276078,-0.0155730872074287,0.993989463797854,-0.0155730871232009,0.00571491176756211,-0.00073055724703508
2.5,0.00582808652856492,-0.00115367248030651,0.993712647889163,-0.0191726215415784,0.993712647502479,-0.0191726214395906,0.00582788926185351,-0.00115159473199355
3,0.00590334530737735,-0.00156482309730066,0.993473121448783,-0.0227514259902577,0.993473121151096,-0.0227514258948744,0.00590314667628178,-0.00156231587477507
3.5,0.00595769839876237,-0.00196559398451868,0.993253238870946,-0.0263234676282096,0.993253238652303,-0.0263234675513644,0.00595749657429767,-0.00196265930539852
4,0.00600021187200461,-0.00235825916704613,0.993039794650461,-0.0298935135085383,0.993039794499762,-0.0298935134539917,0.00600000490144748,-0.0023548972168328
4.5,0.00603595992256434,-0.00274520271386081,0.992823600894782,-0.0334624851728709,0.992823600801643,-0.03346248513982,0.00603574596745293,-0.00274141262239169
5,0.00606791689663844,-0.00312844567845083,0.992598316334977,-0.0370298514943581,0.992598316290084,-0.037029851479776,0.00606769424761477,-0.00312422590028305
5.5,0.00609790831548018,-0.00350962213790851,0.992359493949565,-0.0405946399039046,0.992359493944512,-0.0405946399038797,0.00609767535926897,-0.00350497064215283
6,0.00612710452684251,-0.00389005259841824,0.992103939473205,-0.0441558439796985,0.992103939500305,-0.0441558439901986,0.00612685970985183,-0.00388496696620777
6.5,0.00615628752003161,-0.00427082286051217,0.991829301950876,-0.0477125727134275,0.991829302003001,-0.0477125727307541,0.00615602931798742,-0.00426530033610995
7,0.00618600111122225,-0.0046528481073711,0.991533814694623,-0.0512640908182185,0.991533814765112,-0.0512640908392026,0.00618572800534745,-0.0046468856249291
7.5,0.00621663876694112,-0.00503692108385323,0.991216129471992,-0.0548098146570251,0.991216129554606,-0.0548098146791354,0.00621634922522385,-0.00503051528094467
8,0.00624849679430595,-0.00542374749967678,0.990875207882273,-0.0583492918355653,0.990875207971183,-0.0583492918569224,0.00624818925637838,-0.0054168947232256
8.5,0.00628180760967889,-0.00581397202575928,0.990510247991222,-0.0618821765912116,0.99051024808101,-0.0618821766105686,0.0062814804740976,-0.00580666833337951
9,0.00631676117645674,-0.0062081975791406,0.990120633016649,-0.065408206076162,0.990120633102317,-0.0654082060928385,0.00631641278950923,-0.00620043873765752
9.5,0.00635351921254967,-0.00660699987132585,0.989705894101944,-0.0689271794879174,0.989705894178914,-0.068927179501741,0.00635314785797303,-0.00659878135336456
10,0.00639222486526836,-0.00701093862187374,0.989265682343504,-0.0724389405887491,0.989265682407623,-0.0724389405999784,0.00639182875442357,-0.00700225560117129
10.5,0.00642642683939965,-0.00739379515800387,0.98885379566125,-0.0759797118502545,0.98885379572552,-0.0759797118628018,0.00642603941024311,-0.00738465674206523
11,0.00646014670419426,-0.00778057311712477,0.988427457775338,-0.0795113893031907,0.98842745783968,-0.079511389317096,0.0064597697196197,-0.00777097675796057
11.5,0.00649315367839465,-0.00817129699980157,0.9879871559966,-0.0830340375245218,0.987987156060925,-0.0830340375398153,0.00649278903354011,-0.00816124013515118
12,0.00652522021769331,-0.00856597684147609,0.987533351520093,-0.086547750328374,0.987533351584312,-0.08654775034507,0.00652486993603929,-0.00855545690280568
12.5,0.00655612295810259,-0.00896460888324757,0.987066478202323,-0.0900526470933496,0.987066478266348,-0.0900526471114622,0.00655578918707522,-0.00895362330309446
13,0.00658564356653712,-0.00936717629792039,0.986586941781339,-0.0935488691844935,0.986586941845083,-0.0935488692040289,0.0065853285727121,-0.00935572251654104
13.5,0.00661356949740677,-0.00977364995957597,0.986095119497637,-0.0970365765141681,0.986095119561013,-0.0970365765351193,0.0066132756613918,-0.00976172543090836
14,0.00663969465530689,-0.0101839892455411,0.985591360071515,-0.100515944277217,0.985591360134435,-0.100515944299575,0.00663942446638843,-0.0101715914424974
14.5,0.00666381996513443,-0.0105981428603243,0.985075983991691,-0.103987159887249,0.985075984054075,-0.103987159910994,0.00666357601577233,-0.0105852692793862
15,0.00668575385204212,-0.0110160496716452,0.984549284070549,-0.107450420132996,0.984549284132316,-0.1074504201581,0.00668553883225448,-0.0110026978368278
15.5,0.00670531263448476,-0.0114376395496087,0.984011526222772,-0.110905928566639,0.984011526283845,-0.110905928593074,0.00670512932622486,-0.0114238070157811
16,0.00672232083443364,-0.0118628342008753,0.983462950426503,-0.114353893129917,0.98346295048681,-0.114353893157647,0.00672217210598847,-0.0118485185564801
16.5,0.00673661140941173,-0.0122915479905918,0.982903771829011,-0.117794524018516,0.982903771888483,-0.117794524047495,0.00673650020988767,-0.0122767468597926
17,0.00674802591146123,-0.0127236887457185,0.982334181962094,-0.1212280317809,0.982334182020669,-0.121228031811087,0.00674795526539884,-0.0127083997900383
17.5,0.00675641457849785,-0.0131591585343571,0.981754350035956,-0.124654625644228,0.981754350093574,-0.124654625675574,0.00675638758065339,-0.0131433794537967
18,0.00676163636371668,-0.0135978544164352,0.981164424283858,-0.128074512057203,0.981164424340464,-0.128074512089651,0.00676165617404839,-0.013581582950164
18.5,0.00676355890880284,-0.0140396691620381,0.980564533333395,-0.13148789343771,0.98056453338894,-0.131487893471209,0.00676362874768413,-0.0140229030886756
19,0.00676205846671596,-0.0144844919344354,0.979954787583651,-0.134894967111657,0.979954787638089,-0.134894967146151,0.00676218161039427,-0.0144672290719492
19.5,0.00675701977972002,-0.0149322089355026,0.979335280570755,-0.138295924428487,0.979335280624047,-0.138295924463919,0.00675719955604858,-0.0149144471407956
20,0.00674833591820177,-0.0153827040120746,0.978706090307374,-0.14169095003851,0.978706090359485,-0.141690950074814,0.00674857570264436,-0.0153644411802802
20.5,0.0067359080855888,-0.0158358592221806,0.9780672805844,-0.14508022131701,0.978067280635299,-0.14508022135413,0.00673621129750887,-0.0158170932857167
21,0.00671964539443948,-0.0162915553607865,0.977418902225628,-0.148463907920416,0.977418902275291,-0.148463907958291,0.00672001549367925,-0.0162722842881871
21.5,0.00669946461847284,-0.0167496724451137,0.97676099428838,-0.151842171460256,0.976760994336782,-0.151842171498825,0.00669990510222058,-0.0167298942396878
22,0.00667528992500369,-0.0172100901599679,0.976093585204972,-0.155215165281289,0.976093585252096,-0.15521516532049,0.00667580432494398,-0.0171898028583142
22.5,0.00664705259190257,-0.0176726882639251,0.975416693861635,-0.158583034330936,0.975416693907467,-0.158583034370709,0.00664764447164912,-0.0176518899343345
23,0.00661469071286694,-0.0181373469575039,0.974730330612842,-0.161945915108098,0.974730330657371,-0.161945915148385,0.00661536366566569,-0.0181160356982666
23.5,0.0065781488944494,-0.0186039472146358,0.974034498230287,-0.165303935680221,0.974034498273508,-0.165303935720963,0.00657890654114404,-0.0185821211522876
24,0.00653737794792841,-0.0190723710790293,0.973329192786673,-0.168657215758527,0.973329192828582,-0.168657215799667,0.00653822393518116,-0.0190500283665593
24.5,0.00649233457881336,-0.0195425019270914,0.972614404475327,-0.172005866822182,0.972614404515923,-0.172005866863663,0.0064932725775633,-0.0195196407421281
25,0.00644298107641261,-0.0200142246992092,0.971890118367257,-0.175349992283097,0.971890118406544,-0.175349992324864,0.00644401478056508,-0.0199908432422058
25.5,0.00638928500562508,-0.0204874261012677,0.971156315107823,-0.178689687683938,0.971156315145803,-0.17868968772594,0.0063904181309532,-0.0204635225936989
26,0.00633121890280514,-0.0209619947782973,0.970412971555483,-0.182025040922722,0.970412971592167,-0.182025040964909,0.00633245518605749,-0.0209375674608814
26.5,0.00626875997729689,-0.0214378214621758,0.969660061365445,-0.1853561324982,0.969660061400841,-0.185356132540519,0.00627010317549087,-0.0214128685931372
27,0.00620188981997397,-0.0219147990952751,0.96889755552113,-0.188683035770869,0.968897555555251,-0.188683035813273,0.00620334370986414,-0.021889318948666
27.5,0.00613059411990108,-0.0223928229319514,0.96812542281654,-0.192005817235192,0.9681254228494,-0.192005817277633,0.0061321624976125,-0.0223668137960136
28,0.0060548623900154,-0.0228717906196594,0.967343630292604,-0.195324536799175,0.967343630324218,-0.195324536841612,0.00605654907082193,-0.0228452507952661
28.5,0.00597468770254198,-0.0233516022615086,0.9665521436306,-0.198639248067993,0.966552143660985,-0.198639248110382,0.00597649652078552,-0.0233245300606648
29,0.00589006643469686,-0.0238321604618941,0.965750927505695,-0.201949998628844,0.96575092753487,-0.201949998671145,0.0058920012438283,-0.0238045542063277
29.5,0.00580099802505235,-0.0243133703568756,0.964939945903547,-0.205256830334701,0.964939945931532,-0.205256830376875,0.00580306269778619,-0.0242852283766863
30,0.00570748474083427,-0.0247951396307862,0.964119162402829,-0.208559779584955,0.964119162429645,-0.208559779626964,0.00570968316940867,-0.024766460263197
30.5,0.00560953145629223,-0.0252773785205433,0.963288540426408,-0.211858877601335,0.963288540452077,-0.211858877643146,0.00561186755281418,-0.02524816010872
31,0.00550714544217068,-0.0257599998090252,0.962448043463764,-0.215154150697801,0.962448043488309,-0.215154150739381,0.00550962313904896,-0.0257302407009821
31.5,0.00540033616623559,-0.0262429188087312,0.961597635267114,-0.218445620543318,0.961597635290559,-0.218445620584634,0.00540295941668334,-0.0262126173563231
32,0.00528911510473246,-0.0267260533369589,0.960737280023546,-0.221733304416721,0.960737280045914,-0.221733304457744,0.00529188788333507,-0.0266952078949583
32.5,0.00517349556457941,-0.0272093236835578,0.959866942505307,-0.225017215453061,0.959866942526623,-0.225017215493764,0.00517642186791956,-0.0271779326088053
33,0.00505349251605947,-0.0276926525722621,0.958986588200298,-0.22829736288094,0.958986588220587,-0.228297362921296,0.00505657636338802,-0.0276607142229088
33.5,0.00492912243571991,-0.0281759651165374,0.958096183424598,-0.23157375225058,0.958096183443886,-0.231573752290563,0.00493236786967233,-0.0281434778513576
34,0.0048004031591633,-0.0286591887707819,0.957195695418798,-0.23484638565244,0.95719569543711,-0.23484638569203,0.00480381424650644,-0.0286261509485692
34.5,0.00466735374338056,-0.029142253277632,0.956285092429704,-0.238115261926295,0.956285092447068,-0.238115261965466,0.00467093457579476,-0.0291086632566659
35,0.00452999433825668,-0.0296250906121123,0.955364343778915,-0.241380376860823,0.955364343795355,-0.241380376899558,0.00453374903313958,-0.029590946749706
35.5,0.00438834606687771,-0.0301076349232123,0.954433419919601,-0.24464172338378,0.954433419935144,-0.244641723422058,0.00439227876816695,-0.0300729355753195
36,0.00424243091423288,-0.0305898224734844,0.95349229248274,-0.247899291742904,0.953492292497412,-0.247899291780711,0.00424654579324668,-0.0305545659943878
36.5,0.00409227162393488,-0.0310715915771826,0.952540934313932,-0.251153069677779,0.952540934327759,-0.251153069715097,0.00409657288021975,-0.031035776319233
37,0.00393789160254426,-0.0315528825373685,0.951579319501832,-0.254403042582872,0.951579319514841,-0.254403042619683,0.00394238346473419,-0.0315165068507994
37.5,0.00377931483112548,-0.0320336375824017,0.950607423399132,-0.257649193662006,0.950607423411347,-0.257649193698301,0.00378400155780401,-0.031996699815203
38,0.00361656578362618,-0.0325138008021906,0.94962522263695,-0.260891504074585,0.949625222648398,-0.260891504110351,0.00362145166418926,-0.0324762993000283
38.5,0.00344966935171714,-0.032993318084479,0.948632695133407,-0.264129953073857,0.948632695144113,-0.264129953109081,0.00345475870723611,-0.0329552511906854
39,0.00327865077571116,-0.0334721370514892,0.947629820097071,-0.267364518137527,0.947629820107061,-0.2673645181722,0.00328394795978987,-0.0334335031070987
39.5,0.0031035355812033,-0.0339502069971256,0.946616578025932,-0.270595175091055,0.946616578035231,-0.270595175125168,0.00310904498083353,-0.0339110043409598
40,0.00292434952108733,-0.0344274788249643,0.945592950702441,-0.273821898223957,0.945592950711073,-0.273821898257502,0.00293007555749286,-0.0343877057937685
40.5,0.00274111852260989,-0.0349039049871986,0.944558921185163,-0.277044660399425,0.944558921193152,-0.277044660432393,0.00274706565208466,-0.0348635599158214
41,0.00255386863914236,-0.0353794394246953,0.943514473797481,-0.280263433157591,0.943514473804852,-0.280263433189978,0.00256004135387411,-0.035338520646313
41.5,0.00236262600635506,-0.0358540375082903,0.942459594113772,-0.283478186812758,0.942459594120549,-0.283478186844558,0.00236902883524359,-0.0358125433546712
42,0.00216741680251636,-0.0363276559814139,0.941394268943436,-0.286688890544881,0.941394268949642,-0.286688890576089,0.00217405431197193,-0.0362855847832253
42.5,0.00196826721261711,-0.0368002529041436,0.940318486313093,-0.289895512485615,0.940318486318751,-0.289895512516228,0.00197514400734999,-0.0367576029912908
43,0.00176520339606645,-0.0372717875987545,0.939232235447257,-0.293098019799216,0.939232235452389,-0.293098019829229,0.00177232411986045,-0.0372285573007587
43.5,0.00155825145770366,-0.0377422205968014,0.938135506747747,-0.296296378758566,0.938135506752374,-0.296296378787979,0.00156562079417477,-0.0376984082432121
44,0.00134743742188537,-0.0382115135877943,0.937028291772061,-0.299490554816602,0.937028291776207,-0.299490554845413,0.00135506009522318,-0.0381671175086302
44.5,0.00113278720943183,-0.0386796293694642,0.93591058321095,-0.30268051267339,0.935910583214635,-0.302680512701597,0.00114066798512741,-0.0386346478956847
45,0.000914326617205585,-0.0391465317996629,0.934782374865328,-0.3058662163391,0.934782374868573,-0.305866216366704,0.000922470302759493,-0.0391009632636712
45.5,0.000692081300134706,-0.0396121857498863,0.933643661622727,-0.309047629193125,0.933643661625553,-0.309047629220125,0.000700492745750347,-0.0395660284860579
46,0.000466076755490319,-0.0400765570604147,0.932494439433417,-0.312224714039546,0.932494439435843,-0.312224714065944,0.000474760854750178,-0.0400298094056504
46.5,0.000236338309240747,-0.0405396124970749,0.931334705286315,-0.315397433159174,0.931334705288361,-0.315397433184972,0.000245299999762583,-0.0404922727913806
47,2.89110431667128E-006,-0.0410013197095958,0.930164457184809,-0.318565748358366,0.930164457186494,-0.318565748383565,1.21353683951719E-005,-0.0409533862966835
47.5,-0.000234239909362499,-0.0414616471915417,0.928983694122565,-0.321729621014803,0.928983694123908,-0.321729621039404,-0.000224708044133881,-0.0414131184194531
48,-0.000475029983249886,-0.0419205642417948,0.927792416059443,-0.32488901212041,0.927792416060461,-0.324889012144417,-0.000465205443372918,-0.041871438463547
48.5,-0.000719454577050582,-0.0423780409275616,0.926590623897541,-0.328043882321608,0.926590623898254,-0.328043882345025,-0.00070933224253622,-0.042328316501812
49,-0.000967489364245233,-0.0428340480488638,0.925378319457479,-0.331194191957027,0.925378319457903,-0.331194191979857,-0.000957064068045521,-0.0427837233405928
49.5,-0.0012191102363831,-0.0432885571044945,0.924155505454937,-0.33433990109287,0.924155505455089,-0.334339901115117,-0.00120837676383645,-0.0432376304857078
50,-0.00147429330623083,-0.0437415402593739,0.922922185477517,-0.337480969556037,0.922922185477414,-0.337480969577705,-0.0014632463945316,-0.0436900101098203
50.5,-0.00173301490990857,-0.0441929703133015,0.921678363961955,-0.340617356965179,0.921678363961611,-0.340617356986274,-0.00172164924759083,-0.0441408350212074
51,-0.00199525160807934,-0.0446428206710321,0.92042404617171,-0.343749022759781,0.920424046171143,-0.343749022780308,-0.00198356183451565,-0.0445900786338547
51.5,-0.00226098018629706,-0.0450910653136665,0.919159238174973,-0.346875926227418,0.919159238174196,-0.346875926247381,-0.00224896089122245,-0.0450377149388546
52,-0.00253017765458152,-0.0455376787712816,0.917883946823096,-0.349998026529275,0.917883946822126,-0.349998026548681,-0.0025178233776264,-0.0454837184770591
52.5,-0.00280282124630532,-0.0459826360967948,0.916598179729474,-0.353115282724061,0.916598179728324,-0.353115282742915,-0.00279012647655102,-0.0459280643129503
53,-0.00307888841644793,-0.0464259128409883,0.915301945248877,-0.356227653790398,0.915301945247561,-0.356227653808706,-0.0030658475919994,-0.0463707280096823
53.5,-0.00335835683930263,-0.0468674850286863,0.913995252457253,-0.359335098647793,0.913995252455784,-0.359335098665562,-0.00334496434687587,-0.0468116856052678
54,-0.00364120440566501,-0.0473073291359991,0.912678111132006,-0.36243757617627,0.912678111130398,-0.362437576193508,-0.00362745458019359,-0.0472509135898374
54.5,-0.00392740921958756,-0.0477454220686557,0.911350531732745,-0.365535045234756,0.91135053173101,-0.365535045251469,-0.00391329634384513,-0.0476883888839772
55,-0.00421694959472479,-0.0481817411413148,0.91001252538251,-0.368627464678285,0.910012525380661,-0.368627464694479,-0.00420246789896506,-0.0481240888180565
55.5,-0.00450980405033624,-0.0486162640578829,0.908664103849479,-0.371714793374115,0.908664103847527,-0.371714793389797,-0.00449494771195014,-0.0485579911125547
56,-0.0048059513069717,-0.0490489688927436,0.907305279529142,-0.374796990216793,0.907305279527099,-0.374796990231972,-0.00479071445015972,-0.0489900738593012
56.5,-0.00510537028189045,-0.0494798340729143,0.905936065426945,-0.377874014142279,0.905936065424821,-0.377874014156962,-0.00508974697735343,-0.0494203155036346
57,-0.00540804008424106,-0.0499088383610395,0.9045564751414,-0.380945824141133,0.904556475139207,-0.380945824155328,-0.00539202434888575,-0.0498486948274159
57.5,-0.00571394001004133,-0.0503359608392397,0.90316652284765,-0.384012379270876,0.903166522845399,-0.38401237928459,-0.00569752580670535,-0.0502751909328789
58,-0.00602304953698268,-0.0507611808937345,0.901766223281487,-0.387073638667533,0.901766223279187,-0.387073638680774,-0.00600623077417162,-0.0506997832272627
58.5,-0.00633534831909371,-0.0511844782002491,0.900355591723801,-0.390129561556444,0.900355591721461,-0.390129561569221,-0.00631811885073869,-0.0511224514082287
59,-0.00665081618127544,-0.0516058327101292,0.898934643985475,-0.393180107262357,0.898934643983105,-0.393180107274677,-0.00663316980650291,-0.0515431754499804
59.5,-0.00696943311374415,-0.052025224637178,0.897503396392696,-0.396225235218878,0.897503396390305,-0.39622523523075,-0.0069513635766667,-0.051961935590108
60,-0.00729117926639727,-0.0524426344451441,0.896061865772681,-0.399264904977286,0.896061865770278,-0.399264904988718,-0.00727268025591593,-0.0523787123170862
60.5,-0.00761603494311752,-0.0528580428358685,0.894610069439807,-0.402299076214786,0.8946100694374,-0.402299076225787,-0.0075971000927425,-0.0527934863584238
61,-0.00794398059603879,-0.0532714307380258,0.893148025182136,-0.405327708742199,0.893148025179733,-0.405327708752777,-0.00792460348372581,-0.0532062386694168
61.5,-0.00827499681978483,-0.0536827792964729,0.891675751248324,-0.408350762511157,0.891675751245931,-0.40835076252132,-0.00825517096778772,-0.0536169504224973
62,-0.00860906434569642,-0.0540920698621421,0.890193266334899,-0.41136819762081,0.890193266332525,-0.411368197630567,-0.00858878322043544,-0.0540256029971378
