"Freq [GHz]","re(St(P1,P1)) []","im(St(P1,P1)) []","re(St(P1,P2)) []","im(St(P1,P2)) []","re(St(P2,P1)) []","im(St(P2,P1)) []","re(St(P2,P2)) []","im(St(P2,P2)) []"
0,0.00373671890480409,0,0.996277991915122,0,0.996277995669516,0,0.00373671424375743,0
0.5,0.0042178531055157,-0.000716430787527145,0.995729908136937,-0.00596381397776824,0.995729907388899,-0.00596381116609734,0.00421752587265445,-0.000715244530397285
1,0.00466364994248636,-0.0020620785007992,0.995119245703989,-0.0112877013137087,0.995119245392093,-0.0112877014652817,0.00466277727662501,-0.00205933133417702
1.5,0.00482140087231286,-0.00362549067673612,0.994620833790012,-0.0166768552425296,0.994620833442486,-0.0166768553854304,0.00481958219736711,-0.00362103092314925
2,0.00485340583835026,-0.00513135130562858,0.994090310632632,-0.0218947916119987,0.994090310294199,-0.0218947917195003,0.00485095782135581,-0.00512486562003645
2.5,0.00483063185265742,-0.00659694905153785,0.99357433650512,-0.0269884529211346,0.993574336212953,-0.0269884529926863,0.00482769374902858,-0.00658839562800395
3,0.00477620967576442,-0.00803626769833699,0.993084382301508,-0.0320015422443234,0.993084382075883,-0.0320015422898763,0.0047728232973645,-0.00802564805102435
3.5,0.00469917350109927,-0.00945712121665565,0.992614503152418,-0.0369643949590444,0.992614502999448,-0.0369643949889777,0.0046953364682949,-0.00944443768120529
4,0.00460363905107108,-0.0108637700248799,0.992153036830435,-0.0418952589448818,0.992153036747219,-0.0418952589663473,0.00459932836185128,-0.0108490183024585
4.5,0.00449174310187894,-0.0122585460305604,0.991688031367028,-0.0468041993880579,0.991688031345722,-0.0468041994048587,0.00448692585594124,-0.0122417147346958
5,0.00436473498328072,-0.0136427038416045,0.991209151307831,-0.0516963959703158,0.991209151338186,-0.0516963959838677,0.00435937364355521,-0.0136237753448789
5.5,0.00422343280593385,-0.0150168709197978,0.990708048522859,-0.0565743057873167,0.990708048593695,-0.0565743057977262,0.00421748799208022,-0.0149958222811808
6,0.00406843293644599,-0.0163812954662799,0.990178184947436,-0.0614389396035886,0.990178185047468,-0.0614389396104578,0.00406186502313766,-0.0163580992101799
6.5,0.00390021366657223,-0.0177359891597089,0.989614517609172,-0.0662905730902885,0.989614517727505,-0.066290573093287,0.00389298376350489,-0.0177106139001282
7,0.00371918968955298,-0.0190808129053668,0.989013192738734,-0.0711291273636316,0.989013192865136,-0.0711291273627896,0.00371126028128854,-0.0190532238499745
7.5,0.00352574211380574,-0.0204155303739775,0.988371289874491,-0.0759543643696947,0.988371289999557,-0.0759543643655238,0.00351707750120012,-0.0203856897423425
8,0.00332023560147743,-0.0217398426099118,0.987686619038209,-0.0807659817325872,0.987686619153437,-0.0807659817261124,0.0033108022205286,-0.0217077099920067
8.5,0.00310302839330068,-0.0230534111100864,0.986957562958043,-0.085563654675016,0.986957563055867,-0.0855636546677276,0.00309279505373872,-0.0230189437833728
9,0.00287447823433462,-0.0243558736505136,0.986182954753948,-0.090347051244315,0.986182954827726,-0.0903470512380906,0.00286341630250608,-0.0243190268680831
9.5,0.00263494584935831,-0.0256468554140437,0.985361982821017,-0.0951158350099997,0.985361982864989,-0.0951158350069985,0.00262302939014525,-0.0256075826722197
10,0.00238479690578441,-0.026925976989908,0.984494116471918,-0.0998696626735374,0.984494116481152,-0.0998696626761078,0.00237200279270056,-0.0268842302808912
10.5,0.00215912335245227,-0.0282619958048356,0.983698628355895,-0.104592688004872,0.983698628364631,-0.104592688008441,0.00214557771247659,-0.0282180073307865
11,0.00192240243429409,-0.0295964913503362,0.982887687801416,-0.109298652475167,0.982887687809557,-0.109298652479625,0.00190807216308769,-0.0295502389105371
11.5,0.0016746292536039,-0.0309293866294125,0.98206149228259,-0.113988881174695,0.982061492290059,-0.113988881179917,0.00165948175248443,-0.0308808470628232
12,0.00141579883951937,-0.032260604034037,0.981220104319721,-0.118664576319489,0.981220104326464,-0.118664576325361,0.00139980203823242,-0.0322097532334116
12.5,0.00114590616950366,-0.0335900653201584,0.98036347907233,-0.123326817557533,0.980363479078311,-0.123326817563935,0.00112902854881741,-0.0335368782469061
13,0.00086494619185648,-0.0349176915831082,0.979491488226792,-0.127976565394012,0.979491488231991,-0.127976565400838,0.000847156805965088,-0.0348621422829423
13.5,0.000572913849269746,-0.0362434032334598,0.97860394035069,-0.13261466678321,0.978603940355101,-0.132614666790354,0.000554182347975857,-0.0361854648528057
14,0.000269804103418508,-0.0375671199734082,0.977700597988738,-0.137241862124775,0.977700597992365,-0.137241862132136,0.000250100754074556,-0.0375067647766247
14.5,-4.43880393941887E-005,-0.0388887607736219,0.976781191829352,-0.141858793070449,0.976781191832212,-0.141858793077939,-6.50923302153161E-005,-0.0388259601610139
15,-0.000369667501536525,-0.0402082438506906,0.97584543229049,-0.146466010691462,0.975845432292608,-0.146466010698997,-0.000391401166675603,-0.0401429683773387
15.5,-0.000706039106294576,-0.0415254866451473,0.974893018869338,-0.151063983675579,0.974893018870745,-0.151063983683084,-0.000728829896967015,-0.0414577060405552
16,-0.00105350754905009,-0.0428404058001064,0.973923647581468,-0.155653106319049,0.973923647582199,-0.15565310632646,-0.00107738251417538,-0.0427700889886644
16.5,-0.00141207736740492,-0.0441529171406074,0.972937016787479,-0.160233706154308,0.972937016787577,-0.160233706161568,-0.00143706283333006,-0.0440800322628903
17,-0.00178175291022978,-0.0454629356536236,0.971932831673444,-0.164806051112619,0.971932831672951,-0.164806051119673,-0.00180787446089251,-0.0453874500885179
17.5,-0.00216253830565641,-0.0467703754688413,0.97091080761871,-0.169370356164904,0.97091080761767,-0.169370356171713,-0.00218982076321811,-0.0466922558565193
18,-0.00255443742800396,-0.0480751498402459,0.969870672652913,-0.173926789416407,0.969870672651373,-0.173926789422933,-0.00258290483399602,-0.0479943621059515
18.5,-0.00295745386364937,-0.0493771711285365,0.968812169174416,-0.178475477654008,0.968812169172421,-0.17847547766022,-0.0029871294606704,-0.0492936805072137
19,-0.00337159087583855,-0.0506763507844097,0.967735055075602,-0.183016511361084,0.967735055073199,-0.183016511366959,-0.00340249708984799,-0.0505901218461675
19.5,-0.00379685136844984,-0.0519725993328235,0.96663910439673,-0.187549949225489,0.966639104393964,-0.187549949231009,-0.00382900979170331,-0.0518835960092052
20,-0.00423323784872331,-0.0532658263581931,0.965524107609316,-0.192075822172611,0.965524107606232,-0.19207582217776,-0.00426666922338667,-0.0531740119692663
20.5,-0.00468075238895779,-0.0545559404906677,0.964389871612274,-0.196594136959119,0.964389871608915,-0.196594136963889,-0.00471547659145544,-0.0544612777729165
21,-0.00513939658718812,-0.0558428493934691,0.963236219508835,-0.201104879364212,0.963236219505242,-0.201104879368597,-0.00517543261332745,-0.0557453005284652
21.5,-0.00560917152687129,-0.0571264597513901,0.962062990219547,-0.205608017015102,0.962062990215758,-0.205608017019099,-0.00564653747779259,-0.0570259863952387
22,-0.00609007773557796,-0.0584066772604559,0.960870037975974,-0.210103501882184,0.960870037972026,-0.210103501885797,-0.0061287908045774,-0.0583032405739927
22.5,-0.00658211514273205,-0.0596834066188956,0.959657231730805,-0.214591272477574,0.959657231726734,-0.214591272480804,-0.00662219160301136,-0.0595769672985997
23,-0.00708528303640632,-0.0609565515193662,0.958424454512815,-0.219071255788291,0.958424454508654,-0.219071255791145,-0.00712673822979176,-0.0608470698289825
23.5,-0.00759958001920219,-0.0622260146425813,0.957171602749041,-0.223543368973087,0.957171602744819,-0.223543368975574,-0.00764242834589335,-0.0621134504454082
24,-0.00812500396325305,-0.0634916976523394,0.95589858557167,-0.228007520849283,0.955898585567418,-0.228007520851413,-0.00816925887263731,-0.0633760104441459
24.5,-0.00866155196437013,-0.0647535011920719,0.954605324123103,-0.232463613193605,0.954605324118846,-0.23246361319539,-0.0087072259469686,-0.0646346501346229
25,-0.00920922029537907,-0.0660113248828873,0.953291750869441,-0.236911541878553,0.953291750865202,-0.236911541880005,-0.00925632487596018,-0.0658892688380179
25.5,-0.00976800435867642,-0.0672650673232638,0.951957808930037,-0.241351197863718,0.951957808925839,-0.241351197864851,-0.00981655009059218,-0.0671397648874739
26,-0.0103378986380604,-0.0685146260903831,0.950603451428659,-0.245782468059283,0.950603451424522,-0.245782468060111,-0.0103878950988512,-0.0683860356298842
26.5,-0.0109188966498688,-0.069759897743185,0.949228640870174,-0.250205236077145,0.949228640866115,-0.250205236077685,-0.0109703524381858,-0.0696279774293727
27,-0.0115109908934945,-0.0710007778272241,0.947833348545314,-0.254619382883294,0.94783334854135,-0.254619382883563,-0.0115639136273791,-0.0708654856724933
27.5,-0.0121141728013106,-0.0722371608813495,0.946417553965113,-0.259024787363569,0.946417553961259,-0.25902478736358,-0.0121685691178802,-0.0720984547752024
28,-0.0127284326880861,-0.0734689404462849,0.944981244325729,-0.263421326813485,0.944981244321997,-0.263421326813255,-0.0127843082446605,-0.073326778191682
28.5,-0.0133537596999421,-0.0746960090751831,0.943524414003808,-0.267808877361596,0.943524414000207,-0.267808877361141,-0.0134111191766568,-0.0745503484250398
29,-0.0139901417629227,-0.0759182583461766,0.94204706408206,-0.272187314334699,0.942047064078602,-0.272187314334038,-0.0140489888668531,-0.075769057039957
29.5,-0.0146375655312448,-0.0771355788769941,0.94054920190436,-0.276556512572222,0.940549201901052,-0.276556512571369,-0.0146979030020876,-0.0769827946773112
30,-0.0152960163353189,-0.0783478603417125,0.939030840659439,-0.280916346696256,0.939030840656286,-0.280916346695226,-0.0153578459526477,-0.0781914510708654
30.5,-0.0159654781296042,-0.0795549914896609,0.937491998992047,-0.28526669134288,0.937491998989057,-0.28526669134169,-0.0160288007217311,-0.0793949150660125
31,-0.0166459334403949,-0.0807568601665474,0.935932700640376,-0.289607421359781,0.935932700637552,-0.289607421358446,-0.016710748894856,-0.080593074640674
31.5,-0.0173373633136285,-0.081953353337854,0.934352974098408,-0.293938411974527,0.934352974095752,-0.293938411973063,-0.0174036705893104,-0.0817858169283534
32,-0.0180397472628021,-0.0831443571145223,0.932752852301864,-0.298259538937327,0.93275285229938,-0.298259538935747,-0.0181075444037186,-0.0829730282434071
32.5,-0.0187530632171005,-0.0843297567809969,0.931132372336402,-0.302570678641648,0.93113237233409,-0.302570678639966,-0.0188223473678334,-0.0841545941085622
33,-0.0194772874698436,-0.0855094368256215,0.92949157516672,-0.306871708225626,0.929491575164582,-0.306871708223856,-0.0195480548926358,-0.0853303992847017
33.5,-0.0202123946273554,-0.0866832809734694,0.927830505385256,-0.311162505656869,0.927830505383288,-0.311162505655023,-0.0202846407208609,-0.0865003278029688
34,-0.0209583575583649,-0.0878511722215849,0.926149210979202,-0.315442949802882,0.926149210977405,-0.315442949800974,-0.0210320768780428,-0.0876642629991851
34.5,-0.0217151473440615,-0.0890129928766792,0.924447743114637,-0.319712920489121,0.924447743113009,-0.319712920487161,-0.0217903336241867,-0.0888220875506238
35,-0.0224827332289132,-0.0901686245953059,0.922726155936578,-0.323972298546383,0.922726155935116,-0.323972298544382,-0.0225593794061971,-0.0899736835151486
35.5,-0.0232610825723863,-0.091317948426499,0.920984506383848,-0.328220965849056,0.920984506382549,-0.328220965847025,-0.0233391808111567,-0.0911189323727117
36,-0.024050160801676,-0.0924608448568924,0.919222854017714,-0.33245880534553,0.919222854016574,-0.33245880534348,-0.0241297025205872,-0.0922577150692308
36.5,-0.0248499313655872,-0.0935971938583329,0.917441260863278,-0.336685701081948,0.917441260862294,-0.336685701079888,-0.0249309072658159,-0.0933899120628385
37,-0.025660355689701,-0.0947268749379402,0.915639791262709,-0.340901538220268,0.915639791261876,-0.340901538218206,-0.0257427557845645,-0.0945154033724958
37.5,-0.0264813931329435,-0.0958497671906282,0.913818511739408,-0.345106203051526,0.913818511738722,-0.345106203049471,-0.0265652067788893,-0.0956340686289401
38,-0.0273130009457216,-0.0969657493540506,0.911977490872305,-0.349299583005062,0.91197749087176,-0.349299583003021,-0.027398216874609,-0.0967457871279702
38.5,-0.0281551342297341,-0.0980746998659423,0.910116799179501,-0.353481566654357,0.910116799179094,-0.353481566652338,-0.0282417405823364,-0.0978504378860181
39,-0.0290077458996173,-0.0991764969238131,0.908236509010554,-0.357652043720063,0.908236509010277,-0.35765204371807,-0.0290957302602581,-0.0989478996979809
39.5,-0.0298707866465631,-0.100271018546945,0.906336694446704,-0.361810905070706,0.906336694446554,-0.361810905068747,-0.0299601360787892,-0.100038051197259
40,-0.0307442049040366,-0.101358142640642,0.904417431208466,-0.365958042721514,0.904417431208436,-0.365958042719596,-0.030834905987232,-0.101120770917966
40.5,-0.0316279468157548,-0.102437747062665,0.90247879656995,-0.370093349831716,0.902478796570036,-0.370093349829842,-0.0317199856825831,-0.102195937359225
41,-0.0325219562060411,-0.103509709691762,0.900520869279434,-0.374216720700624,0.900520869279628,-0.374216720698798,-0.0326153185805988,-0.103263429051496
41.5,-0.0334261745527128,-0.104573908498235,0.898543729485632,-0.378328050762798,0.898543729485929,-0.378328050761025,-0.0335208457892759,-0.104323124624866
42,-0.0343405409626329,-0.105630221616437,0.896547458669234,-0.382427236582505,0.89654745866963,-0.382427236580789,-0.034436506084858,-0.105374902879195
42.5,-0.0352649921500472,-0.106678527419081,0.894532139579287,-0.386514175847654,0.894532139579774,-0.386514175845998,-0.035362235890494,-0.106418642856026
43,-0.0361994624178534,-0.10771870459329,0.892497856173987,-0.390588767363413,0.892497856174561,-0.39058876736182,-0.0362979692576887,-0.107454223912184
43.5,-0.0371438836419173,-0.108750632218216,0.890444693565571,-0.394650911045607,0.890444693566224,-0.394650911044079,-0.0372436378506424,-0.108481525794905
44,-0.0380981852585582,-0.109774189844142,0.888372737968914,-0.398700507914044,0.888372737969643,-0.398700507912583,-0.0381991709336144,-0.109500428718417
44.5,-0.0390622942553228,-0.110789257572897,0.886282076653572,-0.40273746008584,0.88628207665437,-0.402737460084448,-0.0391644953614118,-0.110510813441812
45,-0.0400361351651533,-0.111795716139453,0.884172797898936,-0.406761670768844,0.884172797899799,-0.406761670767523,-0.0401395355731069,-0.111512561348091
45.5,-0.0410196300640492,-0.112793446994531,0.88204499095227,-0.410773044255215,0.882044990953193,-0.410773044253964,-0.0411242135890925,-0.112505554524221
46,-0.0420126985723321,-0.113782332388067,0.879898745989365,-0.4147714859152,0.87989874599034,-0.414771485914022,-0.0421184490115578,-0.113489675842069
46.5,-0.0430152578595786,-0.114762255453352,0.877734154077588,-0.418756902191164,0.877734154078613,-0.418756902190057,-0.0431221590284747,-0.114464809040021
47,-0.0440272226533164,-0.115733100291668,0.875551307141135,-0.422729200591882,0.875551307142204,-0.422729200590848,-0.0441352584211713,-0.115430838805147
47.5,-0.0450485052515446,-0.11669475205722,0.873350297928274,-0.426688289687138,0.873350297929383,-0.426688289686177,-0.0451576595755593,-0.116387650855712
48,-0.046079015539136,-0.117647097042198,0.87113121998042,-0.430634079102626,0.871131219981564,-0.430634079101738,-0.0461892724970743,-0.117335132023864
48.5,-0.0471186610081717,-0.118590022761727,0.868894167602875,-0.434566479515169,0.868894167604049,-0.434566479514352,-0.0472300048293807,-0.11827317033831
49,-0.0481673467822372,-0.119523418038521,0.866639235837086,-0.438485402648254,0.866639235838287,-0.438485402647508,-0.0482797618768779,-0.119201655106757
49.5,-0.0492249756447112,-0.120447173087034,0.864366520434288,-0.442390761267894,0.864366520435511,-0.442390761267219,-0.0493384466310347,-0.120120476997973
50,-0.0502914480710495,-0.121361179596865,0.862076117830407,-0.446282469178795,0.862076117831648,-0.446282469178189,-0.0504059598005661,-0.121029528123203
50.5,-0.0513666622650701,-0.122265330815221,0.859768125122107,-0.450160441220824,0.859768125123364,-0.450160441220286,-0.0514821998454627,-0.121928702116774
51,-0.0524505141992172,-0.123159521628204,0.857442640043886,-0.454024593265781,0.857442640045153,-0.45402459326531,-0.0525670630148581,-0.12281789421566
51.5,-0.0535428976587752,-0.124043648640704,0.855099760946108,-0.457874842214443,0.855099760947383,-0.457874842214038,-0.0536604433887153,-0.123697001337803
52,-0.0546437042899962,-0.124917610254662,0.852739586773908,-0.46171110599388,0.852739586775188,-0.461711105993539,-0.0547622329232991,-0.124565922158969
52.5,-0.0557528236520681,-0.125781306745487,0.850362217046875,-0.465533303555017,0.850362217048157,-0.465533303554737,-0.0558723215003812,-0.125424557187927
53,-0.0568701432728671,-0.126634640336403,0.847967751839444,-0.469341354870429,0.847967751840724,-0.469341354870211,-0.0569905969801245,-0.12627280883974
53.5,-0.0579955487083961,-0.12747751527051,0.845556291761928,-0.473135180932369,0.845556291763205,-0.473135180932209,-0.0581169452575675,-0.127110581506957
54,-0.0591289236058109,-0.128309837880318,0.843127937942145,-0.476914703750972,0.843127937943415,-0.476914703750868,-0.0592512503226162,-0.12793778162849
54.5,-0.060270149769917,-0.129131516654575,0.840682792007566,-0.480679846352659,0.840682792008829,-0.48067984635261,-0.0603933943234481,-0.128754317755981
55,-0.0614191072330068,-0.129942462302152,0.838220956067949,-0.4844305327787,0.838220956069202,-0.484430532778705,-0.0615432576332078,-0.129560100617437
55.5,-0.0625756743278922,-0.1307425878128,0.835742532698404,-0.488166688083926,0.835742532699643,-0.488166688083981,-0.0627007189198667,-0.130355043177972
56,-0.0637397277639723,-0.131531808514583,0.833247624922855,-0.491888238335565,0.833247624924081,-0.491888238335669,-0.0638656552190986,-0.131139060697429
56.5,-0.0649111427061658,-0.132310042127793,0.830736336197867,-0.4955951106122,0.830736336199077,-0.49559511061235,-0.0650379420100236,-0.131912070784719
57,-0.0660897928565213,-0.13307720881519,0.828208770396791,-0.499287233002812,0.828208770397982,-0.499287233003006,-0.0662174532936466,-0.132673993448712
57.5,-0.0672755505383094,-0.133833231228377,0.825665031794205,-0.502964534605913,0.825665031795377,-0.50296453460615,-0.0674040616738094,-0.133424751145492
58,-0.0684682867823885,-0.134578034550183,0.82310522505063,-0.506626945528738,0.823105225051782,-0.506626945529015,-0.0685976384404668,-0.134164268821843
58.5,-0.0696678714156211,-0.135311546532904,0.820529455197487,-0.510274396886488,0.820529455198619,-0.510274396886803,-0.0697980536550868,-0.134892473954811
59,-0.0708741731511113,-0.136033697532254,0.817937827622283,-0.513906820801602,0.817937827623391,-0.513906820801952,-0.0710051762379514,-0.135609296587218
59.5,-0.072087059680033,-0.136744420536963,0.815330448053984,-0.517524150403063,0.815330448055069,-0.517524150403447,-0.0722188740571517,-0.136314669359014
60,-0.073306397764785,-0.13744365119387,0.812707422548602,-0.521126319825692,0.812707422549664,-0.521126319826107,-0.0734390140190299,-0.137008527534338
60.5,-0.0745320533332362,-0.13813132782846,0.810068857474933,-0.52471326420946,0.810068857475971,-0.524713264209906,-0.0746654621598477,-0.137690809024242
61,-0.0757638915737862,-0.138807391460781,0.80741485950046,-0.528284919698764,0.807414859501472,-0.528284919699237,-0.0758980837384189,-0.138361454404954
61.5,-0.0770017770309892,-0.139471785816666,0.804745535577405,-0.531841223441684,0.804745535578391,-0.531841223442183,-0.0771367433294661,-0.139020406931658
62,-0.0782455737014597,-0.14012445733426,0.802060992928914,-0.5353821135892,0.802060992929875,-0.535382113589723,-0.0783813049174453,-0.139667612547726
62.5,-0.0794951451297975,-0.140765355165815,0.799361339035371,-0.538907529294359,0.799361339036306,-0.538907529294903,-0.0796316319905832,-0.14030301988938
