"Freq [GHz]","re(St(P1,P1)) []","im(St(P1,P1)) []","re(St(P1,P2)) []","im(St(P1,P2)) []","re(St(P2,P1)) []","im(St(P2,P1)) []","re(St(P2,P2)) []","im(St(P2,P2)) []"
0,0.00334652063855856,0,0.996667888030061,0,0.996667886822252,0,0.00334650797003633,0
0.5,0.0037996685175159,-0.00119784356216002,0.996124061728686,-0.00622071291315507,0.996124061736936,-0.00622071299477156,0.00379919562529807,-0.00119621379993262
1,0.00420047500914222,-0.00300588896188714,0.995489603619795,-0.0118112472538847,0.995489603567826,-0.0118112472314031,0.00419921266928114,-0.00300207082761261
1.5,0.00413615150693758,-0.00503518618355514,0.994980466593965,-0.0175012730374249,0.994980466559138,-0.017501273012698,0.00413274048749912,-0.00502802949932146
2,0.00404882262030704,-0.00695331851803616,0.994394868429454,-0.0230166730441255,0.99439486841106,-0.0230166730222621,0.00404456983849677,-0.00694310683278943
2.5,0.00393767563958569,-0.00882229140477975,0.993787200830633,-0.0283806699807698,0.993787200825832,-0.0283806699642604,0.00393293752446588,-0.00880911271731932
3,0.0038027847670703,-0.0106616952636038,0.993184649045686,-0.0336278089604249,0.993184649051169,-0.0336278089495821,0.00379768496180688,-0.0106455729852257
3.5,0.00364447063046836,-0.0124790240177468,0.992594393497471,-0.0387901758626228,0.992594393510305,-0.038790175856505,0.00363905494001404,-0.012459951529955
4,0.00346317566059273,-0.0142772596498517,0.992012530413517,-0.043892499525068,0.992012530431309,-0.0438924995222667,0.00345745936836828,-0.0142552129712268
4.5,0.0032594278308129,-0.0160574039055472,0.991430512361205,-0.0489521054149691,0.991430512382057,-0.0489521054140756,0.00325341365345011,-0.0160323474219926
5,0.0030338259812015,-0.0178194938155301,0.99083878932902,-0.0539805197275953,0.990838789351415,-0.0539805197274053,0.00302751201998719,-0.0177913833314243
5.5,0.00278703163397598,-0.0195630656220587,0.990228522187355,-0.0589851930497698,0.990228522210069,-0.0589851930493914,0.00278041533888729,-0.0195318502309192
6,0.00251976300469314,-0.0212873886332741,0.989592214926761,-0.0639708552584679,0.989592214948791,-0.063970855257292,0.00251284334412061,-0.0212530120168832
6.5,0.00223278978474362,-0.0229915926587374,0.988923816199407,-0.0689404576258994,0.988923816219939,-0.0689404576235564,0.00222556852151667,-0.0229539940889261
7,0.00192692817682949,-0.0246747420133016,0.988218593649181,-0.0738957911435971,0.988218593667552,-0.0738957911399325,0.00191941065642354,-0.0246338571893219
7.5,0.00160303599031097,-0.0263358808126437,0.98747293248343,-0.0788378820587923,0.987472932499115,-0.0788378820537918,0.00159523163858455,-0.0262916426017661
8,0.00126200773237972,-0.0279740619207161,0.986684127555502,-0.0837672433415886,0.986684127568087,-0.0837672433353482,0.00125393036527255,-0.0279264010375275
8.5,0.000904769686083551,-0.0295883660947016,0.985850196979308,-0.0886840357531486,0.985850196988483,-0.0886840357458425,0.000896437687683882,-0.0295372117376811
9,0.00053227499088393,-0.0311779149672065,0.984969725765269,-0.0935881728362604,0.984969725770805,-0.0935881728280998,0.000523711392854231,-0.0311231954219648
9.5,0.000145498752315731,-0.0327418799788068,0.984041739340328,-0.0984793910638784,0.984041739342068,-0.098479391055097,0.000136731235268805,-0.032683523192321
10,-0.000254566788178257,-0.0342794885355007,0.983065603455827,-0.103357298080892,0.983065603453674,-0.103357298071734,-0.000263505957618704,-0.0342174226627172
10.5,-0.000530116169121464,-0.0359156310000275,0.982176695003605,-0.108180490756322,0.982176695000228,-0.108180490749567,-0.0005388801853079,-0.0358489564705593
11,-0.000823918894312548,-0.0375481252438741,0.981274511099853,-0.112984460379413,0.981274511095006,-0.112984460374669,-0.000832569253005455,-0.0374769476215144
11.5,-0.00113569475675407,-0.0391770778328597,0.980359013672977,-0.117770948708082,0.980359013666491,-0.117770948704957,-0.00114427466594291,-0.0391014951920514
12,-0.00146517538431662,-0.0408025467677557,0.979430015962073,-0.122541504000464,0.979430015953847,-0.122541503998584,-0.0014737132392324,-0.0407226491249428
12.5,-0.00181210645352892,-0.042424549990888,0.978487219514142,-0.127297489191956,0.978487219504132,-0.127297489190962,-0.00182061874271666,-0.0423404191993537
13,-0.00217624868441307,-0.0440430725997247,0.977530245062301,-0.132040093104278,0.977530245050512,-0.132040093103839,-0.00218474239212585,-0.0439547825482878
13.5,-0.0025573780019516,-0.0456580728993465,0.976558657897247,-0.136770343426284,0.976558657883727,-0.136770343426098,-0.00256585257625716,-0.0455656898999752
14,-0.00295528514701227,-0.0472694874402881,0.975571988404325,-0.141489120521716,0.975571988389155,-0.141489120521508,-0.00296373410045819,-0.0471730707235904
14.5,-0.00336977494073112,-0.0488772351864757,0.97456974843999,-0.146197171378535,0.974569748423276,-0.146197171378067,-0.00337818714433488,-0.0487768374491511
15,-0.00380066534697496,-0.0504812209476952,0.973551444186104,-0.150895123222011,0.973551444167973,-0.150895123221078,-0.00380902607091341,-0.0503768889143457
15.5,-0.00424778643354151,-0.0520813381963361,0.972516586064325,-0.155583496474771,0.972516586044918,-0.155583496473192,-0.00425607818024351,-0.0519731131712042
16,-0.00471097930064074,-0.0536774713727448,0.971464696226948,-0.160262716869314,0.971464696206418,-0.16026271686694,-0.00471918246877318,-0.0535653897662209
16.5,-0.0051900950219668,-0.0552694977680277,0.970395314072555,-0.164933126608632,0.970395314051058,-0.164933126605347,-0.0051981884333212,-0.0551535915892325
17,-0.0056849936271903,-0.0568572890593142,0.969308000169108,-0.169594994535524,0.969308000146805,-0.169594994531233,-0.00569295494284086,-0.0567375863704944
17.5,-0.00619554314301499,-0.0584407125599951,0.968202338906686,-0.174248525316247,0.968202338883737,-0.174248525310879,-0.00620334919032797,-0.0583172378913588
18,-0.00672161870194779,-0.060019632236755,0.967077940147875,-0.178893867674372,0.967077940124436,-0.17889386766788,-0.0067292457300093,-0.0598924069623461
18.5,-0.00726310172241534,-0.061593909536195,0.965934440096632,-0.183531121729592,0.965934440072855,-0.183531121721948,-0.00727052560011388,-0.0614629522125081
19,-0.00781987916025007,-0.0631634040560254,0.964771501565867,-0.188160345506968,0.964771501541899,-0.188160345498162,-0.00782707552852888,-0.0630287307258111
19.5,-0.00839184282924546,-0.0647279740896862,0.963588813789662,-0.192781560687172,0.963588813765642,-0.19278156067721,-0.0083987872168067,-0.0645895985536677
20,-0.00897888878706676,-0.0662874770678288,0.962386091897371,-0.197394757669041,0.962386091873429,-0.197394757657941,-0.00898555669700013,-0.0661454111272017
20.5,-0.00958091678204651,-0.0678417699158369,0.961163076143041,-0.201999900014072,0.961163076119297,-0.201999900001868,-0.00958728375538356,-0.0676960235883786
21,-0.0101978297560169,-0.0693907093430819,0.959919530964055,-0.206596928338927,0.959919530940621,-0.206596928325661,-0.0102038714170415,-0.0692412910555511
21.5,-0.0108295333983132,-0.0709341520765956,0.958655243926968,-0.211185763717478,0.958655243903948,-0.211185763703202,-0.0108352254854895,-0.0707810688359878
22,-0.0114759357461727,-0.0724719550496022,0.957370024605569,-0.215766310648894,0.957370024583055,-0.215766310633665,-0.0114812541317894,-0.0723152125955298
22.5,-0.0121369468270174,-0.0740039755533641,0.956063703425775,-0.220338459643099,0.956063703403849,-0.220338459626984,-0.0121418675280325,-0.0738435784937321
23,-0.0128124783383985,-0.0755300713592519,0.954736130503647,-0.224902089469803,0.954736130482382,-0.224902089452871,-0.0128169775204612,-0.075366023291084
23.5,-0.013502443361709,-0.077050100816654,0.953387174496156,-0.229457069112383,0.953387174475615,-0.229457069094708,-0.0135064973379518,-0.076882404433813
24,-0.0142067561061237,-0.0785639229313184,0.952016721479048,-0.234003259463353,0.952016721459287,-0.234003259445011,-0.01421034133198,-0.0783925801206289
24.5,-0.0149253316795597,-0.0800713974278815,0.950624673862044,-0.238540514793959,0.950624673843106,-0.23854051477503,-0.0149284247446153,-0.0798964093550132
25,-0.015658085883748,-0.081572384799629,0.949210949348329,-0.243068684026545,0.949210949330253,-0.243068684007109,-0.0156606635014244,-0.0813937519859267
25.5,-0.0164049350308235,-0.0830667463479604,0.947775479942824,-0.247587611834939,0.947775479925635,-0.247587611815075,-0.0164069740265347,-0.0828844687393051
26,-0.0171657957791316,-0.0845543442136303,0.946318211011723,-0.252097139594974,0.946318210995444,-0.252097139574762,-0.0171672730773929,-0.0843684212422398
26.5,-0.0179405849861394,-0.0860350414013866,0.944839100394403,-0.256597106204552,0.944839100379047,-0.25659710618407,-0.0179414775970517,-0.0858454720413913
27,-0.0187292195766529,-0.087508701799377,0.943338117567611,-0.261087348790177,0.943338117553185,-0.261087348769503,-0.0187295045820403,-0.087315484616906
27.5,-0.0195316164246631,-0.0889751901944291,0.941815242861091,-0.265567703314784,0.941815242847593,-0.265567703293994,-0.0195312709641238,-0.088778323392825
28,-0.0203476922473836,-0.0904343722840775,0.940270466723187,-0.270038005099756,0.940270466710611,-0.270038005078923,-0.0203466935044269,-0.0902338537448202
28.5,-0.0211773635101785,-0.0918861146861123,0.938703789034558,-0.274498089272419,0.938703789022893,-0.274498089251613,-0.0211756886985941,-0.0916819420059358
29,-0.0220205463412346,-0.0933302849461919,0.937115218467871,-0.278947791148804,0.9371152184571,-0.278947791128093,-0.0220181726917978,-0.0931224554708385
29.5,-0.0228771564549614,-0.0947667515440576,0.935504771891167,-0.283386946560253,0.935504771881268,-0.283386946539703,-0.0228740612025526,-0.094555262399044
30,-0.0237471090832041,-0.0961953838986771,0.933872473812507,-0.28781539213127,0.933872473803455,-0.287815392110939,-0.0237432694543974,-0.0959802320174199
30.5,-0.0246303189134796,-0.0976160523727008,0.932218355863495,-0.292232965515141,0.932218355855259,-0.29223296549509,-0.0246257121146395,-0.0973972345222944
31,-0.0255267000335146,-0.0990286282764328,0.930542456319262,-0.29663950559294,0.930542456311809,-0.296639505573221,-0.0255213032394289,-0.0988061410813321
31.5,-0.0264361658814591,-0.10043298387153,0.9288448196526,-0.301034852640821,0.928844819645895,-0.301034852621484,-0.0264299562245145,-0.100206823835401
32,-0.0273586292011976,-0.101828992374622,0.927125496119962,-0.305418848469891,0.927125496113964,-0.305418848450985,-0.0273515837611144,-0.10159915590052
32.5,-0.0282940020022825,-0.103216527960933,0.925384541377163,-0.309791336542368,0.925384541371832,-0.309791336523934,-0.0282860977963955,-0.102983011370028
33,-0.0292421955240196,-0.104595465768043,0.923622016122719,-0.314152162067256,0.923622016118013,-0.314152162049331,-0.0292334094981131,-0.104358265317031
33.5,-0.0302031202033248,-0.10596568189984,0.921837985766873,-0.318501172078356,0.921837985762744,-0.318501172060978,-0.0301934292230014,-0.10572479379719
34,-0.0311766856459938,-0.107327053430746,0.920032520124435,-0.322838215497081,0.920032520120839,-0.322838215480279,-0.0311660664885736,-0.107082473851897
34.5,-0.0321628006010677,-0.108679458410236,0.918205693129744,-0.327163143182159,0.918205693126634,-0.327163143165962,-0.0321512299479983,-0.108431183511868
35,-0.0331613729380225,-0.110022775867703,0.91635758257209,-0.331475807968143,0.916357582569418,-0.331475807952573,-0.0331488273677883,-0.109770801801173
35.5,-0.0341723096265159,-0.111356885817668,0.914488269850099,-0.33577606469428,0.914488269847814,-0.335776064679359,-0.0341587656080351,-0.111101208741697
36,-0.0351955167184839,-0.112681669265372,0.912597839743656,-0.340063770225176,0.912597839741712,-0.340063770210919,-0.035180950604965,-0.112422285358057
36.5,-0.0362308993323791,-0.11399700821274,0.910686380202063,-0.344338783464482,0.91068638020041,-0.344338783450902,-0.0362152873556351,-0.113733913682972
37,-0.0372783616393643,-0.115302785664718,0.908753982147188,-0.348600965362621,0.908753982145777,-0.348600965349729,-0.0372616799045626,-0.115035976763054
37.5,-0.0383378068513234,-0.116598885636008,0.906800739290478,-0.35285017891953,0.906800739289263,-0.352850178907332,-0.0383200313321493,-0.116328358665049
38,-0.0394091372105088,-0.117885193158136,0.904826747962801,-0.35708628918316,0.904826747961733,-0.35708628917166,-0.039390243744743,-0.117610944482475
38.5,-0.0404922539807399,-0.119161594286917,0.902832106956095,-0.361309163244479,0.902832106955127,-0.361309163233676,-0.0404722182662188,-0.118883620342682
39,-0.0415870574399977,-0.120427976110251,0.900816917375973,-0.365518670229527,0.90081691737506,-0.36551867021942,-0.0415658550309518,-0.120146273414287
39.5,-0.0426934468743355,-0.12168422675626,0.898781282504407,-0.369714681289087,0.898781282503503,-0.369714681279669,-0.0426710531780924,-0.121398791914985
40,-0.0438113205730065,-0.122930235401751,0.896725307671737,-0.373897069586383,0.896725307670798,-0.373897069577648,-0.0437877108470389,-0.122641065119721
40.5,-0.0449405758247149,-0.124165892280992,0.894649100137286,-0.378065710283222,0.894649100136271,-0.378065710275159,-0.0449157251740301,-0.123872983369184
41,-0.0460811089149291,-0.125391088694785,0.892552768977918,-0.382220480524884,0.892552768976786,-0.38222048051748,-0.0460549922897794,-0.125094438078637
41.5,-0.0472328151241769,-0.126605717019808,0.890436424983926,-0.386361259424069,0.890436424982637,-0.38636125941731,-0.0472054073180882,-0.126305321747034
42,-0.0483955887272671,-0.127809670718236,0.888300180561689,-0.390487928044126,0.888300180560206,-0.390487928037997,-0.048366864375367,-0.127505527966431
42.5,-0.0495693229933799,-0.129002844347604,0.886144149642582,-0.394600369381795,0.886144149640869,-0.394600369376276,-0.0495392565710215,-0.128694951431653
43,-0.0507539101869775,-0.130185133570907,0.883968447597638,-0.398698468349608,0.883968447595659,-0.398698468344679,-0.0507224760086483,-0.129873487950221
43.5,-0.0519492415694832,-0.131356435166911,0.881773191157544,-0.402782111758126,0.881773191155268,-0.402782111753765,-0.0519164137879862,-0.131041034452491
44,-0.0531552074017013,-0.132516647040678,0.879558498337538,-0.406851188298125,0.879558498334933,-0.406851188294309,-0.0531209600076037,-0.132197489002034
44.5,-0.0543716969469218,-0.133665668234268,0.877324488366843,-0.410905588522835,0.87732448836388,-0.410905588519541,-0.0543360037682648,-0.133342750806183
45,-0.0555985984746969,-0.134803398937627,0.875071281622273,-0.414945204830331,0.875071281618926,-0.414945204827533,-0.0555614331769531,-0.13447672022679
45.5,-0.0568357992652403,-0.135929740499617,0.872798999565711,-0.418969931446122,0.872798999561955,-0.418969931443792,-0.0567971353515182,-0.135599298791124
46,-0.0580831856144312,-0.137044595439195,0.870507764685137,-0.422979664406021,0.870507764680947,-0.422979664404131,-0.0580429964259139,-0.136710389202933
46.5,-0.0593406428394009,-0.138147867456735,0.868197700438938,-0.42697430153933,0.868197700434294,-0.426974301537854,-0.0592989015560184,-0.137809895353645
47,-0.0606080552846654,-0.139239461445445,0.865868931203265,-0.430953742452379,0.865868931198146,-0.430953742451287,-0.060564734925992,-0.138897722333672
47.5,-0.0618853063288026,-0.1403192835029,0.86352158222217,-0.434917888512432,0.86352158221656,-0.434917888511694,-0.0618403797551692,-0.139973776443837
48,-0.0631722783916335,-0.141387240942652,0.861155779560334,-0.438866642831999,0.861155779554217,-0.438866642831586,-0.0631257183054582,-0.141037965206881
48.5,-0.0644688529419056,-0.142443242305932,0.858771650058181,-0.442799910253551,0.858771650051543,-0.442799910253433,-0.0644206318892333,-0.142090197379054
49,-0.0657749105054637,-0.1434871973734,0.856369321289173,-0.446717597334656,0.856369321282002,-0.446717597334801,-0.0657250008777021,-0.143130382961779
49.5,-0.0670903306738709,-0.144519017176946,0.853948921519156,-0.450619612333519,0.853948921511442,-0.450619612333898,-0.0670387047097366,-0.144158433213345
50,-0.0684149921135027,-0.145538614011542,0.851510579667567,-0.454505865194947,0.851510579659302,-0.454505865195528,-0.068361621901152,-0.145174260660664
50.5,-0.0697487725750658,-0.146545901447103,0.849054425270369,-0.458376267536712,0.849054425261546,-0.458376267537465,-0.0696936300544201,-0.146177779111038
51,-0.0710915489035583,-0.147540794340375,0.846580588444587,-0.462230732636331,0.8465805884352,-0.462230732637225,-0.0710346058688143,-0.147168903663955
51.5,-0.0724431970486368,-0.148523208846814,0.84408919985432,-0.466069175418201,0.844089199844367,-0.466069175419207,-0.0723844251509597,-0.148147550722866
52,-0.0738035920754031,-0.149493062432469,0.841580390678115,-0.469891512441147,0.841580390667594,-0.469891512442234,-0.0737429628257964,-0.149113638006979
52.5,-0.0751726081755881,-0.150450273885836,0.839054292577587,-0.473697661886303,0.839054292566498,-0.47369766188744,-0.0751100929479408,-0.150067084563015
53,-0.0765501186791213,-0.151394763329676,0.836511037667228,-0.477487543545343,0.836511037655573,-0.477487543546504,-0.0764856887134211,-0.151007810776935
53.5,-0.0779359960660914,-0.152326452232805,0.833950758485269,-0.481261078809052,0.833950758473051,-0.481261078810206,-0.0778696224718092,-0.151935738385627
54,-0.0793301119790792,-0.153245263421823,0.831373587965547,-0.485018190656192,0.831373587952769,-0.485018190657311,-0.0792617657387181,-0.152850790488545
54.5,-0.0807323372358609,-0.154151121092774,0.828779659410294,-0.488758803642666,0.828779659396963,-0.488758803643725,-0.0806619892086603,-0.15375289155927
55,-0.0821425418424685,-0.155043950822747,0.826169106463784,-0.492482843890958,0.826169106449906,-0.492482843891928,-0.0820701627682749,-0.154641967457003
55.5,-0.0835605950066169,-0.15592367958138,0.823542063086757,-0.496190239079826,0.823542063072341,-0.496190239080681,-0.083486155509899,-0.155517945437981
56,-0.0849863651514698,-0.156790235742277,0.820898663531595,-0.499880918434231,0.820898663516651,-0.499880918434948,-0.0849098357454908,-0.156380754166786
56.5,-0.0864197199297531,-0.157643549094317,0.818239042318175,-0.503554812715492,0.818239042302712,-0.503554812716044,-0.0863410710208919,-0.157230323727549
57,-0.0878605262382124,-0.158483550852857,0.815563334210342,-0.507211854211631,0.815563334194373,-0.507211854211995,-0.0877797281304246,-0.158066585635053
57.5,-0.0893086502323924,-0.159310173670805,0.812871674192999,-0.51085197672791,0.812871674176535,-0.510851976728063,-0.0892256731318188,-0.158889472845692
58,-0.0907639573417556,-0.160123351649558,0.810164197449718,-0.514475115577534,0.810164197432775,-0.514475115577455,-0.0906787713614658,-0.159698919768311
58.5,-0.092226312285112,-0.16092302034981,0.807441039340894,-0.518081207572495,0.807441039323486,-0.518081207572163,-0.0921388874499862,-0.16049486227489
59,-0.0936955790863762,-0.161709116802196,0.804702335382352,-0.521670191014561,0.804702335364493,-0.521670191013956,-0.0936058853381208,-0.161277237711088
59.5,-0.0951716210906298,-0.162481579517785,0.801948221224421,-0.525242005686371,0.801948221206128,-0.525242005685475,-0.0950796282929215,-0.162045984906614
60,-0.0966543009804928,-0.163240348498395,0.799178832631427,-0.52879659284264,0.799178832612717,-0.528796592841434,-0.0965599789242519,-0.162801044185429
60.5,-0.0981434807928009,-0.163985365246737,0.796394305461578,-0.532333895201444,0.796394305442468,-0.532333895199912,-0.0980467992015862,-0.16354235737577
61,-0.0996390219355722,-0.16471657277637,0.793594775647224,-0.535853856935589,0.793594775627733,-0.535853856933714,-0.0995399504711023,-0.164269867819986
61.5,-0.101140785205276,-0.165433915621455,0.790780379175475,-0.539356423664025,0.790780379155621,-0.539356423661793,-0.101039293473066,-0.164983520384168
62,-0.102648630804383,-0.166137339846313,0.787951252069151,-0.542841542443318,0.787951252048954,-0.542841542440715,-0.102544688359491,-0.165683261467585
62.5,-0.104162418359196,-0.166826793054765,0.785107530368039,-0.546309161759158,0.785107530347518,-0.546309161756172,-0.104055994712102,-0.166369039011895
