"Freq [GHz]","re(St(P1,P1)) []","im(St(P1,P1)) []","re(St(P1,P2)) []","im(St(P1,P2)) []","re(St(P2,P1)) []","im(St(P2,P1)) []","re(St(P2,P2)) []","im(St(P2,P2)) []"
0,0.00424604418537911,0,0.995766061867471,0,0.995766058505978,0,0.00424604202152068,0
0.5,0.00462048144687088,0.000836227178030668,0.9953614105806,-0.00426055867962205,0.995361410573381,-0.00426055888758015,0.00462041422424164,0.000836402742461217
1,0.00498915158661362,0.00120419151424755,0.99493669905819,-0.00804760828164675,0.994936698999364,-0.0080476083217178,0.00498896269196436,0.00120460016772483
1.5,0.00523237412101807,0.00145618212672716,0.994602033805183,-0.0118689201638418,0.994602033747142,-0.011868920182657,0.00523195670037069,0.00145675310580984
2,0.00537860357133724,0.00168193761903979,0.994269877477405,-0.0155705335151168,0.994269877446616,-0.0155705335076064,0.0053779270815788,0.00168278218518481
2.5,0.00547561979746547,0.00191570349578996,0.993966702556204,-0.0191950173257602,0.993966702568198,-0.0191950172985358,0.00547468598666789,0.00191686813132463
3,0.00554924389495248,0.00216159298424046,0.993692996264103,-0.022775210333446,0.993692996322835,-0.0227752102946894,0.00554804645349005,0.00216309521639957
3.5,0.00561224667534432,0.00241762136592172,0.993439702829278,-0.0263309387360966,0.993439702931349,-0.0263309386914976,0.00561076929944981,0.00241946900034584
4,0.0056711491596122,0.00268119483881613,0.993196363378761,-0.0298728133974464,0.993196363517091,-0.0298728133499964,0.00566936877276625,0.00268339322550304
4.5,0.00572946260984031,0.00295015977790669,0.992953916716,-0.033406111177559,0.992953916882026,-0.0334061111284818,0.00572735200403018,0.00295271439449962
5,0.00578917693288394,0.00322287696191736,0.99270523632737,-0.0369332992551623,0.992705236512237,-0.0369332992049181,0.00578670645020951,0.0032257942980678
5.5,0.00585146958390403,0.00349811558808177,0.992444928837159,-0.040455446161225,0.992444929032322,-0.0404554461101352,0.00584860814443688,0.00350140341291016
6,0.00591706088821375,0.0037749422178841,0.992168977092289,-0.0439729559767539,0.992168977289845,-0.0439729559253923,0.00591377662551507,0.00377860962329812
6.5,0.00598640148424967,0.004052635562239,0.991874411050823,-0.0474859331306607,0.991874411243675,-0.0474859330800115,0.0059826621500394,0.00405669292799082
7,0.00605977598102103,0.00433062603428525,0.991559046430726,-0.0509943557090047,0.991559046612649,-0.0509943556604888,0.00605554921241813,0.00433508496953117
7.5,0.00613736276215415,0.00460845376111951,0.991221287299829,-0.0544981528432356,0.991221287465478,-0.054498152798625,0.0061326162652402,0.00461332704273332
8,0.00621926981835408,0.004885739428099,0.990859979165338,-0.0579972357435397,0.990859979310214,-0.0579972357048995,0.00621397149942338,0.00489104094254778
8.5,0.00630555695498181,0.00516216387006274,0.990474299719109,-0.0614915074929288,0.9904742998395,-0.0614915074625015,0.0062996750181602,0.00516790856062688
9,0.00639624998067545,0.00543745362017756,0.99006367721305,-0.0649808640067002,0.990063677305956,-0.0649808639868121,0.00638975300329614,0.00544365743930442
9.5,0.00649135002701495,0.00571137054650794,0.98962772912649,-0.0684651920465056,0.989627729189543,-0.0684651920394881,0.00648420701986097,0.00571805041252205
10,0.0065908398280996,0.00598370432376694,0.989166215848137,-0.071944366893919,0.989166215879514,-0.0719443669020547,0.00658302028502988,0.00599087808108933
10.5,0.00669820339723992,0.00626018600810685,0.98874179083786,-0.0754492514285241,0.988741790869051,-0.0754492514371616,0.00669035505261661,0.00626737835467139
11,0.00680981321896101,0.00653359785684238,0.988303211268093,-0.0789438785017751,0.988303211299075,-0.0789438785109118,0.00680190399364211,0.00654077123291863
11.5,0.00692554540225837,0.00680384909050336,0.987851039475231,-0.0824283395902574,0.987851039505978,-0.0824283395998906,0.00691753996604194,0.00681096666355785
12,0.00704527395608878,0.00707085524042128,0.987385807013306,-0.0859027598775413,0.987385807043793,-0.0859027598876683,0.00703713379524024,0.00707788114347885
12.5,0.00716887116091069,0.00733453815995588,0.98690801327714,-0.0893672939483761,0.986908013307343,-0.0893672939589845,0.00716055466344184,0.0073414377205836
13,0.00729620793371027,0.00759482601165296,0.986418124642966,-0.0928221216009799,0.986418124672861,-0.0928221216120617,0.00728767049122631,0.00760156597021933
13.5,0.00742715418487355,0.00785165323140014,0.985916574076188,-0.0962674438287996,0.985916574105752,-0.0962674438403441,0.00741834830970142,0.00785820194747799
14,0.00756157916540784,0.00810496047071485,0.985403761153452,-0.099703479012482,0.985403761182663,-0.0997034790244751,0.0075524546216498,0.00811128811659056
14.5,0.0076993518031388,0.00835469451840343,0.984880052445441,-0.103130459352628,0.984880052474278,-0.103130459365055,0.00768985575023612,0.00836077325883355
15,0.00784034102667638,0.00860080820299025,0.984345782207539,-0.106548627564642,0.984345782235982,-0.106548627577489,0.00783041817403704,0.00860661236049154
15.5,0.00798441607606105,0.00884326027717997,0.983801253327467,-0.109958233848854,0.983801253355499,-0.109958233862101,0.00797400884727595,0.00884876648231714
16,0.00813144679917528,0.00908201528589903,0.983246738481791,-0.11335953314178,0.983246738509395,-0.113359533155412,0.0081204955043417,0.00908720261212537
16.5,0.0082813039331283,0.00931704341933282,0.982682481456753,-0.116752782648327,0.982682481483912,-0.116752782662322,0.00826974694782211,0.00932189350216861
17,0.00843385936997858,0.00954832035242692,0.982108698592777,-0.120138239649724,0.982108698619479,-0.120138239664065,0.00842163331942076,0.00955281749281234
17.5,0.00858898640630177,0.00977582707235403,0.981525580316226,-0.123516159577865,0.981525580342457,-0.12351615959253,0.00857602635330889,0.00977995832420708
18,0.00874655997621411,0.00999954969541816,0.980933292726188,-0.126886794343585,0.980933292751938,-0.126886794358554,0.00873279961158117,0.010003304937523
18.5,0.00890645686765123,0.0102194792748405,0.980331979208356,-0.130250390904139,0.980331979233615,-0.130250390919388,0.00889182870164274,0.0102228512673208
19,0.00906855592174753,0.0104356116008542,0.979721762052027,-0.133607190053526,0.979721762076787,-0.133607190069038,0.0090529914754718,0.010438596026551
19.5,0.00923273821534189,0.0106479469944745,0.979102744050156,-0.136957425418353,0.979102744074409,-0.136957425434104,0.00921616821083042,0.0106505424857182
20,0.00939888722669963,0.0108564900962946,0.978475010065872,-0.140301322641464,0.978475010089613,-0.140301322657435,0.00938124177460532,0.0108586982475516
20.5,0.00956688898465596,0.0110612496515579,0.977838628552145,-0.143639098735641,0.97783862857537,-0.143639098751811,0.0095480977685605,0.0110630750185852
21,0.00973663220146645,0.0112622382927317,0.977193653014148,-0.146970961589921,0.977193653036854,-0.146970961606267,0.00971662465787551,0.0112636883788864
21.5,0.00990800838974226,0.0114594723207322,0.976540123406467,-0.150297109611742,0.976540123428652,-0.150297109628243,0.0098867138829325,0.0114605575511448
22,0.0100809119638959,0.0116529714858666,0.975878067459512,-0.153617731488962,0.975878067481176,-0.153617731505602,0.0100582599548741,0.0116537051702377
22.5,0.010255240326608,0.0118427587694701,0.975207501931443,-0.156933006056711,0.975207501952586,-0.156933006073464,0.0102311605355188,0.0118431570542992
23,0.010430893940872,0.0120288601672329,0.974528433783566,-0.160243102255017,0.974528433804189,-0.160243102271869,0.010405316502291,0.0120289419782416
23.5,0.0106077763882019,0.0122113044749708,0.973840861278499,-0.163548179164456,0.973840861298604,-0.163548179181385,0.0105806319988263,0.0122110914506037
24,0.0107857944136549,0.012390123077707,0.97314477500158,-0.166848386107882,0.973144775021171,-0.166848386124873,0.0107570144719962,0.0123896394944905
24.5,0.0109648579583163,0.012565349742681,0.972440158806877,-0.170143862807683,0.972440158825955,-0.170143862824717,0.0109343746960721,0.0125646224333025
25,0.0111448801799487,0.0127370204169686,0.971726990689883,-0.173434739588868,0.971726990708455,-0.173434739605928,0.0111126267848128,0.0127360786818898
25.5,0.0113257774624933,0.0129051730302363,0.971005243589573,-0.176721137619444,0.971005243607644,-0.176721137636512,0.01129168819223,0.012904048543644
26,0.0115074694151376,0.013069847303103,0.970274886122854,-0.180003169180458,0.970274886140429,-0.18000316919752,0.0114714797028221,0.0130685740139906
26.5,0.0116898788616596,0.0132310845615327,0.969535883254785,-0.183280937958996,0.96953588327187,-0.183280937976037,0.011651925412038,0.013229698590687
27,0.011872931820762,0.0133889275576138,0.968788196908101,-0.186554539358271,0.968788196924703,-0.186554539375276,0.0118329526977537,0.0133874670912291
27.5,0.0120565574780912,0.0135434202969833,0.96803178651569,-0.189824060819708,0.968031786531817,-0.189824060836664,0.0120144921835024,0.0135419254776235
28,0.0122406881506372,0.0136946078731488,0.967266609519699,-0.193089582152636,0.967266609535358,-0.193089582169528,0.0121964776942079,0.0136931206887283
28.5,0.0124252592441893,0.0138425363088732,0.966492621820917,-0.196351175867825,0.966492621836115,-0.196351175884642,0.0123788462051354,0.0138411004802812
29,0.0126102092045045,0.013987252404732,0.965709778182018,-0.199608907511689,0.965709778196764,-0.19960890752842,0.0125615377847547,0.0139859132727227
29.5,0.0127954794628227,0.0141288035949336,0.964918032588148,-0.202862835998483,0.96491803260245,-0.202862836015116,0.0127444955321903,0.0141276080068224
30,0.0129810143763497,0.0142672378104369,0.96411733856819,-0.206113013938254,0.964117338582057,-0.206113013954777,0.0129276655098982,0.0142662340071373
30.5,0.0131667611642868,0.0144026033493443,0.963307649479911,-0.209359487958741,0.963307649493351,-0.209359487975146,0.013110996672182,0.0144018408532087
31,0.0133526698399714,0.0145349487545263,0.962488918762012,-0.212602299019768,0.962488918775035,-0.212602299036043,0.0132944407901315,0.0145344782584615
31.5,0.0135386931396749,0.0146643226984313,0.961661100155962,-0.215841482718909,0.961661100168576,-0.215841482735049,0.0134779523735379,0.0146641959566596
32,0.0137247864485393,0.014790773874934,0.960824147900275,-0.219077069587603,0.960824147912489,-0.219077069603595,0.0136614885902962,0.0147910435957903
32.5,0.0139109077241538,0.0149143508981362,0.959978016899769,-0.222309085376968,0.959978016911594,-0.222309085392808,0.0138450091837917,0.0149150706391974
33,0.0140970174182083,0.0150351022079294,0.959122662872123,-0.225537551332923,0.959122662883565,-0.225537551348602,0.0140284763887149,0.0150363262738016
33.5,0.0142830783966355,0.015153075982183,0.958258042473905,-0.228762484460235,0.958258042484977,-0.228762484475746,0.0142118548457351,0.0151548593251707
34,0.0144690558586493,0.0152683200553438,0.957384113408098,-0.231983897775386,0.957384113418806,-0.231983897790723,0.0143951115154187,0.0152707181792331
34.5,0.0146549172550261,0.015380881843273,0.956500834514929,-0.235201800548185,0.956500834525283,-0.235201800563343,0.0145782155917557,0.0153839507104248
35,0.0148406322059683,0.0154908082740879,0.95560816584775,-0.238416198532178,0.95560816585776,-0.238416198547151,0.014761138415622,0.0154946042159867
35.5,0.0150261724188608,0.0155981457247969,0.954706068735496,-0.241627094184018,0.95470606874517,-0.2416270941988,0.0149438533884793,0.0156027253561937
36,0.0152115116061933,0.0157029399635074,0.953794505833151,-0.244834486871952,0.953794505842498,-0.24483448688654,0.0151263358865929,0.0157083601002579
36.5,0.0153966254039125,0.015805236096964,0.95287344116154,-0.248038373073731,0.95287344117057,-0.248038373088119,0.0153085631760029,0.0158115536776366
37,0.0155814912904293,0.0159050785231902,0.951942840137611,-0.251238746564191,0.951942840146332,-0.251238746578378,0.0154905143284821,0.0159123505345096
37.5,0.0157660885064961,0.0160025108890027,0.951002669596302,-0.254435598592863,0.951002669604723,-0.254435598606845,0.0156721701386719,0.0160107942951497
38,0.0159503979761307,0.0160975760521447,0.950052897804959,-0.257628918051959,0.950052897813088,-0.257628918065731,0.0158535130425739,0.0161069277279342
38.5,0.0161344022287647,0.0161903160478252,0.949093494471196,-0.260818691635078,0.949093494479041,-0.260818691648638,0.0160345270375499,0.0162007927157592
39,0.0163180853227566,0.0162807720594242,0.948124430744999,-0.264004903987041,0.948124430752569,-0.264004904000388,0.0162151976039644,0.0162924302305996
39.5,0.0165014327703923,0.0163689843931258,0.947145679215793,-0.267187537845227,0.947145679223097,-0.267187537858357,0.0163955116285843,0.0163818803119544
40,0.0166844314644976,0.0164549924562765,0.946157213905123,-0.27036657417277,0.946157213912168,-0.270366574185683,0.0165754573298337,0.0164691820489848
40.5,0.0168670696067357,0.0165388347392259,0.945159010255538,-0.273541992284042,0.945159010262332,-0.273541992296736,0.0167550241849798,0.016554373566062
41,0.0170493366376973,0.0166205488004589,0.944151045116199,-0.276713769962756,0.94415104512275,-0.276713769975228,0.0169342028593294,0.0166374920115453
41.5,0.0172312231688153,0.0167001712547938,0.943133296725685,-0.279881883573091,0.943133296732,-0.279881883585341,0.0171129851374656,0.0167185735495385
42,0.0174127209161907,0.0167777377644562,0.94210574469242,-0.283046308164171,0.942105744698507,-0.283046308176198,0.0172913638565896,0.0167976533544545
42.5,0.0175938226363401,0.0168532830328372,0.94106836997309,-0.286207017568275,0.941068369978956,-0.28620701758008,0.0174693328419744,0.0168747656081438
43,0.0177745220639176,0.0169268408007341,0.940021154849396,-0.289363984493092,0.940021154855048,-0.289363984504673,0.0176468868445588,0.0169499434994365
43.5,0.0179548138514138,0.0169984438449198,0.938964082903431,-0.292517180608359,0.938964082908876,-0.292517180619716,0.0178240214806888,0.0170232192258875
44,0.0181346935108574,0.0170681239788404,0.937897138991954,-0.295666576627189,0.9378971389972,-0.295666576638322,0.0180007331739973,0.0170946239975531
44.5,0.0183141573575106,0.0171359120553034,0.936820309219794,-0.298812142382394,0.936820309224845,-0.298812142393303,0.0181770190994232,0.0171641880426541
45,0.018493202455557,0.0172018379709795,0.935733580912579,-0.301953846898089,0.935733580917444,-0.301953846908776,0.0183528771293488,0.0172319406149255
45.5,0.0186718265657778,0.0172659306725838,0.934636942589001,-0.305091658456839,0.934636942593686,-0.305091658467304,0.0185283057818337,0.0172979100025521
46,0.0188500280951829,0.0173282181645806,0.933530383932744,-0.308225544662626,0.933530383937254,-0.308225544672868,0.0187033041709175,0.0173621235384991
46.5,0.0190278060485974,0.0173887275183016,0.932413895764236,-0.311355472499859,0.932413895768578,-0.311355472509881,0.0188778719589645,0.0174246076121498
47,0.0192051599821499,0.0174474848823121,0.931287470012351,-0.3144814083887,0.931287470016531,-0.314481408398502,0.0190520093110038,0.0174853876820764
47.5,0.0193820899586579,0.0175045154939502,0.93015109968615,-0.317603318236878,0.930151099690173,-0.317603318246461,0.0192257168510369,0.0175444882898719
48,0.0195585965048544,0.0175598436918867,0.929004778846765,-0.320721167488244,0.929004778850637,-0.320721167497609,0.0193989956202597,0.0176019330748929
48.5,0.0197346805704296,0.0176134929296283,0.927848502579511,-0.323834921168241,0.927848502583238,-0.323834921177389,0.0195718470371621,0.0176577447898303
49,0.019910343488848,0.0176654857898435,0.92668226696628,-0.326944543926484,0.926682266969867,-0.326944543935417,0.019744272859452,0.0177119453170052
49.5,0.0200855869398927,0.017715843999432,0.925506069058284,-0.330050000076629,0.925506069061736,-0.330050000085349,0.0199162751477553,0.017764555685289
50,0.0202604129138962,0.0177645884452422,0.924319906849198,-0.333151253633694,0.924319906852519,-0.333151253642201,0.0200878562310479,0.0178155960875832
50.5,0.0204348236776169,0.0178117391903563,0.923123779248735,-0.336248268348984,0.92312377925193,-0.336248268357282,0.0202590186737593,0.0178650858987537
51,0.0206088217417043,0.0178573154908634,0.921917686056688,-0.339341007742788,0.921917686059762,-0.339341007750877,0.0204297652445015,0.0179130436939634
51.5,0.0207824098297203,0.0179013358130662,0.920701627937487,-0.342429435134955,0.920701627940446,-0.342429435142838,0.0206000988863739,0.017959487267335
52,0.0209555908486556,0.0179438178510214,0.919475606395255,-0.34551351367351,0.919475606398102,-0.345513513681189,0.0207700226887817,0.0180044336508658
52.5,0.0211283678609009,0.0179847785443932,0.918239623749412,-0.348593206361417,0.918239623752152,-0.348593206368893,0.0209395398607292,0.0180478991335546
53,0.0213007440576279,0.0180242340965326,0.916993683110828,-0.351668476081601,0.916993683113463,-0.351668476088877,0.0211086537055261,0.0180898992806755
53.5,0.0214727227335209,0.0180621999927391,0.915737788358523,-0.354739285620356,0.91573778836106,-0.354739285627434,0.0212773675968563,0.0181304489531493
54,0.0216443072628268,0.0180986910186656,0.91447194411695,-0.357805597689216,0.914471944119391,-0.357805597696097,0.0214456849561678,0.0181695623269746
54.5,0.0218155010766672,0.0181337212788102,0.913196155733823,-0.360867374945398,0.913196155736172,-0.360867374952087,0.0216136092313214,0.0182072529126716
55,0.0219863076415632,0.0181673042150536,0.91191042925852,-0.363924580010921,0.911910429260781,-0.363924580017418,0.0217811438764584,0.0182435335746995
55.5,0.0221567304391448,0.0181994526252225,0.91061477142105,-0.366977175490439,0.910614771423226,-0.366977175496747,0.021948292333034,0.0182784165508194
56,0.0223267729469759,0.0182301786816155,0.909309189611573,-0.370025123987926,0.909309189613668,-0.370025123994048,0.0221150580119727,0.0183119134713603
56.5,0.0224964386204727,0.0182594939494907,0.907993691860481,-0.373068388122238,0.907993691862498,-0.373068388128175,0.0222814442768999,0.0183440353783797
57,0.0226657308758598,0.018287409405465,0.906668286819017,-0.376106930541645,0.906668286820959,-0.376106930547401,0.0224474544284014,0.0183747927446674
57.5,0.0228346530741295,0.0183139354558097,0.905332983740435,-0.379140713937397,0.905332983742306,-0.379140713942973,0.0226130916892726,0.0184041954925951
58,0.0230032085059576,0.0183390819546148,0.903987792461692,-0.382169701056372,0.903987792463494,-0.382169701061771,0.0227783591907109,0.0184322530127676
58.5,0.0231714003775408,0.0183628582218103,0.90263272338565,-0.385193854712877,0.902632723387386,-0.385193854718102,0.0229432599594146,0.0184589741824845
59,0.0233392317973183,0.0183852730610092,0.901267787463796,-0.388213137799646,0.901267787465468,-0.388213137804699,0.0231077969055447,0.018484367383965
59.5,0.0235067057635324,0.0184063347771752,0.899892996179449,-0.391227513298087,0.89989299618106,-0.39122751330297,0.0232719728115148,0.0185084405223539
60,0.0236738251526059,0.0184260511940848,0.898508361531457,-0.394236944287825,0.89850836153301,-0.394236944292541,0.0234357903215708,0.0185312010434673
60.5,0.0238405927082847,0.0184444296715756,0.897113896018371,-0.39724139395559,0.897113896019868,-0.397241393960143,0.0235992519321225,0.0185526559512894
61,0.0240070110315282,0.0184614771225791,0.895709612623069,-0.400240825603478,0.895709612624512,-0.400240825607869,0.0237623599828015,0.0185728118252018
61.5,0.0241730825711029,0.0184772000299118,0.89429552479784,-0.403235202656634,0.894295524799233,-0.403235202660866,0.0239251166481981,0.0185916748369326
62,0.0243388096148549,0.0184916044628274,0.8928716464499,-0.406224488670389,0.892871646451243,-0.406224488674464,0.0240875239302603,0.018609250767232
62.5,0.0245041942816256,0.0185046960933186,0.891437991927328,-0.409208647336887,0.891437991928623,-0.409208647340808,0.024249583651315,0.0186255450222563
63,0.0246692385137923,0.0185164802121653,0.889994576005424,-0.412187642491229,0.889994576006674,-0.412187642494999,0.0244112974476861,0.0186405626496682
63.5,0.0248339440703904,0.0185269617447255,0.88854141387346,-0.415161438117165,0.888541413874666,-0.415161438120786,0.0245726667638788,0.0186543083544353
