"Freq [GHz]","re(St(P1,P1)) []","im(St(P1,P1)) []","re(St(P1,P2)) []","im(St(P1,P2)) []","re(St(P2,P1)) []","im(St(P2,P1)) []","re(St(P2,P2)) []","im(St(P2,P2)) []"
0,0.00638640303975535,0,0.993630426644813,0,0.993630424141884,0,0.00638640173286831,0
0.5,0.00715784819230336,-0.00208342362536129,0.99279412962073,-0.00806126006446739,0.99279412963865,-0.00806126021632636,0.00715812440351726,-0.00208430496734202
1,0.00774362381479321,-0.00509723133930429,0.9920429842036,-0.015197988699919,0.992042984297001,-0.0151979893261185,0.0077442621077175,-0.00509934477977403
1.5,0.00806360224095926,-0.00826696513145286,0.991455710228422,-0.0221711549517547,0.991455710144557,-0.0221711553504829,0.00806456233062391,-0.00827038830711579
2,0.00818583418303298,-0.0114686377661997,0.990961744405348,-0.0291048752895691,0.990961744283078,-0.029104875533573,0.0081871189645657,-0.0114734144910376
2.5,0.0081958445063961,-0.0146578504325969,0.990476223262046,-0.0360434321436358,0.990476223145068,-0.0360434322893131,0.00819747592575304,-0.0146640168469769
3,0.00813363468553874,-0.0178337873401979,0.989959247461375,-0.04298663988871,0.989959247363956,-0.0429866399714935,0.00813563663618666,-0.0178413816131986
3.5,0.00801657896127672,-0.021001715198933,0.98939364764539,-0.0499279134515067,0.989393647571275,-0.0499279134944022,0.0080189707297702,-0.0210107756659532
4,0.00785216798820088,-0.0241659973232142,0.988772258783834,-0.0568615204219345,0.988772258732273,-0.0568615204404406,0.00785496304122812,-0.0241765596095878
4.5,0.00764355414341367,-0.0273293107413828,0.988092321535639,-0.0637834479540373,0.988092321503769,-0.0637834479586736,0.00764676109254925,-0.0273414057983583
5,0.0073919777963396,-0.0304929801542198,0.987353014356424,-0.0706910873627287,0.987353014340499,-0.0706910873604727,0.00739560206713907,-0.0305066333513633
5.5,0.00709786716279437,-0.0336574073253697,0.98655432823233,-0.0775828007782078,0.986554328228416,-0.0775828007734258,0.00710191268352256,-0.03367263836242
6,0.0067613461860403,-0.0368224117806211,0.985696545354704,-0.0844575693604455,0.985696545359119,-0.0844575693555623,0.00676581680084398,-0.0368392351291913
6.5,0.00638246485257143,-0.0399874716742463,0.984780003455021,-0.0913147402423178,0.984780003464574,-0.0913147402383707,0.00638736536855111,-0.0400058973016968
7,0.00596129547384283,-0.0431518852260471,0.983804999383928,-0.0981538542923115,0.98380499939604,-0.0981538542893503,0.00596663235619799,-0.043171919420657
7.5,0.00549796426940841,-0.0463148745145636,0.982771760483747,-0.104974533835003,0.982771760496477,-0.104974533832441,0.00550374604471049,-0.0463365206958199
8,0.00499265299536322,-0.0494756491619217,0.981680447493437,-0.111776412934463,0.981680447505467,-0.111776412931336,0.00499889043540325,-0.0494989086115032
8.5,0.00444558822597996,-0.0526334429460187,0.980531170342032,-0.118559096958599,0.980531170352597,-0.118559096953746,0.00445229437959349,-0.0526583154314446
9,0.00385702705007573,-0.0557875326745503,0.979324007412395,-0.125322141681405,0.979324007421218,-0.125322141673623,0.00386421717822527,-0.0558140169606567
9.5,0.00322724329213164,-0.0589372458294619,0.978059023793157,-0.132065044975739,0.978059023800363,-0.132065044963873,0.00323493474781933,-0.0589653400857442
10,0.00255651593481054,-0.0620819614101622,0.976736286669098,-0.13878724626812,0.976736286675144,-0.138787246251129,0.00256472801711161,-0.0621116635280972
10.5,0.00185089711987063,-0.0652258656419216,0.975358856727991,-0.145520967150097,0.975358856732761,-0.145520967133326,0.00186004157009012,-0.065256926680048
11,0.00110144432783066,-0.0683643131602878,0.973923091326839,-0.152229154311484,0.973923091330414,-0.152229154294972,0.00111154191087448,-0.0683968186388579
11.5,0.000308320760864289,-0.0714962197059545,0.972429835662139,-0.158911370463584,0.972429835664605,-0.158911370447369,0.000319380893508803,-0.0715302458329878
12,-0.000528276285432505,-0.0746205631048138,0.970879909890366,-0.165567217794558,0.970879909891804,-0.165567217778663,-0.000516252673379458,-0.074656176254261
12.5,-0.00140812439230853,-0.0777363763809831,0.96927410772093,-0.172196332472673,0.969274107721421,-0.172196332457117,-0.00139514233284216,-0.0777736330729457
13,-0.00233098269269455,-0.0808427410503869,0.967613195621872,-0.178798379491937,0.967613195621495,-0.178798379476733,-0.00231705100860613,-0.0808816882979944
13.5,-0.00329659669406712,-0.0839387808495893,0.965897912569503,-0.185373047901976,0.965897912568331,-0.185373047887132,-0.00328172617598621,-0.0839794567608303
14,-0.00430470163710706,-0.0870236560440674,0.964128970270471,-0.19192004644886,0.964128970268578,-0.191920046434383,-0.0042889035473459,-0.0870660905890919
14.5,-0.00535502471920679,-0.0900965583819691,0.9623070537846,-0.198439099640384,0.962307053782054,-0.198439099626274,-0.00533830959256759,-0.0901407742560645
15,-0.00644728645553266,-0.0931567067062762,0.960432822478897,-0.204929944238153,0.960432822475761,-0.20492994422441,-0.00642966316332555,-0.0932027202355838
15.5,-0.00758120139935525,-0.0962033432038498,0.958506911246821,-0.211392326169662,0.958506911243157,-0.21139232615628,-0.00756267644208636,-0.0962511652546931
16,-0.00875647839897037,-0.0992357302489379,0.956529931931865,-0.2178259978463,0.95652993192773,-0.217825997833274,-0.00873705539436742,-0.0992853671128384
16.5,-0.00997282053096504,-0.102253147787382,0.954502474900089,-0.224230715867589,0.954502474895535,-0.224230715854913,-0.0099524998663571,-0.102304602022556
17,-0.0112299248183432,-0.105254891202895,0.952425110712458,-0.230606239087859,0.952425110707534,-0.230606239075521,-0.0112087034394223,-0.105308162419866
17.5,-0.0125274818166479,-0.108240269606394,0.950298391853995,-0.2369523270189,0.950298391848747,-0.236952327006895,-0.0125053531278087,-0.108295355190474
18,-0.0138651751306541,-0.111208604491484,0.948122854482985,-0.243268738540352,0.948122854477455,-0.24326873852867,-0.0138421289853164,-0.111265500258689
18.5,-0.0152426809079919,-0.114159228703229,0.945899020169283,-0.249555230889103,0.94589902016351,-0.249555230877733,-0.0152187036703067,-0.114217929489
19,-0.0166596673431463,-0.117091485671883,0.943627397596348,-0.25581155889883,0.943627397590366,-0.255811558887761,-0.0166347420052652,-0.117151985853952
19.5,-0.0181157942153204,-0.120004728868376,0.941308484206598,-0.262037474461656,0.94130848420044,-0.262037474450882,-0.0180899005568885,-0.120067022826471
20,-0.0196107124759,-0.122898321443369,0.938942767774239,-0.268232726184964,0.938942767767938,-0.268232726174474,-0.0195838272546215,-0.1229624039593
20.5,-0.0211440638953531,-0.125771636016405,0.936530727893711,-0.274397059217824,0.93653072788729,-0.274397059207605,-0.0211161610593908,-0.125837502618662
21,-0.0227154807749435,-0.12862405458625,0.934072837375319,-0.28053021522331,0.934072837368806,-0.280530215213357,-0.0226865316895626,-0.128691701843462
21.5,-0.0243245857252956,-0.131454968537504,0.931569563542702,-0.286631932474679,0.931569563536118,-0.286631932464982,-0.0242945594075674,-0.131524394305196
22,-0.0259709915114756,-0.134263778722247,0.929021369429127,-0.292701946055381,0.929021369422492,-0.29270194604593,-0.025939854868059,-0.134334982347305
22.5,-0.0276543009624308,-0.137049895598708,0.926428714871846,-0.298739988144698,0.926428714865181,-0.298739988135484,-0.0276220190264584,-0.137122878085788
23,-0.029374106941526,-0.139812739411808,0.923792057505305,-0.304745788372735,0.923792057498625,-0.304745788363755,-0.0293406431054749,-0.139887503555738
23.5,-0.0311299923740566,-0.142551740402908,0.921111853655405,-0.310719074230265,0.921111853648725,-0.310719074221505,-0.0310953086161911,-0.142628290890864
24,-0.0329215303271791,-0.14526633903824,0.918388559138037,-0.316659571520581,0.918388559131371,-0.316659571512038,-0.0328855874297484,-0.14534468252526
24.5,-0.0347482841374546,-0.147955986247401,0.915622629965904,-0.322567004842217,0.915622629959265,-0.322567004833882,-0.0347110418953216,-0.14803613140845
25,-0.0366098075811439,-0.150620143664828,0.91281452296818,-0.328441098092735,0.912814522961578,-0.328441098084602,-0.0365712249999132,-0.150702101226455
25.5,-0.0385056450824341,-0.153258283868622,0.909964696327984,-0.334281574985237,0.90996469632143,-0.334281574977299,-0.0384656805654872,-0.153342066622875
26,-0.040435331954964,-0.155869890612137,0.907073610042815,-0.340088159570406,0.907073610036316,-0.340088159562658,-0.0403939434790818,-0.155955513415241
26.5,-0.0423983946722179,-0.158454459044889,0.904141726313232,-0.345860576758047,0.904141726306797,-0.345860576750483,-0.0423555399516694,-0.158541938802881
27,-0.0443943511626123,-0.161011495920016,0.901169509865056,-0.351598552833013,0.901169509858691,-0.351598552825628,-0.044349987801786,-0.161100851563341
27.5,-0.0464227111254176,-0.163540519786332,0.898157428210259,-0.357301815961354,0.898157428203971,-0.357301815954143,-0.0463767967601816,-0.163631772235176
28,-0.0484829763639004,-0.166041061163545,0.895105951851632,-0.362970096683226,0.895105951845426,-0.362970096676186,-0.0484354687920042,-0.166134233285494
28.5,-0.0505746411324357,-0.168512662699699,0.892015554436045,-0.368603128389813,0.892015554429925,-0.368603128382936,-0.0505254984333318,-0.168607779261111
29,-0.0526971924945828,-0.170954879310313,0.888886712860986,-0.374200647782101,0.888886712854956,-0.374200647775386,-0.0526463731391145,-0.171051966922671
29.5,-0.0548501106894367,-0.173367278299001,0.885719907338754,-0.379762395309835,0.885719907332817,-0.379762395303275,-0.0547975736398714,-0.173466365361298
30,-0.0570328695038281,-0.175749439459617,0.882515621422465,-0.385288115589428,0.882515621416626,-0.385288115583021,-0.0569785743047481,-0.175850556097754
30.5,-0.0592449366482211,-0.178100955160209,0.879274341997754,-0.390777557800003,0.879274341992014,-0.390777557793746,-0.0591888435087968,-0.178204133164209
31,-0.061485774134363,-0.180421430409164,0.875996559243799,-0.396230476056986,0.87599655923816,-0.396230476050875,-0.0614278440025353,-0.180526703168936
31.5,-0.0637548386530249,-0.182710482904143,0.872682766567024,-0.401646629763035,0.872682766561488,-0.401646629757066,-0.0636950332821292,-0.182817885344399
32,-0.0660515819503272,-0.18496774306441,0.869333460510612,-0.407025783936224,0.869333460505181,-0.407025783930394,-0.0659898639586726,-0.185077311579272
32.5,-0.0683754512013581,-0.187192854047307,0.865949140642685,-0.412367709515635,0.865949140637359,-0.412367709509941,-0.0683117841252733,-0.187304626435042
33,-0.0707258893799856,-0.18938547174962,0.862530309425781,-0.41767218364467,0.862530309420563,-0.417672183639112,-0.0706602377208179,-0.189499487147881
33.5,-0.0731023356238789,-0.191545264794619,0.859077472070084,-0.422938989932452,0.859077472064971,-0.422938989927024,-0.073034664889415,-0.191661563616502
34,-0.0755042255939409,-0.193671914505603,0.855591136372563,-0.428167918693867,0.855591136367558,-0.428167918688567,-0.0754345023346986,-0.193790538376784
34.5,-0.0779309918274594,-0.195765114866729,0.8520718125441,-0.433358767168821,0.852071812539202,-0.433358767163646,-0.0778591836682809,-0.195886106563884
35,-0.080382064084409,-0.197824572471952,0.848520013026384,-0.438511339721345,0.848520013021592,-0.438511339716295,-0.0803081397517476,-0.197947975862625
35.5,-0.0828568696864266,-0.199850006462845,0.84493625230028,-0.443625448019257,0.844936252295596,-0.443625448014328,-0.082780799031713,-0.199975866446889
36,-0.0853548338480943,-0.201841148456055,0.841321046687176,-0.448700911195066,0.841321046682598,-0.448700911190256,-0.0852765878675374,-0.201969510908752
36.5,-0.0878753800002257,-0.203797742461155,0.83767491414466,-0.453737555988891,0.837674914140188,-0.453737555984198,-0.0877949308513735,-0.203928654178071
37,-0.090417930104941,-0.205719544789594,0.833998374057778,-0.458735216874109,0.833998374053412,-0.458735216869531,-0.090335251120311,-0.205853053433217
37.5,-0.0929819049623488,-0.207606323955405,0.830291947026996,-0.46369373616649,0.830291947022734,-0.463693736162026,-0.0928969706604187,-0.207742478003588
38,-0.0955667245087489,-0.209457860568345,0.826556154653836,-0.468612964117565,0.826556154649678,-0.468612964113213,-0.0954795106025642,-0.209596709264553
38.5,-0.0981718081062775,-0.211273947220059,0.822791519325132,-0.473492758992953,0.822791519321077,-0.47349275898871,-0.0980822915099242,-0.211415540525425
39,-0.100796574823982,-0.213054388363858,0.818998563996672,-0.478332987136369,0.81899856399272,-0.478332987132234,-0.100704733657147,-0.213198776911006
39.5,-0.103440443710334,-0.214799000188659,0.815177811976981,-0.48313352302003,0.815177811973131,-0.483133523016002,-0.103346257301159,-0.214946235237279
40,-0.10610283405723,-0.216507610487589,0.811329786711875,-0.487894249282126,0.811329786708124,-0.487894249278203,-0.106006282943641,-0.216657743881705
40.5,-0.10878316565554,-0.218180058521749,0.807455011570362,-0.492615056752044,0.807455011566711,-0.492615056748224,-0.108684231585237,-0.218333142648653
41,-0.111480859042302,-0.219816194879586,0.80355400963242,-0.497295844463971,0.803554009628867,-0.497295844460253,-0.111379524971546,-0.219972282630373
41.5,-0.114195335739651,-0.221415881332288,0.799627303479082,-0.501936519659518,0.799627303475626,-0.501936519655901,-0.114091585831006,-0.221575026063931
42,-0.116926018485637,-0.222978990685618,0.795675414985248,-0.506536997779962,0.795675414981888,-0.506536997776444,-0.116819838104783,-0.223141246184537
42.5,-0.119672331457017,-0.224505406628528,0.791698865115578,-0.511097202448672,0.791698865112313,-0.511097202445252,-0.119563707168757,-0.224670827075582
43,-0.122433700484201,-0.225995023578917,0.787698173723768,-0.515617065444297,0.787698173720596,-0.515617065440972,-0.12232262004776,-0.226163663515764
43.5,-0.125209553258483,-0.227447746526852,0.783673859355492,-0.520096526665234,0.783673859352412,-0.520096526662005,-0.125096005622193,-0.227619660823605
44,-0.127999319531708,-0.228863490875539,0.779626439055239,-0.524535534085904,0.779626439052251,-0.524535534082768,-0.127883294827168,-0.229038734699662
44.5,-0.13080243130853,-0.230242182280329,0.77555642817727,-0.528934043705302,0.775556428174371,-0.528934043702259,-0.130683920844303,-0.230420811066718
45,-0.133618323031437,-0.231583756486024,0.771464340200834,-0.533292019488323,0.771464340198024,-0.533292019485373,-0.133497319286358,-0.231765825908192
45.5,-0.136446431758668,-0.232888159162705,0.767350686549845,-0.537609433300291,0.767350686547123,-0.537609433297431,-0.136322928374823,-0.233073725105036
46,-0.139286197335223,-0.234155345740324,0.763215976417098,-0.541886264835127,0.763215976414461,-0.541886264832357,-0.139160189110642,-0.234344464271327
46.5,-0.142137062557085,-0.235385281242261,0.759060716593167,-0.546122501537568,0.759060716590615,-0.546122501534887,-0.1420085454382,-0.235578008588758
47,-0.144998473328848,-0.236577940118034,0.754885411300047,-0.550318138519838,0.75488541129758,-0.550318138517244,-0.144867444402748,-0.236774332640255
47.5,-0.147869878814875,-0.237733306075355,0.750690562029629,-0.554473178473129,0.750690562027244,-0.554473178470622,-0.147736336301409,-0.237933420242863
48,-0.150750731584162,-0.238851371911686,0.746476667387038,-0.558587631574268,0.746476667384734,-0.558587631571846,-0.15061467482789,-0.239055264280097
48.5,-0.15364048774905,-0.239932139345466,0.742244222938901,-0.5626615153879,0.742244222936678,-0.562661515385563,-0.153501917211099,-0.240139866533918
49,-0.156538607097936,-0.240975618847142,0.737993721066549,-0.566694854764523,0.737993721064405,-0.566694854762269,-0.156397524347754,-0.241187237516459
49.5,-0.159444553222124,-0.241981829470156,0.733725650824176,-0.570687681734682,0.733725650822109,-0.570687681732511,-0.159300960929175,-0.242197396301674
50,-0.162357793636969,-0.242950798681996,0.729440497801957,-0.574640035399625,0.729440497799966,-0.574640035397536,-0.162211695562361,-0.243170370357009
50.5,-0.165277799897441,-0.243882562195456,0.725138743994126,-0.578551961818696,0.725138743992211,-0.578551961816688,-0.165129200885517,-0.244106195375243
51,-0.168204047708256,-0.244777163800186,0.720820867671992,-0.58242351389375,0.720820867670152,-0.582423513891823,-0.168052953678142,-0.245004915106591
51.5,-0.171136017028703,-0.245634655194673,0.716487343261869,-0.586254751250842,0.716487343260101,-0.586254751248993,-0.170982434965837,-0.245866581191189
52,-0.174073192172288,-0.24645509581872,0.712138641227904,-0.590045740119435,0.712138641226208,-0.590045740117666,-0.173917130119924,-0.246691252992072
52.5,-0.177015061901348,-0.247238552686536,0.70777522795975,-0.593796553209376,0.707775227958124,-0.593796553207683,-0.176856528952038,-0.247478997428704
53,-0.179961119516726,-0.247985100220515,0.70339756566506,-0.597507269585842,0.703397565663504,-0.597507269584227,-0.179800125803794,-0.248229888811197
53.5,-0.182910862942654,-0.248694820085789,0.69900611226674,-0.601177974542509,0.699006112265252,-0.60117797454097,-0.182747419631655,-0.248944008675268
54,-0.185863794806952,-0.249367801025633,0.694601321304923,-0.604808759473105,0.694601321303503,-0.604808759471642,-0.18569791408711,-0.249621445618021
54.5,-0.188819422516654,-0.2500041386978,0.690183641843599,-0.608399721741579,0.690183641842245,-0.608399721740191,-0.188651117592298,-0.250262295134646
55,-0.191777258329184,-0.250603935511837,0.685753518381849,-0.61195096455106,0.68575351838056,-0.611950964549745,-0.191606543411164,-0.250866659456078
55.5,-0.194736819419193,-0.251167300467477,0.681311390769609,-0.615462596811774,0.681311390768384,-0.615462596810532,-0.194563709716275,-0.251434647387709
56,-0.197697627941146,-0.251694348994141,0.676857694127922,-0.618934733008115,0.676857694126761,-0.618934733006947,-0.197522139651398,-0.251966374149199
56.5,-0.200659211087793,-0.252185202791623,0.672392858773579,-0.622367493065005,0.67239285877248,-0.622367493063908,-0.200481361389939,-0.252461961215454
57,-0.203621101144599,-0.252639989672011,0.667917310148102,-0.625761002213717,0.667917310147063,-0.625761002212691,-0.203440908189361,-0.252921536158829
57.5,-0.206582835540273,-0.253058843402895,0.663431468750981,-0.629115390857297,0.663431468750002,-0.629115390856341,-0.206400318441666,-0.253345232492595
58,-0.209543956893435,-0.253441903551915,0.658935750077108,-0.632430794435739,0.658935750076186,-0.632430794434853,-0.209359135720052,-0.253733189515748
58.5,-0.212504013055582,-0.25378931533269,0.654430564558306,-0.635707353291028,0.654430564557442,-0.635707353290211,-0.212316908821833,-0.254085552159185
59,-0.215462557150413,-0.254101229452177,0.649916317508905,-0.638945212532194,0.649916317508098,-0.638945212531445,-0.215273191807725,-0.254402470833294
59.5,-0.218419147609611,-0.254377801959503,0.645393409075254,-0.642144521900496,0.645393409074502,-0.642144521899816,-0.218227544037591,-0.254684101277021
60,-0.221373348205176,-0.25461919409631,0.640862234189119,-0.64530543563484,0.640862234188422,-0.645305435634227,-0.221179530202728,-0.254930604408427
60.5,-0.224324728078408,-0.254825572148642,0.636323182524866,-0.648428112337558,0.636323182524221,-0.64842811233701,-0.2241287203548,-0.255142146176798
61,-0.227272861765615,-0.254997107300424,0.631776638460349,-0.65151271484063,0.631776638459757,-0.651512714840149,-0.227074689931495,-0.255318897416332
61.5,-0.23021732922064,-0.255133975488556,0.627222981041436,-0.654559410072478,0.627222981040895,-0.654559410072063,-0.230017019778997,-0.255461033701433
62,-0.233157715834295,-0.255236357259657,0.622662583950067,-0.657568368925388,0.622662583949576,-0.657568368925037,-0.232955296171367,-0.255568735203658
62.5,-0.236093612450787,-0.255304437628493,0.61809581547578,-0.660539766123683,0.618095815475339,-0.660539766123396,-0.2358891108269,-0.25564218655034
63,-0.239024615381206,-0.255338405938103,0.613523038490611,-0.663473780092707,0.613523038490218,-0.663473780092483,-0.238818060921559,-0.255681576684909
63.5,-0.241950326414176,-0.25533845572167,0.608944610427291,-0.666370592828712,0.608944610426945,-0.666370592828551,-0.241741749099557,-0.255687098728952
