"Freq [GHz]","re(St(P1,P1)) []","im(St(P1,P1)) []","re(St(P1,P2)) []","im(St(P1,P2)) []","re(St(P2,P1)) []","im(St(P2,P1)) []","re(St(P2,P2)) []","im(St(P2,P2)) []"
0,0.00501573485644258,0,0.99500254188024,0,0.995002541676513,0,0.00501573960400492,0
0.5,0.00567586225266936,-0.00201320186279119,0.994171439322535,-0.0102740204365475,0.994171439358936,-0.0102740204913623,0.00567604318581871,-0.0020135950774538
1,0.00613829522437825,-0.0048769339059973,0.993232021984804,-0.0196629989883128,0.993232021957363,-0.0196629989522208,0.00613869896880814,-0.00487796468000212
1.5,0.00625152436111698,-0.00788890591889668,0.992351129588366,-0.0288209162185602,0.992351129593899,-0.0288209161871329,0.00625209506462099,-0.00789067421674261
2,0.00611927689748537,-0.0108803825301464,0.991458632999894,-0.0378899313446066,0.991458633019873,-0.0378899313335133,0.0061199476998226,-0.010882939969914
2.5,0.00583464076243789,-0.0138125468389934,0.990482389015979,-0.0469002327839227,0.990482389035817,-0.0469002327910069,0.00583536559766706,-0.0138159202993986
3,0.00544297582091868,-0.0166830326204419,0.989397600010105,-0.0558428594888056,0.989397600022897,-0.0558428595067699,0.00544371841380986,-0.0166872464589751
3.5,0.00496872635899637,-0.0194944817408302,0.988202303668886,-0.0647068449643573,0.988202303673171,-0.0647068449858086,0.00496945190778053,-0.0194995614244657
4,0.00442744147960727,-0.022249738404172,0.986903593444558,-0.0734856174776777,0.986903593442085,-0.0734856174969156,0.00442811300658219,-0.0222557096833214
4.5,0.00383043053259025,-0.0249515218051934,0.985511379426692,-0.0821770714194452,0.985511379420748,-0.0821770714329046,0.00383100779187706,-0.0249584092401856
5,0.00318659917203101,-0.0276026476466562,0.984035570401167,-0.0907824758680675,0.984035570395388,-0.0907824758742208,0.00318703880257698,-0.0276104734180169
5.5,0.00250321010139154,-0.0302061713591657,0.982484840482684,-0.0993053276923002,0.982484840480239,-0.0993053276912876,0.00250346633349652,-0.0302149545464863
6,0.00178622722076882,-0.0327654095678023,0.980866182719758,-0.107750394106904,0.980866182722846,-0.107750394100044,0.00178625276151212,-0.0327751658709365
6.5,0.0010405006888099,-0.0352838840177654,0.979184867585467,-0.116122984762692,0.979184867595066,-0.11612298475197,0.00104024757998344,-0.0352946258305042
7,0.000269895217279548,-0.0377652302390654,0.977444603111003,-0.124428435912034,0.977444603126795,-0.124428435899641,0.000269315558058258,-0.037776966971748
7.5,-0.00052259921694997,-0.0402130991085699,0.975647781608043,-0.132671771221069,0.975647781628476,-0.132671771209009,-0.000523552728593057,-0.0402258376630531
8,-0.00133476137062816,-0.0426310673492409,0.973795747397487,-0.140857500061023,0.973795747419911,-0.140857500050831,-0.00133613508504421,-0.0426448126658254
8.5,-0.00216503524234327,-0.0450225645887734,0.971889049936689,-0.148989516826986,0.971889049957533,-0.148989516819494,-0.00216687437828278,-0.045037320203873
9,-0.00301243067700066,-0.0473908192717518,0.969927665262086,-0.157071070448245,0.969927665277059,-0.157071070443444,-0.00301477928741742,-0.0474065878438301
9.5,-0.00387643043841332,-0.0497388226252795,0.967911179841755,-0.16510477972064,0.967911179846031,-0.165104779717606,-0.00387933149073202,-0.0497556064027194
10,-0.00475690570238463,-0.0520693082973942,0.965838937284356,-0.173092676233415,0.965838937272755,-0.173092676230262,-0.0047604012427396,-0.0520871095147104
10.5,-0.00560309205065826,-0.054379737253258,0.963712921246565,-0.181033368479243,0.963712921236661,-0.181033368473158,-0.00560693886096805,-0.0543986669983703
11,-0.00648090068957362,-0.0566844467335281,0.961540370686417,-0.188929898869999,0.96154037067846,-0.188929898861406,-0.00648521651627018,-0.0567045146450025
11.5,-0.00739103744634449,-0.0589820924865867,0.959321149593762,-0.196784953056191,0.959321149587924,-0.196784953045501,-0.00739593035668473,-0.0590032995044658
12,-0.00833402666563624,-0.0612714244656365,0.957054897808368,-0.204600833475716,0.957054897804755,-0.204600833463329,-0.00833959643659601,-0.0612937648225942
12.5,-0.00931024775720254,-0.0635512758996803,0.954741098157184,-0.212379484842708,0.954741098155847,-0.212379484829,-0.00931658705816826,-0.0635747385905687
13,-0.0103199631441455,-0.0658205533252629,0.952379130932242,-0.220122523469793,0.952379130933182,-0.220122523455116,-0.0103271585366592,-0.0658451231986601
13.5,-0.0113633398159524,-0.0680782277242713,0.949968317359572,-0.227831268207865,0.949968317362753,-0.227831268192538,-0.0113714725954011,-0.0681038862980312
14,-0.0124404660858926,-0.0703233267672396,0.947507953695571,-0.235506771430812,0.947507953700921,-0.235506771415126,-0.0124496129887549,-0.0703500528410528
14.5,-0.0135513647229951,-0.0725549280902262,0.944997337483153,-0.243149848998292,0.944997337490576,-0.243149848982502,-0.0135615985207558,-0.0725826982078619
15,-0.0146960033216605,-0.0747721535030035,0.942435787347633,-0.25076110851548,0.942435787357017,-0.250761108499816,-0.0147073933196774,-0.0748009423025313
15.5,-0.0158743025505054,-0.0769741640182247,0.939822657540355,-0.258340975495351,0.939822657551569,-0.258340975480013,-0.0158869150073618,-0.0770039444982453
16,-0.0170861427611882,-0.0791601555944799,0.937157348264677,-0.265889717235702,0.937157348277584,-0.265889717220859,-0.0171000412415604,-0.0791908993170449
16.5,-0.0183313693201062,-0.0813293554948249,0.934439312655502,-0.273407464367617,0.934439312669957,-0.273407464353414,-0.0183466149920308,-0.0813610327404062
17,-0.0196097969389945,-0.0834810191732367,0.931668061135339,-0.280894230129274,0.931668061151194,-0.280894230115833,-0.0196264488245565,-0.0835135990592106
17.5,-0.0209212132158184,-0.0856144276124655,0.92884316373995,-0.288349927480866,0.928843163757057,-0.288349927468285,-0.0209393284027627,-0.0856478781837455
18,-0.0222653815489752,-0.0877288850472633,0.92596425089488,-0.295774384212686,0.925964250913092,-0.295774384201042,-0.0222850153694444,-0.0877631733455972
18.5,-0.0236420435513648,-0.0898237170164906,0.92303101302983,-0.303167356216589,0.923031013049003,-0.303167356205942,-0.0236632497329084,-0.0898588091333981
19,-0.02505092106316,-0.0918982686959411,0.920043199339229,-0.310528539096562,0.920043199359222,-0.310528539086956,-0.0250737518563048,-0.0919341298130658
19.5,-0.0264917178409708,-0.0939519034709528,0.917000615932642,-0.317857578291332,0.917000615953323,-0.317857578282795,-0.0265162241269044,-0.093988497890757
20,-0.0279641209848074,-0.0959840017141178,0.913903123565784,-0.325154077873818,0.913903123587024,-0.325154077866366,-0.0279903523661393,-0.0960212928831627
20.5,-0.0294678021516427,-0.0979939597386292,0.910750635100169,-0.332417608181031,0.910750635121846,-0.332417608174668,-0.0294958070287323,-0.0980319102651819
21,-0.0310024185945812,-0.0999811889022826,0.907543112805072,-0.33964771241512,0.907543112827071,-0.339647712409839,-0.031032244229506,-0.100019760569614
21.5,-0.0325676140589706,-0.101945114840949,0.904280565588015,-0.34684391234299,0.90428056561023,-0.346843912338777,-0.0325993066288862,-0.101984268617375
22,-0.0341630195607286,-0.10388517681345,0.900963046218296,-0.354005713208613,0.900963046240628,-0.354005713205446,-0.0341966242020953,-0.103924872859955
22.5,-0.0357882540674083,-0.105800827142494,0.897590648590881,-0.361132607959587,0.897590648613237,-0.361132607957438,-0.035823814912325,-0.105841024818584
23,-0.0374429250987033,-0.10769153073857,0.894163505064583,-0.368224080877714,0.894163505086878,-0.368224080876548,-0.0374804853044165,-0.107732188606883
23.5,-0.0391266292600719,-0.109556764695581,0.890681783898014,-0.375279610692535,0.890681783920171,-0.375279610692314,-0.0391662310325471,-0.109597840525659
24,-0.0408389527206905,-0.111396017948629,0.88714568679873,-0.382298673247033,0.887145686820677,-0.382298673247714,-0.04088063733303,-0.111437468720173
24.5,-0.0425794716450336,-0.113208790985704,0.883555446594823,-0.389280743775934,0.883555446616498,-0.389280743777474,-0.0426232794513839,-0.11325057289158
25,-0.0443477525857275,-0.114994595606163,0.879911325033565,-0.396225298849242,0.879911325054908,-0.396225298851594,-0.0443937230312569,-0.115036664055368
25.5,-0.0461433528440633,-0.116752954719907,0.876213610708201,-0.403131818026795,0.876213610729163,-0.403131818029908,-0.0461915244714891,-0.116795264340649
26,-0.0479658208034885,-0.118483402181917,0.872462617111455,-0.409999785263528,0.87246261713199,-0.409999785267354,-0.0480162312565799,-0.11852590682496
26.5,-0.049814696240514,-0.120185482657583,0.868658680812446,-0.416828690099881,0.868658680832514,-0.416828690104369,-0.049867382264944,-0.120228135399947
27,-0.0516895106167813,-0.121858751514808,0.864802159752443,-0.423618028667118,0.86480215977201,-0.423618028672217,-0.0517445080586413,-0.12190150466393
27.5,-0.0535897873554233,-0.123502774739421,0.86089343165404,-0.430367304533305,0.860893431673077,-0.430367304538966,-0.0536471311576859,-0.123545579837824
28,-0.0555150421043679,-0.125117128870825,0.856932892537796,-0.437076029412215,0.856932892556279,-0.437076029418387,-0.0555747663015483,-0.12515993670138
28.5,-0.0574647829888273,-0.126701400955236,0.852920955340129,-0.443743723754316,0.852920955358038,-0.443743723760949,-0.057526920700059,-0.126744161547027
29,-0.0594385108548744,-0.128255188514138,0.848858048626142,-0.450369917236453,0.84885804864346,-0.450369917243499,-0.059503094275592,-0.128297851149005
29.5,-0.0614357195057106,-0.129778099525907,0.844744615391134,-0.45695414916447,0.844744615407849,-0.456954149171881,-0.0615027798981201,-0.129820612745666
30,-0.0634558959320055,-0.131269752418752,0.840581111944673,-0.463495968801093,0.840581111960777,-0.463495968808824,-0.0635254636144914,-0.131312064033131
30.5,-0.0654985205374641,-0.132729776073365,0.836368006871361,-0.469994935629661,0.836368006886849,-0.469994935637667,-0.0655706248730724,-0.132771833168666
31,-0.0675630673606284,-0.13415780983382,0.832105780062629,-0.47645061956283,0.832105780077498,-0.476450619571068,-0.0676377367447579,-0.134199558782332
31.5,-0.0696490042937432,-0.135553503525464,0.827794921814259,-0.482862601104097,0.82779492182851,-0.482862601112527,-0.0697262661411562,-0.135594889995625
32,-0.0717557932994231,-0.136916517478606,0.823435931984591,-0.48923047146888,0.823435931998228,-0.489230471477461,-0.0718356740306759,-0.136957486445926
32.5,-0.0738828906257194,-0.138246522557013,0.819029319208727,-0.495553832670957,0.819029319221752,-0.495553832679653,-0.0739654156531175,-0.138287018315773
33,-0.076029747020115,-0.13954320019026,0.814575600164311,-0.501832297579238,0.814575600176735,-0.501832297588013,-0.0761149407332721,-0.139583166365967
33.5,-0.0781958079428799,-0.140806242409105,0.810075298884852,-0.508065489949133,0.810075298896681,-0.508065489957953,-0.0782836936939724,-0.140845621971726
34,-0.0803805137801689,-0.142035351883133,0.805528946116748,-0.514253044432181,0.805528946127995,-0.514253044441012,-0.0804711138689509,-0.142074087161093
34.5,-0.0825833000571564,-0.143230241959977,0.800937078716578,-0.520394606567068,0.800937078727254,-0.520394606575883,-0.0826766357158151,-0.143268274654928
35,-0.0848035976514759,-0.144390636705504,0.796300239085395,-0.526489832754723,0.796300239095515,-0.526489832763492,-0.0848996890293856,-0.144427907907847
35.5,-0.0870408330071692,-0.145516270944381,0.791618974637083,-0.532538390219768,0.79161897464666,-0.532538390228466,-0.0871396991556153,-0.145552721149543
36,-0.0892944283493197,-0.14660689030052,0.786893837298035,-0.538539956960296,0.786893837307087,-0.538539956968899,-0.0893960872062411,-0.146642459425982
36.5,-0.0915638018994982,-0.147662251236904,0.782125383035682,-0.54449422168763,0.782125383044223,-0.544494221696114,-0.0916682702743121,-0.147696878639962
37,-0.0938483680921302,-0.148682121094382,0.777314171413553,-0.550400883757484,0.777314171421602,-0.550400883765828,-0.0939556616506853,-0.148715745590638
37.5,-0.0961475377918525,-0.149666278129015,0.772460765170812,-0.55625965309374,0.772460765178385,-0.556259653101926,-0.0962576710415652,-0.149698838011582
38,-0.0984607185119096,-0.150614511547612,0.767565729824331,-0.562070250105855,0.767565729831448,-0.562070250113866,-0.0985737047871272,-0.15064594460702
38.5,-0.100787314633619,-0.151526621541109,0.762629633291586,-0.567832405600771,0.762629633298264,-0.567832405608591,-0.100903166081256,-0.151556865085901
39,-0.103126727626904,-0.152402419315481,0.757653045532753,-0.573545860690055,0.757653045539011,-0.57354586069767,-0.103245455192399,-0.152431410193483
39.5,-0.105478356271891,-0.153241727119898,0.752636538210599,-0.579210366692895,0.752636538216456,-0.579210366700292,-0.105599969685513,-0.153269401740145
40,-0.10784159688153,-0.154044378271852,0.747580684366816,-0.584825685035467,0.747580684372292,-0.584825685042636,-0.107966104645091,-0.154070672627152
40.5,-0.110215843525209,-0.154810217179007,0.742486058113623,-0.590391587147119,0.742486058118736,-0.59039158715405,-0.110343252899202,-0.154835066869132
41,-0.112600488253282,-0.15553909935755,0.73735323433954,-0.595907854353728,0.737353234344309,-0.595907854360412,-0.112730805244498,-0.155562439613014
41.5,-0.114994921322467,-0.156230891446808,0.732182788428349,-0.601374277768547,0.732182788432792,-0.601374277774978,-0.115128150672111,-0.156252657153245
42,-0.117398531422011,-0.156885471219971,0.726975295990345,-0.606790658180806,0.726975295994481,-0.60679065818698,-0.117534676594361,-0.156905596943052
42.5,-0.119810705900541,-0.157502727590701,0.721731332605074,-0.612156805942268,0.721731332608921,-0.612156805948179,-0.119949769072165,-0.1575211476016
43,-0.122230830993487,-0.158082560615486,0.716451473574799,-0.617472540851929,0.716451473578376,-0.617472540857573,-0.122372813043074,-0.158099208916849
43.5,-0.12465829205099,-0.158624881491574,0.711136293688054,-0.622737692039018,0.711136293691377,-0.622737692044394,-0.124803192549794,-0.158639691843978
44,-0.127092473766147,-0.159129612550348,0.705786366992667,-0.627952097844413,0.705786366995753,-0.627952097849521,-0.127240290969094,-0.159142518499223
44.5,-0.129532760403486,-0.159596687246021,0.700402266577702,-0.633115605700592,0.700402266580568,-0.633115605705431,-0.129683491240955,-0.159607622148996
45,-0.131978536027544,-0.160026050139516,0.694984564363836,-0.638228072010199,0.694984564366497,-0.638228072014769,-0.132132176097853,-0.160034947194186
45.5,-0.134429184731384,-0.160417656877446,0.689533830901717,-0.643289362023307,0.689533830904189,-0.64328936202761,-0.134585728294001,-0.160424449149501
46,-0.136884090864939,-0.16077147416609,0.684050635177894,-0.648299349713447,0.684050635180192,-0.648299349717487,-0.137043530834438,-0.160776094617803
46.5,-0.139342639263009,-0.161087479740276,0.678535544427959,-0.653257917652464,0.678535544430098,-0.653257917656242,-0.139504967203798,-0.161089861259303
47,-0.141804215472774,-0.161365662327108,0.672989123956571,-0.658164956884234,0.672989123958564,-0.658164956887754,-0.141969421594598,-0.161365737755577
47.5,-0.144268205980658,-0.161606021604464,0.667411936964044,-0.66302036679732,0.667411936965906,-0.663020366800588,-0.144436279134906,-0.16160372376832
48,-0.146733998438385,-0.161808568154219,0.661804544379255,-0.667824054996587,0.661804544380996,-0.667824054999608,-0.146904926115218,-0.161803829892791
48.5,-0.149200981888065,-0.161973323410138,0.656167504698594,-0.672575937173823,0.656167504700228,-0.672575937176601,-0.149374750214366,-0.161966077605896
49,-0.151668546986144,-0.162100319600417,0.650501373830763,-0.67727593697741,0.6505013738323,-0.677275936979953,-0.151845140724311,-0.162090499208886
49.5,-0.154136086226047,-0.162189599684832,0.644806704947194,-0.681923985881089,0.644806704948645,-0.681923985883402,-0.154315488773639,-0.162177137764629
50,-0.15660299415935,-0.162241217286487,0.639084048337918,-0.686520023051842,0.639084048339293,-0.686520023053933,-0.156785187549595,-0.16222604702945
50.5,-0.159068667615297,-0.162255236618152,0.633333951272712,-0.69106399521695,0.633333951274022,-0.691063995218826,-0.159253632518459,-0.162237291379518
51,-0.161532505918504,-0.162231732403186,0.627556957867371,-0.695555856530248,0.627556957868624,-0.695555856531916,-0.161720221644134,-0.162210945731791
51.5,-0.163993911104668,-0.162170789791063,0.621753608954957,-0.699995568437639,0.621753608956161,-0.699995568439108,-0.164184355604731,-0.162147095459522
52,-0.166452288134107,-0.162072504267498,0.615924441961915,-0.704383099541887,0.615924441963078,-0.704383099543164,-0.166645438006981,-0.162045836302342
52.5,-0.168907045102964,-0.161936981559227,0.610069990788916,-0.70871842546675,0.610069990790046,-0.708718425467844,-0.169102875598329,-0.161907274270941
53,-0.17135759345189,-0.161764337533442,0.604190785696335,-0.713001528720487,0.604190785697436,-0.713001528721407,-0.171556078476495,-0.16173152554639
53.5,-0.173803348172051,-0.161554698091947,0.598287353194248,-0.71723239855879,0.598287353195328,-0.717232398559544,-0.174004460296358,-0.161518716374131
54,-0.176243728008264,-0.161308199060068,0.592360215936875,-0.721411030847185,0.592360215937939,-0.721411030847782,-0.176447438473967,-0.161268982952698
54.5,-0.178678155659112,-0.161024986070374,0.586409892621357,-0.725537427922954,0.58640989262241,-0.725537427923402,-0.178884434387529,-0.160982471317203
55,-0.181106057973861,-0.16070521444128,0.58043689789081,-0.729611598456617,0.580436897891855,-0.729611598456926,-0.181314873575183,-0.160659337217676
55.5,-0.183526866146011,-0.160349049050592,0.57444174224155,-0.733633557313045,0.574441742242592,-0.733633557313224,-0.183738185929409,-0.160299745992308
56,-0.185940015903316,-0.159956664204071,0.568424931934453,-0.737603325412232,0.568424931935494,-0.737603325412288,-0.186153805887889,-0.159903872435683
56.5,-0.188344947694117,-0.159528243499116,0.562386968910342,-0.741520929589791,0.562386968911386,-0.741520929589734,-0.188561172620676,-0.159471900662082
57,-0.190741106869818,-0.159063979683624,0.556328350709372,-0.745386402457229,0.556328350710421,-0.745386402457068,-0.190959730213485,-0.159004023963945
57.5,-0.193127943863362,-0.158564074510154,0.550249570394316,-0.749199782262047,0.55024957039537,-0.74919978226179,-0.193348927846974,-0.1585004446656
58,-0.195504914363539,-0.158028738585486,0.544151116477711,-0.752961112747721,0.544151116478774,-0.752961112747377,-0.195728219971845,-0.157961373972339
58.5,-0.197871479484989,-0.157458191215675,0.538033472852815,-0.756670443013627,0.538033472853886,-0.756670443013203,-0.198097066479612,-0.157387031814975
59,-0.200227105933747,-0.156852660246723,0.531897118728277,-0.760327827374944,0.531897118729358,-0.760327827374449,-0.200454932868897,-0.156777646689983
59.5,-0.202571266168187,-0.156212381900994,0.525742528566519,-0.763933325222619,0.525742528567608,-0.763933325222061,-0.202801290407112,-0.156133455495333
60,-0.204903438555231,-0.15553760060948,0.519570172025723,-0.767487000883421,0.519570172026821,-0.767487000882809,-0.205135616287371,-0.155454703362169
60.5,-0.207223107521693,-0.154828568840057,0.513380513905412,-0.770988923480157,0.513380513906518,-0.770988923479497,-0.20745739378052,-0.154741643482436
61,-0.209529763700613,-0.154085546921876,0.507174014095539,-0.774439166792088,0.507174014096653,-0.774439166791389,-0.209766112382135,-0.153994536932608
61.5,-0.211822904072478,-0.153308802866003,0.500951127529056,-0.777837809115626,0.500951127530176,-0.777837809114893,-0.212061267954381,-0.153213652493652
62,-0.214102032101192,-0.152498612182477,0.494712304137891,-0.781184933125321,0.494712304139016,-0.781184933124564,-0.214342362862581,-0.152399266467364
62.5,-0.216366657864694,-0.15165525769391,0.488457988812302,-0.784480625735249,0.488457988813429,-0.784480625734473,-0.216608906106424,-0.15155166248924
63,-0.218616298180102,-0.150779029345803,0.482188621363534,-0.787724977960791,0.482188621364663,-0.787724977960002,-0.218860413445653,-0.150671131338022
63.5,-0.220850476723294,-0.149870224013711,0.475904636489751,-0.790918084780903,0.475904636490878,-0.790918084780108,-0.221096407520168,-0.149757970742081
