"Freq [GHz]","re(St(P1,P1)) []","im(St(P1,P1)) []","re(St(P1,P2)) []","im(St(P1,P2)) []","re(St(P2,P1)) []","im(St(P2,P1)) []","re(St(P2,P2)) []","im(St(P2,P2)) []"
0,0.00537120703341998,0,0.994642162972013,0,0.994642164718243,0,0.00537120850231076,0
0.5,0.0057743764459488,0.00151029747081211,0.99419224460199,-0.00559118185361385,0.994192244832909,-0.00559118252780166,0.00577408236293664,0.00151114180449596
1,0.00615994199752024,0.00251994061794036,0.993701357225074,-0.0106719651815581,0.993701357188694,-0.0106719651870861,0.00615910511292128,0.00252191027361803
1.5,0.00637784554013265,0.00337441280280615,0.993280180451704,-0.0158045612632698,0.993280180418664,-0.0158045612700057,0.00637593719199181,0.00337736884089068
2,0.00650322991601904,0.0042465338486366,0.992823944137517,-0.0207970933556219,0.992823944109931,-0.0207970933633916,0.00650037526093517,0.00425093955876221
2.5,0.00659574793423623,0.00514319292743259,0.992372677464386,-0.0256858075970587,0.992372677443645,-0.0256858076061715,0.00659203111743789,0.00514916307629498
3,0.00667844817380203,0.00605810078636182,0.991938088023742,-0.0305059633420335,0.9919380880104,-0.0305059633527911,0.00667386575277718,0.00606565988507413
3.5,0.00676104582703996,0.00698594200753178,0.991517018059386,-0.035282772304992,0.991517018053348,-0.0352827723174265,0.0067555427708208,0.00699509595442116
4,0.00684811091238524,0.00792322527484934,0.991100907621922,-0.0400317204115233,0.991100907622681,-0.0400317204253717,0.00684160402464551,0.00793398019608382
4.5,0.00694201895920887,0.00886773711800615,0.990680443895793,-0.0447614370447642,0.990680443902583,-0.0447614370595488,0.00693440911398424,0.008880104146332
5,0.00704412082992167,0.00981806948316244,0.990247323345478,-0.0494763260001569,0.990247323357377,-0.0494763260152675,0.00703529932507552,0.00983206568476636
5.5,0.0071552522333318,0.0107733193711663,0.989794684763323,-0.0541783731342926,0.989794684779309,-0.0541783731491083,0.00714510419485381,0.0107889676472359
6,0.00727597451656736,0.0117329066877732,0.989317036847917,-0.0588682535882175,0.989317036866909,-0.0588682536021414,0.00726438078842961,0.011750235465545
6.5,0.00740669661854942,0.0126964630858621,0.988810040732125,-0.0635459713898738,0.98881004075301,-0.0635459714023918,0.0073935348434484,0.012715506030009
7,0.00754774058027352,0.0136637626530698,0.988270284039448,-0.068211214951428,0.988270284061108,-0.0682112149621279,0.00753288582998435,0.0136845584525354
7.5,0.00769937856359992,0.0146346775691519,0.987695088498323,-0.0728635474730179,0.987695088519652,-0.072863547481596,0.0076827037088818,0.0146572698023206
8,0.00786185471873518,0.0156091489928771,0.987082357395091,-0.0775025038043919,0.987082357415019,-0.0775025038106723,0.00784323064344522,0.0156335860606136
8.5,0.00803539862519864,0.0165871674665548,0.986430457673384,-0.0821276353843876,0.986430457690888,-0.0821276353882938,0.00801469434447694,0.0166135025811069
9,0.00822023386120019,0.0175687594134812,0.985738129203409,-0.0867385271027299,0.985738129217525,-0.0867385271042878,0.00819731657920936,0.0175970506330492
9.5,0.00841658366057069,0.0185539776253041,0.985004414504183,-0.0913347996234082,0.985004414514018,-0.0913347996227341,0.00839131878949168,0.0185842879263891
10,0.0086246747771106,0.0195428944171949,0.984228603668855,-0.0959161047816277,0.984228603673588,-0.0959161047789081,0.00859692593111233,0.0195752917988825
10.5,0.00886336391667292,0.0204927213413897,0.983508573263207,-0.100554647307358,0.983508573268139,-0.100554647304691,0.00883359724397476,0.0205268457248531
11,0.00911302811912069,0.0214386492019787,0.982764471988798,-0.105175841720135,0.98276447199392,-0.105175841717537,0.00908113965877738,0.0214745184625964
11.5,0.00937357622994713,0.0223805151247864,0.981997216049424,-0.109779851856189,0.981997216054726,-0.109779851853671,0.00933946138650786,0.0224181484770241
12,0.00964491381795322,0.0233181591968128,0.981207666196041,-0.114366894465927,0.981207666201512,-0.114366894463501,0.0096084673654296,0.0233575772513461
12.5,0.00992694329396818,0.0242514245536127,0.980396626015465,-0.118937231582184,0.980396626021094,-0.118937231579857,0.00988805938356577,0.0242926493747921
13,0.010219564032256,0.025180157461238,0.979564841111964,-0.123491163193949,0.97956484111774,-0.123491163191734,0.0101781362038692,0.0252232126246263
13.5,0.0105226724943039,0.0261042073925699,0.97871299907914,-0.128029020307641,0.97871299908505,-0.128029020305545,0.0104785936917679,0.026149118042345
14,0.0108361623547279,0.0270234270980398,0.977841730157663,-0.132551158457332,0.977841730163697,-0.132551158455361,0.0107893249448004,0.0270702200040009
14.5,0.0111599246289916,0.0279376726706708,0.976951608475662,-0.137057951706574,0.976951608481807,-0.137057951704732,0.0111102204240303,0.0279863762846322
15,0.0114938478026713,0.0288468036054108,0.976043153772396,-0.141549787167699,0.976043153778639,-0.141549787165992,0.0114411680869474,0.0288974481167403
15.5,0.0118378179619742,0.0297506828527143,0.975116833511572,-0.146027060049931,0.975116833517903,-0.14602706004836,0.0117820535215527,0.0298033002428229
16,0.0121917189252294,0.0306491768664334,0.974173065297807,-0.150490169235336,0.974173065304214,-0.150490169233906,0.0121327600813398,0.0307038009619616
16.5,0.0125554323750818,0.0315421556459476,0.973212219517714,-0.154939513371641,0.973212219524186,-0.154939513370352,0.0124931690208802,0.0315988221704866
17,0.0129288379911097,0.0324294927726521,0.97223462213562,-0.159375487462837,0.972234622142147,-0.159375487461688,0.0128631596317224,0.0324882393967587
17.5,0.0133118135825955,0.0333110654407647,0.971240557582501,-0.163798479932499,0.971240557589071,-0.163798479931492,0.0132426093783329,0.0333719318300982
18,0.0137042352212021,0.0341867544825636,0.970230271685193,-0.168208870130291,0.970230271691798,-0.168208870129424,0.0136313940338022,0.0342497823439691
18.5,0.0141059773732722,0.0350564443880788,0.969203974591052,-0.172607026249227,0.969203974597682,-0.172607026248498,0.0140293878150449,0.0351216775134362
19,0.0145169130315331,0.0359200233193833,0.968161843650813,-0.176993303619593,0.968161843657459,-0.176993303619001,0.0144364635172467,0.0359875076270617
19.5,0.0149369138459374,0.0367773831194853,0.96710402622938,-0.181368043344899,0.967104026236033,-0.181368043344441,0.0148524926472925,0.0368471666932586
20,0.0153658502534228,0.0376284193160128,0.966030642420606,-0.185731571245334,0.966030642427258,-0.185731571245008,0.0152773455559523,0.0377005524412937
20.5,0.0158035916063607,0.0384730311197568,0.964941787647714,-0.190084197075247,0.96494178765436,-0.190084197075049,0.0157108915685798,0.0385475663170323
21,0.0162500062994809,0.0393111214181987,0.963837535135946,-0.194426213982526,0.963837535142579,-0.194426213982452,0.0161529991141057,0.0393881134735397
21.5,0.01670496189506,0.0401425967641766,0.962717938248279,-0.198757898179498,0.96271793825489,-0.198757898179545,0.0166035358521202,0.0402221027567313
22,0.0171683252461842,0.0409673673598128,0.961583032678643,-0.203079508797067,0.961583032685228,-0.20307950879723,0.017062368797838,0.0410494466861908
22.5,0.0176399626178967,0.0417853470358649,0.960432838500172,-0.207391287895922,0.960432838506725,-0.207391287896198,0.0175293644447572,0.0418700614313394
23,0.0181197398060566,0.0425964532266443,0.959267362068436,-0.211693460610921,0.959267362074952,-0.211693460611304,0.0180043888848398,0.0426838667831011
23.5,0.0186075222537416,0.0434006069406849,0.958086597781694,-0.215986235406966,0.95808659778817,-0.215986235407454,0.0184873079260402,0.0434907861212692
24,0.0191031751650397,0.044197732727294,0.956890529701792,-0.220269804426921,0.956890529708222,-0.220269804427507,0.0189779872070319,0.0442907463777298
24.5,0.0196065636160973,0.0449877586392118,0.955679133040541,-0.224544343914177,0.955679133046923,-0.224544343914859,0.0194762923089882,0.0450836779957404
25,0.0201175526632707,0.0457706161915061,0.95445237551738,-0.228810014694519,0.954452375523709,-0.228810014695293,0.0199820888642837,0.0458695148854544
25.5,0.0206360074482854,0.0465462403169123,0.953210218594716,-0.233066962703787,0.95321021860099,-0.233066962704647,0.0204952426620022,0.0466481943758765
26,0.0211617933002689,0.0473145693177977,0.951952618597824,-0.237315319549571,0.95195261860404,-0.237315319550514,0.0210156197501364,0.0474196571634453
26.5,0.0216947758345776,0.048075544814923,0.950679527726363,-0.241555203096751,0.950679527732519,-0.241555203097771,0.0215430865343889,0.0481838472574487
27,0.0222348210483143,0.0488291116932147,0.949390894964703,-0.24578671806814,0.949390894970798,-0.245786718069234,0.0220775098734869,0.0489407119224605
27.5,0.0227817954124707,0.0495752180447051,0.948086666898177,-0.250009956652811,0.948086666904208,-0.250009956653976,0.0226187571709385,0.0496902016180059
28,0.0233355659606153,0.0503138151088529,0.946766788442261,-0.254224999115815,0.946766788448227,-0.254224999117044,0.0231666964631673,0.0504322699356385
28.5,0.0238960003740832,0.0510448572104267,0.945431203491469,-0.258431914404056,0.945431203497368,-0.258431914405348,0.0237211965039733,0.0511668735336515
29,0.0244629670636082,0.0517683016951247,0.944079855494479,-0.262630760744019,0.94407985550031,-0.262630760745369,0.0242821268452817,0.0518939720695937
29.5,0.0250363352473708,0.0524841088631463,0.942712687961715,-0.266821586227816,0.942712687967478,-0.266821586229221,0.0248493579141448,0.0526135281308044
30,0.0256159750254245,0.0531922419008657,0.941329644911256,-0.271004429384752,0.941329644916949,-0.271004429386207,0.0254227610859786,0.0533255071631471
30.5,0.026201757450492,0.0538926668108171,0.939930671258617,-0.275179319736197,0.939930671264239,-0.2751793197377,0.0260022087540212,0.0540298773981345
31,0.0267935545951114,0.0545853523401576,0.938515713155591,-0.279346278332109,0.938515713161144,-0.279346278333655,0.0265875743950147,0.0547266097786421
31.5,0.0273912396151437,0.0552702699077912,0.937084718282975,-0.283505318267943,0.937084718288458,-0.28350531826953,0.0271787326311107,0.055415677883371
32,0.0279946868096337,0.0559473935303119,0.935637636101653,-0.287656445181164,0.935637636107065,-0.28765644518279,0.0277755592880181,0.0560970578502595
32.5,0.028603771677052,0.0566166997469582,0.934174418066194,-0.291799657726794,0.934174418071536,-0.291799657728455,0.0283779314494169,0.0567707282990026
33,0.0292183709679351,0.0572781675437239,0.932695017804771,-0.295934948031782,0.932695017810042,-0.295934948033475,0.0289857275076648,0.0574366702528575
33.5,0.029838362733953,0.0579317782767992,0.931199391268902,-0.300062302128167,0.931199391274103,-0.300062302129888,0.0295988272108392,0.0580948670599009
34,0.03046362637344,0.0585775155954844,0.929687496856227,-0.304181700365211,0.929687496861358,-0.304181700366958,0.0302171117061516,0.0587453043138799
34.5,0.031094042673433,0.0592153653647469,0.928159295509243,-0.308293117800817,0.928159295514305,-0.30829311780259,0.0308404635797944,0.0593879697748441
35,0.031729493848263,0.0598453155875434,0.926614750792675,-0.312396524572689,0.926614750797668,-0.312396524574482,0.0314687668932672,0.0600228532896643
35.5,0.0323698635747542,0.060467356327067,0.925053828951892,-0.316491886249739,0.925053828956816,-0.316491886251552,0.0321019072162474,0.0606499467126167
36,0.033015037024092,0.0610814796290486,0.923476498954584,-0.320579164164399,0.923476498959442,-0.32057916416623,0.0327397716560787,0.0612692438261531
36.5,0.0336649008904148,0.0616876794442367,0.921882732517683,-0.324658315726469,0.921882732522474,-0.324658315728314,0.0333822488839344,0.0618807402619812
37,0.0343193434162134,0.0622859515511982,0.920272504121317,-0.328729294719212,0.92027250412604,-0.328729294721071,0.0340292291577411,0.0624844334225949
37.5,0.0349782544145828,0.0628762934795113,0.918645791011423,-0.332792051578445,0.918645791016081,-0.332792051580315,0.0346806043419532,0.0630803224033711
38,0.0356415252884358,0.0634587044335515,0.917002573192491,-0.336846533655341,0.917002573197084,-0.33684653365722,0.0353362679242186,0.0636684079153207
38.5,0.0363090490467227,0.0640331852168725,0.915342833411714,-0.340892685463713,0.915342833416242,-0.340892685465601,0.0359961150290787,0.0642486922086356
39,0.0369807203177624,0.0645997381573664,0.913666557135747,-0.344930448912517,0.913666557140212,-0.344930448914411,0.036660042428746,0.0648211789971156
39.5,0.0376564353597562,0.0651583670332518,0.911973732521108,-0.348959763524307,0.911973732525511,-0.348959763526205,0.0373279485510674,0.0653858733835566
40,0.0383360920685706,0.0657090770000066,0.91026435037917,-0.352980566640368,0.910264350383512,-0.35298056664227,0.0379997334847653,0.065942781786213
40.5,0.0390195899828822,0.0662518745183087,0.908538404136564,-0.356992793613235,0.908538404140844,-0.356992793615138,0.0386752989820456,0.0664919118663949
41,0.0397068302867675,0.0667867672830835,0.906795889791744,-0.360996377987272,0.906795889795964,-0.360996377989176,0.039354548458671,0.0670332724572931
41.5,0.0403977158098282,0.0673137641537147,0.905036805868385,-0.364991251667977,0.905036805872546,-0.36499125166988,0.0400373869915919,0.0675668734940873
42,0.0410921510249476,0.0678328750854988,0.903261153366176,-0.368977345080649,0.903261153370279,-0.368977345082551,0.0407237213142349,0.0680927259454165
42.5,0.0417900420437619,0.0683441110624,0.90146893570954,-0.372954587319019,0.901468935713585,-0.372954587320918,0.0414134598095439,0.0686108417462634
43,0.0424912966099462,0.0688474840311635,0.899660158694734,-0.37692290628444,0.899660158698722,-0.376922906286335,0.0421065125008686,0.0691212337323005
43.5,0.0431958240904003,0.0693430068368429,0.897834830435727,-0.380882228816177,0.897834830439659,-0.380882228818067,0.0428027910408004,0.0696239155757683
44,0.0439035354644315,0.0698306931597885,0.895992961309211,-0.384832480813334,0.895992961313089,-0.384832480815218,0.0435022086980515,0.070118901722904
44.5,0.044614343311022,0.0703105574541348,0.894134563899051,-0.388773587348926,0.894134563902874,-0.388773587350804,0.044204680342469,0.0706062073329763
45,0.0453281617942736,0.0707826148878363,0.892259652940437,-0.392705472776562,0.892259652944207,-0.392705472778432,0.0449101224282839,0.0710858482189586
45.5,0.0460449066471216,0.0712468812842723,0.890368245263985,-0.396628060830188,0.890368245267702,-0.396628060832049,0.0456184529756853,0.0715578407898609
46,0.0467644951534056,0.0717033730654653,0.888460359739969,-0.400541274717334,0.888460359743635,-0.400541274719187,0.046329591550816,0.0720222019947606
46.5,0.0474868461283828,0.0721521071969211,0.886536017222876,-0.40444503720625,0.886536017226491,-0.404445037208094,0.0470434592442745,0.0724789492685406
47,0.0482118798977782,0.0725931011341344,0.884595240496419,-0.408339270707314,0.884595240499984,-0.408339270709148,0.0477599786482217,0.0729281004793571
47.5,0.0489395182754533,0.0730263727707525,0.882638054219137,-0.412223897349077,0.882638054222653,-0.412223897350899,0.0484790738321745,0.0733696738778553
48,0.0496696845397752,0.0734519403884361,0.880664484870696,-0.416098839049268,0.880664484874163,-0.41609883905108,0.0492006703175749,0.0738036880481334
48.5,0.0504023034087734,0.0738698226084064,0.878674560698969,-0.419964017581103,0.878674560702389,-0.419964017582903,0.0499246950512182,0.0742301618604656
49,0.0511373010141699,0.0742800383447043,0.876668311667978,-0.423819354635147,0.876668311671351,-0.423819354636935,0.0506510763776303,0.0746491144257944
49.5,0.0518746048743486,0.0746826067591527,0.874645769406747,-0.427664771877061,0.874645769410073,-0.427664771878836,0.05137974401046,0.0750605650519772
50,0.0526141438663533,0.0750775472180297,0.87260696715913,-0.431500191001465,0.87260696716241,-0.431500191003228,0.0521106290029827,0.0754645332017956
50.5,0.0533558481969901,0.0754648792504522,0.870551939734633,-0.435325533782163,0.870551939737869,-0.435325533783912,0.05284366371778,0.0758610384527217
51,0.0540996493731035,0.0758446225084589,0.868480723460274,-0.439140722118974,0.868480723463466,-0.439140722120709,0.0535787817956762,0.0762501004584254
51.5,0.0548454801710968,0.0762167967287996,0.866393356133491,-0.442945678081372,0.866393356136639,-0.442945678083093,0.054315918124002,0.076631738912021
52,0.0555932746057772,0.0765814216964011,0.864289876976117,-0.446740323949149,0.864289876979223,-0.446740323950857,0.0550550088042531,0.07700597351103
52.5,0.0563429678985773,0.0769385172095233,0.862170326589424,-0.450524582250279,0.862170326592486,-0.450524582251972,0.0557959911192203,0.0773728239240581
53,0.0570944964452401,0.0772881030465751,0.860034746910241,-0.45429837579616,0.860034746913262,-0.454298375797839,0.0565388034996466,0.0777323097591557
53.5,0.0578477977830082,0.0776301989345765,0.857883181168149,-0.458061627714412,0.857883181171129,-0.458061627716075,0.0572833854904814,0.0780844505338544
54,0.0586028105574006,0.0779648245192611,0.855715673843732,-0.461814261479374,0.855715673846671,-0.461814261481022,0.0580296777167921,0.0784292656468519
54.5,0.0593594744886168,0.0782919993367879,0.853532270627884,-0.465556200940449,0.853532270630783,-0.465556200942083,0.0587776218493909,0.0787667743513233
55,0.0601177303376452,0.0786117427870516,0.851333018382164,-0.469287370348431,0.851333018385023,-0.46928737035005,0.0595271605702356,0.0790969957298452
55.5,0.0608775198721164,0.0789240741085638,0.849117965100168,-0.473007694379945,0.849117965102988,-0.473007694381548,0.0602782375376557,0.0794199486708916
56,0.0616387858319607,0.0792290123548894,0.846887159869919,-0.476717098160111,0.8468871598727,-0.476717098161698,0.0610307973514608,0.0797356518468905
56.5,0.0624014718949255,0.0795265763726067,0.84464065283724,-0.480415507283547,0.844640652839983,-0.480415507285118,0.0617847855179795,0.0800441236938078
57,0.06316552264199,0.0798167847807724,0.842378495170107,-0.484102847833821,0.842378495172812,-0.484102847835377,0.0625401484150747,0.080345382392229
57.5,0.0639308835227431,0.0800996559518655,0.840100739023941,-0.487779046401434,0.840100739026609,-0.487779046402974,0.0632968332571864,0.0806394458499174
58,0.0646975008207462,0.0803752079941825,0.837807437507837,-0.491444030100434,0.837807437510469,-0.491444030101959,0.0640547880604434,0.0809263316858111
58.5,0.0654653216189493,0.0806434587356522,0.835498644651697,-0.495097726583749,0.835498644654292,-0.495097726585258,0.0648139616078829,0.0812060572154345
59,0.0662342937651821,0.0809044257090521,0.833174415374239,-0.498740064057303,0.833174415376798,-0.498740064058796,0.0655743034148262,0.0814786394376918
59.5,0.0670043658377731,0.0811581261385941,0.830834805451879,-0.502370971293007,0.830834805454404,-0.502370971294484,0.0663357636944388,0.0817440950230151
60,0.0677754871113275,0.0814045769278402,0.828479871488441,-0.505990377640681,0.82847987149093,-0.505990377642142,0.0670982933235214,0.082002440302829
60.5,0.0685476075227022,0.0816437946489421,0.82610967088568,-0.509598213038977,0.826109670888134,-0.509598213040422,0.0678618438085571,0.0822536912603077
61,0.0693206776372134,0.0818757955331506,0.823724261814603,-0.513194408025359,0.823724261817022,-0.513194408026788,0.0686263672520536,0.0824978635223885
61.5,0.0700946486151087,0.0821005954625802,0.821323703187557,-0.516778893745202,0.821323703189943,-0.516778893746615,0.0693918163192102,0.0827349723530117
62,0.0708694721783363,0.0823182099631965,0.81890805463106,-0.520351601960061,0.818908054633411,-0.520351601961458,0.0701581442049354,0.0829650326475558
62.5,0.0716451005776351,0.082528654198991,0.816477376459355,-0.523912465055151,0.816477376461674,-0.523912465056532,0.0709253046012508,0.0831880589284303
63,0.072421486559988,0.0827319429673226,0.814031729648679,-0.527461416046098,0.814031729650963,-0.527461416047464,0.0716932516650968,0.0834040653418079
63.5,0.0731985833364434,0.082928090695381,0.811571175812193,-0.530998388584994,0.811571175814445,-0.530998388586344,0.0724619399865757,0.0836130656554452
64,0.073976344550352,0.0831171114377605,0.809095777175592,-0.534523316965797,0.809095777177811,-0.534523316967132,0.0732313245576462,0.0838150732575786
