"Freq [GHz]","re(St(P1,P1)) []","im(St(P1,P1)) []","re(St(P1,P2)) []","im(St(P1,P2)) []","re(St(P2,P1)) []","im(St(P2,P1)) []","re(St(P2,P2)) []","im(St(P2,P2)) []"
0,0.00291498738044993,0,0.997099110361887,0,0.997099113155855,0,0.0029149849382577,0
0.5,0.00333347542834872,-0.000526689368093969,0.996626699998927,-0.0046850166054071,0.996626709244815,-0.00468501968835966,0.00333330267827847,-0.000526085387264175
1,0.00372665115823168,-0.00160000649096048,0.996106833978004,-0.00881542036022154,0.996106833000219,-0.00881541850229439,0.00372621154757979,-0.00159856959320592
1.5,0.00385618416866151,-0.00287265023250072,0.995761428531388,-0.0130428507991418,0.995761428309788,-0.0130428486271725,0.00385546988402297,-0.00287028950733514
2,0.00388527768713587,-0.00408566090106888,0.9953728058914,-0.0171268619696718,0.995372806298295,-0.0171268598430459,0.00388433301396418,-0.00408235225086528
2.5,0.00387302729732752,-0.0052616536991934,0.994978159352177,-0.0210891677712901,0.994978160173526,-0.0210891658885579,0.00387184739569335,-0.0052574017809377
3,0.00383775512732676,-0.00641438077584056,0.994593837304299,-0.0249604054553458,0.994593838341203,-0.0249604038847551,0.00383631541722984,-0.00640919012440477
3.5,0.00378645789084509,-0.00755097754173306,0.994222268101272,-0.0287686817795176,0.994222269207938,-0.028768680514883,0.00378472589370737,-0.00754484945561629
4,0.00372228829714594,-0.00867519411209017,0.993859119271375,-0.0325356428576065,0.993859120355171,-0.0325356418609637,0.00372022829964713,-0.00866812697688246
4.5,0.00364687614793002,-0.00978903052066116,0.993497889936343,-0.036276495333567,0.993497890944895,-0.0362764945590861,0.00364445124425128,-0.0097810204251978
5,0.00356117508090836,-0.0108935347548353,0.993132173466988,-0.040001347244095,0.993132174374654,-0.0400013466488645,0.00355834817615364,-0.0108845759795759
5.5,0.00346581259107515,-0.0119892099443302,0.992756511880268,-0.043716654350197,0.992756512677735,-0.0437166538978655,0.00346254695168025,-0.011979295313548
6,0.00336124951185957,-0.0130762338668191,0.992366563545639,-0.0474263850455312,0.992366564232966,-0.0474263847068119,0.00335750910015964,-0.0130653550053772
6.5,0.00324785847242914,-0.0141545836130437,0.991958995011493,-0.0511328596152563,0.991958995593722,-0.0511328593670797,0.00324360816949554,-0.0141427311415043
7,0.00312596490332329,-0.0152241097773995,0.991531293974611,-0.0548373240831932,0.991531294459151,-0.0548373239075808,0.00312117066926332,-0.0152112734680543
7.5,0.00299586949664965,-0.0162845824754285,0.99108158489866,-0.0585403324424405,0.99108158529378,-0.0585403323254301,0.00299049849301403,-0.0162707513833773
8,0.00285786093617246,-0.0173357209505927,0.99060847428906,-0.0622419978793793,0.990608474603042,-0.0622419978101298,0.00285188162340821,-0.0173208835287522
8.5,0.0027122232643022,-0.0183772132512079,0.990110929726207,-0.0659421567568597,0.990110929966912,-0.0659421567269067,0.00270560548145515,-0.0183613574546282
9,0.00255924016490083,-0.0194087296900136,0.989588188550044,-0.0696404752272404,0.989588188724712,-0.0696404752299458,0.00255195519566098,-0.019391843073068
9.5,0.00239919740596717,-0.0204299322885699,0.98903969011591,-0.0733365183224386,0.989039690231085,-0.0733365183525745,0.00239121803350484,-0.0204120020969984
10,0.0022323841489631,-0.0214404815536895,0.988465025914572,-0.0770297945443197,0.9884650259761,-0.0770297945977259,0.00222368470109169,-0.0214214948128166
10.5,0.00208033073095848,-0.0224866064145708,0.987927881888303,-0.0806864863131498,0.987927881946749,-0.0806864863648507,0.00207132515008568,-0.0224739578672111
11,0.0019233380356849,-0.0235303317979234,0.987381803653647,-0.0843291194787614,0.987381803709302,-0.0843291195286531,0.00191287844496257,-0.0235241326590527
11.5,0.00176160089283184,-0.0245718380416973,0.986827256033092,-0.0879587032106075,0.986827256086235,-0.087958703258618,0.00174851834280298,-0.0245720298438394
12,0.00159528614155846,-0.0256113290291049,0.986264579601971,-0.0915762009527432,0.986264579652865,-0.0915762009988335,0.00157841772494827,-0.0256176797809005
12.5,0.00142452935330184,-0.0266490281315237,0.985694007210117,-0.0951825223394369,0.985694007259008,-0.0951825223835927,0.00140274616257718,-0.0266611331634907
13,0.00124943222860396,-0.0276851736071375,0.985115679540631,-0.0987785179463501,0.985115679587746,-0.0987785179885785,0.00122166726065709,-0.0277024613213159
13.5,0.00107006077435334,-0.0287200135878631,0.98452965946725,-0.102364976372824,0.984529659512796,-0.102364976413152,0.0010353358268792,-0.0287417561360357
14,0.000886444336826442,-0.0297538008105533,0.983935945080027,-0.105942623194323,0.983935945124195,-0.105942623232785,0.000843894927358146,-0.029779129516899
14.5,0.000698575529668399,-0.0307867872632661,0.983334481332191,-0.109512121375904,0.983334481375153,-0.109512121412553,0.000647472905635715,-0.0308147123939442
15,0.00050641105655802,-0.0318192189227862,0.982725170322177,-0.113074072793736,0.982725170364085,-0.113074072828629,0.000446180454321765,-0.0318486532007372
15.5,0.000309873388922299,-0.0328513307548386,0.982107880267606,-0.116629020566442,0.9821078803086,-0.116629020599645,0.000240107838694215,-0.0328811158371325
16,0.00010885322234333,-0.0338833421338203,0.981482453256047,-0.120177451949908,0.981482453296249,-0.12017745198149,2.93223773315532E-005,-0.033912277123938
16.5,-9.6787396222181E-005,-0.0349154528160467,0.980848711873758,-0.123719801595802,0.980848711913279,-0.123719801625835,-0.000186133714584896,-0.0349423237853204
17,-0.000307211402449964,-0.0359478395708139,0.980206464821437,-0.127256455015081,0.980206464860369,-0.127256455043639,-0.000406245019033691,-0.0359714490191774
17.5,-0.000522602657659188,-0.0369806535400263,0.979555511627299,-0.130787752123091,0.979555511665727,-0.13078775215025,-0.000631024057477614,-0.0369998487395202
18,-0.00074316165513541,-0.0380140183617215,0.978895646564901,-0.134313990772376,0.978895646602896,-0.134313990798209,-0.000860511811114323,-0.038027717595873
18.5,-0.00096910114193835,-0.0390480290584891,0.978226661877113,-0.137835430203871,0.978226661914739,-0.137835430228451,-0.00109477757178253,-0.0390552448912445
19,-0.00120064179840057,-0.0400827516604245,0.977548350399999,-0.141352294366991,0.977548350437308,-0.14135229439039,-0.0013339181038296,-0.0400826105309768
19.5,-0.00143800810115124,-0.0411182235057304,0.97686050767181,-0.144864775075004,0.976860507708848,-0.144864775097291,-0.001578056127233,-0.0411099811381161
20,-0.00168142447471184,-0.0421544541414978,0.976162933603394,-0.14837303497468,0.976162933640199,-0.148373034995923,-0.00182733816279479,-0.042137506466986
20.5,-0.00193111181319516,-0.043191426732978,0.975455433777608,-0.15187721031877,0.975455433814211,-0.151877210339036,-0.00208193180891514,-0.0431653162347878
21,-0.00218728442929628,-0.0442290998818056,0.974737820437053,-0.155377413537262,0.974737820473479,-0.155377413556606,-0.00234202254439481,-0.0441935174723858
21.5,-0.00245014746421861,-0.0452674097517498,0.974009913211674,-0.158873735608795,0.974009913247944,-0.158873735627282,-0.00260781017110992,-0.0452221924713916
22,-0.002719894770616,-0.0463062724037124,0.973271539630765,-0.162366248237616,0.973271539666894,-0.162366248255299,-0.00287950502300346,-0.0462513973766532
22.5,-0.0029967072619234,-0.0473455862486283,0.972522535457582,-0.165855005844013,0.972522535493583,-0.165855005860946,-0.00315732407292013,-0.0472811614436175
23,-0.00328075170626889,-0.048385234537168,0.971762744879135,-0.169340047378186,0.971762744915014,-0.16934004739442,-0.00344148706655439,-0.0483114869508898
23.5,-0.00357217993146708,-0.0494250878166635,0.97099202057879,-0.172821397968379,0.970992020614553,-0.172821397983963,-0.00373221280359831,-0.0493423497313943
24,-0.0038711283995298,-0.0504650062985719,0.970210223715002,-0.176299070414822,0.970210223750651,-0.176299070429796,-0.00402971567136126,-0.0503737002626954
24.5,-0.00417771810424761,-0.0515048420921378,0.969417223825745,-0.179773066540941,0.969417223861278,-0.179773066555351,-0.00433420251705621,-0.0514054652391556
25,-0.00449205474334494,-0.0525444412721474,0.968612898674997,-0.183243378413361,0.968612898710412,-0.183243378427244,-0.00464586992333724,-0.0524375495366574
25.5,-0.00481422911697343,-0.0535836457594137,0.967797134054878,-0.186709989441645,0.967797134090172,-0.186709989455037,-0.00496490192914856,-0.0534698384743062
26,-0.00514431770637405,-0.0546222950021718,0.966969823554696,-0.190172875368325,0.966969823589861,-0.190172875381266,-0.00529146821603474,-0.0545022002768127
26.5,-0.00548238338990134,-0.0556602274546663,0.966130868306132,-0.193632005159136,0.966130868341162,-0.193632005171653,-0.00562572276000695,-0.055534488645316
27,-0.0058284762578166,-0.0566972818555809,0.96528017671215,-0.197087341802683,0.965280176747036,-0.197087341814808,-0.00596780293180349,-0.056566545352267
27.5,-0.00618263449195611,-0.0577332983140262,0.964417664165773,-0.200538843028172,0.964417664200504,-0.200538843039933,-0.00631782901443734,-0.057598202786608
28,-0.00654488528122371,-0.0587681192144793,0.963543252763669,-0.203986461949083,0.963543252798235,-0.203986461960506,-0.00667590409660235,-0.0586292863878959
28.5,-0.00691524574864361,-0.0598015899545379,0.96265687101852,-0.207430147640067,0.962656871052911,-0.207430147651176,-0.00704211429369173,-0.0596596169210395
29,-0.00729372387020238,-0.0608335595308551,0.96175845357331,-0.210869845653694,0.961758453607514,-0.21086984566451,-0.00741652924463754,-0.0606890125562547
29.5,-0.00768031936987518,-0.061863880989304,0.96084794091995,-0.214305498483081,0.960847940953953,-0.214305498493627,-0.00779920283204388,-0.0617172907310484
30,-0.00807502457894282,-0.0628924117554917,0.95992527912414,-0.217737045975918,0.959925279157931,-0.217737045986213,-0.00819017407467826,-0.0627442697819069
30.5,-0.00847782525089702,-0.0639190138611823,0.95899041955787,-0.221164425704784,0.958990419591435,-0.221164425714844,-0.00858946814470646,-0.0637697703426876
31,-0.00888870132605796,-0.0649435540815477,0.958043318640573,-0.224587573298319,0.958043318673899,-0.224587573308161,-0.00899709746663108,-0.0647936165144567
31.5,-0.00930762764226656,-0.0659659039969491,0.957083937589653,-0.228006422737234,0.957083937622728,-0.228006422746872,-0.009413062860194,-0.0658156368173595
32,-0.00973457458996446,-0.0669859399919082,0.956112242180846,-0.231420906618836,0.956112242213655,-0.231420906628285,-0.00983735469515173,-0.0668356649396227
32.5,-0.0101695087114148,-0.0680035432025643,0.955128202518658,-0.234830956393315,0.955128202551189,-0.234830956402586,-0.0102699540314705,-0.0678535403015328
33,-0.0106123932450502,-0.0690185994227188,0.954131792816998,-0.23823650257476,0.954131792849236,-0.238236502583865,-0.0107108337239144,-0.0688691084541326
33.5,-0.0110631886167723,-0.0700309989773138,0.953122991189937,-0.241637474929538,0.953122991221869,-0.241637474938488,-0.011159959474956,-0.0698822213328314
34,-0.0115218528806906,-0.0710406365709995,0.952101779452486,-0.245033802644398,0.9521017794841,-0.2450338026532,-0.0116172908244107,-0.0708927373861012
34.5,-0.0119883421122129,-0.0720474111183815,0.951068142931168,-0.248425414476425,0.951068142962449,-0.248425414485089,-0.0120827820680641,-0.071900521598586
35,-0.0124626107566647,-0.0730512255615157,0.950022070284118,-0.251812238886748,0.950022070315053,-0.25181223889528,-0.0125563831008035,-0.0729054454267213
35.5,-0.012944611936782,-0.0740519866793732,0.948963553330383,-0.255194204159729,0.948963553360961,-0.255194204168134,-0.0130380401825106,-0.073907386663532
36,-0.0134342977224082,-0.0750496048930844,0.947892586888114,-0.258571238509095,0.94789258691832,-0.258571238517382,-0.0135276966270445,-0.0749062292474836
36.5,-0.0139316193657292,-0.0760439940702127,0.946809168621242,-0.261943270172464,0.946809168651064,-0.261943270180637,-0.0140252934163659,-0.0759018630286463
37,-0.0144365275052409,-0.0770350713305663,0.945713298894305,-0.26531022749541,0.945713298923732,-0.265310227503473,-0.0145307697430657,-0.0768941835036445
37.5,-0.0149489723415245,-0.0780227568555949,0.944604980635028,-0.268672039006211,0.944604980664047,-0.268672039014167,-0.0150440634854056,-0.0778830915292237
38,-0.0154689037877075,-0.0790069737029446,0.943484219204276,-0.272028633482222,0.943484219232876,-0.272028633490073,-0.0155651116195926,-0.0788684930227488
38.5,-0.015996271597318,-0.0799876476273624,0.942351022273017,-0.275379940008778,0.942351022301186,-0.275379940016526,-0.0160938505742753,-0.0798502986565088
39,-0.0165310254720275,-0.0809647069088122,0.941205399705927,-0.278725888031391,0.941205399733654,-0.278725888039041,-0.016630216532401,-0.0808284235514578
39.5,-0.0170731151515855,-0.0819380821884086,0.940047363451273,-0.282066407401951,0.940047363478547,-0.282066407409502,-0.0171741456855296,-0.0818027869748774
40,-0.0176224904880353,-0.0829077063125303,0.938876927436743,-0.285401428419536,0.938876927463554,-0.285401428426988,-0.0177255744455493,-0.0827733120454801
40.5,-0.0181791015061274,-0.0838735141853273,0.937694107470883,-0.288730881866426,0.937694107497221,-0.28873088187378,-0.0182844396185177,-0.0837399254486493
41,-0.018742898451651,-0.0848354426296614,0.936498921149824,-0.292054699039797,0.936498921175678,-0.292054699047053,-0.0188506785450656,-0.0847025571637565
41.5,-0.0193138318292311,-0.0857934302564036,0.935291387769002,-0.295372811779544,0.935291387794364,-0.295372811786701,-0.0194242292114817,-0.0856611402049339
42,-0.0198918524309879,-0.0867474173419693,0.934071528239577,-0.298685152492657,0.934071528264436,-0.298685152499715,-0.0200050303352621,-0.0866156103761901
42.5,-0.0204769113572932,-0.0876973457138122,0.932839365009277,-0.301991654174467,0.932839365033626,-0.301991654181423,-0.0205930214285666,-0.087565906041299
43,-0.0210689600307327,-0.0886431586436558,0.931594921987412,-0.305292250427141,0.931594922011242,-0.305292250433996,-0.0211881428426999,-0.0885119679086559
43.5,-0.0216679502042498,-0.0895848007481086,0.930338224473809,-0.308586875475663,0.93033822449711,-0.308586875482412,-0.0217903357963998,-0.0894537388309549
44,-0.0222738339643374,-0.0905222178963414,0.929069299091421,-0.311875464181575,0.929069299114188,-0.311875464188217,-0.0223995423904135,-0.0903911636193824
44.5,-0.0228865637300423,-0.0914553571244814,0.927788173722434,-0.315157952054736,0.927788173744658,-0.315157952061267,-0.0230157056105665,-0.0913241888718939
45,-0.0235060922484499,-0.0923841665563392,0.926494877447605,-0.318434275263252,0.926494877469279,-0.31843427526967,-0.0236387693212553,-0.092252762814981
45.5,-0.0241323725872443,-0.0933085953301402,0.925189440488687,-0.321704370641823,0.925189440509804,-0.321704370648124,-0.0242686782510604,-0.0931768351582936
46,-0.0247653581248369,-0.0942285935308655,0.923871894153736,-0.324968175698617,0.92387189417429,-0.3249681757048,-0.0249053779719465,-0.0940963569614299
46.5,-0.0254050025385439,-0.095144112127886,0.922542270785126,-0.32822562862086,0.922542270805111,-0.328225628626919,-0.0255488148733421,-0.0950112805121854
47,-0.0260512597911712,-0.0960551029175347,0.921200603710124,-0.331476668279263,0.921200603729535,-0.331476668285196,-0.0261989361321869,-0.0959215592155187
47.5,-0.0267040841163563,-0.0969615184702866,0.919846927193858,-0.334721234231385,0.919846927212689,-0.334721234237188,-0.0268556896799024,-0.0968271474925153
48,-0.0273634300029584,-0.097863312082243,0.918481276394553,-0.337959266724074,0.918481276412799,-0.337959266729742,-0.0275190241670791,-0.0977280006886543
48.5,-0.0280292521787524,-0.0987604377306299,0.917103687320879,-0.341190706695069,0.917103687338536,-0.341190706700598,-0.0281888889265888,-0.0986240749906953
49,-0.0287015055936191,-0.0996528500329938,0.91571419679132,-0.344415495773819,0.915714196808384,-0.344415495779204,-0.0288652339356619,-0.0995153273514902
49.5,-0.0293801454024436,-0.100540504209881,0.914312842395406,-0.347633576281649,0.914312842411873,-0.347633576286886,-0.0295480097774523,-0.100401715422157
50,-0.0300651269478574,-0.101423356050702,0.912899662456738,-0.350844891231302,0.912899662472605,-0.350844891236387,-0.0302371676024607,-0.101283197490962
50.5,-0.0307564057429629,-0.102301361882569,0.911474695997671,-0.354049384325933,0.911474696012936,-0.354049384330861,-0.0309326590901636,-0.1021597324284
51,-0.0314539374541485,-0.103174478541889,0.910037982705586,-0.357246999957608,0.910037982720246,-0.357246999962373,-0.031634436411116,-0.103031279637928
51.5,-0.0321576778840936,-0.104042663348492,0.908589562900637,-0.360437683205366,0.908589562914688,-0.360437683209964,-0.0323424521897407,-0.103897799011875
52,-0.0328675829550243,-0.104905874082108,0.907129477504909,-0.363621379832869,0.907129477518351,-0.363621379837296,-0.0330566594679809,-0.104759250892065
52.5,-0.0335836086923043,-0.105764068961029,0.905657768012894,-0.366798036285713,0.905657768025726,-0.366798036289964,-0.0337770116699516,-0.105615596034766
53,-0.0343057112083909,-0.106617206622763,0.904174476463222,-0.369967599688392,0.904174476475442,-0.36996759969246,-0.0345034625676935,-0.106466795579543
53.5,-0.0350338466872065,-0.107465246106538,0.902679645411568,-0.373130017840984,0.902679645423176,-0.373130017844865,-0.0352359662480949,-0.107312811021682
54,-0.0357679713689586,-0.108308146837528,0.901173317904682,-0.376285239215574,0.901173317915678,-0.376285239219264,-0.0359744770810484,-0.108153604187854
54.5,-0.0365080415354311,-0.109145868612643,0.899655537455462,-0.379433212952444,0.899655537465846,-0.379433212955938,-0.0367189496888687,-0.108989137214726
55,-0.0372540134957564,-0.10997837158777,0.898126348019045,-0.382573888856034,0.898126348028818,-0.382573888859326,-0.0374693389169798,-0.109819372530223
55.5,-0.0380058435726927,-0.110805616266362,0.896585793969827,-0.385707217390728,0.89658579397899,-0.385707217393814,-0.0382255998058894,-0.11064427283722
56,-0.038763488089406,-0.111627563489253,0.895033920079391,-0.388833149676457,0.895033920087945,-0.388833149679331,-0.0389876875644405,-0.111463801099417
56.5,-0.0395269033567626,-0.112444174425617,0.893470771495275,-0.391951637484149,0.893470771503223,-0.391951637486808,-0.0397555575443167,-0.112277920529196
57,-0.040296045661127,-0.11325541056496,0.891896393720563,-0.395062633231031,0.891896393727907,-0.395062633233469,-0.0405291652157781,-0.113086594577249
57.5,-0.0410708712526776,-0.114061233710099,0.890310832594219,-0.398166089975809,0.890310832600961,-0.398166089978023,-0.0413084661446244,-0.113889786923852
58,-0.0418513363342149,-0.11486160597101,0.888714134272168,-0.401261961413729,0.888714134278313,-0.401261961415713,-0.0420934159703105,-0.114687461471575
58.5,-0.0426373970504659,-0.115656489759499,0.887106345209063,-0.404350201871529,0.887106345214611,-0.404350201873277,-0.0428839703852211,-0.115479582339309
59,-0.0434290094778843,-0.116445847784636,0.885487512140701,-0.407430766302299,0.885487512145659,-0.407430766303809,-0.0436800851150343,-0.116266113857489
59.5,-0.0442261296149167,-0.117229643048865,0.883857682067081,-0.410503610280255,0.883857682071453,-0.410503610281522,-0.0444817159001631,-0.117047020564378
60,-0.0450287133727437,-0.118007838844767,0.882216902236049,-0.413568689995428,0.882216902239838,-0.413568689996449,-0.0452888184782051,-0.117822267203315
60.5,-0.0458367165664739,-0.118780398752404,0.880565220127511,-0.416625962248286,0.880565220130724,-0.416625962249056,-0.0461013485673901,-0.11859181872082
61,-0.0466500949067801,-0.119547286637199,0.878902683438201,-0.419675384444284,0.878902683440843,-0.4196753844448,-0.0469192618509602,-0.119355640265493
61.5,-0.0474688039919721,-0.120308466648326,0.877229340066953,-0.422716914588367,0.87722934006903,-0.422716914588625,-0.047742513962462,-0.120113697187592
62,-0.0482927993004859,-0.121063903217545,0.875545238100482,-0.4257505112794,0.875545238102,-0.425750511279397,-0.0485710604718934,-0.120865955039253
62.5,-0.0491220361837745,-0.121813561058459,0.873850425799631,-0.42877613370456,0.873850425800597,-0.428776133704294,-0.0494048568726859,-0.121612379575253
