"Freq [GHz]","re(St(P1,P1)) []","im(St(P1,P1)) []","re(St(P1,P2)) []","im(St(P1,P2)) []","re(St(P2,P1)) []","im(St(P2,P1)) []","re(St(P2,P2)) []","im(St(P2,P2)) []"
0,0.0103340870331294,0,0.989673755975673,0,0.989673756310367,0,0.0103340817069011,0
0.5,0.0115591091815439,0.00223294927288809,0.98843903466144,-0.00527428826997767,0.988439034618342,-0.005274288218164,0.0115589481355869,0.00223377047504503
1,0.0125413052367058,0.00342694879735639,0.987439975236848,-0.00950763712558533,0.987439975238546,-0.00950763711363933,0.0125410189505644,0.00342879039393651
1.5,0.0135890303412545,0.0043877231056868,0.986675240375829,-0.0137654307232751,0.986675240443606,-0.0137654306749493,0.0135887179070888,0.0043907722137142
2,0.0145415118637366,0.00499661539601881,0.985788299035494,-0.0176491885744259,0.985788299137999,-0.0176491884972094,0.0145413454454424,0.00500082254395373
2.5,0.0153575503170718,0.00541388775958218,0.984881591058102,-0.0212284672164902,0.984881591168868,-0.0212284671268126,0.0153575987021988,0.005419153063837
3,0.0160610566324282,0.00573072432522537,0.984018011268674,-0.0245893656988923,0.984018011371554,-0.0245893656106437,0.0160613283555069,0.00573697040146381
3.5,0.0166837535554496,0.00598963868543834,0.98322466771942,-0.0278068538617964,0.983224667806371,-0.0278068537835168,0.0166842386107495,0.00599681851426581
4,0.017249455505957,0.00620858722043582,0.982505744888688,-0.030936761359551,0.982505744956627,-0.0309367612954583,0.0172501443724817,0.00621667347286436
4.5,0.0177731895434707,0.00639489663218029,0.98185387914157,-0.0340171584550824,0.981853879190126,-0.0340171584067095,0.0177740784910032,0.00640387116787178
5,0.0182636335668436,0.00655186825733267,0.981257356087757,-0.0370725730705139,0.981257356117874,-0.037072573037972,0.0182647242673157,0.00656171542769268
5.5,0.0187255098489292,0.00668160117862904,0.980703877184269,-0.0401181394578387,0.980703877197453,-0.0401181394405636,0.0187268072657893,0.00669230437366419
6,0.0191612916649992,0.00678606664778858,0.980182221295012,-0.0431628084881606,0.980182221292912,-0.0431628084853193,0.0191628018427634,0.00679760695219223
6.5,0.0195722873267914,0.00686742293633547,0.97968279726638,-0.0462115878053062,0.979682797250597,-0.0462115878160159,0.0195740156378181,0.00687977899554948
7,0.0199592826711807,0.00692802561083905,0.979197677822265,-0.0492670245565314,0.979197677794258,-0.0492670245799545,0.0199612326336718,0.00694117410999251
7.5,0.0203228975095069,0.00697033595281837,0.9787204245036,-0.0523301588268952,0.978720424464654,-0.052330158862274,0.020325070119728,0.006984252340688
8,0.0206637660220728,0.00699681370473293,0.978245852445635,-0.0554011266190146,0.97824585239686,-0.0554011266656733,0.0206661594891964,0.00701147295024729
8.5,0.0209826134593416,0.00700982700543396,0.977769799985934,-0.0584795372029081,0.977769799928284,-0.0584795372602676,0.0209852232266097,0.00702520427471054
9,0.021280274947447,0.00701158851277306,0.977288927292995,-0.0615647073115859,0.977288927227277,-0.0615647073791408,0.0212830938985862,0.00702765971758268
9.5,0.0215576845073291,0.0070041166567858,0.976800549606653,-0.0646558051880453,0.97680054953355,-0.0646558052653594,0.0215607032786069,0.00702085886263237
10,0.0218158509682356,0.00698921736237157,0.976302502971008,-0.0677519380839584,0.976302502891099,-0.0677519381706526,0.0218190583078459,0.00700660906502382
10.5,0.0221313351250307,0.00708258549274721,0.975789036926047,-0.0708307652796059,0.975789036842985,-0.0708307653556091,0.0221369882735809,0.00709472396635125
11,0.0224383427314256,0.00715935666743128,0.975279289736308,-0.0738948242789483,0.975279289651294,-0.0738948243447402,0.0224458721394867,0.00716640252035106
11.5,0.0227363669157834,0.00722106002538148,0.974773143578958,-0.0769459674126525,0.974773143493027,-0.0769459674687933,0.022745258373414,0.0072232305966029
12,0.0230250697731693,0.00726914474121632,0.97427033684823,-0.0799858550880792,0.974270336762268,-0.0799858551351775,0.0230348654229395,0.00726670168889676
12.5,0.0233042575162987,0.00730497110705741,0.973770500134747,-0.0830159643891557,0.973770500049502,-0.0830159644278412,0.0233145551664653,0.00729820932264058
13,0.0235738575542772,0.00732980553902074,0.973273186163397,-0.0860376005138068,0.97327318607949,-0.086037600544727,0.0235843087166907,0.00731904344370449
13.5,0.0238338977397572,0.00734481871479264,0.972777894319214,-0.0890519098296361,0.972777894237157,-0.0890519098534268,0.0238442047576959,0.0073303899215782
14,0.0240844878743454,0.00735108614001945,0.972284090441204,-0.0920598936394441,0.972284090361406,-0.0920598936567285,0.0240944004448609,0.0073333324136966
14.5,0.0243258034521259,0.00734959053943784,0.971791222558594,-0.0950624220026977,0.971791222481381,-0.0950624220140792,0.0243351147896451,0.00732885595461186
15,0.0245580715449005,0.00734122556573258,0.97129873320383,-0.0980602471612269,0.97129873312945,-0.0980602471672798,0.0245666143804113,0.00731785174513977
15.5,0.0247815586837663,0.00732680041028333,0.970806068877491,-0.101054016273492,0.970806068806129,-0.10105401627476,0.0247892012481199,0.00730112271847094
16,0.0249965605635172,0.00730704498169121,0.97031268717278,-0.104044283279588,0.970312687104566,-0.104044283276586,0.025003202664549,0.00727938954963525
16.5,0.0252033933838665,0.00728261538958686,0.969818061998429,-0.107031519805347,0.969818061933444,-0.107031519798552,0.0252089626550245,0.0072532968514798
17,0.0254023866402249,0.00725409953199074,0.969321687273254,-0.11001612507565,0.96932168721154,-0.110016125065506,0.0254068350125515,0.00722341936417914
17.5,0.0255938771830577,0.00722202263521288,0.968823079405412,-0.112998434849416,0.968823079346978,-0.112998434836337,0.0255971776120753,0.00719026799787237
18,0.025778204376109,0.00718685263668428,0.96832177881602,-0.11597872941687,0.968321778760849,-0.115978729401236,0.0257803478394935,0.00715429563002346
18.5,0.0259557061977946,0.00714900533443252,0.967817350720316,-0.118957240716847,0.967817350668366,-0.118957240699008,0.0259566989680123,0.00711590259237127
19,0.0261267161454345,0.00710884925314081,0.967309385339866,-0.121934158641463,0.967309385291077,-0.121934158621739,0.0261265773329942,0.00707544180813846
19.5,0.0262915608176346,0.007066710197142,0.966797497685861,-0.124909636599445,0.966797497640159,-0.124909636578128,0.0262903201746186,0.0070332235596382
20,0.0264505580652747,0.00702287547613878,0.966281327025632,-0.127883796409646,0.966281326982932,-0.127883796387004,0.0264482540348503,0.0069895198810177
20.5,0.0266040156158474,0.00697759780105534,0.96576053612149,-0.130856732593927,0.965760536081695,-0.1308567325702,0.0266006936110277,0.00694456858144754
21,0.0267522300889856,0.00693109885578203,0.965234810312103,-0.133828516134782,0.965234810275112,-0.133828516110191,0.0267479409826584,0.00689857691136631
21.5,0.026895486332881,0.00688357255638428,0.964703856491301,-0.1367991977583,0.964703856457009,-0.136799197733042,0.0268902851407093,0.00685172488936336
22,0.0270340570218002,0.00683518801337524,0.964167402026755,-0.1397688107979,0.96416740199505,-0.139768810772155,0.0270280017598225,0.00680416831032549
22.5,0.0271682024641512,0.00678609221501025,0.963625193651016,-0.142737373688992,0.963625193621788,-0.142737373662921,0.0271613531635651,0.00675604145714326
23,0.027298170578671,0.00673641245084466,0.963076996349458,-0.145704892139654,0.963076996322592,-0.145704892113402,0.027290588441185,0.00670745953877772
23.5,0.027424197003208,0.00668625849533111,0.962522592263306,-0.148671361017434,0.96252259223869,-0.148671360991128,0.0274159436814778,0.00665852087748808
24,0.0275465053066192,0.00663572457099892,0.961961779620982,-0.15163676598795,0.961961779598504,-0.151636765961706,0.0275376422954398,0.00660930886722744
24.5,0.0276653072793438,0.00658489111025462,0.961394371707048,-0.154601084936746,0.961394371686598,-0.154601084910667,0.0276558954045191,0.00655989372425969
25,0.0277808032825939,0.00653382633394761,0.960820195874996,-0.157564289202097,0.960820195856465,-0.157564289176274,0.0277709022755781,0.00651033404980383
25.5,0.0278931826397205,0.00648258766380261,0.960239092607785,-0.160526344643106,0.960239092591067,-0.160526344617618,0.0278828507873178,0.00646067822313467
26,0.0280026240564087,0.00643122298471344,0.959650914628196,-0.163487212564339,0.959650914613188,-0.163487212539254,0.0279919179158981,0.00641096564220289
26.5,0.0281092960589126,0.00637977177165316,0.959055526059752,-0.166446850515669,0.959055526046352,-0.166446850491051,0.0280982702300074,0.00636122782736237
27,0.0282133574416952,0.00632826609478299,0.958452801637891,-0.169405212983562,0.958452801626003,-0.169405212959463,0.0282020643876896,0.00631148940248494
27.5,0.0283149577176129,0.00627673151523034,0.957842625970389,-0.17236225198793,0.957842625959917,-0.172362251964393,0.0283034476289391,0.00626176896641084
28,0.0284142375652681,0.0062251878827988,0.957224892845438,-0.175317917596945,0.957224892836292,-0.175317917574011,0.0284025582594817,0.00621207986642958
28.5,0.0285113292693413,0.00617365004590109,0.956599504585499,-0.178272158370535,0.956599504577592,-0.178272158348235,0.028499526122272,0.00616243088436175
29,0.0286063571507555,0.00612212848298066,0.95596637144474,-0.181224921741896,0.955966371437988,-0.181224921720256,0.0285944730541855,0.00611282684472547
29.5,0.0286994379842951,0.0060706298637907,0.955325411047788,-0.184176154345152,0.95532541104211,-0.184176154324194,0.0286875133261208,0.0060632691535325
30,0.0287906814019868,0.00601915754805082,0.954676547867443,-0.187125802296228,0.954676547862761,-0.187125802275969,0.0287787540653268,0.00601375627531509
30.5,0.0288801902810861,0.00596771202822488,0.954019712738988,-0.190073811433101,0.954019712735229,-0.190073811413553,0.0288682956592444,0.00596428415522254
31,0.0289680611159443,0.00591629132250526,0.953354842408803,-0.193020127520703,0.953354842405897,-0.193020127501876,0.0289562321405487,0.00591484659228181
31.5,0.0290543843733398,0.0058648913233883,0.952681879114985,-0.195964696425203,0.952681879112863,-0.195964696407099,0.029042651553339,0.00586543556924291
32,0.0291392448311949,0.00581350610672571,0.952000770197847,-0.19890746426161,0.952000770196446,-0.198907464244234,0.0291276363006973,0.00581604154387616
32.5,0.0292227219007493,0.00576212820554867,0.951311467738212,-0.201848377518294,0.951311467737471,-0.201848377501644,0.0292112634739707,0.00576665370600438
33,0.0293048899324506,0.00571074885254408,0.950613928221527,-0.204787383161395,0.950613928221388,-0.204787383145468,0.0292936051642807,0.00571726020412511
33.5,0.0293858185059536,0.00565935819464558,0.949908112225977,-0.207724428721825,0.949908112226384,-0.207724428706617,0.0293747287568708,0.00566784834503142
34,0.0294655727047,0.00560794548277821,0.949193984132825,-0.210659462367145,0.949193984133727,-0.210659462352646,0.0294546972089294,0.00561840476947628
34.5,0.0295442133756129,0.00555649923952872,0.948471511857392,-0.213592432960326,0.94847151185874,-0.21359243294653,0.029533569311613,0.0055689156065486
35,0.0296217973745018,0.00550500740716409,0.947740666599127,-0.216523290107153,0.947740666600873,-0.216523290094046,0.0296113999369821,0.0055193666091955
35.5,0.0296983777977813,0.00545345747816994,0.947001422609368,-0.219451984193774,0.947001422611469,-0.219451984181346,0.0296882402705959,0.00546974327298644
36,0.0297740042011397,0.00540183661025195,0.946253756975498,-0.222378466415734,0.946253756977913,-0.222378466403971,0.0297641380304926,0.00542003094002941
36.5,0.0298487228057797,0.0053501317275102,0.945497649420245,-0.225302688799634,0.945497649422933,-0.225302688788521,0.0298391376732866,0.0053702148897139
37,0.0299225766928716,0.00529832960933385,0.944733082115033,-0.228224604218423,0.944733082117959,-0.228224604207944,0.0299132805880911,0.00532028041777166
37.5,0.0299956059868239,0.00524641696835526,0.943960039506328,-0.231144166401206,0.943960039509456,-0.231144166391345,0.0299866052789417,0.00527021290497176
38,0.0300678480279758,0.00519438051870447,0.943178508154005,-0.234061329938318,0.943178508157303,-0.234061329929058,0.030059147536397,0.00521999787664162
38.5,0.0301393375353042,0.00514220703563151,0.942388476580874,-0.23697605028232,0.942388476584313,-0.236976050273644,0.0301309405989425,0.00516962105405905
39,0.0302101067596893,0.00508988340743666,0.941589935132519,-0.239888283745537,0.941589935136069,-0.239888283737426,0.0302020153048014,0.00511906839860798
39.5,0.0302801856282985,0.00503739668061232,0.940782875846698,-0.242797987494577,0.940782875850334,-0.242797987487014,0.0302724002347373,0.00506832614958386
40,0.0303496018805822,0.00498473409889821,0.939967292331618,-0.245705119542338,0.939967292335315,-0.245705119535304,0.030342121846384,0.00501738085631986
40.5,0.0304183811963864,0.00493188313697734,0.939143179652421,-0.248609638737832,0.939143179656157,-0.248609638731307,0.0304112046006303,0.00496621940532349
41,0.030486547316643,0.00487883152938262,0.938310534225305,-0.251511504754194,0.938310534229058,-0.251511504748161,0.0304796710805398,0.00491482904298013
41.5,0.0305541221570818,0.00482556729516381,0.937469353718715,-0.254410678075154,0.937469353722466,-0.254410678069592,0.0305475421032753,0.0048631973943547
42,0.0306211259153704,0.00477207875879304,0.936619636961118,-0.257307119980217,0.936619636964848,-0.257307119975108,0.0306148368254468,0.00481131247852429
42.5,0.0306875771720961,0.00471835456772296,0.935761383854871,-0.260200792528796,0.935761383858565,-0.26020079252412,0.0306815728423065,0.00475916272087384
43,0.0307534929859408,0.00466438370698774,0.93489459529578,-0.263091658543464,0.934894595299423,-0.263091658539203,0.0307477662811618,0.00470673696268276
43.5,0.0308188889834136,0.00461015551117616,0.934019273097929,-0.265979681592507,0.934019273101506,-0.265979681588641,0.0308134318893683,0.00465402446835839
44,0.0308837794434618,0.00455565967408123,0.933135419923427,-0.268864825971919,0.933135419926926,-0.26886482596843,0.0308785831172411,0.00460101493056664
44.5,0.0309481773772733,0.00450088625628187,0.932243039216731,-0.271747056686967,0.932243039220142,-0.271747056683836,0.0309432321961927,0.00454769847353398
45,0.0310120946035619,0.00444582569091834,0.931342135143235,-0.274626339433435,0.931342135146547,-0.274626339430645,0.0310073902124004,0.00449406565474031
45.5,0.0310755418196041,0.004390468787836,0.930432712531825,-0.277502640578643,0.930432712535029,-0.277502640576175,0.0310710671762709,0.00444010746518786
46,0.0311385286682875,0.00433480673632736,0.929514776821157,-0.280375927142321,0.929514776824246,-0.280375927140158,0.0311342720879669,0.00438581532844906
46.5,0.0312010638014074,0.00427883110659977,0.928588334009384,-0.283246166777413,0.928588334012351,-0.283246166775538,0.0311970129992293,0.00433118109862218
47,0.0312631549394407,0.00422253385015692,0.927653390607121,-0.28611332775087,0.92765339060996,-0.286113327749265,0.0312592970717289,0.00427619705736215
47.5,0.0313248089280022,0.00416590729919131,0.926709953593436,-0.288977378924485,0.926709953596142,-0.288977378923135,0.0313211306321494,0.00422085591007737
48,0.0313860317911864,0.00410894416512853,0.925758030374665,-0.291838289735827,0.925758030377232,-0.291838289734715,0.0313825192242064,0.00416515078143709
48.5,0.0314468287819757,0.00405163753642568,0.924797628745865,-0.294696030179286,0.924797628748292,-0.294696030178397,0.0314434676577814,0.00410907521026527
49,0.0315072044298905,0.00399398087571101,0.923828756854761,-0.297550570787296,0.923828756857046,-0.297550570786613,0.0315039800553474,0.00405262314391042
49.5,0.0315671625860429,0.00393596801634577,0.922851423168,-0.300401882611743,0.922851423170139,-0.300401882611252,0.031564059895838,0.00399578893216646
50,0.0316267064657443,0.00387759315849578,0.921865636439581,-0.303249937205595,0.921865636441573,-0.303249937205282,0.0316237100561252,0.00393856732082698
50.5,0.0316858386888167,0.00381885086477496,0.920871405681337,-0.306094706604755,0.920871405683182,-0.306094706604605,0.0316829328502324,0.00388095344491823
51,0.0317445613177244,0.00375973605550017,0.919868740135322,-0.308936163310182,0.91986874013702,-0.308936163310182,0.0317417300664194,0.0038229428216594
51.5,0.0318028758936774,0.00370024400364044,0.918857649248009,-0.311774280270273,0.91885764924956,-0.31177428027041,0.0318001030022701,0.00376453134321908
52,0.0318607834707935,0.00364037032948406,0.917838142646164,-0.31460903086353,0.91783814264757,-0.314609030863792,0.0318580524978824,0.00370571526929209
52.5,0.0319182846484527,0.00358011099507749,0.916810230114327,-0.317440388881511,0.916810230115589,-0.317440388881886,0.0319155789672827,0.00364649121953176
53,0.0319753796019363,0.00351946229845934,0.91577392157378,-0.320268328512088,0.915773921574899,-0.320268328512564,0.0319726824281568,0.00358685616588517
53.5,0.0320320681114468,0.00345842086774106,0.914729227062919,-0.323092824323002,0.9147292270639,-0.323092824323567,0.0320293625299988,0.00352680742485045
54,0.0320883495896002,0.00339698365504826,0.913676156718969,-0.325913851245728,0.913676156719812,-0.325913851246372,0.0320856185807588,0.00346634264967216
54.5,0.0321442231074839,0.00333514793035272,0.912614720760926,-0.328731384559656,0.912614720761636,-0.32873138456037,0.032141449572081,0.0034054598225266
55,0.0321996874193374,0.0032729112752119,0.911544929473696,-0.331545399876594,0.911544929474275,-0.331545399877365,0.0321968542031998,0.00334415724667059
55.5,0.0322547409859622,0.00321027157646281,0.910466793193334,-0.33435587312556,0.910466793193786,-0.334355873126382,0.0322518309035809,0.00328243353862789
56,0.0323093819968998,0.00314722701983983,0.909380322293335,-0.337162780537935,0.909380322293664,-0.337162780538798,0.0323063778543592,0.00322028762036597
56.5,0.0323636083914689,0.00308377608358623,0.908285527171915,-0.33996609863289,0.908285527172126,-0.339966098633785,0.0323604930086535,0.00315771871153747
57,0.0324174178787036,0.00301991753202779,0.907182418240224,-0.342765804203156,0.907182418240321,-0.342765804204076,0.032414174110808,0.00309472632174468
57.5,0.0324708079562647,0.00295565040915458,0.90607100591144,-0.345561874301104,0.906071005911427,-0.34556187430204,0.0324674187146192,0.00303131024287251
58,0.0325237759283757,0.00289097403220318,0.904951300590701,-0.348354286225127,0.904951300590584,-0.348354286226074,0.0325202242006098,0.00296747054149149
58.5,0.0325763189228246,0.00282588798524941,0.903823312665824,-0.351143017506356,0.903823312665606,-0.351143017507306,0.032572587792384,0.00290320755131313
59,0.0326284339070982,0.00276039211283208,0.902687052498761,-0.353928045895658,0.90268705249845,-0.353928045896605,0.0326245065721273,0.00283852186574762
59.5,0.0326801177036756,0.00269448651360626,0.901542530417777,-0.356709349350959,0.901542530417376,-0.356709349351898,0.0326759774952864,0.00277341433053313
60,0.032731367004538,0.00262817153402772,0.900389756710274,-0.359486906024868,0.900389756709788,-0.359486906025794,0.0327269974044722,0.00270788603645
60.5,0.0327821783849267,0.00256144776209255,0.899228741616261,-0.362260694252591,0.899228741615696,-0.362260694253497,0.0327775630426266,0.00264193831214365
61,0.0328325483163912,0.00249431602111549,0.898059495322414,-0.365030692540148,0.898059495321775,-0.365030692541032,0.0328276710654908,0.00257557271703002
61.5,0.0328824731791584,0.00242677736356467,0.896882027956701,-0.36779687955289,0.896882027955994,-0.367796879553746,0.0328773180534071,0.00250879103430357
62,0.0329319492738676,0.00235883306495621,0.895696349583548,-0.370559234104289,0.895696349582777,-0.370559234105114,0.032926500522491,0.00244159526404975
62.5,0.0329809728326849,0.00229048461780446,0.894502470199497,-0.373317735145026,0.894502470198669,-0.373317735145817,0.0329752149352017,0.00237398761645635
63,0.0330295400298481,0.00222173372563983,0.893300399729364,-0.376072361752359,0.893300399728483,-0.376072361753111,0.033023457710344,0.0023059705051347
63.5,0.0330776469916532,0.00215258229708937,0.892090148022831,-0.378823093119759,0.892090148021904,-0.378823093120471,0.0330712252325227,0.00223754654054065
