"Freq [GHz]","re(St(P1,P1)) []","im(St(P1,P1)) []","re(St(P1,P2)) []","im(St(P1,P2)) []","re(St(P2,P1)) []","im(St(P2,P1)) []","re(St(P2,P2)) []","im(St(P2,P2)) []"
0,0.00557598479701937,0,0.994434050022392,0,0.994434050022392,0,0.00557598072089149,0
0.5,0.00616826776025903,0.000773944069683452,0.993831879147422,-0.00185938243864747,0.99383187916915,-0.00185938260857199,0.00616824701463514,0.000774110575992637
1,0.00647870937037709,0.00112682554872556,0.993518766790174,-0.00329698229681874,0.993518766799411,-0.00329698226435404,0.00647867711012395,0.00112717523090744
1.5,0.00680449279033724,0.00143793115011093,0.993224183325708,-0.00464150704383925,0.993224183327534,-0.00464150704278765,0.00680445767918769,0.00143849409600172
2,0.00708975857989103,0.00164524790435649,0.992976860856881,-0.00593537935892741,0.992976860845083,-0.00593537936555499,0.00708973640033861,0.00164600298287532
2.5,0.00732984146049986,0.00180115748407239,0.992749542113284,-0.00720138825518823,0.992749542093488,-0.00720138826035921,0.0073298246882203,0.00180208557435968
3,0.00753656047535856,0.00193167449249998,0.992531811999502,-0.00844256024796586,0.992531811976598,-0.00844256024975998,0.00753653387543096,0.00193276834996325
3.5,0.00772111606762493,0.00204737893994,0.992321826709265,-0.00965985081037246,0.992321826686059,-0.00965985080936527,0.00772106582628496,0.00204864023041473
4,0.00789090299990036,0.00215201315677049,0.992120564904962,-0.0108552828397155,0.992120564882697,-0.0108552828370243,0.00789081954787463,0.00215344799266681
4.5,0.00805014843647456,0.00224673490476235,0.991929358974705,-0.0120318348661854,0.991929358953762,-0.012031834862837,0.00805002646693254,0.00224835071386487
5,0.00820102984351223,0.00233192390673942,0.991749048722482,-0.0131928566628865,0.991749048702765,-0.0131928566596038,0.00820086742516146,0.00233372764048312
5.5,0.00834453681902225,0.00240787258773878,0.991579827021731,-0.014341611669904,0.991579827002953,-0.0143416116671542,0.00834433436264348,0.00240986983539493
6,0.00848102981559684,0.00247500491576957,0.991421342478732,-0.0154810187981749,0.991421342460555,-0.0154810187961996,0.00848078915701045,0.00247719957123849
6.5,0.00861057625982475,0.00253390692101441,0.991272867347687,-0.0166135474307012,0.991272867329794,-0.0166135474295874,0.00861029993258278,0.00253630116910664
7,0.00873314184113205,0.00258529028118915,0.991133453952264,-0.0177412070859369,0.991133453934383,-0.0177412070856633,0.00873283254098567,0.00258788475619731
7.5,0.00884869214700856,0.00262993977183612,0.991002055613269,-0.0188655866582845,0.991002055595189,-0.0188655866587961,0.00884835236413828,0.00263273379614226
8,0.00895724060173819,0.00266866462166071,0.990877610483938,-0.0199879141527308,0.990877610465494,-0.0199879141539103,0.00895687238899257,0.00267165646785372
8.5,0.00905886540248702,0.00270226037505594,0.990759094684327,-0.021109120273497,0.990759094665421,-0.0211091202752343,0.00905847024782602,0.00270544751828616
9,0.00915370950895777,0.00273148211438112,0.990645552714417,-0.0222298974653885,0.990645552694957,-0.0222298974675645,0.00915328828362583,0.00273486145749047
9.5,0.00924197222104972,0.00275702762895413,0.990536112225888,-0.0233507509353057,0.990536112205832,-0.0233507509378033,0.00924152518011923,0.00276059569269194
10,0.00932389737989769,0.00277952843845419,0.990429988640948,-0.0244720408781607,0.990429988620273,-0.0244720408808821,0.00932342419641952,0.00278328151553886
10.5,0.00942281927702737,0.00285519730356754,0.990300904157595,-0.0256067609272126,0.990300904136812,-0.0256067609284205,0.00942286219883215,0.00285828455474579
11,0.00952097797336293,0.00292545877342221,0.990173902089417,-0.0267364585795171,0.990173902068676,-0.0267364585792738,0.0095214623728257,0.00292786227450392
11.5,0.00961808621484117,0.0029906051770876,0.990049063898229,-0.0278616818614665,0.990049063877676,-0.0278616818598518,0.00961893909051437,0.00299231636244812
12,0.00971389775086706,0.00305093409756729,0.989926418152494,-0.0289829372384727,0.989926418132248,-0.0289829372355701,0.0097150486416604,0.0030519528750883
12.5,0.00980820471808475,0.00310674399581679,0.989805950410933,-0.0301006888403776,0.989805950391092,-0.0301006888362743,0.00980958642412766,0.00310707782554331
13,0.00990083477027781,0.00315833053338288,0.989687611916785,-0.0312153589197788,0.989687611897435,-0.0312153589145669,0.00990238389632658,0.00315799350063806
13.5,0.0099916480711606,0.00320598355033042,0.989571327123246,-0.032327329205966,0.989571327104458,-0.0323273291997364,0.00999330541113075,0.00320499545794384
14,0.0100805342462218,0.00324998464432547,0.989457000114524,-0.033436942877568,0.989457000096357,-0.0334369428704147,0.0100822450286495,0.00324837014263935
14.5,0.0101674093703492,0.00329060529007563,0.989344520013278,-0.0345445069324626,0.98934451999577,-0.0345445069244725,0.010169123384812,0.0032883930584191
15,0.0102522130502205,0.00332810543572926,0.989233765478351,-0.0356502947824122,0.989233765461541,-0.0356502947736796,0.0102538846740909,0.0033253274244025
15.5,0.0103349056449549,0.00336273251328656,0.989124608400962,-0.0367545489414063,0.989124608384868,-0.036754548932004,0.0103364937886097,0.00335942325153837
16,0.0104154656551314,0.00339472080255554,0.989016916905012,-0.0378574837108552,0.989016916889656,-0.0378574837008721,0.0104169336422277,0.00339091677481562
16.5,0.0104938872992051,0.00342429109176301,0.988910557751151,-0.0389592877931637,0.988910557736539,-0.0389592877826743,0.0104952026967746,0.00342003018220183
17,0.0105701782873138,0.003451650583429,0.988805398235524,-0.0400601267863916,0.988805398221656,-0.0400601267754617,0.0105713126986364,0.00344697158694807
17.5,0.0106443577953224,0.00347699299878279,0.988701307664638,-0.0411601455304158,0.988701307651512,-0.0411601455191164,0.0106452866266791,0.00347193519530187
18,0.010716454636523,0.00350049883990522,0.988598158477989,-0.0422594702875916,0.988598158465598,-0.0422594702759831,0.0107171568471731,0.00349510162793543
18.5,0.0107865056242646,0.00352233577393157,0.988495827080416,-0.0433582107504815,0.988495827068749,-0.043358210738619,0.0107869634674103,0.00351663835884963
19,0.0108545541159883,0.00354265910882212,0.988394194437463,-0.0444564618763721,0.988394194426506,-0.0444564618643053,0.0108547528770209,0.00353670024097141
19.5,0.0109206487272706,0.00356161233493246,0.988293146478913,-0.0455543055528516,0.988293146468648,-0.0455543055406356,0.0109205764643021,0.00355543009259485
20,0.0109848422032339,0.00357932771069258,0.98819257434839,-0.0466518121022386,0.988192574338799,-0.0466518120899142,0.0109844894938145,0.00357295932311885
20.5,0.0110471904343514,0.00359592687489929,0.988092374530861,-0.0477490416344217,0.988092374521925,-0.0477490416220281,0.011046550131304,0.00358940858072465
21,0.0111077516034577,0.00361152147103994,0.987992448884238,-0.0488460452590296,0.987992448875935,-0.0488460452466057,0.0111068186019527,0.00360488840767204
21.5,0.0111665854511833,0.00362621377225736,0.987892704596804,-0.04994286616816,0.987892704589112,-0.0499428661557433,0.0111653564685277,0.00361949989218413
22,0.0112237526475165,0.00364009729785764,0.987793054088134,-0.0510395406009962,0.987793054081031,-0.0510395405886106,0.0112222260165558,0.0036333353081881
22.5,0.0112793142578815,0.0036532574145749,0.987693414867971,-0.052136098701248,0.987693414861432,-0.0521360986889219,0.0112774897344989,0.0036464787363526
23,0.0113333312929838,0.00366577191728368,0.987593709364661,-0.053232565277928,0.987593709358664,-0.0532325652656889,0.0113312098778033,0.00365900666161423
23.5,0.0113858643324156,0.00367771158551733,0.987493864732516,-0.0543289604792729,0.987493864727039,-0.0543289604671378,0.0113834481065602,0.00367098854381887
24,0.011436973213006,0.00368914071334991,0.987393812645545,-0.0554253003887961,0.987393812640562,-0.0554253003767888,0.0114342651875612,0.00368248735929821
24.5,0.011486716773649,0.00370011761095057,0.987293489083412,-0.056521597551952,0.987293489078901,-0.0565215975400886,0.011483720752318,0.00369356011210975
25,0.0115351526492025,0.00371069507716726,0.987192834114232,-0.0576178614409031,0.987192834110172,-0.0576178614291996,0.0115318731035368,0.00370425831442311
25.5,0.0115823371068746,0.00372092084290276,0.98709179167775,-0.0587140988643258,0.987091791674119,-0.0587140988527937,0.0115787790633823,0.00371462843620218
26,0.0116283249191549,0.00373083798563734,0.986990309371599,-0.0598103143283737,0.986990309368374,-0.0598103143170254,0.0116244938575747,0.00372471232463045
26.5,0.0116731692680878,0.00374048531571258,0.986888338242652,-0.0609065103544761,0.986888338239814,-0.0609065103433242,0.0116690710300751,0.00373454759419189
27,0.0117169216763022,0.00374989773536516,0.98678583258495,-0.0620026877588273,0.986785832582476,-0.0620026877478788,0.0117125623837604,0.00374416798849619
27.5,0.0117596319607109,0.00375910657161604,0.986682749745218,-0.0630988458980397,0.98668274974309,-0.0630988458872999,0.0117550179430557,0.0037536037151602
28,0.0118013482053776,0.00376813988425528,0.986579049936664,-0.0641949828849233,0.986579049934864,-0.064194982874402,0.0117964859349933,0.00376288175507877
28.5,0.0118421167504428,0.00377702275025182,0.986474696061455,-0.0652910957778614,0.986474696059964,-0.0652910957675665,0.0118370127856655,0.00377202614755845
29,0.0118819821944178,0.00378577752598286,0.986369653542069,-0.0663871807468883,0.986369653540867,-0.0663871807368208,0.0118766431293733,0.00378105825281061
29.5,0.0119209874075636,0.00379442408863273,0.986263890161563,-0.0674832332192183,0.986263890160633,-0.0674832332093773,0.0119154198282521,0.00378999699320026
30,0.0119591735542708,0.00380298005814783,0.98615737591263,-0.0685792480066674,0.986157375911957,-0.0685792479970617,0.0119533840003283,0.0037988590747533
30.5,0.0119965801228095,0.00381146100102825,0.986050082855296,-0.0696752194171006,0.986050082854864,-0.0696752194077286,0.0119905750543887,0.00380765919028825
31,0.0120332449608789,0.00381988061733729,0.985941984982955,-0.070771141351786,0.985941984982747,-0.0707711413426502,0.0120270307301662,0.00381641020550738
31.5,0.0120692043157389,0.00382825091204353,0.985833058096456,-0.0718670073903711,0.985833058096458,-0.0718670073814724,0.0120627871426424,0.00382512332932983
32,0.0121044928778455,0.00383658235197437,0.985723279685915,-0.072962810864901,0.985723279686114,-0.0729628108562377,0.0120978788294246,0.00383380826969493
32.5,0.0121391438270386,0.00384488400940697,0.985612628819857,-0.0740585449242328,0.985612628820238,-0.0740585449158058,0.0121323388002883,0.00384247337593902
33,0.0121731888805525,0.00385316369339872,0.985501086041342,-0.0751542025899514,0.985501086041894,-0.0751542025817571,0.0121661985881902,0.00385112576884605
33.5,0.0122066583421738,0.00386142806978285,0.985388633270706,-0.0762497768048309,0.985388633271414,-0.0762497767968684,0.0121994883010941,0.00385977145936067
34,0.0122395811520086,0.00386968277079802,0.985275253714531,-0.077345260474714,0.985275253715384,-0.0773452604669833,0.0122322366741203,0.00386841545688466
34.5,0.0122719849364079,0.00387793249514434,0.985160931780489,-0.0784406465046015,0.985160931781477,-0.0784406464970999,0.0122644711215749,0.00387706186804326
35,0.012303896057686,0.0038861810992854,0.985045652997717,-0.0795359278296415,0.985045652998828,-0.0795359278223655,0.0122962177885355,0.0038857139866737
35.5,0.0123353396633086,0.00389443168073011,0.984929403942365,-0.0806310974416524,0.984929403943589,-0.0806310974345967,0.0123275016016833,0.00389437437584483
36,0.0123663397343411,0.00390268665396931,0.984812172168025,-0.0817261484116552,0.984812172169353,-0.0817261484048233,0.0123583463191909,0.00390304494253435
36.5,0.0123969191329047,0.00391094781961687,0.984693946140692,-0.0828210739090176,0.984693946142114,-0.0828210739024007,0.0123887745794475,0.00391172700559128
37,0.0124270996485429,0.00391921642749349,0.984574715177996,-0.0839158672174412,0.984574715179503,-0.0839158672110383,0.0124188079485298,0.00392042135761095
37.5,0.012456902043342,0.00392749323397901,0.984454469392418,-0.0850105217483703,0.984454469394002,-0.0850105217421762,0.0124484669662737,0.00392912832119396
38,0.0124863460957312,0.00393577855427996,0.984333199638225,-0.0861050310519689,0.984333199639878,-0.0861050310459799,0.0124777711909073,0.00393784780010087
38.5,0.0125154506429023,0.00394407230995686,0.98421089746188,-0.0871993888260967,0.984210897463594,-0.0871993888203093,0.0125067392421738,0.00394657932575893
39,0.012544233621789,0.00395237407218385,0.984087555055704,-0.0882935889234187,0.984087555057472,-0.0882935889178302,0.0125353888429242,0.00395532209951632
39.5,0.0125727121086076,0.00396068310105591,0.983963165214555,-0.089387625356971,0.983963165216371,-0.0893876253515753,0.0125637368591617,0.00396407503099816
40,0.0126009023569377,0.00396899838134956,0.983837721295357,-0.090481492304308,0.983837721297213,-0.0904814922991015,0.012591799338554,0.00397283677295945
40.5,0.0126288198343302,0.00397731865497786,0.983711217179242,-0.0915751841104768,0.983711217181133,-0.0915751841054542,0.0126195915473949,0.00398160575287854
41,0.0126564792574889,0.00398564245049826,0.983583647236176,-0.0926686952898921,0.983583647238097,-0.0926686952850533,0.0126471280060743,0.00399038020163278
41.5,0.0126838946260172,0.00399396810987351,0.983455006291867,-0.0937620205273246,0.983455006293811,-0.0937620205226608,0.0126744225230543,0.00399915817949204
42,0.012711079254773,0.0040022938127775,0.98332528959683,-0.094855154678064,0.983325289598792,-0.094855154673577,0.0127014882274004,0.00400793759965534
42.5,0.0127380458048597,0.00401061759860788,0.983194492797442,-0.0959480927674274,0.983194492799417,-0.0959480927631082,0.012728337599906,0.00401671624959121
43,0.0127648063132907,0.00401893738647718,0.983062611908872,-0.097040829989619,0.983062611910857,-0.0970408299854606,0.0127549825028482,0.00402549181031997
43.5,0.0127913722213617,0.0040272509932846,0.982929643289758,-0.0981333617061155,0.982929643291748,-0.0981333617021178,0.0127814342084187,0.00403426187387002
44,0.0128177544017855,0.00403555615009221,0.982795583618503,-0.0992256834436116,0.982795583620494,-0.0992256834397667,0.0128077034258809,0.00404302395904743
44.5,0.0128439631846128,0.004043850516946,0.9826604298711,-0.10031779089155,0.982660429873089,-0.10031779088786,0.0128338003274915,0.00405177552567082
45,0.0128700083819957,0.00405213169624918,0.982524179300372,-0.101409679899395,0.982524179302355,-0.101409679895853,0.012859734573242,0.00406051398741258
45.5,0.0128958993118449,0.00406039724485208,0.98238682941655,-0.102501346473588,0.982386829418523,-0.102501346470189,0.0128855153344666,0.00406923672337189
46,0.0129216448203983,0.00406864468499002,0.982248377969075,-0.103592786774287,0.982248377971035,-0.103592786771025,0.0129111513163525,0.00407794108849302
46.5,0.0129472533037719,0.0040768715140711,0.982108822929578,-0.104683997111966,0.982108822931523,-0.104683997108836,0.0129366507794149,0.00408662442293029
47,0.0129727327285262,0.00408507521357127,0.98196816247594,-0.105774973943805,0.981968162477867,-0.105774973940807,0.0129620215599686,0.00409528406045023
47.5,0.0129980906512774,0.00409325325695065,0.981826394977358,-0.106865713870018,0.981826394979265,-0.106865713867148,0.0129872710896489,0.00410391733597226
48,0.0130233342374166,0.00410140311681761,0.981683518980372,-0.107956213630065,0.981683518982257,-0.107956213627316,0.0130124064140137,0.00411252159229569
48.5,0.0130484702789658,0.00410952227134587,0.981539533195779,-0.109046470098775,0.981539533197639,-0.109046470096146,0.0130374342102914,0.00412109418614826
49,0.0130735052116034,0.0041176082099712,0.981394436486377,-0.110136480282485,0.981394436488211,-0.110136480279969,0.0130623608042792,0.00412963249352671
49.5,0.0130984451309049,0.00412565843852342,0.981248227855487,-0.11122624131509,0.981248227857292,-0.111226241312687,0.013087192186465,0.00413813391446727
50,0.0131232958078401,0.00413367048378799,0.981100906436218,-0.112315750454128,0.981100906437994,-0.112315750451832,0.0131119340273937,0.00414659587728217
50.5,0.0131480627035498,0.00414164189754818,0.980952471481401,-0.113405005076819,0.980952471483145,-0.113405005074626,0.0131365916923084,0.00415501584229183
51,0.0131727509834354,0.00414957026016527,0.980802922354172,-0.114494002676186,0.980802922355883,-0.114494002674093,0.0131611702551179,0.00416339130509691
51.5,0.0131973655306087,0.00415745318375871,0.980652258519161,-0.115582740857129,0.980652258520839,-0.115582740855135,0.0131856745117049,0.00417171979947462
52,0.013221910958717,0.00416528831497054,0.980500479534243,-0.1166712173326,0.980500479535886,-0.116671217330699,0.0132101089926225,0.00417999889987364
52.5,0.0132463916241774,0.00417307333742123,0.98034758504281,-0.117759429919765,0.980347585044417,-0.117759429917954,0.0132344779751949,0.00418822622359771
53,0.0132708116378537,0.00418080597382708,0.980193574766557,-0.118847376536254,0.980193574768128,-0.118847376534528,0.0132587854950659,0.00419639943268102
53.5,0.0132951748761941,0.00418848398782457,0.980038448498721,-0.119935055196455,0.980038448500253,-0.119935055194814,0.0132830353572018,0.00420451623546469
54,0.0133194849918629,0.00419610518556413,0.979882206097761,-0.121022464007859,0.979882206099257,-0.121022464006297,0.0133072311464029,0.00421257438796996
54.5,0.013343745423889,0.00420366741703582,0.979724847481458,-0.122109601167487,0.979724847482916,-0.122109601166004,0.0133313762373161,0.00422057169499679
55,0.0133679594073453,0.00421116857719728,0.979566372621389,-0.123196464958375,0.979566372622809,-0.123196464956966,0.0133554738040014,0.00422850601104541
55.5,0.0133921299826026,0.0042186066069223,0.979406781537774,-0.124283053746124,0.979406781539154,-0.124283053744787,0.0133795268290578,0.00423637524105391
56,0.0134162600041483,0.00422597949374071,0.979246074294655,-0.12536936597554,0.979246074295995,-0.125369365974271,0.0134035381123299,0.0042441773409565
56.5,0.0134403521490231,0.00423328527244982,0.979084250995406,-0.126455400167335,0.979084250996707,-0.126455400166132,0.0134275102792255,0.00425191031809691
57,0.0134644089248706,0.00424052202555592,0.978921311778538,-0.127541154914919,0.978921311779799,-0.127541154913778,0.0134514457886531,0.00425957223150064
57.5,0.0134884326776252,0.00424768788363616,0.978757256813787,-0.12862662888124,0.978757256815009,-0.128626628880161,0.0134753469406068,0.00426716119205084
58,0.013512425598861,0.00425478102549537,0.97859208629847,-0.129711820795755,0.978592086299653,-0.129711820794735,0.0134992158834023,0.0042746753625007
58.5,0.0135363897328163,0.00426179967832718,0.978425800454097,-0.130796729451415,0.978425800455241,-0.130796729450449,0.0135230546206037,0.00428211295745395
59,0.0135603269830915,0.00426874211768302,0.9782583995232,-0.131881353701787,0.978258399524306,-0.131881353700874,0.0135468650176216,0.00428947224319121
59.5,0.0135842391190714,0.00427560666742011,0.978089883766411,-0.132965692458215,0.978089883767477,-0.132965692457353,0.0135706488080399,0.00429675153747144
60,0.01360812778205,0.00428239169954292,0.977920253459719,-0.134049744687084,0.977920253460747,-0.134049744686271,0.0135944075996457,0.00430394920922828
60.5,0.0136319944910938,0.00428909563399049,0.977749508891951,-0.135133509407139,0.97774950889294,-0.135133509406373,0.0136181428802068,0.00431106367821954
61,0.0136558406486419,0.00429571693834729,0.977577650362411,-0.136216985686914,0.977577650363363,-0.136216985686192,0.0136418560229831,0.00431809341461209
61.5,0.0136796675458694,0.00430225412751817,0.977404678178711,-0.137300172642199,0.977404678179626,-0.13730017264152,0.0136655482920074,0.00432503693852304
62,0.0137034763678107,0.00430870576332865,0.977230592654757,-0.138383069433623,0.977230592655634,-0.138383069432984,0.0136892208471297,0.0043318928195033
62.5,0.0137272681982686,0.00431507045413237,0.977055394108886,-0.139465675264264,0.977055394109727,-0.139465675263664,0.0137128747488468,0.00433865967601843
