"Freq [GHz]","re(St(P1,P1)) []","im(St(P1,P1)) []","re(St(P1,P2)) []","im(St(P1,P2)) []","re(St(P2,P1)) []","im(St(P2,P1)) []","re(St(P2,P2)) []","im(St(P2,P2)) []"
0,0.00406433265129635,0,0.995948560157558,0,0.995948553172639,0,0.00406432813804258,0
0.5,0.00451733914061947,0.000234414703381702,0.995467365640266,-0.00438063622729246,0.995467366349118,-0.00438063667139588,0.00451734429292827,0.000234278268401056
1,0.00495391272181678,-0.000101547840060334,0.994978661586448,-0.00818894526467062,0.99497866136684,-0.00818894491153088,0.00495392162793351,-0.000101841797768287
1.5,0.00524661323694531,-0.000550086627072233,0.994594903656242,-0.0119989141646535,0.99459490359769,-0.0119989138666625,0.00524659317109055,-0.000550545591917029
2,0.00542209180916764,-0.0010482861551715,0.994252716151653,-0.015683276488339,0.994252716164279,-0.0156832762786543,0.00542203732748625,-0.00104888615633669
2.5,0.00552907409950976,-0.00154567080552681,0.993962650233826,-0.0193056322837855,0.993962650263219,-0.0193056321476952,0.00552899058922307,-0.00154640039470877
3,0.00559852531872096,-0.00203206656247801,0.993710555095419,-0.0229014285481206,0.99371055511754,-0.0229014284632676,0.00559841792739491,-0.00203292165765134
3.5,0.00564699700901183,-0.00250776817706821,0.993479718172916,-0.0264867284891182,0.993479718179731,-0.0264867284377139,0.00564686899371214,-0.002508747779423
4,0.00568334052156683,-0.00297515905406165,0.993256789884989,-0.0300677637343512,0.993256789875557,-0.0300677637043503,0.00568319358383995,-0.00297626334201162
4.5,0.00571247969362343,-0.00343663431291397,0.99303212275789,-0.0336463639555369,0.993032122734062,-0.0336463639392282,0.00571231447174636,-0.0034378638784478
5,0.00573728431506115,-0.00389418654437179,0.992798899172725,-0.0372225559316277,0.99279889913729,-0.0372225559241262,0.00573710074234768,-0.00389554209473353
5.5,0.0057595040835432,-0.00434940499416214,0.99255227337911,-0.0407957256605442,0.992552273335028,-0.040795725658727,0.0057593016189954,-0.00435088723891575
6,0.00578025078950484,-0.0048035579451593,0.99228874775064,-0.0443651141024901,0.99228874770073,-0.0443651141042842,0.00578002856219495,-0.00480516755727756
6.5,0.00580025792981376,-0.00525767487302531,0.992005755591288,-0.047930013466015,0.992005755538123,-0.0479300134699798,0.00580001482922032,-0.00525941247945916
7,0.00582002639486756,-0.00571261149481472,0.99170138756222,-0.0514898313364132,0.991701387508106,-0.0514898313414562,0.00581976112775129,-0.00571447767817546
7.5,0.0058399094292616,-0.00616909793510345,0.991374210945079,-0.0550440982865883,0.991374210892053,-0.055044098291825,0.00583962055556442,-0.00617109323898291
8,0.00586016394105537,-0.00662777370165379,0.991023147659085,-0.0585924531902347,0.991023147608935,-0.0585924531948869,0.00585984989645394,-0.00662989863648988
8.5,0.00588098248187019,-0.00708921307124477,0.990647389549131,-0.0621346216359324,0.990647389503404,-0.0621346216392737,0.00588064159156154,-0.00709146811953509
9,0.00590251375578754,-0.00755394367439344,0.990246337695541,-0.0656703941808434,0.990246337655577,-0.0656703941821828,0.00590214424241764,-0.00755632929487327
9.5,0.00592487611656911,-0.00802246028748677,0.989819557597997,-0.0691996071576089,0.989819557564937,-0.0691996071562766,0.0059244761040842,-0.00802497691820836
10,0.00594816666338582,-0.00849523524177265,0.989366745181451,-0.0727221268771991,0.989366745156268,-0.0727221268725398,0.00594773417797567,-0.00849788330213297
10.5,0.00596852334335196,-0.00895217633599898,0.988941161776299,-0.0762558607058574,0.988941161751235,-0.0762558607007229,0.00596807968024737,-0.00895500561181528
11,0.00598761900239542,-0.00941292254573334,0.988502868356387,-0.0797795681762237,0.988502868331482,-0.0797795681706122,0.00598715663721194,-0.00941593549328967
11.5,0.00600522136110948,-0.00987747727202049,0.988052383048003,-0.0832935416084712,0.988052383023295,-0.083293541602397,0.00600473236512666,-0.00988067567128059
12,0.00602110320682736,-0.010345829126309,0.987590170473409,-0.0867980942050162,0.987590170448935,-0.0867980941984863,0.00602057931616717,-0.0103492140491603
12.5,0.00603504333294258,-0.0108179528104362,0.987116643381692,-0.0902935535953313,0.987116643357483,-0.09029355358836,0.00603447601874074,-0.0108215245973531
13,0.00604682736024331,-0.0112938100433739,0.986632164858715,-0.0937802560823204,0.986632164834805,-0.0937802560749272,0.00604620789880583,-0.0112975682881507
13.5,0.00605624844146374,-0.0117733505200928,0.986137050973392,-0.0972585415956573,0.98613705094981,-0.09725854158786,0.00605556798346779,-0.0117772940622602
14,0.0060631078517483,-0.012256512889242,0.985631573732332,-0.100728749337369,0.985631573709106,-0.100728749329193,0.00606235748969075,-0.0122606398137499
14.5,0.00606721546917366,-0.012743225737287,0.985115964231132,-0.104191214089099,0.985115964208282,-0.10419121408056,0.00606638630233669,-0.0127475333808107
15,0.00606839015054589,-0.0132334085678991,0.984590415906982,-0.107646263139197,0.984590415884532,-0.107646263130328,0.00606747334689184,-0.0132378935312589
15.5,0.00606646000862587,-0.0137269727669045,0.984055087813317,-0.111094213780398,0.984055087791285,-0.111094213771223,0.00606544686311378,-0.0137316309328606
16,0.00606126259759737,-0.0142238225440803,0.983510107852219,-0.114535371324367,0.98351010783062,-0.114535371314909,0.00606014458654403,-0.0142286490999224
16.5,0.00605264501408737,-0.0147238558445988,0.982955575914064,-0.11797002757775,0.982955575892911,-0.117970027568039,0.00605141384528168,-0.0147288453088281
17,0.00604046392132718,-0.0152269652240511,0.982391566886053,-0.121398459724686,0.982391566865358,-0.121398459714747,0.00603911157970288,-0.0152321114765108
17.5,0.00602458550416712,-0.0157330386821926,0.981818133501926,-0.124820929562499,0.981818133481696,-0.124820929552359,0.00602310429293279,-0.0157383349970122
18,0.00600488536267151,-0.0162419604516311,0.981235309014196,-0.128237683040263,0.981235308994437,-0.128237683029946,0.00600326793985703,-0.016247399532384
18.5,0.00598124835182005,-0.0167536117387685,0.980643109677752,-0.131648950053609,0.980643109658469,-0.131648950043147,0.005979487762285,-0.0167591857552889
19,0.00595356837466145,-0.0172678714151786,0.980041537039871,-0.135054944453183,0.980041537021065,-0.135054944442596,0.00595165807765444,-0.0172735720414634
19.5,0.00592174813588926,-0.0177846166584117,0.97943058003656,-0.138455864228428,0.979430580018232,-0.138455864217742,0.00591968202830617,-0.0177904351111899
20,0.00588569886244389,-0.0183037235420547,0.978810216898963,-0.141851891832724,0.978810216881112,-0.141851891821962,0.00588347129797064,-0.0183096506195501
20.5,0.005845339997313,-0.018825067575396,0.978180416876439,-0.145243194620006,0.978180416859062,-0.145243194609192,0.00584294580165944,-0.018831093695896
21,0.00580059887220664,-0.0193485241936253,0.97754114178499,-0.148629925366929,0.977541141768082,-0.148629925356083,0.00579803335468424,-0.0193546394335464
21.5,0.00575141036433798,-0.0198739691999696,0.976892347391105,-0.15201222285834,0.976892347374662,-0.152012222847484,0.00574866932603203,-0.0198801633310914
22,0.00569771654200937,-0.0204012791615154,0.976233984641983,-0.15539021251718,0.976233984625997,-0.155390212506332,0.00569479628081009,-0.0204075416871641
22.5,0.00563946630325134,-0.0209303317606975,0.975566000753487,-0.158764007062853,0.975566000737952,-0.158764007052032,0.00563636361602671,-0.0209366519506617
23,0.00557661501125492,-0.0214610061047766,0.974888340167328,-0.16213370718497,0.974888340152237,-0.162133707174196,0.00557332719343072,-0.02146737302879
23.5,0.00550912412991067,-0.0219931829956526,0.974200945388767,-0.165499402221557,0.97420094537411,-0.165499402210842,0.00550564897272821,-0.021999585555311
24,0.00543696086229617,-0.0225267451625268,0.973503757715784,-0.168861170833009,0.973503757701552,-0.168861170822368,0.00543329664801526,-0.0225331721215656
24.5,0.00536009779458607,-0.0230615774599832,0.97279671787019,-0.172219081664811,0.972796717856373,-0.172219081654261,0.00535624328988546,-0.0230680174728257
25,0.00527851254743861,-0.0235975670340443,0.972079766540519,-0.175573193993599,0.972079766527107,-0.175573193983152,0.00527446699525036,-0.0236040086725797
25.5,0.00519218743659139,-0.0241346034587351,0.971352844845954,-0.178923558352406,0.971352844832936,-0.178923558342071,0.00518795054660218,-0.0241410352373412
26,0.00510110914406187,-0.0246725788456406,0.970615894729814,-0.182270217132043,0.970615894717181,-0.182270217121834,0.00509668108209499,-0.0246789892444261
26.5,0.00500526840106985,-0.0252113879288931,0.969868859290504,-0.185613205156525,0.969868859278244,-0.185613205146452,0.00500064977754588,-0.0252177654151922
27,0.00490465968353132,-0.0257509281278918,0.969111683057088,-0.188952550231106,0.969111683045191,-0.188952550221177,0.00489985154118694,-0.0257572611760457
27.5,0.00479928092074361,-0.0262910995899652,0.968344312216084,-0.192288273662242,0.968344312204538,-0.192288273652466,0.00479428472178187,-0.0262973766994463
28,0.00468913321768882,-0.0268318052150835,0.967566694795388,-0.195620390749135,0.967566694784183,-0.195620390739518,0.00468395083051013,-0.0268380149270175
28.5,0.00457422059118784,-0.0273729506646028,0.96677878081068,-0.198948911247093,0.966778780799804,-0.198948911237643,0.00456885427683684,-0.0273790815767465
29,0.0044545497199977,-0.0279144443558685,0.965980522379117,-0.202273839803092,0.96598052236856,-0.202273839793814,0.00444900211845206,-0.0279204851361321
29.5,0.00433012970880656,-0.0284561974444202,0.965171873804628,-0.205595176364278,0.965171873794379,-0.205595176355176,0.00432440382521485,-0.0284621368429936
30,0.00420097186597132,-0.0289981237953785,0.96435279163861,-0.208912916560273,0.964352791628658,-0.208912916551352,0.0041950710569344,-0.0290039506555537
30.5,0.00406708949475398,-0.0295401399454787,0.96352323471947,-0.212227052060297,0.963523234709805,-0.212227052051561,0.00406101745473605,-0.0295458432132429
31,0.00392849769772641,-0.0300821650571126,0.962683164193999,-0.215537570906222,0.962683164184611,-0.215537570897674,0.00392225844566446,-0.030087733789594
31.5,0.00378521319396125,-0.0306241208655944,0.961832543523276,-0.218844457822697,0.961832543514156,-0.218844457814341,0.00377881106013755,-0.0306295442384403
32,0.00363725414857802,-0.0311659316207686,0.960971338475436,-0.222147694505559,0.960971338466573,-0.222147694497395,0.00363069376180553,-0.0311711989345378
32.5,0.0034846400141712,-0.0317075240239753,0.960099517107372,-0.225447259889705,0.960099517098758,-0.225447259881734,0.00347792628933252,-0.031712624709622
33,0.00332739138361959,-0.0322488271612809,0.959217049737196,-0.228743130397637,0.95921704972882,-0.22874313038986,0.00332052950960093,-0.0322537507848017
33.5,0.00316552985377211,-0.0327897724337922,0.958323908909028,-0.23203528016983,0.958323908900882,-0.232035280162249,0.00315852528181043,-0.032794508700114
34,0.00299907789947013,-0.0333302934857773,0.957420069351508,-0.235323681278083,0.957420069343583,-0.235323681270696,0.00299193633194322,-0.0333348322419438
34.5,0.00282805875738945,-0.0338703261312432,0.956505507931231,-0.238608303922921,0.95650550792352,-0.238608303915729,0.00282078613706016,-0.0338746573689872
35,0.0026524963191713,-0.0344098082795523,0.955580203602141,-0.241889116616136,0.955580203594635,-0.241889116609139,0.00264509881889041,-0.0344139221372912
35.5,0.00247241503330642,-0.0349486798605607,0.954644137351796,-0.245166086349442,0.954644137344487,-0.245166086342637,0.00246489904619573,-0.0349525666248929
36,0.00228783981528519,-0.0354868827497357,0.953697292145268,-0.248439178750214,0.953697292138149,-0.248439178743602,0.00228021194538103,-0.0354905328564836
36.5,0.00209879596548646,-0.0360243606936272,0.952739652867365,-0.25170835822522,0.95273965286043,-0.251708358218798,0.00209106301886008,-0.0360277647284866
37,0.00190530909433828,-0.0365610592360284,0.951771206263722,-0.254973588093179,0.951771206256963,-0.254973588086946,0.00189747807067847,-0.0365642079348567
37.5,0.00170740505427269,-0.037096925645097,0.950791940881261,-0.258234830706974,0.950791940874672,-0.258234830700927,0.00169948313892726,-0.0370998098939084
38,0.0015051098780316,-0.0376319088416825,0.949801847008436,-0.261492047566237,0.94980184700201,-0.261492047560374,0.0014971044344948,-0.0376345196763719
38.5,0.00129844972288384,-0.0381659593290684,0.948800916615594,-0.264745199421045,0.948800916609326,-0.264745199415365,0.00129036828572071,-0.0381682879349112
39,0.00108745082034623,-0.0386990291242841,0.947789143295758,-0.267994246367365,0.947789143289642,-0.267994246361863,0.00107930108854604,-0.038701066835245
39.5,0.000872139431021601,-0.0392310716911204,0.946766522206069,-0.271239147934857,0.9467665222001,-0.271239147929531,0.000863929261754992,-0.0392328099890116
40,0.000652541804171569,-0.0397620418749753,0.945733050010077,-0.274479863167622,0.945733050004251,-0.27447986316247,0.000644279206949649,-0.0397634723884739
40.5,0.000428684141687841,-0.0402918958395804,0.944688724821064,-0.277716350698409,0.944688724815374,-0.277716350693426,0.000420377272898342,-0.0402930103431549
41,0.000200592566113045,-0.0408205910057089,0.943633546146497,-0.280948568816783,0.943633546140941,-0.280948568811968,0.000192249723923066,-0.0408213814184666
41.5,-3.17069075837506E-005,-0.0413480859918773,0.942567514833753,-0.284176475531714,0.942567514828325,-0.284176475527064,-4.00772879757816E-005,-0.0413485443763519
42,-0.000268188396784275,-0.0418743405570856,0.941490633017157,-0.287400028628997,0.941490633011853,-0.287400028624508,-0.000276577747565232,-0.0418744591179974
42.5,-0.000508826172814114,-0.0423993155455975,0.940402904066418,-0.290619185723913,0.940402904061236,-0.29061918571958,-0.000517225797655452,-0.042399086628593
43,-0.000753594679618275,-0.0429229728337683,0.939304332536495,-0.293833904309469,0.939304332531429,-0.293833904305292,-0.000761995757474987,-0.0429223889241621
43.5,-0.00100246854975633,-0.0434452752789141,0.938194924118908,-0.297044141800599,0.938194924113956,-0.297044141796572,-0.00101086213838442,-0.0434443290004385
44,-0.00125542261794204,-0.0439661866701804,0.937074685594536,-0.300249855574573,0.937074685589696,-0.300249855570693,-0.00126379965714163,-0.0439648707837668
44.5,-0.00151243193232914,-0.0444856716814108,0.935943624787878,-0.303451003007953,0.935943624783146,-0.303451003004217,-0.0015207832469421,-0.0444839790840088
45,-0.00177347176375758,-0.0450036958259696,0.934801750522782,-0.306647541510345,0.934801750518156,-0.306647541506749,-0.00178178806642215,-0.0450016195494076
45.5,-0.00203851761311485,-0.0455202254134641,0.933649072579635,-0.309839428555178,0.933649072575113,-0.309839428551718,-0.00204678950680048,-0.0455177586233733
46,-0.00230754521700416,-0.046035227508356,0.932485601653992,-0.31302662170775,0.932485601649571,-0.313026621704423,-0.0023157631973344,-0.0460323635031521
46.5,-0.00258053055185775,-0.0465486698903834,0.93131134931661,-0.316209078650755,0.931311349312288,-0.316209078647559,-0.00258868500924148,-0.0465454021003198
47,-0.00285744983665065,-0.0470605210167641,0.930126327974875,-0.319386757207468,0.930126327970652,-0.319386757204398,-0.00286553105822951,-0.0470568430030576
47.5,-0.00313827953433787,-0.047570749986112,0.928930550835591,-0.322559615362768,0.928930550831463,-0.32255961535982,-0.00314627770576642,-0.0475666554401541
48,-0.00342299635214849,-0.0480793265040314,0.927724031869076,-0.325727611282177,0.927724031865043,-0.325727611279349,-0.00343090155921738,-0.0480748092466723
48.5,-0.0037115772408432,-0.0485862208503181,0.926506785774561,-0.328890703329053,0.926506785770621,-0.328890703326342,-0.00371937947095857,-0.0485812748312471
49,-0.0040039993930403,-0.0490914038477197,0.925278827946836,-0.332048850080072,0.925278827942989,-0.332048850077473,-0.00401168853656791,-0.0490860231449237
49.5,-0.00430024024070697,-0.0495948468322036,0.924040174444113,-0.335202010339146,0.924040174440357,-0.335202010336658,-0.00430780609219827,-0.0495890256515252
50,-0.00460027745191105,-0.0500965216246689,0.922790841957061,-0.338350143149883,0.922790841953396,-0.338350143147501,-0.00460770971121283,-0.0500902542994477
50.5,-0.00490408892690009,-0.0505964005040571,0.921530847778992,-0.341493207806686,0.921530847775416,-0.341493207804409,-0.00491137720016532,-0.0505896814948639
51,-0.0052116527935952,-0.0510944561817956,0.920260209777141,-0.344631163864628,0.920260209773655,-0.34463116386245,-0.00521878659419928,-0.0510872800762616
51.5,-0.00552294740256537,-0.0515906617775386,0.918978946365017,-0.347763971148155,0.91897894636162,-0.347763971146076,-0.00552991615193993,-0.0515830232902745
52,-0.00583795132153853,-0.0520849907961345,0.917687076475784,-0.350891589758736,0.917687076472475,-0.350891589756751,-0.00584474434993165,-0.0520768847687394
52.5,-0.00615664332951493,-0.0525774171057816,0.916384619536629,-0.35401398008151,0.916384619533408,-0.354013980079618,-0.00616324987668115,-0.0525688385069434
53,-0.00647900241053301,-0.0530679149173221,0.915071595444095,-0.35713110279104,0.915071595440961,-0.357131102789236,-0.00648541162636423,-0.0530588588430065
53.5,-0.00680500774712656,-0.0535564587646145,0.913748024540337,-0.360242918856193,0.913748024537291,-0.360242918854476,-0.006811208692236,-0.0535469204383439
54,-0.00713463871353603,-0.0540430234859577,0.912413927590264,-0.363349389544263,0.912413927587306,-0.36334938954263,-0.00714062035979096,-0.0540329982591752
54.5,-0.00746787486869294,-0.0545275842065021,0.911069325759541,-0.366450476424348,0.911069325756671,-0.366450476422797,-0.0074736260997107,-0.0545170675590192
55,-0.00780469594902511,-0.0550101163216121,0.909714240593419,-0.369546141370064,0.909714240590637,-0.369546141368592,-0.00781020556064072,-0.0549991038621434
55.5,-0.00814508186111834,-0.0554905954811491,0.908348693996358,-0.372636346561627,0.908348693993664,-0.372636346560232,-0.00815033856181913,-0.0554790829479217
56,-0.00848901267425178,-0.0559689975746049,0.906972708212417,-0.375721054487365,0.906972708209812,-0.375721054486044,-0.00849400508559489,-0.0559569808360563
56.5,-0.00883646861284615,-0.0564452987170843,0.905586305806381,-0.378800227944689,0.905586305803865,-0.378800227943442,-0.0088411852698605,-0.0564327737726276
57,-0.0091874300488427,-0.0569194752360622,0.904189509645604,-0.381873830040566,0.904189509643176,-0.381873830039389,-0.00919185940041756,-0.0569064382169326
57.5,-0.00954187749403951,-0.0573915036589157,0.902782342882524,-0.384941824191538,0.902782342880186,-0.384941824190429,-0.00954600790330973,-0.0573779508290873
58,-0.0098997915923984,-0.0578613607011578,0.901364828937852,-0.388004174123301,0.901364828935603,-0.38800417412226,-0.00990361133712464,-0.0578472884583301
58.5,-0.010261153112346,-0.0583290232553753,0.899936991484383,-0.391060843869901,0.899936991482224,-0.391060843868924,-0.0102646503853013,-0.0583144281320274
59,-0.0106259429390871,-0.0587944683808146,0.898498854431426,-0.394111797772555,0.898498854429358,-0.394111797771642,-0.0106291058484448,-0.0587793470453284
59.5,-0.0109941420669337,-0.0592576732935974,0.897050441909822,-0.39715700047813,0.897050441907844,-0.397157000477279,-0.0109969586366696,-0.0592420225514374
60,-0.011365731591676,-0.059718615357532,0.895591778257525,-0.400196416937311,0.895591778255638,-0.400196416936519,-0.0113681897619796,-0.0597024321524924
60.5,-0.0117406927029974,-0.0601772720754963,0.894122888005734,-0.403230012402471,0.894122888003938,-0.403230012401738,-0.0117427803307048,-0.0601605534910006
61,-0.0121190066769506,-0.0606336210813581,0.892643795865556,-0.406257752425271,0.892643795863852,-0.406257752424596,-0.0121207115359911,-0.0606163643418205
61.5,-0.0125006548684962,-0.0610876401324245,0.891154526715169,-0.409279602854009,0.891154526713557,-0.409279602853389,-0.0125019646503653,-0.0610698426046576
62,-0.0128856187041173,-0.0615393071023698,0.889655105587482,-0.412295529830733,0.889655105585962,-0.412295529830168,-0.0128865210183743,-0.0615209662970488
