"Freq [GHz]","re(St(P1,P1)) []","im(St(P1,P1)) []","re(St(P1,P2)) []","im(St(P1,P2)) []","re(St(P2,P1)) []","im(St(P2,P1)) []","re(St(P2,P2)) []","im(St(P2,P2)) []"
0,0.00315342264383389,0,0.996858626196627,0,0.996858622544096,0,0.00315341803238312,0
0.5,0.00349871065667173,0.000317450433293232,0.996494307117842,-0.0030808449641313,0.996494306971002,-0.00308084574404788,0.00349863168149511,0.000317658047244151
1,0.00387176322904992,0.000196220323793739,0.996097772623955,-0.00572181725349807,0.996097772443562,-0.00572181732474775,0.00387155273880069,0.000196719614578456
1.5,0.00414677456257095,-2.46208039307305E-005,0.995818887514648,-0.00836697435654443,0.995818887380903,-0.00836697443783407,0.00414639978915332,-2.38996026880045E-005
2,0.00433024790912739,-0.000310432657819604,0.9955682710671,-0.0109006139254078,0.995568270987061,-0.0109006140037131,0.00432965677099517,-0.000309426917386446
2.5,0.00445145943733394,-0.000608118969740445,0.995360087035255,-0.0133703509875502,0.995360087005,-0.0133703510542595,0.00445063239839882,-0.000606791970589882
3,0.00453590944339766,-0.000901760369750093,0.995186423204437,-0.0158079260887085,0.995186423213934,-0.0158079261389439,0.00453482920816484,-0.000900096084844648
3.5,0.0045992042301588,-0.00118828094569423,0.995034884372801,-0.0182308535243507,0.995034884410364,-0.0182308535564282,0.00459784829048715,-0.00118627344765088
4,0.00465036670043162,-0.001468375375552,0.994894835094437,-0.0206480987859159,0.994894835149351,-0.0206480988006312,0.00464870700032272,-0.00146602300150889
4.5,0.00469468241518811,-0.00174361637827047,0.994758522864818,-0.0230640877241157,0.994758522928437,-0.0230640877238457,0.00469268628951269,-0.00174091907969043
5,0.00473535540181302,-0.00201560043492677,0.994620645842688,-0.0254809174849591,0.994620645908544,-0.025480917472791,0.00473298640056008,-0.00201255864184802
5.5,0.00477440886369962,-0.00228573437698643,0.99447767179836,-0.0278994912510591,0.994477671861914,-0.0278994912302792,0.00477162726602742,-0.00228234853221565
6,0.00481317680566118,-0.00255521589569163,0.994327268794906,-0.0303200950736215,0.99432726885315,-0.030320095047335,0.0048099398746535,-0.00255148628190227
6.5,0.00485257918754201,-0.00282506601836019,0.994167898539444,-0.0327426956221526,0.994167898590505,-0.0327426955931376,0.00484884123958551,-0.00282099271416492
7,0.00489328089372743,-0.00309616945462565,0.993998543064342,-0.0351670973779168,0.993998543107158,-0.0351670973485412,0.00488899323757996,-0.00309175234791148
7.5,0.00493578668150541,-0.0033693103838548,0.99381852561184,-0.0375930272886915,0.993818525645898,-0.0375930272609182,0.00493089746238073,-0.0033645492111134
8,0.0049804997982501,-0.00364520135977919,0.99362739429866,-0.0400201808694156,0.993627394323823,-0.0400201808448628,0.00497495376793733,-0.00364009575815594
8.5,0.00502775937853972,-0.0039245059904669,0.993424846593265,-0.042448247243998,0.99342484660963,-0.0424482472239394,0.0050214976031091,-0.00391905555716932
9,0.00507786511579322,-0.00420785670314494,0.993210680083681,-0.0448769224359182,0.993210680091489,-0.0448769224213734,0.00507082462628627,-0.00420206106100629
9.5,0.00513109412666735,-0.00449586884262487,0.992984760165765,-0.0473059160150111,0.992984760165342,-0.047305916006783,0.0051232075139338,-0.00448972771216383
10,0.00518771293923681,-0.0047891521185619,0.992746998661718,-0.0497349539754754,0.992746998653427,-0.049734953974184,0.00517890789109332,-0.004782665397979
10.5,0.00522914478930692,-0.00505233903124136,0.992519536010124,-0.0521693671566723,0.992519536001986,-0.0521693671554946,0.0052212942362333,-0.00504639291466447
11,0.00527117171220914,-0.00531849587324373,0.99228477763162,-0.0545980240135009,0.992284777623624,-0.0545980240124599,0.00526422932298831,-0.00531317276775134
11.5,0.005313635156587,-0.00558766094090402,0.992043047497898,-0.0570209883542461,0.992043047490029,-0.057020988353349,0.00530754639695274,-0.00558303897105361
12,0.00535637769206376,-0.00585986276234074,0.991794651414522,-0.0594383433769217,0.991794651406767,-0.0594383433761774,0.00535108029571862,-0.00585601522976908
12.5,0.005399243646246,-0.00613512043686981,0.991539876251952,-0.0618501891431862,0.991539876244297,-0.0618501891426,0.0053946681236261,-0.00613211534400904
13,0.00544207969243593,-0.00641344401504895,0.991278989478922,-0.0642566401265068,0.991278989471353,-0.0642566401260929,0.0054381498691991,-0.00641134365410601
13.5,0.00548473538623462,-0.00669483491308931,0.991012238967954,-0.066657822864312,0.991012238960455,-0.0666578228640677,0.00548136896369833,-0.00669369552047794
14,0.00552706364995448,-0.00697928635541345,0.990739853041428,-0.0690538737374,0.990739853033986,-0.0690538737373263,0.00552417278004391,-0.00697915783100722
14.5,0.00556892120449981,-0.00726678383950397,0.990462040726374,-0.071444936894121,0.990462040718972,-0.0714449368942267,0.00556641307221195,-0.00726770952917555
15,0.00561016894895994,-0.00755730561717094,0.990178992186638,-0.0738311623310715,0.990178992179265,-0.0738311623313512,0.00560794635585637,-0.00755932215642918
15.5,0.00565067228876615,-0.00785082318692343,0.989890879302382,-0.0762127041374825,0.989890879295023,-0.0762127041379337,0.00564863423156359,-0.00785396040292152
16,0.00569030141375804,-0.00814730179240897,0.98959785636861,-0.0785897189061986,0.989597856361252,-0.078589718906823,0.00568834365270043,-0.00815158266100458
16.5,0.00572893152793685,-0.00844670092219868,0.989300060886603,-0.0809623643105066,0.989300060879236,-0.0809623643112998,0.00572694714023969,-0.00845214157640317
17,0.00576644303304041,-0.00874897480678793,0.988997614424499,-0.0833307978432831,0.98899761441711,-0.0833307978442397,0.00576432294733886,-0.00875558459268611
17.5,0.00580272166839158,-0.00905407290892501,0.988690623525799,-0.0856951757125151,0.988690623518376,-0.0856951757136315,0.00580035517673561,-0.00906185448485619
18,0.0058376586096528,-0.0093619404040215,0.988379180647097,-0.0880556518855284,0.988379180639631,-0.0880556518867994,0.00583493385422029,-0.009370889878765
18.5,0.00587115052936421,-0.00967251864765295,0.9880633651089,-0.0904123772728695,0.988063365101381,-0.0904123772742853,0.00586795496161679,-0.00968262575328804
19,0.00590309962216418,-0.00998574562770838,0.987743244045712,-0.0927654990420486,0.987743244038131,-0.0927654990436046,0.00589932043274843,-0.00999699392284015
19.5,0.00593341359772592,-0.010301556399102,0.987418873343892,-0.0951151600506801,0.987418873336243,-0.0951151600523676,0.00592893811591444,-0.010313923498229
20,0.00596200564442873,-0.0106198834993751,0.987090298557865,-0.0974614983885065,0.98709029855014,-0.097461498390321,0.0059567217063734,-0.0106333413243105
20.5,0.00598879436673538,-0.0109406573438706,0.986757555797088,-0.0998046470177618,0.98675755578928,-0.0998046470196945,0.00598259065222462,-0.0109551723932952
21,0.00601370369923204,-0.0112638065994952,0.986420672577975,-0.10214473350155,0.986420672570078,-0.102144733503595,0.0060064700370312,-0.0112793402329334
21.5,0.00603666280015391,-0.0115892585364525,0.986079668636373,-0.104481879810399,0.986079668628383,-0.104481879812543,0.00602829044232867,-0.0116057672691765
22,0.00605760592715709,-0.0119169393574596,0.985734556697564,-0.106816202197513,0.985734556689477,-0.106816202199749,0.00604798779306526,-0.0119343751630954
22.5,0.00607647229787855,-0.0122467745044981,0.985385343201796,-0.109147811134084,0.985385343193609,-0.109147811136403,0.00606550318877605,-0.0122650851223574
23,0.00609320593780222,-0.0125786889430017,0.985032028984387,-0.111476811296307,0.985032028976097,-0.111476811298706,0.00608078272318205,-0.0125978181874205
23.5,0.0061077555176641,-0.0129126074238783,0.984674609910134,-0.113803301596705,0.984674609901738,-0.113803301599171,0.00609377729463106,-0.0129324954931276
24,0.00612007418255764,-0.0132484547238301,0.984313077462473,-0.116127375252923,0.984313077453971,-0.116127375255449,0.00610444240965774,-0.0132690385064285
24.5,0.00613011937469332,-0.0135861558645027,0.983947419288325,-0.118449119887742,0.983947419279715,-0.118449119890322,0.0061127379816994,-0.013607369240991
25,0.00613785265160072,-0.0139256363112041,0.983577619699963,-0.120768617654807,0.983577619691245,-0.12076861765743,0.00611862812683114,-0.0139474104497346
25.5,0.00614323950139481,-0.0142668221520372,0.983203660135551,-0.12308594538511,0.983203660126723,-0.12308594538777,0.00612208095817762,-0.0142890857963129
26,0.00614624915658613,-0.014609640258235,0.982825519580249,-0.125401174749852,0.982825519571313,-0.125401174752541,0.00612306838047519,-0.0146323200066218
26.5,0.0061468544077256,-0.0149540184267165,0.982443174949897,-0.127714372435828,0.982443174940853,-0.12771437243854,0.00612156588608324,-0.0149770390014998
27,0.00614503141803902,-0.0152998855057742,0.982056601439427,-0.130025600330018,0.982056601430278,-0.130025600332742,0.00611755235357453,-0.0153231700117447
27.5,0.00614075954008304,-0.01564717150488,0.981665772838171,-0.132334915710405,0.981665772828917,-0.132334915713141,0.00611100984988047,-0.0156706416766639
28,0.00613402113527617,-0.0159958076896825,0.981270661814251,-0.134642371440649,0.981270661804895,-0.134642371443385,0.00610192343681094,-0.0160193841272545
28.5,0.00612480139707493,-0.0163457266630678,0.980871240170225,-0.136948016166336,0.980871240160769,-0.136948016169066,0.0060902809826439,-0.0163693290552343
29,0.00611308817842091,-0.0166968624333714,0.980467479072088,-0.139251894511146,0.980467479062533,-0.139251894513865,0.00607607297935667,-0.0167204097689346
29.5,0.00609887182399638,-0.0170491504706791,0.980059349253681,-0.141554047271347,0.98005934924403,-0.141554047274049,0.00605929236594785,-0.0170725612372524
30,0.00608214500771807,-0.0174025277521213,0.97964682119848,-0.143854511607417,0.979646821188737,-0.143854511610098,0.00603993435820272,-0.0174257201226036
30.5,0.00606290257579684,-0.017756932797115,0.97922986530061,-0.14615332123177,0.979229865290776,-0.146153321234423,0.00601799628517116,-0.0177798248039278
31,0.00604114139564776,-0.0181123056933816,0.978808452006876,-0.148450506591761,0.978808451996957,-0.148450506594382,0.00599347743253199,-0.0181348153906837
31.5,0.00601686021082305,-0.0184685881146183,0.978382551941486,-0.150746095047358,0.978382551931484,-0.150746095049942,0.00596637889296112,-0.0184906337287072
32,0.00599005950208817,-0.0188257233305786,0.977952136014982,-0.153040111042995,0.977952136004901,-0.153040111045538,0.00593670342352971,-0.0188472233988226
32.5,0.00596074135473365,-0.0191836562103238,0.9775171755189,-0.155332576273207,0.977517175508744,-0.155332576275706,0.00590445531015525,-0.0192045297089503
33,0.00592890933210993,-0.0195423332193569,0.977077642207465,-0.157623509841884,0.977077642197236,-0.157623509844332,0.00586964023901188,-0.0195624996804837
33.5,0.00589456835537996,-0.0199017024112744,0.976633508367593,-0.159912928414895,0.976633508357296,-0.159912928417289,0.00583226517483799,-0.0199210820296156
34,0.00585772458942244,-0.020261713414599,0.976184746878369,-0.162200846366104,0.976184746868009,-0.162200846368443,0.00579233824598165,-0.0202802271442568
34.5,0.00581838533478449,-0.0206223174153388,0.975731331261041,-0.164487275916735,0.975731331250621,-0.164487275919013,0.00574986863603899,-0.0206398870571261
35,0.0057765589255703,-0.0209834671357778,0.975273235720536,-0.166772227268098,0.97527323571006,-0.166772227270313,0.00570486648190588,-0.0210000154155594
35.5,0.00573225463311761,-0.0213451168100764,0.974810435179374,-0.169055708727864,0.974810435168845,-0.169055708730013,0.00565734277803093,-0.0213605674485504
36,0.00568548257529572,-0.0217072221570382,0.97434290530481,-0.171337726829942,0.974342905294235,-0.171337726832024,0.00560730928665837,-0.0217214999314463
36.5,0.00563625363126596,-0.0220697403505263,0.973870622529955,-0.173618286448142,0.973870622519337,-0.173618286450154,0.00555477845384497,-0.0220827711487326
37,0.0055845793614841,-0.0224326299878945,0.973393564069529,-0.175897390903851,0.973393564058871,-0.17589739090579,0.0054997633309975,-0.022444340855293
37.5,0.00553047193278253,-0.0227958510567579,0.972911707930895,-0.178175042067848,0.972911707920202,-0.178175042069712,0.0054422775017148,-0.0228061702364495
38,0.00547394404831114,-0.0231593649004389,0.972425032920917,-0.180451240456522,0.972425032910193,-0.180451240458309,0.00538233501367644,-0.0231682218671017
38.5,0.00541500888212759,-0.0235231341824012,0.97193351864914,-0.182725985322734,0.97193351863839,-0.182725985324443,0.00531995031534288,-0.0235304596702814
39,0.00535368001824676,-0.0238871228498514,0.971437145527766,-0.184999274741459,0.971437145516992,-0.184999274743089,0.005255138197239,-0.023892848875263
39.5,0.00528997139392273,-0.0242512960968431,0.970935894768815,-0.187271105690562,0.970935894758024,-0.187271105692112,0.00518791373756092,-0.0242553559755847
40,0.0052238972469672,-0.0246156203269874,0.97042974837887,-0.189541474126815,0.970429748368064,-0.189541474128283,0.00511829225190338,-0.0246179486870375
40.5,0.00515547206690503,-0.024980063116034,0.969918689151703,-0.191810375057461,0.969918689140887,-0.191810375058846,0.00504628924685691,-0.0249805959058729
41,0.00508471054975107,-0.0253445931744527,0.969402700659109,-0.194077802607528,0.969402700648287,-0.194077802608831,0.00497192037727151,-0.0253432676673717
41.5,0.00501162755623374,-0.025709180310161,0.968881767240203,-0.19634375008309,0.968881767229377,-0.196343750084307,0.0048952014069642,-0.0257059351048627
42,0.00493623807325722,-0.0260737953915244,0.96835587398941,-0.198608210030698,0.968355873978586,-0.198608210031831,0.00481614817267131,-0.0260685704093362
42.5,0.00485855717842912,-0.0264384103107531,0.96782500674338,-0.200871174293206,0.967825006732561,-0.200871174294253,0.00473477655104135,-0.0264311467897214
43,0.00477860000746883,-0.0268029979477697,0.967289152066996,-0.20313263406215,0.967289152056187,-0.203132634063113,0.00465110242848688,-0.0267936384339422
43.5,0.00469638172433645,-0.0271675321346661,0.966748297238661,-0.205392579926917,0.966748297227865,-0.205392579927794,0.00456514167370292,-0.0271560204707844
44,0.00461191749389617,-0.0275319876207654,0.966202430234994,-0.207651001920827,0.966202430224214,-0.207651001921619,0.00447691011269086,-0.0275182689326359
44.5,0.00452522245697712,-0.0278963400384131,0.965651539715083,-0.209907889564378,0.965651539704323,-0.209907889565083,0.0043864235061114,-0.0278803607191698
45,0.00443631170767794,-0.028260565869477,0.965095615004408,-0.212163231905731,0.965095614993671,-0.212163231906352,0.00429369752881914,-0.0282422735619581
45.5,0.00434520027274865,-0.0286246424126735,0.964534646078521,-0.214417017558694,0.964534646067812,-0.21441701755923,0.00419874775142226,-0.0286039859901042
46,0.00425190309294698,-0.028988547751676,0.963968623546594,-0.216669234738256,0.963968623535916,-0.216669234738708,0.00410158962373003,-0.0289654772968437
46.5,0.00415643500620994,-0.0293522607240808,0.9633975386349,-0.218919871293886,0.963397538624256,-0.218919871294255,0.00400223845995773,-0.0293267275071902
47,0.00405881073253117,-0.0297157608912433,0.962821383170291,-0.221168914740717,0.962821383159684,-0.221168914741,0.00390070942555043,-0.0296877173465822
47.5,0.00395904486042542,-0.0300790285089549,0.962240149563751,-0.223416352288688,0.962240149553185,-0.22341635228889,0.00379701752553269,-0.0300484282105549
48,0.00385715183486296,-0.0304420444990385,0.961653830794053,-0.225662170869878,0.961653830783532,-0.225662170869999,0.00369117759423671,-0.0304088421354467
48.5,0.00375314594657716,-0.0308047904218052,0.961062420391576,-0.227906357164026,0.961062420381101,-0.227906357164065,0.00358320428633752,-0.0307689417700994
49,0.00364704132264049,-0.0311672484493837,0.960465912422318,-0.230148897622417,0.960465912411894,-0.230148897622375,0.00347311206907724,-0.0311287103485642
49.5,0.00353885191821934,-0.0315294013399576,0.959864301472134,-0.232389778490228,0.959864301461763,-0.232389778490107,0.00336091521559123,-0.031488131663798
50,0.00342859150941738,-0.0318912324128386,0.959257582631226,-0.234628985827405,0.959257582620912,-0.234628985827205,0.00324662779925072,-0.0318471900423236
50.5,0.003316273687126,-0.0322527255244194,0.958645751478906,-0.236866505528182,0.958645751468651,-0.236866505527904,0.00313026368893699,-0.032205870319844
51,0.00320191185180768,-0.0326138650449708,0.958028804068655,-0.239102323339325,0.958028804058462,-0.239102323338972,0.00301183654517961,-0.0325641578178004
51.5,0.00308551920913247,-0.0329746358362577,0.957406736913484,-0.24133642487717,0.957406736903355,-0.241336424876742,0.00289135981707594,-0.032922038320808
52,0.00296710876640827,-0.03333502322999,0.956779546971612,-0.243568795643547,0.956779546961551,-0.243568795643045,0.00276884673993738,-0.0332794980550233
52.5,0.00284669332973475,-0.0336950130070557,0.956147231632482,-0.245799421040635,0.956147231622491,-0.24579942104006,0.00264431033359458,-0.0336365236673362
53,0.00272428550182524,-0.0340545913775485,0.955509788703089,-0.248028286384851,0.95550978869317,-0.248028286384204,0.00251776340130333,-0.0339931022054252
53.5,0.00259989768043972,-0.0344137449615358,0.95486721639466,-0.250255376919792,0.954867216384816,-0.250255376919077,0.00238921852920737,-0.0343492210986112
54,0.0024735420573746,-0.0347724607706001,0.954219513309666,-0.25248067782833,0.954219513299901,-0.252480677827547,0.00225868808629148,-0.0347048681395226
54.5,0.00234523061796704,-0.0351307261900655,0.953566678429179,-0.254704174243887,0.953566678419492,-0.254704174243036,0.00212618422479771,-0.0350600314665024
55,0.00221497514106539,-0.035488528961944,0.952908711100551,-0.256925851260934,0.952908711090946,-0.256925851260017,0.0019917188810496,-0.0354146995467635
55.5,0.00208278719941707,-0.035845857168558,0.95224561102545,-0.259145693944808,0.95224561101593,-0.259145693943828,0.00185530377664977,-0.0357688611602609
56,0.00194867816045408,-0.0362026992168216,0.951577378248215,-0.261363687340838,0.951577378238782,-0.261363687339796,0.00171695042001063,-0.0361225053842587
56.5,0.00181265918741103,-0.0365590438231491,0.950904013144539,-0.263579816482854,0.950904013135194,-0.26357981648175,0.00157667010819063,-0.036475621578544
57,0.00167474124077494,-0.0369148799989869,0.950225516410489,-0.2657940664011,0.950225516401235,-0.265794066399937,0.00143447392899876,-0.0368281993712944
57.5,0.00153493508000757,-0.03727019703694,0.949541889051827,-0.268006422129616,0.949541889042666,-0.268006422128396,0.00129037276334038,-0.0371802286455676
58,0.00139325126552681,-0.0376249844974705,0.94885313237366,-0.27021686871309,0.948853132364593,-0.270216868711815,0.00114437728777828,-0.0375316995263666
58.5,0.00124970016091963,-0.0379792321961425,0.948159247970387,-0.272425391213231,0.948159247961416,-0.272425391211901,0.000996497977285349,-0.0378826023682894
59,0.00110429193535244,-0.038332930191423,0.947460237715949,-0.274631974714695,0.947460237707077,-0.274631974713311,0.000846745108160241,-0.038232927743729
59.5,0.000957036566164859,-0.0386860687729638,0.946756103754375,-0.27683660433058,0.946756103745603,-0.276836604329147,0.000695128761093622,-0.0385826664315878
60,0.0008079438416288,-0.0390386384504107,0.946046848490611,-0.279039265207537,0.94604684848194,-0.279039265206054,0.000541658824361857,-0.0389318094065088
60.5,0.00065702336383644,-0.0393906299426643,0.945332474581627,-0.281239942530487,0.94533247457306,-0.281239942528957,0.000386344997127586,-0.039280347828581
61,0.000504284551720524,-0.0397420341676149,0.944612984927804,-0.283438621527013,0.944612984919341,-0.283438621525437,0.000229196792833952,-0.0396282730335231
61.5,0.000349736644174259,-0.0400928422323108,0.943888382664574,-0.285635287471412,0.943888382656217,-0.285635287469792,7.02235426828235E-005,-0.0399755765233034
62,0.000193388703264685,-0.0404430454235509,0.943158671154327,-0.287829925688446,0.943158671146078,-0.287829925686784,-9.05656008328704E-005,-0.0403222499571934
