"Freq [GHz]","re(St(P1,P1)) []","im(St(P1,P1)) []","re(St(P1,P2)) []","im(St(P1,P2)) []","re(St(P2,P1)) []","im(St(P2,P1)) []","re(St(P2,P2)) []","im(St(P2,P2)) []"
0,0.00397795279826596,0,0.996036665092106,0,0.996036665557767,0,0.00397794932746365,0
0.5,0.00447245242913397,-0.000454334219114116,0.995486804188531,-0.00583783444102437,0.995486804234218,-0.00583783425303608,0.00447202821285941,-0.000452624676956503
1,0.00492764183769978,-0.00154170334599257,0.994898965165692,-0.0110371817066621,0.994898965169547,-0.0110371817080797,0.00492647936690105,-0.001537781784549
1.5,0.0051555602205724,-0.00281241513819808,0.994412004678122,-0.0162820029999082,0.994412004681557,-0.016282003000196,0.00515308093494937,-0.00280630163939577
2,0.00524385184273157,-0.00406896683736235,0.99391556996861,-0.0213633549737757,0.993915569972808,-0.0213633549728307,0.00524034805489748,-0.00406003324534154
2.5,0.00526653198072502,-0.00529683576881723,0.993447378810231,-0.0263383705157381,0.993447378815965,-0.0263383705140789,0.00526224115188079,-0.00528493032891575
3,0.00525345075018091,-0.0065020705711305,0.993009630866578,-0.0312515385994097,0.993009630874114,-0.031251538597644,0.00524848457226046,-0.00648717048894554
3.5,0.00521743565282584,-0.00769076773082844,0.992591059031639,-0.0361296955723489,0.992591059040947,-0.0361296955709527,0.00521183069078113,-0.00767287791851068
4,0.00516456642181584,-0.00886711144641872,0.992178082760082,-0.040986932464893,0.992178082770995,-0.0409869324641665,0.00515831860577354,-0.00884623755092662
4.5,0.00509799837824376,-0.0100337983328025,0.991758737119834,-0.0458298521739238,0.991758737132138,-0.0458298521740375,0.00509108148948378,-0.0100099400691853
5,0.00501950499721859,-0.0111925504184622,0.991323479638483,-0.0506610714030078,0.991323479651973,-0.0506610714040523,0.00501188049529189,-0.01116570051704
5.5,0.00493015692355581,-0.0123444665069101,0.990864961430886,-0.05548122267823,0.990864961445367,-0.0554812226802213,0.00492177936530513,-0.0123146111509147
6,0.00483064501362174,-0.0134902425822201,0.990377574676336,-0.0602900230496992,0.990377574691637,-0.0602900230526338,0.00482146518531978,-0.013457362145223
6.5,0.00472144459429269,-0.0146303089611397,0.989857035038254,-0.06508682129693,0.989857035054221,-0.0650868213007865,0.00471141141181075,-0.0145943787112053
7,0.0046029038402946,-0.0157649169109551,0.989300055785177,-0.0698708664861307,0.989300055801671,-0.0698708664908754,0.0045919655577964,-0.0157259076066332
7.5,0.00447529366534383,-0.0168941945637542,0.988704107699257,-0.0746414309359551,0.988704107716158,-0.0746414309415435,0.00446339867999623,-0.016852072942493
8,0.00433883706495664,-0.0180181838708737,0.988067245001748,-0.0793978585395099,0.988067245018949,-0.0793978585459119,0.00432593447647389,-0.0179729130490323
8.5,0.0041937269881055,-0.0191368655985134,0.987387978619144,-0.0841395759396386,0.987387978636547,-0.0841395759468204,0.00417976700402622,-0.0190884054034433
9,0.00404013755063803,-0.020250176609772,0.9866651825377,-0.0888660863021196,0.986665182555218,-0.0888660863100537,0.00402507179107825,-0.0201984838611144
9.5,0.00387823124900821,-0.0213580220616869,0.985898023209031,-0.0935769560088726,0.985898023226585,-0.0935769560175341,0.00386201298360445,-0.0213030508150638
10,0.00370816369710136,-0.0224602841792203,0.985085905178508,-0.0982717995604334,0.985085905196029,-0.0982717995698046,0.00369074803460356,-0.0224019859422766
10.5,0.00352675147138282,-0.0235751650527938,0.984329859007342,-0.102993116622289,0.984329859024366,-0.102993116631661,0.00351087679910733,-0.0235147297994001
11,0.00333652230286363,-0.0246888551034425,0.983552157324775,-0.107696327375215,0.983552157341324,-0.10769632738456,0.00332223726202208,-0.0246263955102286
11.5,0.00313748089785626,-0.0258012975092914,0.982753661071411,-0.112382042470776,0.982753661087509,-0.112382042480066,0.00312483023376731,-0.0257369313244702
12,0.00292963219768128,-0.026912435439451,0.981935124297639,-0.117050895354799,0.98193512431331,-0.117050895364016,0.00291865655349227,-0.026846285435921
12.5,0.0027129813805723,-0.0280222120552995,0.981097199876098,-0.121703530235607,0.981097199891366,-0.121703530244731,0.00270371708744499,-0.0279544059801689
13,0.00248753386361544,-0.0291305705119491,0.980240446060008,-0.126340591757685,0.980240446074895,-0.126340591766705,0.00248001272717976,-0.0290612410322799
13.5,0.00225329530468618,-0.0302374539600159,0.979365333582716,-0.13096271631118,0.979365333597248,-0.13096271632008,0.00224754438757982,-0.0301667386045343
14,0.00201027160438247,-0.0313428055476077,0.978472253040104,-0.135570524872705,0.978472253054302,-0.135570524881476,0.00200631300469703,-0.0312708466441318
14.5,0.0017584689079414,-0.0324465684226229,0.977561522342778,-0.140164617250439,0.977561522356664,-0.140164617259073,0.00175631953337607,-0.0323735130309197
15,0.0014978936071251,-0.0335486857352922,0.97663339406758,-0.144745567593266,0.976633394081176,-0.144745567601757,0.00149756494466052,-0.0334746855750865
15.5,0.00122855234206357,-0.034649100641083,0.975688062576612,-0.149313921018987,0.975688062589939,-0.149313921027331,0.00123005022295988,-0.0345743120148665
16,0.000950452003030261,-0.0357477563038549,0.974725670806038,-0.153870191217475,0.974725670819113,-0.153870191225669,0.000953776362964398,-0.0356723400141901
16.5,0.000663599732145789,-0.0368445958994088,0.973746316656255,-0.158414858890473,0.973746316669097,-0.158414858898519,0.000668744366281143,-0.0367687171603288
17,0.000368002924987315,-0.0379395626193468,0.972750058939572,-0.162948370898276,0.972750058952199,-0.162948370906173,0.000374955237786995,-0.0378633909614647
17.5,6.36692320740428E-005,-0.039032599675302,0.971736922861643,-0.167471139994346,0.971736922874069,-0.167471140002092,7.24099816671736E-005,-0.038956308844222
18,-0.000249393439778589,-0.0401236503035638,0.970706905028916,-0.171983545040581,0.970706905041157,-0.17198354504818,-0.000238890402879319,-0.040047418151119
18.5,-0.00057117692626342,-0.0412126577700893,0.969659977986872,-0.176485931608073,0.96965997799894,-0.176485931615528,-0.000558944926276936,-0.0411366661379313
19,-0.000901672804578563,-0.0422995653759388,0.968596094303091,-0.180978612880074,0.968596094315,-0.180978612887387,-0.000887752613593362,-0.042223999970957
19.5,-0.00124087239262285,-0.0433843164631127,0.967515190216011,-0.185461870785269,0.967515190227772,-0.185461870792444,-0.00122531250994642,-0.0433093667241309
20,-0.00158876674845282,-0.0444668544208979,0.96641718887475,-0.189935957300138,0.966417188886375,-0.189935957307179,-0.00157162368633856,-0.0443927133760376
20.5,-0.00194534666998894,-0.0455471226926272,0.965302003198266,-0.194401095868681,0.965302003209763,-0.194401095875591,-0.00192668524592471,-0.0454739868067175
21,-0.00231060269504602,-0.0466250647829582,0.964169538383501,-0.198857482896685,0.96416953839488,-0.198857482903468,-0.00229049633075895,-0.0465531337942982
21.5,-0.00268452510169759,-0.0477006242656479,0.963019694092629,-0.203305289285231,0.963019694103898,-0.203305289291894,-0.0026630561290274,-0.047630101011392
22,-0.00306710390902631,-0.0487737447918626,0.961852366349015,-0.207744661974985,0.961852366360181,-0.207744661981531,-0.00304436388280738,-0.048704835021248
22.5,-0.00345832887829794,-0.0498443700990201,0.96066744917055,-0.212175725478514,0.96066744918162,-0.212175725484948,-0.00343441889636809,-0.0497772822736109
23,-0.00385818951461114,-0.05091244402022,0.959464835967567,-0.216598583382976,0.959464835978548,-0.216598583389303,-0.00383322054505841,-0.0508473891002605
23.5,-0.0042666750690637,-0.0519779104942315,0.958244420730892,-0.221013319809539,0.958244420741789,-0.221013319815764,-0.00424076828478559,-0.0519151017101698
24,-0.00468377454150221,-0.0530407135761215,0.957006099033709,-0.225420000819636,0.957006099044527,-0.225420000825764,-0.00465706166213947,-0.0529803661842752
24.5,-0.0051094766839016,-0.0541007974484864,0.955749768869054,-0.229818675760852,0.955749768879797,-0.229818675766885,-0.00508210032517303,-0.0540431284697682
25,-0.00554377000444878,-0.0551581064333266,0.954475331342829,-0.234209378547793,0.954475331353501,-0.234209378553738,-0.00551588403487324,-0.0551033343738836
25.5,-0.00598664277238892,-0.0562125850046118,0.953182691240344,-0.238592128875179,0.953182691250949,-0.238592128881041,-0.00595841267736241,-0.0561609295571133
26,-0.00643808302372023,-0.0572641778014984,0.951871757482669,-0.242966933361917,0.95187175749321,-0.242966933367699,-0.00640968627683824,-0.0572158595257806
26.5,-0.00689807856780811,-0.0583128296422748,0.950542443487302,-0.247333786626229,0.950542443497781,-0.247333786631935,-0.00686970500930623,-0.0582680696239346
27,-0.00736661699501201,-0.0593584855390108,0.949194667446197,-0.251692672292782,0.949194667456617,-0.251692672298415,-0.00733846921711129,-0.0593175050244374
27.5,-0.00784368568542076,-0.0604010907129502,0.947828352532642,-0.256043563933552,0.947828352543005,-0.256043563939118,-0.00781597942431389,-0.0603641107192265
28,-0.0083292718187904,-0.0614405906106348,0.946443427047221,-0.260386425944657,0.946443427057529,-0.260386425950158,-0.00830223635291738,-0.0614078315086015
28.5,-0.00882336238580644,-0.0624769309208095,0.945039824511837,-0.264721214361812,0.945039824522091,-0.264721214367251,-0.00879724093999573,-0.0624486119894954
29,-0.00932594420078625,-0.063510057592076,0.943617483719718,-0.269047877617282,0.94361748372992,-0.269047877622665,-0.00930099435572024,-0.0634863965425998
29.5,-0.00983700391594855,-0.0645399168513303,0.942176348748307,-0.273366357241401,0.942176348758457,-0.27336635724673,-0.00981349802232517,-0.0645211293182295
30,-0.0103565280373994,-0.0655664552229673,0.940716368941084,-0.27767658851176,0.940716368951184,-0.277676588517037,-0.0103347536340093,-0.0655527542208252
30.5,-0.0108845029429785,-0.0665896195488669,0.939237498863585,-0.281978501053244,0.939237498873635,-0.281978501058473,-0.0108647631778126,-0.0665812148919618
31,-0.0114209149021391,-0.0676093570091298,0.937739698238155,-0.286272019391982,0.937739698248156,-0.286272019397166,-0.0114035289554495,-0.0676064546917075
31.5,-0.0119657500980327,-0.0686256151435702,0.936222931861401,-0.290557063466282,0.936222931871354,-0.290557063471422,-0.01195105360612,-0.0686284166782025
32,-0.0125189946520032,-0.0696383418739308,0.934687169507733,-0.294833549097461,0.934687169517636,-0.294833549102562,-0.0125073401302918,-0.0696470435852925
32.5,-0.0130806346506889,-0.0706474855267809,0.933132385821906,-0.299101388423409,0.933132385831762,-0.299101388428471,-0.0130723919144378,-0.0706622777980477
33,-0.0136506561759636,-0.0716529948570857,0.931558560203091,-0.303360490297548,0.931558560212898,-0.303360490302575,-0.0136462127567202,-0.0716740613259699
33.5,-0.0142290453379684,-0.0726548190723457,0.929965676682571,-0.307610760655769,0.929965676692329,-0.307610760660762,-0.014228806893582,-0.0726823357737179
34,-0.0148157883114867,-0.0736529078572776,0.928353723796915,-0.3118521028537,0.928353723806625,-0.311852102858662,-0.0148201790272153,-0.0736870423091085
34.5,-0.015410871375953,-0.0746472113989296,0.926722694458135,-0.316084417976609,0.926722694467796,-0.31608441798154,-0.0154203343538487,-0.074688121628196
35,-0.0160142809594082,-0.0756376804121264,0.925072585822132,-0.320307605124023,0.925072585831744,-0.320307605128927,-0.016029278592783,-0.0756855139171826
35.5,-0.0166260036867308,-0.0766242661651297,0.923403399156503,-0.324521561671063,0.923403399166065,-0.32452156167594,-0.0166470180161049,-0.0766791588109002
36,-0.0172460264324892,-0.0776069205053405,0.921715139708622,-0.328726183508292,0.921715139718133,-0.328726183513146,-0.0172735594789553,-0.0776689953476037
36.5,-0.017874336378822,-0.0785855958848845,0.920007816574715,-0.332921365261842,0.920007816584177,-0.332921365266672,-0.0179089104502475,-0.0786549619197945
37,-0.0185109210787345,-0.0795602453858306,0.918281442570564,-0.337107000495342,0.918281442579974,-0.33710700050015,-0.0185530790436694,-0.0796369962207639
37.5,-0.0191557685252677,-0.0805308227448212,0.916536034104296,-0.341282981895151,0.916536034113654,-0.341282981899938,-0.0192060740488041,-0.0806150351865524
38,-0.0198088672270079,-0.081497282376787,0.914771611051682,-0.345449201440242,0.914771611060988,-0.345449201445009,-0.0198679049621577,-0.081589014932993
38.5,-0.0204702062904338,-0.0824595793974026,0.912988196634226,-0.349605550557973,0.912988196643478,-0.349605550562722,-0.0205385820178527,-0.0825588706874931
39,-0.0211397755096483,-0.0834176696438707,0.911185817300289,-0.353751920266921,0.911185817309488,-0.353751920271653,-0.0212181162177129,-0.0835245367151995
39.5,-0.0218175654640522,-0.0843715096935511,0.909364502609422,-0.357888201307813,0.909364502618567,-0.357888201312528,-0.0219065193604094,-0.0844859462391763
40,-0.0225035676245678,-0.0853210568798815,0.907524285120016,-0.362014284263554,0.907524285129105,-0.362014284268254,-0.0226038040693088,-0.0854430313542105
40.5,-0.0231977744690444,-0.0862662693049436,0.905665200280358,-0.366130059669238,0.905665200289392,-0.366130059673923,-0.0233099838185995,-0.0863957229338705
41,-0.0239001796074998,-0.0872071058479296,0.903787286323132,-0.370235418112964,0.903787286332109,-0.370235418117635,-0.0240250729572152,-0.0873439505304017
41.5,-0.0246107779179053,-0.0881435261686525,0.901890584163359,-0.374330250328229,0.901890584172278,-0.374330250332886,-0.0247490867300303,-0.0882876422670766
42,-0.0253295656932072,-0.0890754907051199,0.899975137299784,-0.37841444727857,0.899975137308647,-0.378414447283214,-0.0254820412956984,-0.0892267247225964
42.5,-0.0260565408003395,-0.0900029606640353,0.898040991719657,-0.382487900235125,0.89804099172846,-0.382487900239755,-0.0262239537404755,-0.090161122807157
43,-0.0267917028519539,-0.0909258980029384,0.89608819580685,-0.38655050084766,0.896088195815594,-0.386550500852278,-0.0269748420872507,-0.091090759629803
43.5,-0.0275350533916194,-0.0918442654025047,0.894116800253275,-0.390602141209631,0.894116800261959,-0.390602141214238,-0.0277347252989351,-0.0920155563567002
44,-0.0282865960932313,-0.0927580262273271,0.892126857973481,-0.394642713917757,0.892126857982103,-0.394642713922352,-0.0285036232752798,-0.0929354320600115
44.5,-0.0290463369753198,-0.0936671444732669,0.890118424022383,-0.398672112126549,0.890118424030943,-0.398672112131133,-0.029281556842061,-0.0938503035570808
45,-0.0298142846309367,-0.0945715846991937,0.888091555516013,-0.402690229598226,0.888091555524511,-0.402690229602798,-0.0300685477315024,-0.0947600852396637
45.5,-0.0305904504736907,-0.0954713119406803,0.886046311555204,-0.406696960748375,0.886046311563639,-0.406696960752937,-0.0308646185526601,-0.0956646888930499
46,-0.0313748490004188,-0.0963662916028571,0.883982753152101,-0.410692200687719,0.883982753160472,-0.41069220069227,-0.0316697927504005,-0.0965640235049519
46.5,-0.0321674980708279,-0.0972564893293248,0.881900943159414,-0.414675845260298,0.88190094316772,-0.414675845264838,-0.0324840945514631,-0.0974579950641568
47,-0.0329684192042591,-0.0981418708436186,0.87980094620229,-0.418647791078355,0.87980094621053,-0.418647791082885,-0.0333075488959944,-0.0983465063490414
47.5,-0.0337776378934678,-0.0990224017593155,0.877682828612734,-0.422607935554205,0.877682828620908,-0.422607935558724,-0.0341401813527912,-0.0992294567061887
48,-0.0345951839350085,-0.0998980473544118,0.875546658366447,-0.426556176929305,0.875546658374554,-0.426556176933814,-0.0349820180163755,-0.100106741819493
48.5,-0.0354210917754121,-0.100768772305157,0.873392505022006,-0.430492414300782,0.873392505030046,-0.43049241430528,-0.0358330853839062,-0.100978253470344
49,-0.036255400871843,-0.101634540373983,0.871220439662277,-0.43441654764559,0.871220439670248,-0.434416547650078,-0.0366934102097956,-0.101843879289667
49.5,-0.0370981560653313,-0.102495314045677,0.869030534837976,-0.438328477842505,0.869030534845878,-0.438328477846981,-0.0375630193358039,-0.102703502502865
50,-0.0379494079639106,-0.103351054105397,0.866822864513282,-0.442228106692122,0.866822864521115,-0.442228106696588,-0.0384419394942843,-0.103557001668972
50.5,-0.0388092133321252,-0.104201719151614,0.864597504013409,-0.446115336935007,0.864597504021171,-0.446115336939461,-0.0393301970821716,-0.104404250415643
51,-0.0396776354822717,-0.105047265036513,0.862354529974059,-0.449990072268158,0.86235452998175,-0.449990072272601,-0.0402278179032531,-0.105245117171952
51.5,-0.0405547446614805,-0.105887644225987,0.860094020292671,-0.453852217359898,0.86009402030029,-0.453852217364328,-0.0411348268762458,-0.106079464901374
52,-0.0414406184272341,-0.106722805070888,0.857816054081379,-0.457701677863314,0.857816054088927,-0.457701677867733,-0.0420512477061974,-0.106907150837719
52.5,-0.042335342002165,-0.107552690981018,0.855520711621615,-0.461538360428382,0.85552071162909,-0.461538360432789,-0.0429771025168295,-0.10772802622729
53,-0.0432390085969441,-0.108377239493143,0.853208074320273,-0.465362172712839,0.853208074327675,-0.465362172717232,-0.043912411441516,-0.108541936081005
53.5,-0.0441517196877421,-0.109196381224544,0.850878224667363,-0.469173023391925,0.85087822467469,-0.469173023396305,-0.0448571921708109,-0.109348718940768
54,-0.0450735852321013,-0.11001003870397,0.848531246195095,-0.472970822167073,0.848531246202348,-0.47297082217144,-0.0458114594546816,-0.110148206664931
54.5,-0.0460047238041102,-0.110818125072775,0.846167223438328,-0.476755479773611,0.846167223445505,-0.476755479777963,-0.0467752245579622,-0.11094022423826
55,-0.0469452626265114,-0.111620542650326,0.843786241896309,-0.480526907987571,0.843786241903412,-0.480526907991909,-0.0477484946679979,-0.111724589612436
55.5,-0.0478953374738323,-0.112417181359805,0.841388387995661,-0.484285019631655,0.841388388002687,-0.484285019635979,-0.0487312722540034,-0.112501113583658
56,-0.04885509241689,-0.113207917013289,0.838973749054551,-0.488029728580417,0.838973749061501,-0.488029728584726,-0.0497235543783442,-0.113269599714525
56.5,-0.0498246793751589,-0.113992609458728,0.836542413247992,-0.491760949764731,0.836542413254864,-0.491760949769024,-0.0507253319607813,-0.114029844307909
57,-0.0508042574396164,-0.114771100596286,0.834094469574218,-0.495478599175576,0.834094469581013,-0.495478599179853,-0.0517365889976533,-0.114781636440974
57.5,-0.0517939919250708,-0.115543212277593,0.831630007822104,-0.499182593867204,0.831630007828821,-0.499182593871464,-0.0527573017390769,-0.115524758067908
58,-0.0527940531078028,-0.116308744109088,0.829149118539556,-0.502872851959724,0.829149118546195,-0.502872851963967,-0.0537874378284954,-0.116258984200222
58.5,-0.0538046146019956,-0.117067471189676,0.826651893002857,-0.506549292641133,0.826651893009417,-0.506549292645359,-0.0548269554102764,-0.116984083173578
59,-0.0548258513273659,-0.117819141823827,0.824138423186901,-0.510211836168855,0.824138423193382,-0.510211836173062,-0.0558758022125855,-0.117699817010078
59.5,-0.0558579370210106,-0.118563475263633,0.821608801736292,-0.513860403870792,0.821608801742693,-0.51386040387498,-0.0569339146143846,-0.118405941884679
60,-0.0569010412495398,-0.119300159547445,0.819063121937275,-0.517494918145939,0.819063121943596,-0.517494918150109,-0.0580012167071201,-0.119102208703877
60.5,-0.0579553258836133,-0.120028849518056,0.816501477690438,-0.521115302464588,0.816501477696678,-0.521115302468736,-0.0590776193634663,-0.119788363804
61,-0.0590209410068003,-0.120749165119572,0.81392396348418,-0.524721481368126,0.81392396349034,-0.524721481372254,-0.060163019327246,-0.120464149775309
61.5,-0.0600980202450074,-0.12146069008852,0.8113306743689,-0.528313380468493,0.811330674374979,-0.5283133804726,-0.0612572983404338,-0.121129306416648
62,-0.0611866755221896,-0.122162971170183,0.808721705931871,-0.53189092644727,0.808721705937869,-0.531890926451355,-0.0623603223247826,-0.121783571823471
62.5,-0.0622869912731617,-0.122855518004462,0.806097154272783,-0.535454047054465,0.8060971542787,-0.535454047058528,-0.0634719406370977,-0.122426683609914
