"Freq [GHz]","re(St(P1,P1)) []","im(St(P1,P1)) []","re(St(P1,P2)) []","im(St(P1,P2)) []","re(St(P2,P1)) []","im(St(P2,P1)) []","re(St(P2,P2)) []","im(St(P2,P2)) []"
0,0.00639892431757971,0,0.993617574960808,0,0.993617573883967,0,0.00639891765854372,0
0.5,0.00703280746461843,-0.000279618283760996,0.99291720245396,-0.00818875879916448,0.992917201970684,-0.00818875790010942,0.00703250835798386,-0.000278387947370007
1,0.00755103326130424,-0.00131798584474652,0.992228754246824,-0.0156144007960286,0.992228754392908,-0.0156144002876779,0.00755026050437024,-0.00131514394576371
1.5,0.00784702096236423,-0.00249797323720813,0.991637891444592,-0.0228805582291134,0.991637891669503,-0.0228805580009066,0.00784512582726471,-0.00249285497824658
2,0.00800769407316437,-0.00369989064148868,0.991106391039682,-0.0300852065174073,0.991106391220558,-0.0300852064255643,0.00800574222776707,-0.00369257026749814
2.5,0.00809280793905209,-0.0048971980310899,0.990568049893102,-0.0372746252446294,0.99056805002276,-0.0372746252104097,0.00809080591294187,-0.00488805913042611
3,0.00812977154815275,-0.00608548026031031,0.989989757772376,-0.0444512433744837,0.989989757862837,-0.0444512433637652,0.00812751137398493,-0.00607458905716207
3.5,0.00813306138166059,-0.00726472263363043,0.989358073867545,-0.0516096194708506,0.989358073929712,-0.051609619469561,0.00813040646750673,-0.00725199524530318
4,0.00811113511009998,-0.00843608891737802,0.988668768020916,-0.0587446085025221,0.988668768062011,-0.0587446085049947,0.00810803243509373,-0.0084214164346772
4.5,0.00806920818542256,-0.00960100595099078,0.987921712961165,-0.065852774260172,0.987921712985504,-0.0658527742641004,0.00806565329019016,-0.00958429801601657
5,0.00801060346447913,-0.0107608389661609,0.987118477063149,-0.0729322842359492,0.987118477073247,-0.0729322842402551,0.00800661323904106,-0.0107420310314454
5.5,0.00793748841937481,-0.0119167869768964,0.986261167641916,-0.0799825199341937,0.986261167639371,-0.079982519938155,0.0079330860355693,-0.0118958363398205
6,0.00785130276016632,-0.0130698670009757,0.985351874803844,-0.0870036937801268,0.985351874789943,-0.0870036937830969,0.0078465105033152,-0.0130467469684348
6.5,0.00775301541560347,-0.0142209312027024,0.984392419612426,-0.0939965356199215,0.984392419588533,-0.0939965356212911,0.00774785173883241,-0.01419562611387
7,0.00764328308416984,-0.0153706931534554,0.983384262140532,-0.100962054321068,0.98338426210831,-0.100962054320361,0.00763776171617514,-0.0153431947134024
7.5,0.00752255031921567,-0.0165197537768869,0.982328493657482,-0.107901365370523,0.982328493618992,-0.107901365367527,0.00751668029253505,-0.0164900585106649
8,0.00739111405831255,-0.0176686237992278,0.981225870943718,-0.114815572252551,0.981225870901442,-0.114815572247443,0.00738490010124732,-0.0176367313300583
8.5,0.00724916606302872,-0.0188177420976778,0.980076868804859,-0.121705689681844,0.980076868761668,-0.121705689675292,0.00724260909439428,-0.0187836539959161
9,0.00709682135534861,-0.0199674902948024,0.978881737240096,-0.128572598189816,0.978881737199188,-0.128572598183065,0.0070899189674517,-0.0199312093118369
9.5,0.00693413760410749,-0.0211182042203726,0.977640555932964,-0.135417021335138,0.977640555897786,-0.135417021330057,0.00692688448944917,-0.0210797337790725
10,0.00676112855422439,-0.0222701828681,0.976353282492386,-0.142239518592369,0.976353282466552,-0.142239518591492,0.00675351686391301,-0.0222295267231343
10.5,0.00655463577088163,-0.0233820455287908,0.974996220016115,-0.149081142462071,0.974996219990096,-0.149081142460353,0.00654978904655207,-0.0233424258595223
11,0.0063380050662651,-0.0244938393244318,0.973591861426381,-0.155895008948359,0.973591861400262,-0.155895008945782,0.00633579703986137,-0.0244556487921499
11.5,0.00611120972690922,-0.0256056013720416,0.972141381455784,-0.162681577616465,0.972141381429649,-0.162681577613029,0.00611147619199079,-0.0255692357405426
12,0.00587421724090675,-0.0267173740516191,0.970645831331198,-0.169441345815051,0.970645831305127,-0.169441345810759,0.00587675442936468,-0.0266832293319488
12.5,0.00562698852208365,-0.0278292050773086,0.969106144235599,-0.176174833995482,0.96910614420967,-0.176174833990348,0.00563155160268713,-0.027797674401421
13,0.00536947706961247,-0.0289411475170702,0.967523141943239,-0.182882572894137,0.967523141917524,-0.182882572888178,0.00537577880043234,-0.028912617728444
13.5,0.00510162806129562,-0.0300532597511327,0.965897542275459,-0.189565092539521,0.965897542250026,-0.189565092532766,0.00510933763237313,-0.0300281077026039
14,0.00482337737950761,-0.0311656053582756,0.96422996707044,-0.196222913000859,0.964229967045352,-0.196222912993341,0.00483211948665785,-0.0311441939102606
14.5,0.00453465056975241,-0.0322782529177972,0.962520950407074,-0.20285653676279,0.962520950382389,-0.202856536754542,0.00454400476502773,-0.032260926633835
15,0.0042353617330384,-0.0333912757136057,0.960770946868709,-0.20946644258981,0.960770946844476,-0.209466442580874,0.00424486210204617,-0.033378356254905
15.5,0.00392541235480431,-0.0345047513256804,0.958980339675033,-0.21605308073258,0.9589803396513,-0.216053080722996,0.00393454757563955,-0.0344965325521258
16,0.00360469007497982,-0.0356187610928083,0.957149448549001,-0.222616869324074,0.957149448525808,-0.222616869313887,0.00361290391784092,-0.0356155038849124
16.5,0.00327306740607122,-0.0367333894293065,0.955278537219701,-0.229158191815284,0.955278537197082,-0.229158191804543,0.00327975973645814,-0.0367353162538699
17,0.00293040040875189,-0.0378487229774271,0.953367820491409,-0.235677395306173,0.953367820469394,-0.235677395294922,0.00293492876030221,-0.0378560122293492
17.5,0.00257652733762331,-0.0389648495763062,0.951417470833741,-0.242174789636562,0.951417470812356,-0.242174789624848,0.00257820912275608,-0.0389776297401374
18,0.00221126727333787,-0.0400818570278343,0.949427624468113,-0.248650647112437,0.949427624447377,-0.248650647100309,0.00220938270070259,-0.0401002007151767
18.5,0.00183441876137214,-0.0411998316397444,0.947398386942039,-0.255105202755169,0.94739838692197,-0.255105202742671,0.00182821452819232,-0.0412237495726528
19,0.00144575848227818,-0.0423188565267449,0.945329838195565,-0.261538654973243,0.945329838176174,-0.26153865496042,0.00143445230661721,-0.0423482915525448
19.5,0.0010450399832076,-0.0434390096517245,0.943222037133824,-0.267951166568343,0.943222037115119,-0.267951166555241,0.00102782603556628,-0.0434738308910516
20,0.000631992505905732,-0.0445603615911752,0.941075025726793,-0.274342865999162,0.941075025708779,-0.274342865985824,0.000608047790806809,-0.0446003588382367
20.5,0.000206319952000267,-0.04568297301209,0.938888832662262,-0.28071384883717,0.938888832644942,-0.28071384882364,0.000174811677964737,-0.0457278515236834
21,-0.000232299967780902,-0.046806891852023,0.936663476581122,-0.287064179358611,0.936663476564494,-0.287064179344927,-0.000272206007773779,-0.0468562676791109
21.5,-0.000684216348097011,-0.0479321501997276,0.934398968925855,-0.29339389222592,0.934398968909917,-0.293393892212121,-0.000733346384260314,-0.0479855462316996
22,-0.00114980540941789,-0.0490587608811448,0.932095316433678,-0.299702994219864,0.932095316418422,-0.299702994205988,-0.00120896731492415,-0.0491156037872837
22.5,-0.00162947046187034,-0.0501867137645775,0.929752523305557,-0.305991465990723,0.929752523290977,-0.305991465976805,-0.00169944243894254,-0.0502463320286566
23,-0.00212364144626276,-0.0513159718096072,0.927370593081466,-0.31225926380301,0.927370593067552,-0.312259263789081,-0.00220515986781994,-0.0513775950607429
23.5,-0.0026327739838764,-0.0524464668968563,0.924949530250892,-0.318506321253486,0.924949530237634,-0.318506321239578,-0.00272652051932298,-0.0525092267413572
24,-0.00315734786642369,-0.053578095489921,0.92248934162601,-0.324732550946816,0.922489341613395,-0.324732550932958,-0.00326393606331865,-0.0536410280434678
24.5,-0.00369786491998209,-0.0547107141963044,0.919990037503103,-0.330937846116971,0.919990037491116,-0.330937846103191,-0.00381782645908246,-0.0547727645019793
25,-0.00425484618225602,-0.0558441353108408,0.917451632635909,-0.337122082185701,0.917451632624538,-0.337122082172026,-0.00438861707035182,-0.0559041638049251
25.5,-0.00482882834174159,-0.0569781224421415,0.914874147042651,-0.343285118252077,0.914874147031879,-0.343285118238529,-0.00497673535278287,-0.0570349135951405
26,-0.00542035940072882,-0.0581123863393811,0.912257606666536,-0.349426798509245,0.912257606656348,-0.349426798495847,-0.0055826071186032,-0.0581646595536336
26.5,-0.00602999354187944,-0.0592465810522711,0.909602043907744,-0.355546953586341,0.909602043898122,-0.355546953573113,-0.00620665239499463,-0.0592930038395418
27,-0.00665828520053674,-0.060380300570293,0.906907498043072,-0.361645401814899,0.906907498034,-0.361645401801859,-0.0068492809059702,-0.0604195039633348
27.5,-0.00730578237174329,-0.0615130760968459,0.90417401554782,-0.367721950420227,0.904174015539282,-0.367721950407394,-0.00751088722191118,-0.061543672169307
28,-0.00797301921179272,-0.0626443741187126,0.90140165033289,-0.373776396639104,0.901401650324867,-0.373776396626494,-0.00819184563608477,-0.062664975400077
28.5,-0.00866050802802198,-0.063773595429655,0.898590463908701,-0.379808528765786,0.898590463901177,-0.379808528753411,-0.00889250484281179,-0.0637828359093218
29,-0.00936873078634509,-0.0649000752580904,0.895740525486181,-0.38581812712883,0.895740525479137,-0.385818127116704,-0.00961318250690529,-0.0648966325792462
29.5,-0.0100981303019416,-0.0660230846314376,0.892851912023912,-0.391804965001572,0.89285191201733,-0.391804964989706,-0.0103541598277084,-0.0660057029860406
30,-0.0108491013125482,-0.0671418330836193,0.88992470822946,-0.397768809449337,0.889924708223323,-0.397768809437743,-0.0111156762128276,-0.0671093462401673
30.5,-0.0116219816636626,-0.0682554727770996,0.886959006521893,-0.403709422116603,0.886959006516184,-0.403709422105289,-0.0118979241855454,-0.068206826608731
31,-0.0124170438581485,-0.069363104067476,0.883954906961686,-0.409626559957366,0.883954906956389,-0.409626559946342,-0.0127010446551964,-0.069297377905198
31.5,-0.0132344872369551,-0.0704637824884029,0.880912517153375,-0.415519975912035,0.880912517148472,-0.415519975901306,-0.0135251226807724,-0.0703802086079333
32,-0.0140744310607167,-0.0715565270793974,0.877831952125673,-0.421389419534049,0.877831952121148,-0.421389419523623,-0.0143701838541571,-0.0714545076443733
32.5,-0.0149369087523895,-0.0726403299217686,0.874713334193122,-0.427234637569411,0.874713334188959,-0.427234637559291,-0.0152361914203474,-0.0725194507532265
33,-0.0158218635379204,-0.0737141666916117,0.871556792802821,-0.433055374492189,0.871556792799003,-0.433055374482381,-0.0161230442377915,-0.0735742073141517
33.5,-0.0167291456852929,-0.0747770079871595,0.868362464369274,-0.438851372998929,0.868362464365786,-0.438851372989435,-0.0170305756627527,-0.0746179475140019
34,-0.0176585114932208,-0.0758278311442167,0.865130492100012,-0.444622374464777,0.865130492096839,-0.444622374455601,-0.017958553418034,-0.0756498497022564
34.5,-0.0186096241213888,-0.0768656322213435,0.861861025814219,-0.450368119364003,0.861861025811346,-0.450368119355145,-0.0189066804792634,-0.0766691077766006
35,-0.0195820562874328,-0.077889437818335,0.858554221756319,-0.456088347657404,0.85855422175373,-0.456088347648866,-0.0198745969824379,-0.0776749384336435
35.5,-0.0205752947856157,-0.0788983163893373,0.855210242406157,-0.461782799149014,0.855210242403839,-0.461782799140798,-0.0208618831258528,-0.0786665881199984
36,-0.0215887467124714,-0.0798913887260642,0.851829256287178,-0.467451213814301,0.851829256285119,-0.467451213806407,-0.0218680630093372,-0.0796433395254681
36.5,-0.0226217472198756,-0.0808678373166838,0.848411437773783,-0.473093332101976,0.848411437771969,-0.473093332094402,-0.0228926093253457,-0.0806045174728549
37,-0.0236735685599206,-0.0818269143301356,0.844956966898848,-0.478708895211337,0.844956966897266,-0.478708895204084,-0.0239349487913078,-0.0815494940771899
37.5,-0.0247434301419386,-0.0827679480312402,0.84146602916224,-0.484297645346981,0.841466029160878,-0.484297645340045,-0.0249944681918445,-0.0824776930702352
38,-0.0258305092923903,-0.0836903474954407,0.837938815341017,-0.48985932595256,0.837938815339863,-0.489859325945941,-0.0260705208840319,-0.0833885932127002
38.5,-0.0269339523943679,-0.0845936055592641,0.834375521301864,-0.495393681925174,0.834375521300907,-0.495393681918869,-0.0271624336093416,-0.0842817307454282
39,-0.028052886085173,-0.0854773000096377,0.830776347816237,-0.500900459811819,0.830776347815466,-0.500900459805825,-0.0282695134525124,-0.0851567008604366
39.5,-0.0291864282069251,-0.0863410930781411,0.827141500378569,-0.506379407989274,0.827141500377973,-0.506379407983588,-0.0293910547903087,-0.086013158201755
40,-0.0303336982342592,-0.0871847293618001,0.823471189027835,-0.511830276828653,0.823471189027405,-0.511830276823272,-0.0305263460813759,-0.0868508164331167
40.5,-0.0314938269424261,-0.0880080323377211,0.819765628172698,-0.517252818845781,0.819765628172423,-0.517252818840702,-0.0316746763615866,-0.0876694469337336
41,-0.0326659651252124,-0.0888108996730357,0.816025036420391,-0.522646788838465,0.816025036420262,-0.522646788833683,-0.0328353413263613,-0.0884688767036774
41.5,-0.0338492912219518,-0.0895932975536902,0.812249636409476,-0.528011944011622,0.812249636409485,-0.528011944007134,-0.0340076489014182,-0.0892489855762097
42,-0.0350430177633737,-0.0903552542657262,0.808439654646532,-0.533348044091206,0.808439654646669,-0.533348044087007,-0.0351909242251112,-0.0900097028455351
42.5,-0.0362463965943992,-0.0910968532618252,0.804595321346829,-0.538654851427732,0.804595321347088,-0.538654851423817,-0.0363845139878599,-0.0907510034247957
43,-0.0374587228760531,-0.0918182259355587,0.80071687027901,-0.543932131090193,0.800716870279382,-0.543932131086558,-0.0375877900961506,-0.0914729036509763
43.5,-0.0386793379068046,-0.0925195443078158,0.796804538613747,-0.549179650951077,0.796804538614225,-0.549179650947716,-0.0388001526493011,-0.0921754568511375
44,-0.0399076308348435,-0.0932010138063467,0.792858566776376,-0.554397181763124,0.792858566776953,-0.554397181760034,-0.040021032235967,-0.0928587487786661
44.5,-0.0411430393566817,-0.0938628662922388,0.788879198303439,-0.559584497228445,0.788879198304109,-0.559584497225619,-0.0412498915736968,-0.0935228930196662
45,-0.0423850495140544,-0.0945053534583636,0.784866679703095,-0.564741374060545,0.784866679703852,-0.56474137405798,-0.0424862265283824,-0.0941680264589599
45.5,-0.0436331947109087,-0.0951287406959557,0.780821260319318,-0.569867592039767,0.780821260320156,-0.569867592037456,-0.0437295665611198,-0.0947943048831016
46,-0.0448870540760438,-0.0957333014978832,0.776743192199821,-0.574962934062625,0.776743192200734,-0.574962934060563,-0.0449794746577318,-0.095401898785029
46.5,-0.0461462502956453,-0.0963193124418114,0.772632729967615,-0.580027186185461,0.772632729968598,-0.580027186183644,-0.0462355468012339,-0.09599098942205
47,-0.047410447034579,-0.096887048774025,0.768490130696123,-0.58506013766283,0.768490130697171,-0.585060137661251,-0.0474974110500451,-0.0965617651662781
47.5,-0.048679346056867,-0.0974367805955447,0.764315653787761,-0.590061580980975,0.76431565378887,-0.590061580979629,-0.0487647262850854,-0.0971144181748317
48,-0.0499526841452212,-0.097968769636483,0.760109560855887,-0.595031311886732,0.760109560857053,-0.595031311885614,-0.0500371806874099,-0.0976491413963051
48.5,-0.0512302299077227,-0.0984832665922525,0.755872115610042,-0.599969129412184,0.755872115611261,-0.599969129411288,-0.0513144900050806,-0.0981661259204931
49,-0.0525117805474083,-0.0989805089861052,0.751603583744378,-0.604874835895346,0.751603583745645,-0.604874835894667,-0.0525963956638998,-0.0986655586701475
49.5,-0.0537971586582635,-0.0994607195161544,0.747304232829187,-0.609748236997153,0.747304232830501,-0.609748236996685,-0.0538826627718096,-0.099147620426708
50,-0.0550862090993347,-0.0999241048412099,0.74297433220545,-0.614589141714993,0.742974332206807,-0.614589141714731,-0.0551730780614013,-0.0996124841764768
50.5,-0.0563787959877508,-0.100370854758007,0.738614152882299,-0.619397362393012,0.738614152883695,-0.619397362392951,-0.056467447809474,-0.100060313759492
51,-0.0576747998415019,-0.100801141722374,0.734223967437322,-0.624172714729406,0.734223967438755,-0.624172714729541,-0.0577655957669985,-0.100491262800302
51.5,-0.0589741148940619,-0.101215120668124,0.729804049919628,-0.628915017780888,0.729804049921095,-0.628915017781212,-0.0590673611274567,-0.100905473897843
52,-0.060276646595367,-0.101612929079738,0.725354675755569,-0.63362409396451,0.725354675757068,-0.633624093965019,-0.0603725965564447,-0.101303078050468
52.5,-0.0615823093072236,-0.101994687277825,0.720876121657071,-0.638299769057018,0.720876121658602,-0.638299769057707,-0.0616811663006613,-0.101684194291849
53,-0.0628910241959532,-0.102360498879764,0.716368665532475,-0.642941872191871,0.716368665534034,-0.642941872192736,-0.0629929443901726,-0.102048929513686
53.5,-0.0642027173207808,-0.102710451401509,0.711832586399815,-0.647550235854095,0.711832586401401,-0.64755023585513,-0.0643078129439947,-0.102397378451894
54,-0.0655173179131406,-0.103044616970288,0.707268164302472,-0.652124695873078,0.707268164304085,-0.652124695874278,-0.0656256605857256,-0.102729623814054
54.5,-0.0668347568395213,-0.103363053121505,0.702675680227143,-0.656665091413448,0.70267568022878,-0.656665091414808,-0.0669463809730836,-0.103045736527259
55,-0.0681549652386594,-0.10366580365671,0.698055416024019,-0.661171264964143,0.69805541602568,-0.661171264965658,-0.0682698714428168,-0.103345776087049
55.5,-0.0694778733226059,-0.103952899542735,0.69340765432917,-0.665643062325776,0.693407654330854,-0.665643062327442,-0.0695960317704452,-0.103629790989738
56,-0.070803409330473,-0.104224359835155,0.68873267848902,-0.670080332596398,0.688732678490726,-0.67008033259821,-0.0709247630426791,-0.103897819232164
56.5,-0.0721314986232819,-0.104480192611971,0.68403077248689,-0.674482928155751,0.684030772488618,-0.674482928157705,-0.0722559666391238,-0.104149888864527
57,-0.0734620629083043,-0.104720395905887,0.679302220871541,-0.6788507046481,0.67930222087329,-0.678850704650192,-0.0735895433188772,-0.104386018583631
57.5,-0.074795019581483,-0.104944958625746,0.674547308687661,-0.683183520963717,0.674547308689431,-0.683183520965942,-0.0749253924069542,-0.104606218355384
58,-0.0761302811769148,-0.105153861459595,0.669766321408256,-0.687481239219106,0.669766321410046,-0.68748123922146,-0.0762634110749827,-0.104810490056894
58.5,-0.0774677549128844,-0.105347077753514,0.664959544868887,-0.691743724736024,0.664959544870698,-0.691743724738503,-0.0776034937103232,-0.10499882812981
59,-0.0788073423245506,-0.105524574361771,0.660127265203712,-0.69597084601938,0.660127265205543,-0.695970846021981,-0.0789455313676326,-0.10517122023784
59.5,-0.0801489389740534,-0.105686312465078,0.655269768783289,-0.700162474734066,0.655269768785141,-0.700162474736785,-0.0802894112968832,-0.105327647922468
60,-0.0814924342295058,-0.105832248354707,0.650387342154096,-0.704318485680774,0.65038734215597,-0.704318485683608,-0.0816350165419416,-0.10546808725191
60.5,-0.0828377111050095,-0.105962334181111,0.645480271979732,-0.708438756770876,0.645480271981626,-0.70843875677382,-0.0829822256039681,-0.105592509459253
61,-0.0841846461545551,-0.106076518666347,0.64054884498375,-0.712523169000384,0.640548844985666,-0.712523169003435,-0.08433091216414,-0.105700881566485
61.5,-0.0855331094133069,-0.106174747780185,0.635593347894108,-0.716571606423081,0.635593347896047,-0.716571606426236,-0.0856809448604584,-0.105793166991835
62,-0.0868829643804236,-0.106256965380201,0.630614067389177,-0.720583956122835,0.630614067391138,-0.72058395612609,-0.0870321871136965,-0.10586932613843
62.5,-0.0882340680381551,-0.106323113816537,0.625611290045287,-0.724560108185159,0.625611290047271,-0.724560108188511,-0.0883844969978615,-0.105929316962783
