"Freq [GHz]","re(St(P1,P1)) []","im(St(P1,P1)) []","re(St(P1,P2)) []","im(St(P1,P2)) []","re(St(P2,P1)) []","im(St(P2,P1)) []","re(St(P2,P2)) []","im(St(P2,P2)) []"
0,0.0049325903044064,0,0.99508039560169,0,0.995080395543482,0,0.00493258298143928,0
0.5,0.00543900444424139,0.000292072059661308,0.994543582748996,-0.005011754088315,0.994543582765303,-0.00501175401053899,0.00543880729225066,0.00029325187616891
1,0.00591030098232537,-4.66494863751166E-005,0.994013141579803,-0.00939054285679575,0.994013141512529,-0.00939054247679394,0.00590980928383189,-4.40616340746658E-005
1.5,0.00622947100606197,-0.000487446635133892,0.993586427825555,-0.0137614174306719,0.993586427924345,-0.0137614171407385,0.00622844808621537,-0.000483862415219249
2,0.00642591342861643,-0.000988023993805598,0.993210778900329,-0.018003650397759,0.99321077905296,-0.0180036502170857,0.00642422346141025,-0.000983038953364712
2.5,0.00654818093720166,-0.00149139987954072,0.992889641637992,-0.0221885140350437,0.99288964178624,-0.0221885139340117,0.00654588001034995,-0.00148479961857007
3,0.006629165142785,-0.00198473330591575,0.992603761165236,-0.0263519065085092,0.992603761287795,-0.0263519064562701,0.00662631248324708,-0.00197642344476812
3.5,0.00668696817092762,-0.00246751567403081,0.992334217640548,-0.030508455316749,0.992334217732857,-0.0305084552917467,0.00668359309349142,-0.00245745195218028
4,0.00673143488528805,-0.0029420130245903,0.992067036130437,-0.0346629003073975,0.992067036194241,-0.0346629002963077,0.00672754029610179,-0.00293016842961613
4.5,0.00676810213916212,-0.0034107323368211,0.99179260435229,-0.0388158576716044,0.991792604391238,-0.0388158576666608,0.00676367212873519,-0.00339708341371647
5,0.00680022298930583,-0.00387584570089494,0.99150435511786,-0.042966377280532,0.991504355135877,-0.0429663772774145,0.00679522864467508,-0.00386036696378333
5.5,0.00682979422122854,-0.00433913487457183,0.991197716628961,-0.0471130216015698,0.991197716629714,-0.0471130215980438,0.00682419741741036,-0.0043217965211344
6,0.0068580930615898,-0.00480205699259351,0.990869411892007,-0.0512543043044875,0.990869411878778,-0.0512543042995421,0.00685184882073253,-0.00478282395837404
6.5,0.00688596849395529,-0.0052658233677878,0.990517015058265,-0.0553888565873741,0.990517015033983,-0.0553888565807235,0.00687902642297855,-0.00524465491420401
7,0.0069140057072159,-0.00573146565312221,0.990138673827384,-0.0595154788334664,0.990138673794678,-0.0595154788252152,0.006906310852969,-0.00570831515183734
7.5,0.00694262243737809,-0.00619988640748126,0.989732934957641,-0.0636331450081453,0.989732934918901,-0.0636331449986169,0.00693411576962988,-0.00617470117770225
8,0.00697212736949182,-0.00667189664885015,0.989298633199735,-0.0677409887213791,0.989298633157157,-0.0677409887109768,0.00696274602015334,-0.00664461778604419
8.5,0.00700275666044448,-0.00714824365161881,0.988834819358546,-0.071838283334297,0.988834819314175,-0.0718382833234292,0.00699243399756933,-0.00711880582111668
9,0.00703469743825469,-0.00762963171154052,0.988340712681555,-0.0759244213093604,0.9883407126373,-0.0759244212984038,0.00702336302317375,-0.00759796289567749
9.5,0.0070681033231158,-0.0081167379161311,0.987815668513117,-0.0799988948740529,0.987815668470774,-0.0799988948633166,0.00705568278061808,-0.00808275910957601
10,0.00710310493260335,-0.00861022438581394,0.987259155622258,-0.0840612787108759,0.987259155583519,-0.0840612787005828,0.00708951975258398,-0.0085738492360754
10.5,0.00713161837233101,-0.00907955155150741,0.986730394269715,-0.088165279447348,0.986730394231299,-0.0881652794365957,0.00711721121474262,-0.0090411302591038
11,0.00715884042503578,-0.00955353379034118,0.986182581996259,-0.0922581213948517,0.986182581958181,-0.0922581213836562,0.00714358142245197,-0.0095130351522883
11.5,0.00718448611285383,-0.010032187583624,0.985616299114328,-0.0963398677978242,0.985616299076605,-0.096339867786198,0.00716834678389688,-0.00998957944204459
12,0.00720827503116372,-0.0105155113844768,0.985032094558327,-0.100410616422851,0.985032094520971,-0.100410616410809,0.0071912283165203,-0.0104707607047541
12.5,0.00722993252099702,-0.0110034865047401,0.984430484481251,-0.104470495143365,0.984430484444278,-0.104470495130919,0.00721195281378617,-0.0109565594557859
13,0.00724919071985469,-0.0114960780685829,0.983811951381852,-0.108519657646663,0.983811951345274,-0.10851965763383,0.00723025389016363,-0.011446940104725
13.5,0.00726578948992707,-0.0119932360177657,0.983176943710523,-0.112558279315943,0.98317694367435,-0.112558279302737,0.00724587290340101,-0.0119418519616294
14,0.00727947722444688,-0.0124948961540046,0.982525875899575,-0.116586553328851,0.982525875863818,-0.116586553315291,0.0072585597548962,-0.0124412302798582
14.5,0.00729001153448566,-0.0130009812049936,0.981859128762839,-0.120604687003931,0.981859128727509,-0.12060468699003,0.00726807357053871,-0.0129449973219602
15,0.00729715981982162,-0.0135114019014377,0.981177050210294,-0.124612898416579,0.981177050175399,-0.124612898402359,0.00727418326571475,-0.0134530634360548
15.5,0.0073006997286619,-0.0140260580537426,0.980479956225456,-0.128611413297915,0.980479956191003,-0.128611413283391,0.00727666799933213,-0.0139653281313237
16,0.00730041951192267,-0.0145448396180434,0.97976813205617,-0.132600462222447,0.979768132022167,-0.132600462207637,0.00727531752261235,-0.0144816811423523
16.5,0.00729611827851502,-0.0150676277425421,0.979041833573107,-0.136580278084201,0.979041833539559,-0.13658027806912,0.0072699324291441,-0.0150020034733318
17,0.00728760615860274,-0.0155942957862747,0.978301288754295,-0.140551093855811,0.978301288721207,-0.140551093840477,0.00726032431322943,-0.0155261684142807
17.5,0.00727470438220168,-0.016124710303671,0.977546699258334,-0.144513140620937,0.977546699225709,-0.144513140605371,0.00724631584388837,-0.0160540425226863
18,0.00725724528066105,-0.0166587319893408,0.976778242053324,-0.148466645867082,0.976778242021165,-0.148466645851299,0.00722774076213258,-0.016585486565051
18.5,0.00723507221866805,-0.0171962165786881,0.975996071072865,-0.152411832023657,0.975996071041174,-0.152411832007673,0.00720444380913478,-0.0171203564140177
19,0.00720803946434996,-0.0177370157008978,0.975200318874639,-0.156348915228403,0.975200318843418,-0.156348915212236,0.0071762805928976,-0.0176585038976316
19.5,0.00717601200488241,-0.0182809776818313,0.974391098281029,-0.160278104304374,0.974391098250277,-0.16027810428804,0.00714311740083819,-0.0181997775983427
20,0.00713886531478104,-0.0188279482951774,0.973568503984834,-0.164199599929238,0.973568503954552,-0.164199599912753,0.00710483096546252,-0.0187440236001497
20.5,0.00709648508373428,-0.0193777714610328,0.97273261410649,-0.16811359397867,0.972732614076676,-0.168113593962049,0.00706130818997563,-0.0192910861830864
21,0.00704876691044928,-0.0199302898916729,0.971883491692139,-0.172020269025928,0.971883491662791,-0.172020269009187,0.00701244584030838,-0.0198408084648678
21.5,0.0069956159685996,-0.0204853456849525,0.971021186144546,-0.175919797980414,0.971021186115663,-0.175919797963568,0.00695815020961787,-0.0203930329901505
22,0.00693694665049577,-0.0210427808662286,0.970145734581144,-0.179812343848794,0.970145734552722,-0.179812343831857,0.00689833676087492,-0.0209476022683761
22.5,0.00687268219366707,-0.0216024378801278,0.969257163115478,-0.183698059603256,0.969257163087513,-0.183698059586243,0.00683292975271169,-0.0215043592615034
23,0.00680275429507296,-0.0221641600338534,0.968355488059971,-0.187577088142599,0.96835548803246,-0.187577088125523,0.00676186185321043,-0.022063147823391
23.5,0.00672710271720545,-0.0227277918939834,0.967440717049384,-0.191449562332894,0.967440717022323,-0.191449562315768,0.00668507374589417,-0.022623813092769
24,0.00664567488989848,-0.0232931796389244,0.966512850085453,-0.195315605115677,0.966512850058837,-0.195315605098512,0.00660251373168413,-0.023186201842027
24.5,0.00655842551120878,-0.0238601713693982,0.965571880504134,-0.199175329672735,0.965571880477957,-0.199175329655544,0.00651413733019812,-0.0237501627841721
25,0.00646531615035784,-0.0244286173793316,0.96461779586766,-0.203028839637617,0.964617795841918,-0.20302883962041,0.00641990688331714,-0.0243155468403562
25.5,0.00636631485528283,-0.0249983703897345,0.963650578784121,-0.206876229345122,0.963650578758807,-0.206876229327912,0.00631979116356945,-0.0248822073705863
26,0.00626139576699941,-0.0255692857480363,0.962670207657742,-0.210717584110954,0.962670207632851,-0.210717584093749,0.00621376498951057,-0.0254500003700562
26.5,0.00615053874266358,-0.0261412215954393,0.961676657373331,-0.214552980534683,0.961676657348856,-0.214552980517496,0.00610180884994069,-0.0260187846336968
27,0.00603372898884397,-0.0267140390047684,0.960669899918509,-0.218382486820043,0.960669899894445,-0.218382486802881,0.00598390853847741,-0.0265884218914043
27.5,0.00591095670629152,-0.0272876020912256,0.959649904947517,-0.222206163107315,0.959649904923856,-0.222206163090187,0.00586005479972956,-0.0271587769163757
28,0.00578221674719193,-0.0278617780984294,0.958616640290335,-0.226024061813352,0.958616640267071,-0.226024061796267,0.00573024298805047,-0.0277297176089122
28.5,0.00564750828567651,-0.0284364374619805,0.9575700724109,-0.229836227975398,0.957570072388027,-0.229836227958366,0.0055944727396125,-0.0283011150579324
29,0.0055068345021369,-0.0290114538527164,0.956510166818076,-0.233642699595439,0.956510166795587,-0.233642699578466,0.00545274765835208,-0.028872843582358
29.5,0.00536020228172601,-0.0295867042016877,0.955436888432954,-0.237443507982365,0.955436888410843,-0.237443507965457,0.00530507501613481,-0.0294447807544036
30,0.00520762192725566,-0.0301620687088056,0.954350201915922,-0.241238678089697,0.954350201894181,-0.241238678072861,0.0051514654673423,-0.0300168074066978
30.5,0.00504910688655458,-0.0307374308369464,0.953250071956758,-0.245028228846986,0.95325007193538,-0.24502822883023,0.00499193277793641,-0.0305888076250347
31,0.00488467349423533,-0.0313126772932435,0.95213646353088,-0.248812173483439,0.95213646350986,-0.248812173466768,0.0048264935689315,-0.0311606687284534
31.5,0.00471434072772847,-0.0318876979990725,0.951009342124677,-0.252590519842526,0.951009342104007,-0.252590519825945,0.004655167074127,-0.0317322812381673
32,0.00453812997732311,-0.0324623860502484,0.949868673932661,-0.256363270686711,0.949868673912334,-0.256363270670225,0.00447797491182417,-0.0323035388368491
32.5,0.0043560648299128,-0.0330366376687388,0.948714426029027,-0.2601304239916,0.948714426009037,-0.260130423975216,0.00429494087023102,-0.0328743383195427
33,0.00416817086606852,-0.0336103521471243,0.947546566516016,-0.263891973229036,0.947546566496356,-0.263891973212756,0.00410609070615814,-0.0334445795374649
33.5,0.00397447547002094,-0.0341834317869352,0.946365064651288,-0.267647907638829,0.946365064631951,-0.267647907622659,0.00391145195658321,-0.0340141653357859
34,0.0037750076520891,-0.0347557818318927,0.945169890956367,-0.271398212488978,0.945169890937347,-0.271398212472921,0.00371105376262826,-0.0345830014864115
34.5,0.00356979788308465,-0.0353273103969529,0.94396101730806,-0.275142869324311,0.94396101728935,-0.275142869308372,0.00350492670545632,-0.0351509966166876
35,0.00335887794016643,-0.0358979283940342,0.942738417014558,-0.278881856203642,0.942738416996152,-0.278881856187823,0.00329310265358068,-0.0357180621348523
35.5,0.00314228076365408,-0.0364675494551401,0.941502064877855,-0.28261514792556,0.941502064859747,-0.282615147909865,0.00307561462106914,-0.0362841121529798
36,0.00292004032426052,-0.0370360898535622,0.940251937243911,-0.28634271624306,0.940251937226095,-0.286342716227491,0.00285249663612758,-0.0368490634080754
36.5,0.00269219150023015,-0.0376034684237889,0.938988012041899,-0.290064530067311,0.938988012024368,-0.290064530051872,0.0026237836195212,-0.0374128351819409
37,0.0024587699638573,-0.0381696064806127,0.937710268813759,-0.293780555660826,0.937710268796509,-0.293780555645518,0.00238951127233383,-0.0379753492203017
37.5,0.0022198120768846,-0.0387344277379302,0.936418688735153,-0.29749075682039,0.936418688718176,-0.297490756805215,0.00214971597254032,-0.0385365296516831
38,0.00197535479426086,-0.0392978582276458,0.935113254628807,-0.301195095050122,0.935113254612098,-0.301195095035083,0.00190443467989343,-0.0390963029064366
38.5,0.00172543557578464,-0.0398598262190435,0.933793950971172,-0.304893529725028,0.933793950954727,-0.304893529710127,0.00165370484863442,-0.0396545976362763
39,0.00147009230515821,-0.0404202621389158,0.932460763893211,-0.308586018245427,0.932460763877021,-0.308586018230665,0.00139756434756222,-0.0402113446346182
39.5,0.00120936321597742,-0.0409790984927609,0.931113681176025,-0.312272516182685,0.931113681160087,-0.312272516168063,0.00113605138698936,-0.0407664767580096
40,0.000943286824237943,-0.0415362697872346,0.929752692242032,-0.315952977416595,0.92975269222634,-0.315952977402115,0.000869204452153882,-0.0413199288488584
40.5,0.000671901866919566,-0.0420917124540778,0.928377788142258,-0.319627354264839,0.928377788126808,-0.319627354250502,0.000597062242668978,-0.0418716376596506
41,0.000395247246248343,-0.042645364775683,0.926988961540287,-0.3232955976049,0.926988961525072,-0.323295597590707,0.000319663617592614,-0.0424215417788338
41.5,0.000113361979252269,-0.0431971668124072,0.925586206693358,-0.326957656988792,0.925586206678374,-0.326957656974743,3.70475457517339E-005,-0.042969581558465
42,-0.000173714847762685,-0.0437470603317818,0.924169519431031,-0.330613480751011,0.924169519416274,-0.330613480737109,-0.000250746939067847,-0.0435156990437711
42.5,-0.000465944120151662,-0.0442949887396533,0.922738897131813,-0.334263016110028,0.922738897117278,-0.334263016096271,-0.000543680778383238,-0.0440598379046562
43,-0.00076328673162962,-0.044840897013366,0.921294338698081,-0.337906209263687,0.921294338683763,-0.337906209250077,-0.000841714925083836,-0.0446019433692522
43.5,-0.00106570361703145,-0.0453847316370015,0.919835844529603,-0.34154300547885,0.919835844515497,-0.341543005465386,-0.00114481037559722,-0.045141962159541
44,-0.00137315578143249,-0.0459264405387199,0.918363416495942,-0.34517334917559,0.918363416482045,-0.345173349162273,-0.00145292819845755,-0.0456798424290847
44.5,-0.00168560432589521,-0.0464659730302084,0.916877057907967,-0.348797184006252,0.916877057894274,-0.348797183993083,-0.00176602955953808,-0.0462155337028631
45,-0.00200301047012053,-0.0470032797482645,0.915376773488686,-0.35241445292968,0.915376773475194,-0.352414452916658,-0.00208407574422043,-0.0467489868192457
45.5,-0.00232533557222603,-0.0475383125984703,0.913862569343598,-0.356025098280865,0.913862569330302,-0.35602509826799,-0.00240702817672711,-0.0472801538740666
46,-0.00265254114589769,-0.0480710247009806,0.912334452930705,-0.359629061836311,0.912334452917601,-0.359629061823583,-0.00273484843685512,-0.047808988166798
46.5,-0.0029845888751146,-0.0486013703383721,0.910792433030358,-0.36322628487535,0.910792433017442,-0.363226284862769,-0.00306749827431835,-0.0483354441487953
47,-0.00332144062665329,-0.0491293049055426,0.909236519715031,-0.366816708237655,0.909236519702299,-0.366816708225221,-0.00340493962089444,-0.0488594773735784
47.5,-0.00366305846055875,-0.0496547848616138,0.907666724319157,-0.370400272377174,0.907666724306606,-0.370400272364887,-0.00374713460056592,-0.0493810444491234
48,-0.00400940463875116,-0.0501777676838029,0.906083059409101,-0.373976917412707,0.906083059396729,-0.373976917400566,-0.00409404553782233,-0.0499001029921093
48.5,-0.00436044163192967,-0.0506982118232164,0.904485538753369,-0.377546583175319,0.904485538741171,-0.377546583163323,-0.00444563496428713,-0.0504166115840892
49,-0.00471613212493127,-0.0512160766625158,0.902874177293102,-0.381109209252783,0.902874177281075,-0.381109209240931,-0.00480186562381407,-0.0509305297295215
49.5,-0.00507643902067367,-0.0517313224754146,0.901248991112932,-0.384664735031244,0.901248991101073,-0.384664735019539,-0.0051627004761986,-0.0514418178156297
50,-0.00544132544281734,-0.0522439103879466,0.899609997412243,-0.38821309973427,0.899609997400549,-0.388213099722708,-0.00552810269962101,-0.0519504370740247
50.5,-0.00581075473726611,-0.052753802341454,0.897957214476874,-0.391754242459428,0.897957214465342,-0.391754242448009,-0.00589803569195335,-0.0524563495440411
51,-0.00618469047261916,-0.0532609610572459,0.896290661651305,-0.395288102212582,0.896290661639932,-0.395288102201305,-0.00627246307102813,-0.0529595180377385
51.5,-0.00656309643966863,-0.053765350002865,0.894610359311354,-0.398814617940005,0.894610359300138,-0.398814617928871,-0.00665134867397638,-0.0534599061064962
52,-0.00694593665005283,-0.0542669333599177,0.892916328837399,-0.402333728558483,0.892916328826335,-0.402333728547491,-0.00703465655573277,-0.0539574780091754
52.5,-0.00733317533413819,-0.0547656759934072,0.891208592588147,-0.405845372983501,0.891208592577235,-0.405845372972648,-0.00742235098678357,-0.0544521986817619
53,-0.00772477693821588,-0.0552615434225148,0.889487173874973,-0.409349490155647,0.889487173864208,-0.409349490144934,-0.0078143964502484,-0.0549440337084641
53.5,-0.008120706121095,-0.055754501792777,0.887752096936813,-0.412846019065349,0.887752096926195,-0.412846019054775,-0.00821075763836271,-0.0554329492941898
54,-0.00852092775014757,-0.0562445178496112,0.886003386915647,-0.416334898776031,0.886003386905171,-0.416334898765595,-0.00861139944843048,-0.0559189122383645
54.5,-0.0089254068968791,-0.0567315589131303,0.88424106983254,-0.419816068445806,0.884241069822206,-0.419816068435507,-0.00901628697831397,-0.0564018899100334
55,-0.00933410883207747,-0.057215592854202,0.882465172564283,-0.423289467347775,0.882465172554087,-0.423289467337612,-0.00942538552150818,-0.0568818502241983
55.5,-0.00974699902059678,-0.0576965880716913,0.880675722820584,-0.426755034889041,0.880675722810524,-0.426755034879013,-0.00983866056186017,-0.0573587616193334
56,-0.0101640431158229,-0.058174513470866,0.878872749121843,-0.430212710628503,0.878872749111918,-0.430212710618609,-0.0102560777679839,-0.0578325930360504
56.5,-0.0105852069538604,-0.0586493384428757,0.877056280777492,-0.433662434293505,0.8770562807677,-0.433662434283745,-0.0106776029874014,-0.0583033138968363
57,-0.0110104565474974,-0.0591210328453031,0.875226347864886,-0.437104145795425,0.875226347855224,-0.437104145785797,-0.0111032022404684,-0.0587708940868525
57.5,-0.0114397580799661,-0.0595895669837061,0.873382981208737,-0.440537785244246,0.873382981199204,-0.44053778523475,-0.011532841714105,-0.0592353039357163
58,-0.011873077898546,-0.0600549115941398,0.871526212361105,-0.443963292962203,0.871526212351698,-0.443963292952837,-0.0119664877553798,-0.0596965142002615
58.5,-0.0123103825080392,-0.0605170378265862,0.869656073581899,-0.447380609496521,0.869656073572618,-0.447380609487285,-0.012404106864961,-0.0601544960481908
59,-0.0127516385641407,-0.0609759172292832,0.867772597819904,-0.450789675631355,0.867772597810747,-0.450789675622248,-0.012845665690483,-0.0606092210426281
59.5,-0.0131968128667356,-0.0614315217338806,0.865875818694319,-0.454190432398917,0.865875818685283,-0.454190432389938,-0.0132911310198328,-0.0610606611274898
60,-0.0136458723531449,-0.0618838236414205,0.863965770476777,-0.457582821089897,0.863965770467862,-0.457582821081044,-0.013740469774398,-0.061508788613672
60.5,-0.0140987840913354,-0.062332795609082,0.862042488073861,-0.460966783263186,0.862042488065064,-0.460966783254458,-0.0141936490022826,-0.0619535761659944
61,-0.0145555152731262,-0.0627784106376588,0.860106007010081,-0.464342260754953,0.860106007001402,-0.46434226074635,-0.0146506358715165,-0.0623949967908803
61.5,-0.0150160332073911,-0.0632206420597516,0.858156363411315,-0.467709195687124,0.858156363402751,-0.467709195678644,-0.0151113976632775,-0.0628330238247312
62,-0.0154803053132886,-0.0636594635286258,0.856193593988691,-0.471067530475277,0.856193593980242,-0.471067530466921,-0.0155759017651358,-0.0632676309229743
