"Freq [GHz]","re(St(P1,P1)) []","im(St(P1,P1)) []","re(St(P1,P2)) []","im(St(P1,P2)) []","re(St(P2,P1)) []","im(St(P2,P1)) []","re(St(P2,P2)) []","im(St(P2,P2)) []"
0,0.0090487485522317,0,0.99097088103008,0,0.990970875223866,0,0.00904875606420319,0
0.5,0.0098160668669891,-0.000181086206604064,0.990115435955804,-0.0105747610590523,0.990115439513477,-0.0105747701387333,0.00981670214264696,-0.000183888480508543
1,0.0103936471436779,-0.00124486157375436,0.989299256295118,-0.0202572749542043,0.989299257900917,-0.0202572738122129,0.0103951685147443,-0.00125131778295362
1.5,0.0107458499891173,-0.00245002615424994,0.988558030939979,-0.0297836664804532,0.98855803237,-0.0297836664330706,0.0107482284828446,-0.00246045470118794
2,0.0109344647078187,-0.00368814190719924,0.987846161771091,-0.0392404659912557,0.98784616274304,-0.0392404662908454,0.0109374614680151,-0.00370276579190332
2.5,0.0110372942626062,-0.00491869983769,0.987090725100846,-0.0486759958397656,0.987090725745018,-0.0486759961629826,0.0110407875859542,-0.00493754673718172
3,0.0110900342685993,-0.00614024799644852,0.986256402756695,-0.0580914528452379,0.986256403211192,-0.0580914530961998,0.0110940020938579,-0.00616332729090452
3.5,0.0111082114891055,-0.00735644507182798,0.985329560398473,-0.0674801300037364,0.985329560751129,-0.0674801301738777,0.0111126715977381,-0.00738379549379697
4,0.0110989490329168,-0.00857015762308411,0.984306501891824,-0.0768360461161928,0.984306502188354,-0.0768360462244786,0.0111039210018693,-0.00860184750007598
4.5,0.0110658657204594,-0.00978302685380061,0.983187813446776,-0.0861553034000639,0.983187813705679,-0.0861553034693161,0.0110713533245488,-0.00981914168359399
5,0.0110110690866965,-0.0109958758061213,0.981975728957697,-0.0954358530270802,0.981975729182229,-0.0954358530753128,0.0110170554622231,-0.0110365055138795
5.5,0.0109359706641713,-0.0122090870495146,0.98067289017486,-0.104676988892561,0.980672890361401,-0.10467698893078,0.0109424200776237,-0.0122543166948796
6,0.0108416215448792,-0.013422840970418,0.979281775864334,-0.113878876949766,0.979281776007889,-0.113878876982618,0.0108484838074293,-0.0134727452857302
6.5,0.0107288523121928,-0.0146372452986503,0.977804467110374,-0.123042182830823,0.977804467207905,-0.123042182858388,0.0107360676430054,-0.0146918862585421
7,0.0105983341326179,-0.0158523976829201,0.976242585022875,-0.132167798487608,0.976242585075087,-0.132167798507523,0.0106058374482411,-0.0159118240954061
7.5,0.0104506087925918,-0.0170684113499502,0.974597314716866,-0.14125665290823,0.974597314728894,-0.141256652917701,0.0104583330801315,-0.0171326596199384
8,0.0102861067807107,-0.0182854220888524,0.972869468321795,-0.15030958916286,0.972869468303174,-0.150309589160373,0.0102939855546433,-0.0183545175532132
8.5,0.0101051607063497,-0.0195035867202149,0.971059560918024,-0.159327291247083,0.971059560882208,-0.159327291233741,0.0101131296897488,-0.0195775451747973
9,0.00990801662639704,-0.0207230783422547,0.969167885436397,-0.168310246716461,0.969167885400034,-0.168310246696951,0.0099160148326754,-0.0208019075443269
9.5,0.0096948440726507,-0.0219440809167804,0.967194579682572,-0.177258733921145,0.967194579664672,-0.177258733904372,0.0097028144512295,-0.0220277819540868
10,0.00946574497289233,-0.0231667843071581,0.9651396827942,-0.186172825296095,0.965139682815299,-0.186172825295551,0.00947363475258066,-0.0232553527904251
10.5,0.00923545153824767,-0.0243845712408812,0.962981139732115,-0.195116643716631,0.962981139753428,-0.195116643716216,0.00924319148925087,-0.0244775529952834
11,0.00898664575212477,-0.0256074408971521,0.960738356573524,-0.204018271441459,0.960738356595044,-0.204018271441188,0.00899423415233623,-0.0257048388447569
11.5,0.00871868253809144,-0.0268349604064446,0.958412973894969,-0.212877547330635,0.958412973916694,-0.212877547330523,0.00872611772344895,-0.0269367783173986
12,0.00843095173061925,-0.0280666501485047,0.956006524633051,-0.221694385531475,0.956006524654974,-0.221694385531536,0.0084382320152972,-0.028172892629132
12.5,0.00812288076592044,-0.0293019882205314,0.953520434558229,-0.230468760574041,0.953520434580343,-0.230468760574292,0.00813000436817338,-0.0294126606918197
13,0.00779393681363075,-0.0305404149400048,0.950956024320273,-0.239200693620064,0.950956024342572,-0.239200693620518,0.0078009017883266,-0.0306555236077908
13.5,0.00744362837951923,-0.0317813373187295,0.948314512789098,-0.247890239958156,0.948314512811573,-0.247890239958826,0.00745043255815675,-0.0319008891370234
14,0.00707150641510976,-0.0330241334529138,0.945597021429533,-0.256537477791349,0.945597021452175,-0.256537477792246,0.00707814735384529,-0.0331481360817842
14.5,0.00667716497420395,-0.0342681567824299,0.942804579468684,-0.265142498323677,0.942804579491483,-0.265142498324814,0.00668363991017151,-0.0343966185418745
15,0.00626024145893012,-0.0355127401805688,0.939938129638127,-0.27370539712055,0.939938129661071,-0.273705397121937,0.00626654727493542,-0.0356456700017243
15.5,0.00582041649929288,-0.0367571998434992,0.936998534298517,-0.282226266692823,0.936998534321595,-0.28222626669447,0.00582654969674945,-0.0368946072184886
16,0.00535741351044017,-0.0380008389559581,0.933986581780147,-0.290705190235857,0.933986581803347,-0.290705190237771,0.0053633701902599,-0.0381427338875404
16.5,0.00487099797108598,-0.0392429511165211,0.930902992798337,-0.299142236442032,0.930902992821647,-0.299142236444222,0.00487677382209917,-0.0393893440686122
17,0.0043609764650881,-0.0404828235118193,0.927748426826712,-0.307537455297126,0.927748426850119,-0.307537455299599,0.00436656675943892,-0.0406337253618332
17.5,0.00382719552598454,-0.0417197398344975,0.924523488333739,-0.315890874766875,0.924523488357231,-0.315890874769639,0.00383259512089629,-0.0418751618282747
18,0.00326954032179255,-0.0429529829443198,0.921228732808148,-0.324202498279405,0.921228732831711,-0.324202498282463,0.00327474366700192,-0.043112936654347
18.5,0.00268793321443589,-0.0441818372757601,0.917864672516799,-0.332472302910858,0.91786467254042,-0.332472302914215,0.00269293436457768,-0.0443463345632049
19,0.00208233222510862,-0.0454055909986859,0.914431781954197,-0.340700238185381,0.914431781977862,-0.34070023818904,0.00208712485630785,-0.0455746439796578
19.5,0.00145272943371283,-0.0466235379413034,0.910930502956241,-0.348886225405593,0.910930502979937,-0.348886225409557,0.00145730686364404,-0.0467971589576459
20,0.000799149337324556,-0.0478349792866148,0.907361249462004,-0.357030157435741,0.907361249485717,-0.357030157440013,0.000803504548004264,-0.0480131808814146
20.5,0.000121647189558316,-0.0490392250550804,0.903724411916642,-0.365131898866171,0.903724411940359,-0.365131898870751,0.000125772852171246,-0.0492220199529834
21,-0.000579692660284015,-0.0502355953872249,0.900020361315992,-0.373191286494547,0.900020361339698,-0.373191286499435,-0.000575804159198112,-0.0504229964795737
21.5,-0.00130475841221006,-0.0514234216405736,0.896249452899352,-0.381208130065955,0.896249452923036,-0.381208130071152,-0.00130111494383289,-0.0516154419752941
22,-0.00205341243121299,-0.0526020473155506,0.892412029501481,-0.389182213220586,0.892412029525128,-0.38918221322609,-0.00205002209737171,-0.0527987000916503
22.5,-0.00282549282258393,-0.0537708288249998,0.8885084245782,-0.397113294603938,0.888508424601798,-0.397113294609748,-0.00282236392904861,-0.0539721273915037
23,-0.00362081495797656,-0.054929136121715,0.884538964922434,-0.405001109100305,0.884538964945969,-0.405001109106418,-0.0036179559886102,-0.0551350939807971
23.5,-0.00443917294531937,-0.0560763531979855,0.880503973088995,-0.412845369155756,0.880503973112455,-0.412845369162171,-0.00443659253750744,-0.0562869840120359
24,-0.00528034103740238,-0.0572118784705411,0.876403769547389,-0.420645766161692,0.876403769570762,-0.420645766168404,-0.00527804795913223,-0.0574271960728767
24.5,-0.00614407497547681,-0.0583351250636361,0.872238674582221,-0.428401971874518,0.872238674605494,-0.428401971881523,-0.00614207810439121,-0.0585551434725453
25,-0.00703011326556052,-0.0594455210022549,0.868009009960714,-0.436113639850972,0.868009009983875,-0.436113639858266,-0.00702842157025618,-0.0596702544380459
25.5,-0.00793817838623778,-0.0605425093266081,0.863715100386461,-0.443780406882125,0.8637151004095,-0.443780406889701,-0.00793680091004323,-0.060771972231336
26,-0.00886797792774557,-0.0616255481382706,0.859357274757876,-0.451401894412162,0.859357274780781,-0.451401894420018,-0.00886692377515341,-0.0618597551978106
26.5,-0.00981920566289962,-0.0626941105874865,0.854935867248971,-0.458977709930795,0.85493586727173,-0.458977709938923,-0.0098184839888073,-0.0629330767556113
27,-0.0107915425511145,-0.0637476848103316,0.85045121822916,-0.466507448330402,0.850451218251763,-0.466507448338796,-0.0107911625529752,-0.0639914253344822
27.5,-0.0117846576772712,-0.0647857738236395,0.845903675037768,-0.473990693221074,0.845903675060205,-0.473990693229728,-0.0117846285902332,-0.0650343042720585
28,-0.0127982091276343,-0.0658078953848126,0.841293592627835,-0.481427018198407,0.841293592650096,-0.481427018207313,-0.0127985402227114,-0.0660612316747371
28.5,-0.0138318448053191,-0.0668135818229169,0.836621334092787,-0.488815988060326,0.836621334114861,-0.488815988069477,-0.0138325453906105,-0.0670717402495371
29,-0.0148852031880698,-0.0678023798467597,0.831887271088441,-0.49615715997045,0.83188727111032,-0.496157159979838,-0.0148862826130198,-0.068065377112655
29.5,-0.0159579140312495,-0.0687738503350127,0.827091784161821,-0.503450084566522,0.827091784183495,-0.50345008457614,-0.0159593816939241,-0.0690417035798041
30,-0.0170495990190655,-0.0697275681128277,0.822235262997248,-0.510694307013219,0.82223526301871,-0.510694307023058,-0.0170514643763912,-0.0700002949427868
30.5,-0.0181598723670932,-0.0706631217188644,0.81731810658925,-0.517889367999405,0.81731810661049,-0.517889368009458,-0.0181621449480023,-0.0709407402362432
31,-0.0192883413791551,-0.0715801131660981,0.812340723350938,-0.52503480468036,0.812340723371949,-0.525034804690617,-0.0192910308005552,-0.0718626419979559
31.5,-0.0204346069616109,-0.0724781576993647,0.807303531165692,-0.532130151565994,0.807303531186467,-0.532130151576446,-0.020437722947089,-0.0727656160256841
32,-0.0215982640980218,-0.0733568835521311,0.802206957389202,-0.539174941356412,0.802206957409733,-0.539174941367051,-0.0216018164991867,-0.0736492911330311
32.5,-0.0227789022870978,-0.0742159317046425,0.797051438808227,-0.546168705726393,0.797051438828508,-0.546168705737209,-0.0227829011074485,-0.0745133089065042
33,-0.0239761059467143,-0.0750549556452166,0.791837421561776,-0.553110976060583,0.7918374215818,-0.553110976071566,-0.0239805613679197,-0.0753573234655642
33.5,-0.0251894547866893,-0.0758736211361802,0.786565361029807,-0.560001284141325,0.786565361049567,-0.560001284152467,-0.0251943771971597,-0.0761810012271611
34,-0.0264185241528813,-0.0766716059856662,0.781235721694011,-0.566839162791124,0.781235721713502,-0.566839162802414,-0.0264239241785019,-0.0769840206759923
34.5,-0.0276628853450352,-0.077448599826232,0.77584897697475,-0.573624146471791,0.775848976993965,-0.573624146483221,-0.0276687738819352,-0.0777660721414596
35,-0.0289221059106856,-0.0782043039010732,0.770405609047754,-0.580355771842351,0.77040560906669,-0.58035577185391,-0.0289284941599071,-0.0785268575820997
35.5,-0.0301957499172744,-0.0789384308583975,0.764906108643805,-0.587033578277752,0.764906108662456,-0.58703357828943,-0.0302026494212115,-0.0792660903780839
36,-0.0314833782045269,-0.0796507045543779,0.759350974834236,-0.593657108350414,0.759350974852598,-0.593657108362201,-0.0314908008849882,-0.0799834951321955
36.5,-0.0327845486189746,-0.0803408598649586,0.753740714804781,-0.600225908276601,0.753740714822849,-0.600225908288488,-0.0327925068167454,-0.0806788074795793
37,-0.034098816232414,-0.0810086425066514,0.748075843619983,-0.606739528329541,0.748075843637754,-0.606739528341518,-0.0341073227481705,-0.0813517739064147
37.5,-0.035425733545936,-0.0816538088663812,0.742356883980126,-0.613197523221155,0.742356883997597,-0.61319752323321,-0.0354348016823793,-0.0820021515775697
38,-0.0367648506810642,-0.0822761258403244,0.736584365972412,-0.61959945245418,0.736584365989577,-0.619599452466304,-0.036774494286136,-0.082629708173196
38.5,-0.0381157155594126,-0.0828753706816259,0.730758826817884,-0.625944880646416,0.730758826834743,-0.6259448806586,-0.0381259490704551,-0.0832342217341533
39,-0.0394778740721631,-0.0834513308568049,0.724880810615439,-0.632233377828715,0.724880810631988,-0.632233377840947,-0.0394887125608919,-0.083815480516089
39.5,-0.0408508702405704,-0.0840038039106141,0.718950868084055,-0.638464519718277,0.718950868100291,-0.638464519730548,-0.040862329458723,-0.0843732828519378
40,-0.0422342463685902,-0.0845325973390748,0.712969556304265,-0.644637887968731,0.712969556320188,-0.644637887981031,-0.0422463427941168,-0.0849074370225686
40.5,-0.0436275431886329,-0.0850375284703597,0.706937438459747,-0.6507530703984,0.706937438475353,-0.650753070410719,-0.0436402940723055,-0.085417761135272
41,-0.04503030000138,-0.085518424353194,0.700855083579761,-0.65680966119807,0.700855083595049,-0.656809661210397,-0.0450437234136815,-0.0859040830097466
41.5,-0.0464420548104825,-0.0859751216524007,0.694723066283135,-0.662807261119517,0.694723066298105,-0.662807261131843,-0.0464561696886558,-0.0863662400712256
42,-0.0478623444529163,-0.0864074665512107,0.68854196652432,-0.668745477645961,0.68854196653897,-0.668745477658276,-0.0478771706480458,-0.0868040792503734
42.5,-0.0492907047256741,-0.0868153146599395,0.682312369342017,-0.674623925145563,0.682312369356346,-0.674623925157857,-0.0493062630496778,-0.0872174568895516
43,-0.0507266705094304,-0.0871985309306444,0.676034864610783,-0.680442225009,0.676034864624791,-0.680442225021263,-0.0507429827818359,-0.0876062386550792
43.5,-0.0521697758897223,-0.0875569895773448,0.669710046795967,-0.686200005772102,0.669710046809655,-0.686200005784325,-0.0521868649841195,-0.0879702994550714
44,-0.053619554276167,-0.0878905740014099,0.663338514712265,-0.691896903224463,0.663338514725631,-0.691896903236636,-0.0536374441662084,-0.088309523362469
44.5,-0.0550755385201468,-0.0881991767217098,0.656920871286144,-0.697532560504896,0.656920871299189,-0.697532560517009,-0.055094254324992,-0.0886238035428569
45,-0.0565372610313821,-0.0884826993091378,0.650457723322338,-0.703106628184539,0.650457723335062,-0.703106628196583,-0.0565568290604681,-0.0889130421866849
45.5,-0.0580042538937247,-0.0887410523251027,0.643949681274585,-0.708618764338365,0.643949681286989,-0.708618764350331,-0.0580247016907571,-0.0891771504454969
46,-0.0594760489804953,-0.0889741552636195,0.637397359020734,-0.714068634605817,0.63739735903282,-0.714068634617695,-0.0594974053665548,-0.0894160483717922
46.5,-0.0609521780696361,-0.0891819364966172,0.630801373642337,-0.719455912241223,0.630801373654106,-0.719455912253004,-0.0609744731852921,-0.0896296648621575
47,-0.062432172958907,-0.0893643332221027,0.624162345208804,-0.724780278154631,0.624162345220256,-0.724780278166307,-0.0624554383052424,-0.0898179376032912
47.5,-0.063915565581332,-0.0895212914148236,0.617480896566178,-0.730041420943639,0.617480896577316,-0.730041420955201,-0.0639398340597799,-0.0899808130205892
48,-0.0654018881210675,-0.0896527657790904,0.610757653130586,-0.735239036916771,0.610757653141412,-0.735239036928209,-0.0654271940719661,-0.0901182462289404
48.5,-0.0668906731298322,-0.0897587197034299,0.603993242686384,-0.740372830108919,0.603993242696899,-0.740372830120225,-0.0669170523696035,-0.0902302009854113
49,-0.0683814536440189,-0.0898391252167452,0.597188295189005,-0.745442512289335,0.597188295199211,-0.745442512300501,-0.0684089435008824,-0.0903166496435057
49.5,-0.0698737633025724,-0.0898939629456826,0.590343442572529,-0.750447802962621,0.59034344258243,-0.750447802973638,-0.0699024026507152,-0.0903775731086907
50,-0.0713671364657205,-0.0899232220729111,0.58345931856195,-0.755388429363152,0.583459318571547,-0.755388429374012,-0.0713969657578318,-0.0904129607949091
50.5,-0.0728611083345884,-0.0899269002960317,0.576536558490134,-0.760264126443327,0.57653655849943,-0.760264126454022,-0.0728921696326864,-0.0904228105817909
51,-0.0743552150717444,-0.0899050037868525,0.569575799119439,-0.765074636856025,0.569575799128438,-0.765074636866547,-0.0743875520762165,-0.0904071287723092
51.5,-0.0758489939226833,-0.0898575471507716,0.562577678467975,-0.769819710931623,0.56257767847668,-0.769819710941966,-0.0758826519994708,-0.0903659300506199
52,-0.0773419833382512,-0.0897845533860306,0.555542835640455,-0.774499106649915,0.555542835648868,-0.774499106660069,-0.0773770095441081,-0.0902992374398517
52.5,-0.078833723097995,-0.0896860538426035,0.54847191066361,-0.779112589607225,0.548471910671736,-0.779112589617184,-0.078870166203757,-0.0902070822596176
53,-0.0803237544344093,-0.0895620881805076,0.54136554432613,-0.783659932979045,0.541365544333972,-0.783659932988801,-0.0803616649462107,-0.090089504083033
53.5,-0.081811620158044,-0.0894127043273324,0.534224378023062,-0.78814091747844,0.534224378030623,-0.788140917487987,-0.0818510503364288,-0.0899465506930393
54,-0.0832968647834167,-0.0892379584347874,0.527049053604642,-0.792555331310517,0.527049053611927,-0.792555331319847,-0.0833378686602896,-0.0897782780378381
54.5,-0.084779034655681,-0.0890379148341001,0.519840213229501,-0.796902970123182,0.519840213236514,-0.796902970132288,-0.0848216680490444,-0.0895847501852657
55,-0.0862576780779707,-0.0888126459900789,0.512598499222186,-0.801183636954433,0.512598499228931,-0.80118363696331,-0.0863019986044103,-0.0893660392759291
55.5,-0.0877323454393514,-0.088562232453699,0.505324553934959,-0.805397142176423,0.50532455394144,-0.805397142185063,-0.0877784125242257,-0.0891222254749578
56,-0.089202589343295,-0.0882867628130515,0.498019019613805,-0.809543303436469,0.498019019620027,-0.809543303444867,-0.0892504642285905,-0.0888533969222191
56.5,-0.0906679647365869,-0.0879863336425295,0.490682538268606,-0.813621945595259,0.490682538274573,-0.813621945603409,-0.0907177104864095,-0.0885596496808666
57,-0.0921280290385718,-0.0876610494501197,0.483315751547418,-0.817632900662396,0.483315751553135,-0.817632900670291,-0.0921797105422434,-0.0882410876840948
57.5,-0.0935823422706358,-0.0873110226226881,0.475919300614805,-0.821576007729499,0.475919300620277,-0.821576007737135,-0.0936360262433745,-0.0878978226799888
58,-0.0950304671858255,-0.0869363733691538,0.468493826034161,-0.825451112901013,0.468493826039393,-0.825451112908383,-0.0950862221669894,-0.0875299741743649
58.5,-0.0964719693984958,-0.0865372296614622,0.461039967653983,-0.829258069222894,0.461039967658979,-0.829258069229994,-0.0965298657473715,-0.0871376693715064
59,-0.0979064175138639,-0.0861137271732573,0.453558364498021,-0.832996736609337,0.453558364502787,-0.832996736616162,-0.0979665274029959,-0.0867210431127132
59.5,-0.0993333832573775,-0.0856660092162014,0.446049654659267,-0.836666981767677,0.446049654663808,-0.836666981774221,-0.0993957806634244,-0.0862802378125875
60,-0.100752441603761,-0.0851942266738531,0.438514475197715,-0.840268678121623,0.438514475202036,-0.840268678127882,-0.100817202295882,-0.0858154033929937
60.5,-0.102163170905632,-0.0846985379330611,0.430953462041844,-0.84380170573295,0.430953462045951,-0.843801705738919,-0.102230372431404,-0.0853266972146289
61,-0.103565153021571,-0.0841791088128218,0.423367249893773,-0.847265951221783,0.42336724989767,-0.847265951227458,-0.103634874690444,-0.0848142840061621
61.5,-0.104957973443517,-0.0836361124905579,0.415756472138021,-0.850661307685598,0.415756472141715,-0.850661307690975,-0.105030296307817,-0.0842783357908993
62,-0.106341221423375,-0.0830697294257905,0.408121760753841,-0.853987674617053,0.408121760757336,-0.853987674622129,-0.106416228256872,-0.0837190318109391
62.5,-0.107714490098714,-0.0824801472811797,0.400463746231046,-0.857244957820775,0.40046374623435,-0.857244957825546,-0.107792265372777,-0.083136558448802
