"Freq [GHz]","re(St(P1,P1)) []","im(St(P1,P1)) []","re(St(P1,P2)) []","im(St(P1,P2)) []","re(St(P2,P1)) []","im(St(P2,P1)) []","re(St(P2,P2)) []","im(St(P2,P2)) []"
0,0.00322700205992987,0,0.996788192351232,0,0.996788199438015,0,0.00322700363918216,0
0.5,0.00374200834139771,-0.00155903939936408,0.996227606810074,-0.0053641456273823,0.996227606829194,-0.00536414545788944,0.00374170051613021,-0.00155791573486042
1,0.00423514033940364,-0.00377593603405302,0.995630267972111,-0.0100729429101705,0.995630268403055,-0.0100729421199581,0.00423436144872369,-0.0037733309900787
1.5,0.00454137853008874,-0.00615245341523618,0.995143045301212,-0.0147594093898107,0.995143046027032,-0.0147594087998542,0.00453988555057805,-0.00614858441474553
2,0.00468676275959012,-0.00858220487197414,0.994700433381375,-0.0192949501297477,0.994700434139233,-0.0192949497775992,0.00468449870134791,-0.00857668857188187
2.5,0.00473346115624906,-0.0110070757414427,0.994312988956043,-0.0237573375091955,0.994312989609746,-0.0237573373211717,0.00473048933896081,-0.0109997410167679
3,0.0047190230637586,-0.0134164808001245,0.99396234480048,-0.0281888116433215,0.993962345305421,-0.0281888115458919,0.00471538223838763,-0.01340726224511
3.5,0.0046630342490932,-0.0158113929811137,0.99362790452253,-0.0326080016448742,0.993627904877282,-0.0326080015901518,0.00465872666799783,-0.0158002634161107
4,0.00457580719803019,-0.0181948096348954,0.993293551734441,-0.0370218336428714,0.99329355195438,-0.037021833605106,0.00457080886901018,-0.0181817526265746
4.5,0.00446300629070606,-0.0205695349523403,0.992947796603826,-0.0414320952311087,0.992947796709689,-0.0414320951987825,0.00445727646119565,-0.0205545345375455
5,0.00432788855497179,-0.0229377998830493,0.992582611016776,-0.0458385134990671,0.992582611030237,-0.0458385134686203,0.00432137600363713,-0.0229208368709735
5.5,0.00417240482681791,-0.02530130961674,0.992192352219057,-0.0502401071183556,0.992192352161128,-0.0502401070901648,0.00416505177971871,-0.0252823603680525
6,0.00399776299774146,-0.0276613626070041,0.991772997231602,-0.0546357522571839,0.991772997122062,-0.054635752233132,0.00398950756233862,-0.0276403987392726
6.5,0.00380472931090914,-0.0300189574791077,0.991321636411569,-0.059024400720471,0.991321636268777,-0.0590244007025547,0.00379550701873921,-0.0299959459050303
7,0.00359379662723214,-0.0323748742995509,0.990836143356868,-0.0634051471886981,0.990836143197702,-0.0634051471783046,0.00358354143908013,-0.0323497773686778
7.5,0.00336528218098264,-0.0347297333095931,0.990314957534944,-0.0677772333713982,0.990314957374764,-0.067777233368993,0.00335392716273963,-0.0347025089661521
8,0.00311938642461351,-0.0370840367822449,0.989756937840355,-0.0721400282358839,0.989756937693016,-0.0721400282409483,0.00310686421723982,-0.0370546387079855
8.5,0.00285622959318887,-0.0394381988715811,0.989161261049083,-0.0764930016110448,0.989161260926936,-0.0764930016220937,0.00284247275112826,-0.0394065766046463
9,0.00257587507700707,-0.0417925670497521,0.988527349222792,-0.0808356985248064,0.988527349136763,-0.0808356985395626,0.00256081632094318,-0.0417586660795291
9.5,0.00227834474443167,-0.0441474376549902,0.987854816284969,-0.0851677170792744,0.987854816244586,-0.0851677170947998,0.00226191715716695,-0.0441111994953047
10,0.00196362921677684,-0.0465030672921731,0.987143427701491,-0.0894886905947008,0.987143427714993,-0.0894886906075794,0.00194576640086952,-0.0464644295363907
10.5,0.00167304593669071,-0.0488264299320971,0.986454689183084,-0.0938083990385721,0.98645468919568,-0.093808399050614,0.00161425152439154,-0.0487876736623107
11,0.00136096033393018,-0.0511567930557408,0.985744014728325,-0.0981139931047554,0.98574401474013,-0.0981139931159341,0.00126566534608452,-0.0511115520374261
11.5,0.00102676963217552,-0.0534928911107748,0.985011913982806,-0.102405918045973,0.985011913993929,-0.102405918056267,0.000899705657890992,-0.0534360903922977
12,0.000670027476453727,-0.0558335406494361,0.984258814715118,-0.106684612353096,0.984258814725663,-0.1066846123625,0.000516045723954361,-0.0557612777859475
12.5,0.00029041647445549,-0.0581776385146746,0.983485070733124,-0.110950500097868,0.983485070743185,-0.110950500106375,0.000114339937712371,-0.0580870625121559
13,-0.000112274587592331,-0.0605241589790264,0.9826909698694,-0.115203984973208,0.982690969879069,-0.115203984980839,-0.000305769838039982,-0.0604133491021379
13.5,-0.00053816973523535,-0.0628721501581904,0.981876741807998,-0.119445445836515,0.981876741817359,-0.119445445843294,-0.000744647494175243,-0.0627399965387845
14,-0.000987321671828356,-0.0652207299479786,0.981042565583699,-0.123675233555598,0.981042565592825,-0.123675233561546,-0.00120265572584799,-0.0650668177365086
14.5,-0.00145972504398117,-0.0675690816794479,0.980188576635837,-0.127893668961059,0.980188576644799,-0.127893668966211,-0.00168014917686321,-0.0673935802767938
15,-0.00195532752657179,-0.0699164496453113,0.97931487334108,-0.132101041720232,0.979314873349936,-0.132101041724616,-0.00217746792932683,-0.0697200083292708
15.5,-0.00247403907140809,-0.0722621346165555,0.978421522983688,-0.136297609963382,0.978421522992494,-0.136297609967039,-0.00269493156075251,-0.0720457856345575
16,-0.0030157396056566,-0.0746054894398069,0.977508567148624,-0.140483600510859,0.977508567157426,-0.14048360051383,-0.00323283395002982,-0.0743705593824977
16.5,-0.00358028542071165,-0.0769459147824261,0.976576026542964,-0.144659209568767,0.976576026551802,-0.144659209571095,-0.00379143896526057,-0.0766939447902137
17,-0.00416751445526975,-0.0792828550728339,0.975623905265803,-0.148824603779331,0.975623905274711,-0.148824603781057,-0.00437097711465517,-0.0790155301688209
17.5,-0.00477725064592149,-0.0816157946676492,0.974652194556846,-0.15297992152978,0.974652194565856,-0.152979921530944,-0.00497164319056065,-0.0813348822662716
18,-0.0054093074928625,-0.0839442542645923,0.973660876060299,-0.157125274439846,0.973660876069435,-0.15712527444049,-0.00559359488969002,-0.0836515516841185
18.5,-0.00606349096647785,-0.0862677875697955,0.972649924644212,-0.16126074896225,0.972649924653491,-0.161260748962418,-0.00623695235242649,-0.085965078186363
19,-0.0067396018619339,-0.0885859782209488,0.971619310816656,-0.16538640804376,0.971619310826095,-0.165386408043489,-0.00690179853260153,-0.0882749957461666
19.5,-0.00743743769269278,-0.0908984369614148,0.970569002780002,-0.169502292804844,0.970569002789613,-0.169502292804173,-0.00758818028669817,-0.0905808372075363
20,-0.00815679420024296,-0.0932047990567746,0.96949896816296,-0.173608424205897,0.96949896817275,-0.173608424204861,-0.00829611005850972,-0.0928821384722047
20.5,-0.00889746654530088,-0.0955047219420271,0.968409175468025,-0.177704804675318,0.968409175478,-0.177704804673954,-0.0090255680304423,-0.0951784421540776
21,-0.00965925023569569,-0.0977978830861517,0.967299595269202,-0.181791419681725,0.967299595279364,-0.181791419680069,-0.00977650461523261,-0.0974693006729579
21.5,-0.0104419418373534,-0.100083978059442,0.966170201192052,-0.185868239237456,0.966170201202402,-0.185868239235539,-0.0105488431697905,-0.0997542787847205
22,-0.0112453395074035,-0.102362718788732,0.965020970705091,-0.189935219325043,0.965020970715625,-0.189935219322898,-0.0113424828250144,-0.10203295556605
22.5,-0.0120692433821078,-0.104633831985701,0.963851885748587,-0.193992303241753,0.963851885759305,-0.193992303239405,-0.0121573013399462,-0.10430492588781
23,-0.0129134558469135,-0.106897057733648,0.962662933224015,-0.19803942285975,0.962662933234907,-0.198039422857228,-0.0129931579043597,-0.106569801422448
23.5,-0.0137777817113982,-0.109152148218888,0.961454105364685,-0.202076499801722,0.961454105375745,-0.202076499799053,-0.0138498958295823,-0.108827211237908
24,-0.0146620283080464,-0.111398866593543,0.960225400005615,-0.206103446533233,0.960225400016836,-0.20610344653044,-0.0147273450824366,-0.111076802033998
24.5,-0.0155660055305007,-0.113636985957362,0.958976820768465,-0.210120167374191,0.958976820779837,-0.210120167371295,-0.0156253246306786,-0.113318238077503
25,-0.0164895258242906,-0.115866288447089,0.957708377175236,-0.214126559432682,0.957708377186748,-0.214126559429706,-0.016543644580349,-0.115551200890482
25.5,-0.0174324041407084,-0.118086564422863,0.956420084702627,-0.218122513465022,0.956420084714269,-0.218122513461984,-0.0174821080954565,-0.117775388742756
26,-0.0183944578625605,-0.120297611741785,0.955111964787356,-0.222107914665993,0.955111964799116,-0.222107914662913,-0.0184405130985371,-0.119990515994714
26.5,-0.0193755067090096,-0.122499235109898,0.953784044791184,-0.226082643393677,0.953784044803049,-0.226082643390568,-0.019418653757119,-0.122196312331558
27,-0.0203753726253273,-0.124691245504496,0.952436357933217,-0.23004657583318,0.952436357945177,-0.23004657583006,-0.0204163217657889,-0.124392521924475
27.5,-0.0213938796622651,-0.126873459659373,0.951068943195904,-0.23399958460352,0.951068943207944,-0.233999584600403,-0.0214333074369465,-0.126578902548792
28,-0.0224308538488974,-0.129045699606507,0.949681845210134,-0.237941539311922,0.949681845222243,-0.237941539308821,-0.0224694006154662,-0.128755224684054
28.5,-0.02348612306195,-0.131207792268156,0.94827511412409,-0.241872307059512,0.948275114136253,-0.241872307056436,-0.0235243914336494,-0.130921270616152
29,-0.0245595168940641,-0.133359569094011,0.946848805459682,-0.245791752902235,0.946848805471887,-0.245791752899197,-0.0245980709232256,-0.133076833557341
29.5,-0.0256508665228678,-0.135500865738631,0.945402979959857,-0.249699740270703,0.945402979972089,-0.24969974026771,-0.0256902315009748,-0.135221716796285
30,-0.0267600045823757,-0.13763152177479,0.943937703429436,-0.253596131352273,0.943937703441684,-0.253596131349336,-0.0268006673438768,-0.137355732886953
30.5,-0.0278867650378039,-0.139751380438908,0.942453046571778,-0.257480787438628,0.942453046584029,-0.257480787435753,-0.0279291746687855,-0.139478702882539
31,-0.029030983064665,-0.14186028840507,0.940949084823096,-0.261353569241748,0.940949084835335,-0.261353569238943,-0.0290755519304529,-0.14159045561825
31.5,-0.0301924949327692,-0.143958095584582,0.939425898185931,-0.265214337181062,0.939425898198145,-0.265214337178333,-0.0302395999505491,-0.143690827045069
32,-0.0313711378955247,-0.146044654948239,0.937883571063046,-0.269062951644258,0.937883571075224,-0.269062951641609,-0.0314211219889903,-0.145779659615009
32.5,-0.0325667500848377,-0.148119822368878,0.936322192092723,-0.272899273224084,0.936322192104853,-0.27289927322152,-0.0326199237676793,-0.147856801717392
33,-0.0337791704117504,-0.150183456481992,0.934741853986235,-0.276723162933289,0.934741853998302,-0.276723162930814,-0.0338358134555147,-0.149922107164695
33.5,-0.0350082384728906,-0.152235418562425,0.933142653368127,-0.280534482399624,0.93314265338012,-0.280534482397242,-0.0350686016224112,-0.151975434725986
34,-0.0362537944626938,-0.154275572415415,0.931524690619788,-0.2843330940427,0.931524690631696,-0.284333094040412,-0.0363181011689881,-0.154016647705467
34.5,-0.0375156790913393,-0.156303784280387,0.929888069726654,-0.288118861234328,0.929888069738463,-0.288118861232134,-0.0375841272376594,-0.156045613563412
35,-0.0387937335082605,-0.158319922746102,0.928232898129308,-0.291891648443796,0.928232898141008,-0.291891648441701,-0.038866497109944,-0.158062203576585
35.5,-0.0400877992310991,-0.160323858675942,0.926559286578654,-0.295651321369498,0.926559286590234,-0.295651321367502,-0.0401650300941151,-0.160066292535212
36,-0.041397718079896,-0.162315465142175,0.924867348995266,-0.299397747058053,0.924867349006715,-0.299397747056158,-0.0414795474065436,-0.162057758473582
36.5,-0.0427233321163391,-0.164294617368216,0.923157202332974,-0.303130794012094,0.923157202344283,-0.303130794010298,-0.0428098720495741,-0.164036482431355
37,-0.0440644835878474,-0.16626119267801,0.92142896644669,-0.306850332287713,0.921428966457847,-0.306850332286016,-0.0441558286882064,-0.166002348242916
37.5,-0.0454210148762926,-0.168215070451748,0.91968276396444,-0.310556233582484,0.919682763975434,-0.310556233580886,-0.0455172435274458,-0.167955242352075
38,-0.0467927684511157,-0.170156132087156,0.917918720163562,-0.314248371314895,0.917918720174385,-0.314248371313395,-0.046893944191771,-0.169895053649685
38.5,-0.0481795868266495,-0.172084260965812,0.916136962850976,-0.317926620695962,0.916136962861619,-0.317926620694558,-0.0482857596078969,-0.171821673331911
39,-0.0495813125233986,-0.173999342423832,0.914337622247448,-0.321590858793666,0.914337622257901,-0.321590858792355,-0.049692519891678,-0.173734994776945
39.5,-0.0509977880331027,-0.175901263726495,0.912520830875712,-0.325240964590898,0.912520830885968,-0.325240964589681,-0.0511140562398298,-0.175634913438304
40,-0.0524288557873415,-0.177789914046313,0.910686723452366,-0.328876819037419,0.910686723462415,-0.328876819036293,-0.0525502008269179,-0.17752132675282
40.5,-0.0538743581295112,-0.179665184444165,0.908835436783393,-0.332498305096379,0.908835436793227,-0.332498305095341,-0.0540007867079151,-0.179394134061768
41,-0.0553341372899552,-0.181526967853102,0.906967109663197,-0.33610530778583,0.906967109672808,-0.336105307784876,-0.0554656477265165,-0.181253236543566
41.5,-0.0568080353640933,-0.183375159064552,0.905081882777007,-0.339697714215694,0.905081882786389,-0.339697714214823,-0.056944618429288,-0.183098537156777
42,-0.0582958942933455,-0.185209654716597,0.903179898606538,-0.343275413620522,0.903179898615682,-0.343275413619729,-0.0584375339856337,-0.184929940592133
42.5,-0.0597975558487021,-0.187030353284065,0.901261301338765,-0.34683829738841,0.901261301347665,-0.346838297387694,-0.0599442301135141,-0.186747353232511
43,-0.0613128616167645,-0.188837155070225,0.899326236777698,-0.350386259086396,0.899326236786348,-0.350386259085752,-0.0614645430107895,-0.188550683119896
43.5,-0.0628416529881233,-0.190629962199871,0.897374852259019,-0.353919194482589,0.897374852267411,-0.353919194482014,-0.0629983092920378,-0.19033983992842
44,-0.0643837711479103,-0.192408678613605,0.895407296567467,-0.357437001565331,0.895407296575597,-0.357437001564821,-0.0645453659306362,-0.192114734942714
44.5,-0.0659390570684023,-0.194173210063154,0.893423719856868,-0.360939580559583,0.893423719864729,-0.360939580559134,-0.0661055502059188,-0.193875281040857
45,-0.0675073515035328,-0.195923464107576,0.891424273572671,-0.364426833940781,0.891424273580258,-0.364426833940389,-0.0676786996551579,-0.195621392681296
45.5,-0.0690884949852103,-0.19765935011022,0.889409110376904,-0.367898666446333,0.889409110384212,-0.367898666445996,-0.0692646520301698,-0.197352985893217
46,-0.0706823278213083,-0.199380779236337,0.887378384075437,-0.371354985084959,0.887378384082461,-0.37135498508467,-0.0708632452582807,-0.199069978269812
46.5,-0.0722886900952238,-0.201087664451193,0.885332249547456,-0.374795699143992,0.885332249554193,-0.374795699143748,-0.0724743174074207,-0.200772288964071
47,-0.0739074216669101,-0.202779920518643,0.883270862677057,-0.378220720194843,0.8832708626835,-0.378220720194637,-0.0740977066551325,-0.202459838686664
47.5,-0.0755383621752739,-0.204457464000036,0.881194380286858,-0.381629962096692,0.881194380293005,-0.381629962096523,-0.0757332512612255,-0.204132549705596
48,-0.0771813510418602,-0.206120213253413,0.879102960073557,-0.385023340998619,0.879102960079405,-0.385023340998482,-0.0773807895439059,-0.205790345847348
48.5,-0.0788362274757195,-0.207768088432887,0.876996760545362,-0.388400775340182,0.876996760550906,-0.388400775340072,-0.0790401598591007,-0.207433152499194
49,-0.0805028304793953,-0.209401011488181,0.874875940961184,-0.391762185850621,0.874875940966422,-0.391762185850532,-0.0807112005828311,-0.209060896612512
49.5,-0.0821809988559515,-0.211018906164258,0.872740661271559,-0.395107495546754,0.872740661276488,-0.395107495546684,-0.0823937500964028,-0.210673506706856
50,-0.0838705712169548,-0.21262169800099,0.870591082061206,-0.398436629729649,0.870591082065824,-0.398436629729591,-0.0840876467742183,-0.212270912874626
50.5,-0.0855713859913589,-0.214209314332811,0.868427364493171,-0.401749515980141,0.868427364497474,-0.401749515980091,-0.085792728974059,-0.213853046786158
51,-0.087283281435226,-0.215781684288353,0.866249670254478,-0.405046084153289,0.866249670258465,-0.405046084153244,-0.0875088350296365,-0.215419841695128
51.5,-0.0890060956422113,-0.217338738789993,0.864058161503255,-0.408326266371821,0.864058161506925,-0.408326266371775,-0.0892358032452765,-0.216971232444122
52,-0.0907396665547725,-0.218880410553294,0.861853000817257,-0.411589997018632,0.861853000820608,-0.411589997018579,-0.0909734718925631,-0.218507155470307
52.5,-0.092483831976043,-0.220406634086319,0.859634351143743,-0.414837212728389,0.859634351146775,-0.414837212728328,-0.0927216792088202,-0.22002754881106
53,-0.0942384295823089,-0.221917345688786,0.857402375750671,-0.418067852378309,0.85740237575338,-0.418067852378233,-0.0944802633972716,-0.221532352109534
53.5,-0.096003296936064,-0.223412483451052,0.855157238179139,-0.421281857078129,0.855157238181527,-0.421281857078034,-0.0962490626287745,-0.223021506620065
54,-0.0977782714995726,-0.224891987252887,0.852899102197066,-0.424479170159345,0.852899102199132,-0.424479170159225,-0.0980279150449958,-0.224494955213357
54.5,-0.0995631906489214,-0.226355798762048,0.850628131754034,-0.427659737163728,0.850628131755778,-0.427659737163581,-0.0998166587629217,-0.22595264238143
55,-0.101357891688507,-0.227803861432629,0.84834449093728,-0.430823505831199,0.848344490938702,-0.430823505831019,-0.101615131880604,-0.227394514242251
55.5,-0.103162211865922,-0.229236120503157,0.84604834392879,-0.433970426087041,0.84604834392989,-0.433970426086823,-0.103423172484025,-0.228820518544046
56,-0.104975988387207,-0.230652522994459,0.843739854963474,-0.43710045002854,0.843739854964253,-0.437100450028282,-0.105240618655023,-0.230230604669239
56.5,-0.106799058432444,-0.232053017707255,0.841419188288362,-0.440213531911047,0.841419188288822,-0.440213531910743,-0.107067308480161,-0.231624723638026
57,-0.108631259171639,-0.233437555219494,0.839086508122836,-0.443309628133492,0.839086508122977,-0.443309628133138,-0.108903080060468,-0.233002828111524
57.5,-0.110472427780874,-0.234806087883406,0.836741978619829,-0.446388697223412,0.836741978619652,-0.446388697223005,-0.110747771521997,-0.234364872394508
58,-0.112322401458719,-0.236158569822299,0.834385763827975,-0.449450699821474,0.834385763827482,-0.449450699821008,-0.112601221027101,-0.235710812437736
58.5,-0.114181017442841,-0.237494956927049,0.832018027654708,-0.452495598665544,0.832018027653902,-0.452495598665016,-0.114463266786388,-0.237040605839805
59,-0.116048113026809,-0.238815206852319,0.829638933830256,-0.455523358574322,0.829638933829137,-0.455523358573728,-0.116333747071269,-0.238354211848587
59.5,-0.11792352557707,-0.240119279012484,0.827248645872517,-0.458533946430558,0.827248645871089,-0.458533946429895,-0.118212500227073,-0.239651591362196
60,-0.119807092550065,-0.241407134577273,0.824847327052811,-0.461527331163878,0.824847327051077,-0.461527331163142,-0.120099364686643,-0.240932706929521
60.5,-0.121698651509468,-0.242678736467115,0.822435140362469,-0.464503483733222,0.822435140360431,-0.464503483732408,-0.121994178984389,-0.24219752275029
61,-0.123598040143524,-0.243934049348191,0.820012248480245,-0.467462377108948,0.820012248477905,-0.467462377108053,-0.123896781770744,-0.243446004674695
61.5,-0.125505096282475,-0.245173039627206,0.817578813740538,-0.470403986254572,0.817578813737901,-0.470403986253594,-0.125807011826968,-0.24467812020256
62,-0.127419657916043,-0.246395675445854,0.815134998102409,-0.47332828810821,0.815134998099477,-0.473328288107145,-0.127724708080283,-0.245893838482065
62.5,-0.129341563210971,-0.247601926675012,0.812680963119357,-0.4762352615637,0.812680963116135,-0.476235261562544,-0.129649709619283,-0.247093130308029
63,-0.131270650528582,-0.248791764908633,0.810216869909873,-0.47912488745144,0.810216869906365,-0.479124887450191,-0.131581855709589,-0.248275968119757
