"Freq [GHz]","re(St(P1,P1)) []","im(St(P1,P1)) []","re(St(P1,P2)) []","im(St(P1,P2)) []","re(St(P2,P1)) []","im(St(P2,P1)) []","re(St(P2,P2)) []","im(St(P2,P2)) []"
0,0.00381476962837723,0,0.996197839442175,0,0.996197834363556,0,0.0038147670500166,0
0.5,0.00416666563715751,0.00110595550370718,0.995804628596929,-0.00437508351253157,0.995804628831138,-0.00437508464235137,0.00416659979333645,0.00110611958717399
1,0.00451409691840965,0.0017660195447462,0.99536834784276,-0.00829518683326569,0.995368347706503,-0.00829518686410324,0.0045139274496826,0.00176643356712702
1.5,0.00468260693142852,0.00226078453117751,0.995052370839806,-0.0122861426068468,0.995052370712106,-0.0122861426430028,0.00468229782238971,0.00226148198019516
2,0.00476702176707811,0.00278818714734896,0.994699221274846,-0.0161540304155778,0.994699221161378,-0.0161540304510837,0.00476662324813049,0.00278921274043498
2.5,0.00482186113146632,0.00334273327202794,0.994343410232204,-0.0199185200645573,0.994343410137033,-0.0199185200958496,0.00482139913664259,0.00334409083745157
3,0.00486600655620428,0.00391557060501846,0.993999796382465,-0.0236060941963654,0.993999796307189,-0.0236060942218526,0.00486549168250772,0.00391725650550434
3.5,0.00490701312003949,0.00450111160329492,0.993670193069104,-0.0272404053530639,0.993670193013209,-0.0272404053723303,0.004906448493319,0.00450312153499866
4,0.00494833693289376,0.00509609317821713,0.993350099258799,-0.0308393325298209,0.993350099220438,-0.030839332543108,0.00494772190217008,0.00509842342015254
4.5,0.00499174758849241,0.00569861310561492,0.993033011018987,-0.034415305822403,0.9930330109957,-0.0344153058302847,0.00499107943486443,0.00570126060864062
5,0.00503824508185069,0.0063075630382361,0.992712559868183,-0.0379765809160286,0.992712559857385,-0.0379765809192385,0.00503751984771972,0.00631052529441156
5.5,0.00508844899070304,0.00692231271089305,0.992383331467886,-0.0415284847398105,0.992383331467167,-0.0415284847391497,0.00508766190263032,0.00692558761052808
6,0.00514277935557828,0.0075425311791264,0.992041031092036,-0.0450743690105568,0.992041031099282,-0.0450743690068194,0.00514192504781064,0.00754611689544582
6.5,0.00520154731038525,0.0081680823510748,0.991682379675645,-0.048616275293849,0.991682379689076,-0.0486162752877899,0.00520061994464815,0.00817197725367791
7,0.00526500347331571,0.00879896184169127,0.991304928700815,-0.0521553811923594,0.991304928718972,-0.0521553811846678,0.0052639968014796,0.00880316443276996
7.5,0.00533336525513428,0.00943525758715769,0.990906874557335,-0.05569229545954,0.99090687457904,-0.0556922954508332,0.00533227264869129,0.00943976645424272
8,0.0054068330621273,0.0100771245894187,0.99048690073959,-0.0592272527064415,0.990486900763906,-0.0592272526972497,0.00540564752132711,0.010081938369976
8.5,0.00548560037887458,0.0107247683362015,0.990044053346195,-0.0627602422239164,0.990044053372378,-0.0627602422147016,0.00548431452867626,0.0107298856906235
9,0.00556986034904217,0.0113784337067484,0.989577646605236,-0.066291093608756,0.989577646632701,-0.0662910935999097,0.00556846642598274,0.0113838532973967
9.5,0.00565981029072682,0.0120383974416258,0.989087192694514,-0.0698195339357657,0.989087192722801,-0.0698195339276104,0.00565830012310298,0.0120441179162345
10,0.00575565496572861,0.0127049629863869,0.988572350199736,-0.0733452260582812,0.988572350228481,-0.0733452260510896,0.00575401994849689,0.0127109829646743
10.5,0.0058850972496472,0.0133264006619465,0.988089282089945,-0.0768540221041478,0.988089282119486,-0.0768540220990248,0.00588333695428728,0.0133327176733005
11,0.00602051951606503,0.0139458592739556,0.987596212753273,-0.0803493393700077,0.987596212783372,-0.0803493393669763,0.00601862683973386,0.0139524731241032
11.5,0.00616187521413025,0.0145632545312173,0.987093776127967,-0.0838318664307733,0.987093776158399,-0.0838318664298265,0.00615984294384037,0.0145701651005368
12,0.00630911591331107,0.015178503514095,0.98658250624873,-0.0873022944345863,0.986582506279281,-0.0873022944356974,0.00630693672752525,0.0151857107668052
12.5,0.00646219134400533,0.0157915247322311,0.986062845075577,-0.0907613070736994,0.986062845106049,-0.0907613070768152,0.00645985781494968,0.0157990287255005
13,0.00662104944025171,0.0164022381814624,0.985535150706185,-0.0942095724211347,0.985535150736395,-0.0942095724261893,0.00661855403694944,0.0164100390743265
13.5,0.00678563638457669,0.0170105653997714,0.984999705688028,-0.0976477364702664,0.984999705717811,-0.0976477364771782,0.00678297147658513,0.017018663461843
14,0.00695589665499052,0.0176164295222199,0.984456725206816,-0.101076418195281,0.984456725236023,-0.101076418203954,0.00695305451682737,0.0176248251421285
14.5,0.00713177307414858,0.018219755334814,0.983906364982034,-0.104496205943489,0.983906365010534,-0.104496205953823,0.00712874589038717,0.0182284490282991
15,0.00731320686068493,0.0188204693270948,0.98334872874777,-0.107907654972792,0.983348728775446,-0.107907654984679,0.00730998673168947,0.0188294617447298
15.5,0.0075001376827192,0.0194184997434568,0.982783875237035,-0.11131128595615,0.982783875263788,-0.111311285969474,0.0074967166309991,0.0194277916779364
16,0.00769250371354886,0.0200137766330482,0.982211824620757,-0.114707584288144,0.982211824646503,-0.114707584302792,0.0076888736906888,0.0200233690259761
16.5,0.00789024168950825,0.0206062318981144,0.981632564378901,-0.118097000044295,0.981632564403568,-0.118097000060151,0.00788639458364315,0.0206161258462827
17,0.00809328696998962,0.0211957993407292,0.981046054601587,-0.121479948460631,0.98104605462512,-0.121479948477576,0.00808921461378066,0.0212059961018123
17.5,0.00830157359960398,0.0217824147077406,0.980452232733381,-0.124856810817938,0.980452232755734,-0.124856810835859,0.00829726777867236,0.0217929157053676
18,0.00851503437246436,0.0223660157338497,0.97985101778485,-0.128227935631515,0.979851017805988,-0.128227935650301,0.00851048683423182,0.0223768225620287
18.5,0.00873360089854282,0.0229465421826669,0.979242314042947,-0.131593640062583,0.979242314062849,-0.131593640082123,0.00872880336143197,0.0229576566095284
19,0.00895720367208178,0.02352393588566,0.978626014316364,-0.13495421148142,0.978626014335016,-0.134954211501609,0.00895214783501372,0.0235353598564636
19.5,0.00918577214199082,0.0240981407788117,0.978002002754321,-0.138309909124854,0.978002002771717,-0.138309909145592,0.00918044969413154,0.0241098764182315
20,0.00941923478418526,0.024669102936917,0.977370157278001,-0.141660965801626,0.977370157294142,-0.141660965822815,0.00941363741487439,0.0246811525505457
20.5,0.00965751917579016,0.0252367706053476,0.976730351663197,-0.145007589608698,0.976730351678091,-0.145007589630248,0.00965163858459647,0.0252491366804244
21,0.00990055207114368,0.0258010942291649,0.976082457311326,-0.148349965629659,0.97608245732499,-0.148349965651481,0.00989437997797965,0.025813779434519
21.5,0.0101482594795051,0.0263620264794704,0.975426344743882,-0.151688257593175,0.975426344756332,-0.151688257615188,0.0101417876347329,0.0263750336646478
22,0.0104005667443758,0.0269195222768426,0.974761884852964,-0.155022609475175,0.974761884864224,-0.155022609497305,0.0103937869388522,0.0269328544704481
22.5,0.0106573986243325,0.0274735388117486,0.974088949937933,-0.158353147033111,0.974088949948033,-0.158353147055282,0.0106503026993111,0.027487199218986
23,0.0109186793752488,0.0280240355618004,0.973407414555504,-0.161679979264463,0.973407414564473,-0.161679979286611,0.0109112592320841,0.0280380275612231
23.5,0.0111843328337834,0.0285709743057403,0.972717156207957,-0.165003199784708,0.972717156215828,-0.165003199806772,0.0111765804433704,0.0285853014452337
24,0.0114542825020023,0.0291143191340528,0.972018055891575,-0.168322888122405,0.972018055898385,-0.168322888144325,0.0114461899138827,0.0291289851260688
24.5,0.0117284516329876,0.0296540364560691,0.971309998524991,-0.171639110930947,0.971309998530775,-0.171639110952673,0.0117200109840652,0.0296690451721267
25,0.012006763317269,0.0301900950034844,0.970592873274841,-0.174951923117994,0.97059287327964,-0.174951923139479,0.0119979668400707,0.0302054504679874
25.5,0.0122891405699272,0.0307224658301761,0.969866573794099,-0.178261368894652,0.969866573797951,-0.178261368915851,0.0122799806003513,0.0307381722135678
26,0.0125755064181818,0.0312511223082557,0.969130998386496,-0.181567482747304,0.969130998389444,-0.181567482768176,0.0125659754026799,0.0312671839195597
26.5,0.0128657839892864,0.0317760401202545,0.968386050108793,-0.184870290335505,0.968386050110876,-0.184870290356016,0.0128558744914227,0.0317924613990481
27,0.0131598965985355,0.0322971972473813,0.967631636821074,-0.188169809319753,0.967631636822334,-0.188169809339869,0.0131496013048792,0.032313982755253
27.5,0.0134577678371782,0.0328145739538006,0.966867671193915,-0.191466050123115,0.966867671194393,-0.191466050142808,0.0134470795624842,0.0328317283653417
28,0.0137593216600431,0.0333281527668827,0.966094070680035,-0.1947590166308,0.966094070679773,-0.194759016650046,0.013748233351681,0.0333456808602834
28.5,0.0140644824726473,0.0338379184533797,0.965310757456986,-0.198048706831788,0.965310757456024,-0.198048706850563,0.0140529872142383,0.0338558251006829
29,0.014373175217568,0.0343438579915221,0.964517658346477,-0.201335113406498,0.964517658344856,-0.201335113424784,0.0143612662318116,0.0343621481486038
29.5,0.0146853254598613,0.0348459605390203,0.963714704715147,-0.204618224264423,0.963714704712906,-0.204618224282202,0.0146729961105196,0.0348646392353695
30,0.0150008594712842,0.0353442173969667,0.962901832360828,-0.207898023035469,0.962901832358007,-0.207898023052727,0.0149881032643088,0.0353632897253295
30.5,0.0153197043130981,0.0358386219696922,0.962078981387781,-0.211174489518539,0.962078981384419,-0.211174489535265,0.0153065148968862,0.0358580930756618
31,0.0156417879172049,0.036329169720571,0.961246096073776,-0.214447600090785,0.961246096069911,-0.21444760010697,0.0156281590819847,0.036349044792185
31.5,0.0159670391653932,0.0368158581238596,0.960403124731494,-0.217717328080635,0.960403124727161,-0.21771732809627,0.015952964841731,0.0368361423812966
32,0.0162953879664401,0.0372986866126279,0.959550019566263,-0.220983644107607,0.959550019561499,-0.220983644122688,0.0162808622228867,0.0373193852980565
32.5,0.0166267653308489,0.0377776565228594,0.95868673653184,-0.224246516391658,0.958686736526679,-0.224246516406181,0.0166117823707322,0.0377987748905375
33,0.0169611034429807,0.0382527710338381,0.957813235185632,-0.227505911034618,0.957813235180108,-0.227505911048582,0.0169456576003666,0.038274314340514
33.5,0.0172983357303503,0.0387240351049272,0.956929478544498,-0.230761792276111,0.956929478538645,-0.230761792289514,0.0172824214652045,0.0387460086006306
34,0.0176383969298675,0.0391914554088866,0.956035432942063,-0.234014122726124,0.956035432935911,-0.234014122738968,0.0176220088224422,0.039213864328163
34.5,0.017981223150797,0.039655040261861,0.955131067888289,-0.237262863576287,0.955131067881869,-0.237262863588575,0.0179643558952938,0.0396778898155308
35,0.0183267519342418,0.0401147995502353,0.954216355931897,-0.240507974791663,0.954216355925239,-0.240507974803398,0.0183094003317839,0.0401380949177268
35.5,0.0186749223089299,0.0405707446545087,0.953291272526085,-0.24374941528481,0.953291272519216,-0.243749415295997,0.0186570812599043,0.0405944909768328
36,0.0190256748431334,0.0410228883704173,0.952355795897907,-0.246987143073628,0.952355795890855,-0.246987143084275,0.0190073393389567,0.0410470907438285
36.5,0.0193789516925279,0.0414712448274823,0.951409906921551,-0.250221115424469,0.951409906914342,-0.250221115434581,0.0193601168068929,0.0414959082978861
37,0.0197346966438327,0.041915829405244,0.950453588995707,-0.253451288981774,0.950453588988366,-0.25345128899136,0.0197153575235056,0.0419409589633817
37.5,0.0200928551540833,0.042356658647402,0.949486827925119,-0.256677619885453,0.949486827917671,-0.25667761989452,0.020073007009315,0.0423822592248591
38,0.0204533743853913,0.0427937501741145,0.948509611806405,-0.259900063877103,0.948509611798872,-0.259900063885663,0.0204330124800233,0.0428198266401776
38.5,0.0208162032350793,0.0432271225927183,0.947521930918133,-0.263118576396054,0.947521930910536,-0.263118576404115,0.0207953228764094,0.0432536797521139
39,0.0211812923610888,0.0436567954071463,0.946523777615152,-0.266333112666137,0.946523777607513,-0.266333112673711,0.021159888889579,0.0436838379986635
39.5,0.0215485942025707,0.0440827889263167,0.945515146227127,-0.269543627774023,0.945515146219465,-0.26954362778112,0.0215266629814738,0.0441103216223429
40,0.0219180629955989,0.0445051241717782,0.944496032961189,-0.272750076739866,0.944496032953524,-0.272750076746497,0.0218955994005833,0.0445331515787397
40.5,0.0222896547839568,0.0449238227849071,0.943466435808635,-0.275952414580954,0.943466435800984,-0.275952414587133,0.0222666541928035,0.0449523494446138
41,0.0226633274249726,0.0453389069339469,0.942426354455557,-0.279150596368978,0.942426354447937,-0.279150596374717,0.0226397852074306,0.0453679373258347
41.5,0.0230390405903956,0.0457503992211992,0.941375790197287,-0.282344577281488,0.941375790189713,-0.282344577286799,0.0230149520982676,0.0457799377654446
42,0.0234167557623308,0.0461583225906415,0.940314745856545,-0.285534312648064,0.940314745849032,-0.285534312652961,0.023392116319861,0.0461883736521347
42.5,0.0237964362242639,0.0465627002362952,0.939243225705157,-0.288719757991663,0.939243225697719,-0.288719757996158,0.0237712411189077,0.0465932681294352
43,0.0241780470472344,0.0469635555116295,0.938161235389213,-0.291900869065564,0.938161235381864,-0.291900869069672,0.0241522915208711,0.0469946445059
43.5,0.0245615550712273,0.0473609118402747,0.937068781857539,-0.295077601886329,0.93706878185029,-0.295077601890063,0.0245352343118914,0.0473925261665702
44,0.0249469288818931,0.0477547926283672,0.93596587329334,-0.29824991276309,0.935965873286204,-0.298249912766463,0.0249200380160717,0.0477869364860075
44.5,0.0253341387826934,0.0481452211787652,0.934852519048908,-0.30141775832352,0.934852519041894,-0.301417758326547,0.0253066728682584,0.0481778987431531
45,0.0257231567626201,0.0485322206074377,0.93372872958323,-0.304581095536776,0.933728729576349,-0.30458109553947,0.0256951107824389,0.0485654360382963
45.5,0.026113956459634,0.0489158137622561,0.932594516402413,-0.307739881733663,0.932594516395673,-0.307739881736039,0.0260853253159105,0.0489495712123893
46,0.026506513120001,0.0492960231444644,0.931449892002763,-0.310894074624279,0.931449891996173,-0.310894074626349,0.0264772916293743,0.0493303267689746
46.5,0.0269008035536979,0.0496728708330463,0.930294869816432,-0.314043632313358,0.930294869809999,-0.314043632315137,0.0268709864431487,0.049707724798925
47,0.0272968060861045,0.0500463784122083,0.929129464159496,-0.317188513313512,0.929129464153228,-0.317188513315013,0.0272663879896837,0.0500817869082515
47.5,0.0276945005061913,0.0504165669021981,0.927953690182367,-0.320328676556548,0.927953690176269,-0.320328676557786,0.0276634759625945,0.0504525341491582
48,0.0280938680114298,0.0507834566936338,0.926767563822416,-0.323464081403046,0.926767563816494,-0.323464081404033,0.0280622314624313,0.0508199869545385
48.5,0.0284948911496692,0.0511470674855232,0.925571101758725,-0.326594687650329,0.925571101752984,-0.326594687651081,0.0284626369394233,0.0511841650760836
49,0.0288975537582267,0.051507418227126,0.924364321368856,-0.329720455538977,0.924364321363299,-0.329720455539504,0.0288646761334372,0.05154508752617
49.5,0.0293018409004563,0.0518645270638012,0.92314724068754,-0.332841345758004,0.923147240682173,-0.332841345758321,0.0292683340114028,0.0519027725236401
50,0.0297077388000513,0.0522184112869384,0.921919878367211,-0.335957319448827,0.921919878362035,-0.335957319448947,0.0296735967024648,0.0522572374436121
50.5,0.0301152347733669,0.0525690872880957,0.920682253640282,-0.339068338208107,0.920682253635301,-0.339068338208042,0.0300804514311325,0.0526084987714219
51,0.030524317160023,0.0529165705174037,0.919434386283098,-0.342174364089592,0.919434386278314,-0.342174364089355,0.030488886448686,0.0529565720607519
51.5,0.0309349752520767,0.0532608754462951,0.918176296581471,-0.345275359605012,0.918176296576884,-0.345275359604616,0.0308988909631197,0.0533014718960367
52,0.0313471992220369,0.0536020155346106,0.916908005297739,-0.348371287724144,0.916908005293352,-0.3483712877236,0.031310455067896,0.0536432118591799
52.5,0.031760980050007,0.0539400032020945,0.915629533639269,-0.351462111874082,0.915629533635083,-0.351462111873402,0.0317235696697798,0.0539818045005915
53,0.0321763094502192,0.0542748498042631,0.914340903228339,-0.354547795937818,0.914340903224352,-0.354547795937015,0.0321382264160259,0.054317261314565
53.5,0.0325931797972492,0.0546065656126593,0.913042136073335,-0.357628304252165,0.913042136069548,-0.357628304251249,0.0325544176211904,0.0546495927189754
54,0.033011584052164,0.0549351597994336,0.911733254541211,-0.360703601605083,0.911733254537624,-0.360703601604066,0.0329721361938323,0.0549788080392697
54.5,0.0334315156888767,0.0552606404261928,0.910414281331142,-0.363773653232484,0.910414281327752,-0.363773653231376,0.0333913755633557,0.0553049154966874
55,0.033852968620955,0.0555830144370715,0.909085239449319,-0.366838424814521,0.909085239446127,-0.366838424813333,0.0338121296072555,0.0556279222006659
55.5,0.0342759371291325,0.0559022876559061,0.907746152184853,-0.369897882471444,0.907746152181857,-0.369897882470186,0.0342343925790005,0.0559478341453254
56,0.034700415789755,0.0562184647874338,0.906397043086707,-0.372951992759039,0.906397043083904,-0.372951992757721,0.034658159036796,0.0562646562099578
56.5,0.0351263994043955,0.0565315494223873,0.905037935941636,-0.376000722663688,0.905037935939024,-0.37600072266232,0.0350834237734485,0.0565783921633924
57,0.0355538829308428,0.056841544046357,0.903668854753085,-0.379044039597098,0.90366885475066,-0.379044039595689,0.0355101817475404,0.0568890446721224
57.5,0.0359828614156681,0.0571484500522839,0.902289823720992,-0.382081911390711,0.902289823718754,-0.38208191138927,0.0359384280161255,0.057196615312052
58,0.0364133299285619,0.0574522677564192,0.900900867222484,-0.385114306289833,0.900900867220427,-0.385114306288369,0.0363681576691305,0.0575011045837199
58.5,0.0368452834986125,0.0577529964176052,0.899502009793385,-0.388141192947508,0.899502009791507,-0.388141192946029,0.0367993657656358,0.0578025119308387
59,0.0372787170526919,0.0580506342596899,0.898093276110557,-0.391162540418157,0.898093276108855,-0.391162540416671,0.0372320472722063,0.058100835761989
59.5,0.0377136253560873,0.0583451784969048,0.896674690974989,-0.394178318151008,0.896674690973457,-0.394178318149523,0.0376661970034135,0.0583960734752824
60,0.0381500029555246,0.0586366253620215,0.89524627929563,-0.397188495983331,0.895246279294266,-0.397188495981854,0.0381018095646899,0.0586882214858336
60.5,0.0385878441246882,0.0589249701370975,0.893808066073939,-0.400193044133506,0.893808066072739,-0.400193044132045,0.0385388792976316,0.0589772752558366
61,0.0390271428123524,0.0592102071866167,0.892360076389107,-0.403191933193929,0.892360076388066,-0.40319193319249,0.0389774002278634,0.059263229327069
61.5,0.0394678925932033,0.0594923299928248,0.890902335383932,-0.406185134123785,0.890902335383045,-0.406185134122375,0.0394173660155454,0.0595460773556196
62,0.0399100866214347,0.0597713311930717,0.889434868251324,-0.409172618241694,0.889434868250587,-0.409172618240319,0.039858769908616,0.0598258121486624
62.5,0.040353717587171,0.060047202618956,0.88795770022142,-0.412154357218244,0.887957700220829,-0.412154357216911,0.0403016046988201,0.0601024257030623
63,0.0407987776757691,0.0603199353370746,0.886470856549268,-0.415130323068428,0.886470856548817,-0.415130323067141,0.0407458626805826,0.0603759092456326
63.5,0.0412452585300279,0.0605895196911838,0.884974362503079,-0.418100488143994,0.884974362502765,-0.418100488142758,0.0411915356127595,0.0606462532748394
