"Freq [GHz]","re(St(P1,P1)) []","im(St(P1,P1)) []","re(St(P1,P2)) []","im(St(P1,P2)) []","re(St(P2,P1)) []","im(St(P2,P1)) []","re(St(P2,P2)) []","im(St(P2,P2)) []"
0,0.00355810005561352,0,0.996455485161277,0,0.996455482760211,0,0.00355809886661973,0
0.5,0.00399174719748885,-1.89743759655414E-005,0.995988070333851,-0.00444854667167505,0.995988070476805,-0.00444854697420993,0.00399165938956969,-1.86990563015854E-005
1,0.00441552770453768,-0.000589537911952931,0.995495610583045,-0.00834376545164872,0.995495610293528,-0.00834376552631255,0.00441527656034424,-0.000588879092386918
1.5,0.00468177321098651,-0.00130034596038442,0.995113578278186,-0.0122626638688246,0.995113577996751,-0.0122626639278458,0.00468123977154988,-0.00129936571526912
2,0.00482547202655326,-0.00203974213919267,0.994750613714293,-0.0160463600211287,0.994750613474906,-0.0160463600603507,0.00482467424953015,-0.00203826569602938
2.5,0.00490398964888072,-0.00276850746865165,0.994430284383554,-0.0197504026010122,0.994430284204062,-0.0197504026284072,0.00490298522947441,-0.00276646917056667
3,0.0049477803619844,-0.00348236350618336,0.994147019408038,-0.0234126026217254,0.994147019292138,-0.0234126026448536,0.00494660895225962,-0.00347974395956641
3.5,0.00497178715169433,-0.00418384489675816,0.993887236971017,-0.0270535720213658,0.993887236914455,-0.0270535720439646,0.00497047024975572,-0.00418064004174212
4,0.00498361566149441,-0.00487605248449441,0.99363783962816,-0.0306833351939524,0.993637839622945,-0.0306833352165476,0.00498216282281216,-0.0048722623716202
4.5,0.00498736285156109,-0.00556151086660961,0.993388381629846,-0.0343063826389205,0.993388381666599,-0.0343063826604038,0.00498577628139252,-0.0055571358132056
5,0.00498536088684087,-0.00624211725537727,0.993131057252901,-0.0379245402900423,0.993131057322,-0.037924540308806,0.00498363824961157,-0.00623715659433799
5.5,0.00497900348088054,-0.00691928062656366,0.992860168493191,-0.0415384254980342,0.992860168585374,-0.0415384255127353,0.00497713956895396,-0.00691373236348092
6,0.00496915866224468,-0.00759405840429395,0.992571589036956,-0.0451481434858643,0.992571589143655,-0.0451481434957532,0.00496714639825546,-0.00758791918686441
6.5,0.00495638596925341,-0.00826725936566852,0.992262340901931,-0.0487536045178363,0.992262341015436,-0.0487536045228811,0.00495421702233312,-0.00826052455087556
7,0.0049410563075365,-0.00893951599710441,0.991930283214163,-0.052354659055629,0.991930283327696,-0.0523546590564514,0.00493872148233754,-0.00893217973883864
7.5,0.00492342096100451,-0.009611334525232,0.991573887870988,-0.055951148689541,0.991573887978718,-0.0559511486873348,0.00492091044976739,-0.00960338985587583
8,0.00490365284758321,-0.0102831295808556,0.991192077787002,-0.0595429201392275,0.991192077884004,-0.0595429201355824,0.00490095639750932,-0.0102745684791632
8.5,0.00488187201506851,-0.0109552484501148,0.990784109383472,-0.0631298246448004,0.990784109465668,-0.0631298246416137,0.00487897904200874,-0.0109460618947796
9,0.004858161867491,-0.0116279882607273,0.990349486446224,-0.0667117128788899,0.990349486510291,-0.0667117128781971,0.00485506153475179,-0.0116181662710222
9.5,0.00483257976492579,-0.0123016083332139,0.989887896472504,-0.0702884296445916,0.989887896515793,-0.0702884296485031,0.00482926103897063,-0.0122911399989221
10,0.00480516411034704,-0.0129763391838544,0.989399163351645,-0.0738598098755485,0.98939916337209,-0.0738598098861578,0.00480161580083616,-0.0129652126863089
10.5,0.00478179835786552,-0.0136499653383719,0.988943784318249,-0.0774278172971004,0.988943784338175,-0.0774278173080898,0.00477804852918129,-0.0136382535450146
11,0.00475543591374383,-0.0143264800084317,0.988476517995183,-0.080984572378064,0.988476518014571,-0.0809845723894043,0.00475147730085324,-0.0143141806664975
11.5,0.00472588475084135,-0.0150058743419947,0.987997908288896,-0.0845305466165405,0.987997908307734,-0.0845305466281987,0.00472171019124024,-0.0149929854157085
12,0.00469295692908933,-0.0156881271879925,0.987508424664502,-0.0880662219679156,0.987508424682774,-0.0880662219798589,0.0046885593294993,-0.0156746468676925
12.5,0.00465646938194131,-0.016373205805662,0.98700846681639,-0.091592082801558,0.987008466834087,-0.0915920828137509,0.00465184168492661,-0.0163591325129451
13,0.00461624460747245,-0.0170610666141249,0.986498369819513,-0.0951086091226125,0.986498369836629,-0.0951086091350239,0.00461137975846537,-0.0170463990031813
13.5,0.00457211126474094,-0.0177516559704491,0.985978409547948,-0.098616270984123,0.985978409564478,-0.0986162709967155,0.00456700217988998,-0.017736392925821
14,0.00452390467734104,-0.0184449109653109,0.985448808184345,-0.102115523993753,0.985448808200287,-0.102115524006497,0.00451854421257614,-0.0184290515962999
14.5,0.00447146724720088,-0.0191407602261195,0.984909739678917,-0.105606805807094,0.984909739694273,-0.105606805819959,0.00446584816883039,-0.0191243038581526
15,0.0044146487826246,-0.0198391247184651,0.984361335048601,-0.109090533494127,0.984361335063372,-0.109090533507083,0.00440876373974608,-0.0198220708817178
15.5,0.00435330674532874,-0.0205399185377217,0.983803687435287,-0.112567101665509,0.983803687449478,-0.112567101678524,0.00434714824426075,-0.0205222669533347
16,0.0042873064218078,-0.0212430496837515,0.983236856866297,-0.116036881249357,0.983236856879916,-0.116036881262405,0.00428086680271761,-0.0212248002479738
16.5,0.00421652102479769,-0.0219484208125298,0.982660874680664,-0.119500218815939,0.982660874693718,-0.119500218828989,0.0042097924406409,-0.0219295735791132
17,0.00414083173086771,-0.0226559299595799,0.982075747601302,-0.122957436356169,0.982075747613801,-0.122957436369198,0.00413380612870504,-0.0226364851207643
17.5,0.00406012766029082,-0.02336547123112,0.981481461446379,-0.126408831429292,0.981481461458334,-0.126408831442273,0.00405279676502046,-0.0233454290975077
18,0.00397430580540595,-0.02407693545958,0.980877984483377,-0.129854677604849,0.980877984494801,-0.129854677617762,0.00396666110589411,-0.0240562964392197
18.5,0.00388327091354566,-0.0247902108211164,0.980265270436878,-0.133295225133653,0.980265270447783,-0.133295225146474,0.00387530365112337,-0.024768975398044
19,0.00378693533046313,-0.0255051834134195,0.979643261166554,-0.136730701791687,0.979643261176954,-0.136730701804397,0.00377863648971848,-0.0254833521259616
19.5,0.00368521880996495,-0.0262217377928753,0.979011889035468,-0.14016131384937,0.979011889045378,-0.140161313861952,0.00367657911173726,-0.0261993112118901
20,0.00357804829511293,-0.0269397574706298,0.97837107899095,-0.14358724712634,0.978371079000384,-0.143587247138775,0.00356905819157992,-0.0269167361779443
20.5,0.00346535767608427,-0.0276591253677898,0.977720750381441,-0.147008668098939,0.977720750390415,-0.147008668111213,0.00345600734782212,-0.0276355099349899
21,0.00334708752936114,-0.0283797242303101,0.977060818532839,-0.150425725033562,0.977060818541369,-0.15042572504566,0.00333736688423142,-0.0283555151980539
21.5,0.00322318484257664,-0.0291014370045688,0.976391196107509,-0.153838549124438,0.976391196115611,-0.153838549136346,0.00321308351631136,-0.0290766348625531
22,0.00309360272893597,-0.0298241471749319,0.975711794268187,-0.15724725561891,0.975711794275877,-0.157247255630617,0.00308311008726042,-0.0297987523426317
22.5,0.00295830013475254,-0.0305477390648345,0.975022523667824,-0.160651944917146,0.975022523675118,-0.160651944928643,0.0029474052769069,-0.0305217518731005
23,0.00281724154324307,-0.0312720981031664,0.974323295285015,-0.164052703636508,0.974323295291929,-0.164052703647784,0.00280593330675534,-0.0312455187767524
23.5,0.00267039667737982,-0.0319971110577759,0.973614021123147,-0.167449605633426,0.973614021129697,-0.167449605644472,0.0026586636439403,-0.031969939698854
24,0.0025177402042193,-0.0327226662381288,0.972894614789868,-0.170842712977879,0.97289461479607,-0.17084271298869,0.00250557070651793,-0.032694902810825
24.5,0.00235925144280413,-0.0334486536691201,0.972164991971932,-0.174232076877425,0.9721649919778,-0.174232076887995,0.00234663357220857,-0.0334202979850851
25,0.00219491407743805,-0.0341749652381069,0.97142507081901,-0.17761773854908,0.97142507082456,-0.177617738559402,0.00218183569236657,-0.0341460169431458
25.5,0.00202471587780564,-0.0349014948172077,0.970674772248627,-0.180999730038572,0.970674772253875,-0.180999730048642,0.00201116461269735,-0.0348719533789414
26,0.0018486484272007,-0.0356281383628727,0.969914020183088,-0.184378074987332,0.969914020188049,-0.184378074997146,0.0018346117019504,-0.0355980030594432
26.5,0.00166670685982126,-0.0363547939947093,0.969142741727998,-0.187752789348321,0.969142741732686,-0.187752789357879,0.0016521718895981,-0.0363240639044928
27,0.0014788896079368,-0.037081362055436,0.968360867300888,-0.191123882052229,0.968360867305316,-0.191123882061528,0.00146384341327702,-0.0370500360477246
27.5,0.00128519815949063,-0.0378077451537941,0.967568330717428,-0.194491355626031,0.967568330721611,-0.194491355635068,0.00126962757658677,-0.0377758218804347
28,0.0010856368265518,-0.03853384819213,0.966765069241768,-0.197855206766056,0.966765069245718,-0.197855206774828,0.00106952851766262,-0.0385013260800631
28.5,0.000880212524883572,-0.0392595783802974,0.96595102360674,-0.201215426867945,0.96595102361047,-0.201215426876455,0.00086355298878979,-0.0392264556249646
29,0.000668934564744317,-0.0399848452373979,0.965126138008896,-0.204572002515938,0.965126138012418,-0.204572002524188,0.000651710147197504,-0.0399511197969571
29.5,0.000451814452944843,-0.0407095605827994,0.964290360082705,-0.207924915933945,0.964290360086033,-0.207924915941935,0.000434011357051789,-0.0406752301731155
30,0.000228865706086656,-0.0414336385177356,0.963443640857657,-0.211274145400837,0.963443640860802,-0.211274145408566,0.000210470002581675,-0.0413987006080951
30.5,1.03674802742759E-007,-0.0421569953987642,0.96258593470147,-0.214619665632396,0.962585934704441,-0.214619665639868,-1.88986878272845E-005,-0.0421214472082689
31,-0.000234454621212687,-0.0428795498041645,0.961717199252182,-0.217961448132211,0.961717199254992,-0.217961448139427,-0.000254077806786823,-0.042843388298738
31.5,-0.000474790647670809,-0.0436012224943436,0.96083739534151,-0.221299461513774,0.96083739534417,-0.221299461520737,-0.000495048922587338,-0.0435644443843302
32,-0.00072088449999147,-0.0443219363671665,0.959946486911462,-0.22463367179588,0.95994648691398,-0.224633671802593,-0.000741792223730109,-0.0442845381054604
32.5,-0.000972715037787397,-0.0450416164091054,0.959044440925948,-0.227964042673381,0.959044440928334,-0.227964042679846,-0.00099428665366641,-0.0450035941897631
33,-0.00123026000992832,-0.0457601896429347,0.958131227278829,-0.231290535765149,0.958131227281093,-0.231290535771372,-0.00125251003612914,-0.045721539400247
33.5,-0.0014934961705857,-0.0464775850727164,0.957206818699637,-0.23461311084107,0.957206818701786,-0.234613110847052,-0.00151643919145461,-0.0464383024806714
34,-0.00176239938667899,-0.0471937336266723,0.956271190657968,-0.237931726029716,0.956271190660012,-0.237931726035462,-0.00178605004431004,-0.0471538140987917
34.5,-0.002036944737143,-0.0479085680985034,0.955324321267438,-0.241246338008237,0.955324321269385,-0.241246338013753,-0.00206131772325119,-0.0478680067880086
35,-0.00231710660443651,-0.0486220230876495,0.954366191189877,-0.244556902175933,0.954366191191734,-0.24455690218122,-0.00234221665251888,-0.0485808148879183
35.5,-0.00260285875872746,-0.0493340349389535,0.953396783540354,-0.247863372812844,0.953396783542128,-0.247863372817908,-0.0026287206365157,-0.0492921744842421
36,-0.00289417443515977,-0.0500445416820687,0.952416083793495,-0.251165703224577,0.952416083795194,-0.251165703229422,-0.00292080293735397,-0.0500020233484624
36.5,-0.00319102640460622,-0.0507534829709813,0.951424079691495,-0.254463845874525,0.951424079693124,-0.254463845879156,-0.00321843634589541,-0.050710300877546
37,-0.00349338703832225,-0.0514608000239218,0.950420761154082,-0.257757752504535,0.950420761155648,-0.257757752508957,-0.00352159324667428,-0.0514169480340354
37.5,-0.00380122836686059,-0.0521664355639211,0.94940612019071,-0.261047374244984,0.949406120192218,-0.261047374249203,-0.00383024567708734,-0.0521219072867543
38,-0.00411452213363739,-0.0528703337602221,0.948380150815116,-0.264332661715154,0.948380150816572,-0.264332661719174,-0.00414436538121454,-0.0528251225523477
38.5,-0.00443323984349658,-0.0535724401707371,0.947342848962396,-0.267613565114738,0.947342848963806,-0.267613565118565,-0.00446392385863892,-0.0535265391378466
39,-0.00475735280661421,-0.0542727016856963,0.946294212408663,-0.270890034307226,0.946294212410031,-0.270890034310863,-0.00478889240859248,-0.0542261036844103
39.5,-0.00508683217806338,-0.0549710664725986,0.945234240693363,-0.274162018895825,0.945234240694694,-0.274162018899279,-0.00511924216975407,-0.0549237641123481
40,-0.00542164899336428,-0.0556674839226092,0.944162935044246,-0.27742946829262,0.944162935045543,-0.277429468295896,-0.00545494415601899,-0.0556194695675685
40.5,-0.0057617742002874,-0.0563619045984294,0.943080298305016,-0.280692331781472,0.943080298306284,-0.280692331784574,-0.00579596928851989,-0.0563131703694966
41,-0.00610717868721067,-0.0570542801837455,0.941986334865631,-0.283950558575235,0.941986334866874,-0.283950558578171,-0.00614228842417835,-0.0570048179605585
41.5,-0.00645783330827243,-0.0577445634342781,0.94088105059522,-0.287204097867764,0.940881050596441,-0.287204097870537,-0.00649387238105681,-0.0576943648572348
42,-0.00681370890558386,-0.0584327081304739,0.939764452777567,-0.290452898881148,0.939764452778768,-0.290452898883762,-0.00685069196074689,-0.0583817646027731
42.5,-0.00717477632871738,-0.0591186690318459,0.938636550049121,-0.293696910908576,0.938636550050307,-0.293696910911039,-0.00721271796802653,-0.0590669717215284
43,-0.00754100645169253,-0.0598024018329948,0.937497352339452,-0.296936083353232,0.937497352340624,-0.296936083355547,-0.00757992122801343,-0.0597499416749683
43.5,-0.00791237018766966,-0.0604838631212767,0.936346870814087,-0.300170365763507,0.936346870815248,-0.30017036576568,-0.00795227260100034,-0.0604306308193316
44,-0.00828883850152889,-0.0611630103361342,0.935185117819667,-0.303399707864893,0.93518511782082,-0.303399707866929,-0.00832974299518063,-0.0611089963649392
44.5,-0.00867038242051976,-0.0618398017300619,0.934012106831329,-0.306624059588799,0.934012106832476,-0.306624059590704,-0.00871230337742712,-0.0617849963371291
45,-0.00905697304314335,-0.0625141963311735,0.93282785240225,-0.309843371098569,0.93282785240339,-0.309843371100347,-0.00909992478229626,-0.0624585895387977
45.5,-0.00944858154642669,-0.0631861539073761,0.931632370115255,-0.31305759281294,0.931632370116393,-0.313057592814596,-0.00949257831941497,-0.0631297355145375
46,-0.00984517919171635,-0.0638556349320767,0.930425676536448,-0.316266675427139,0.930425676537584,-0.316266675428677,-0.00989023517938292,-0.0637983945163079
46.5,-0.0102467373291474,-0.0645226005514121,0.929207789170741,-0.319470569931832,0.929207789171876,-0.319470569933259,-0.0102928666383322,-0.0644645274706273
47,-0.0106532274008845,-0.065187012552963,0.927978726419234,-0.322669227630099,0.92797872642037,-0.322669227631418,-0.0107004440612637,-0.0651280959472409
47.5,-0.0110646209432768,-0.0658488333359024,0.926738507538362,-0.325862600152599,0.926738507539499,-0.325862600153816,-0.0111129389042776,-0.0657890621292321
48,-0.0114808895880036,-0.0665080258825432,0.925487152600736,-0.32905063947108,0.925487152601875,-0.329050639472199,-0.0115303227157998,-0.0664473887845234
48.5,-0.0119020050623311,-0.0671645537312331,0.924224682457599,-0.332233297910358,0.92422468245874,-0.332233297911383,-0.011952567136901,-0.0671030392387284
49,-0.0123279391885573,-0.0678183809505755,0.922951118702839,-0.335410528158916,0.922951118703984,-0.335410528159852,-0.0123796439008074,-0.0677559773493253
49.5,-0.0127586638827325,-0.0684694721148966,0.921666483638478,-0.338582283278209,0.921666483639626,-0.33858228327906,-0.0128115248316743,-0.0684061674810872
50,-0.0131941511527324,-0.0691177922809516,0.920370800241584,-0.341748516710801,0.920370800242735,-0.341748516711571,-0.0132481818427075,-0.0690535744827347
50.5,-0.0136343730957463,-0.0697633069658019,0.919064092132532,-0.344909182287419,0.919064092133686,-0.344909182288114,-0.0136895869337021,-0.0696981636647764
51,-0.0140793018952614,-0.0704059821258238,0.917746383544561,-0.348064234233021,0.917746383545718,-0.348064234233644,-0.0141357121880583,-0.0703399007784713
51.5,-0.0145289098175833,-0.0710457841368108,0.916417699294567,-0.351213627171943,0.916417699295728,-0.351213627172496,-0.0145865297693422,-0.070978751995896
52,-0.0149831692079602,-0.071682679775136,0.915078064755076,-0.354357316132225,0.915078064756238,-0.354357316132714,-0.01504201191744,-0.071614683891059
52.5,-0.0154420524863565,-0.0723166361998953,0.913727505827338,-0.357495256549145,0.913727505828503,-0.357495256549573,-0.0155021309443527,-0.0722476634220082
53,-0.0159055321429216,-0.0729476209360451,0.912366048915511,-0.360627404268069,0.912366048916677,-0.360627404268439,-0.0159668592296934,-0.072877657913933
53.5,-0.0163735807331962,-0.0735756018584519,0.910993720901853,-0.36375371554663,0.91099372090302,-0.363753715546947,-0.0164361692159078,-0.0735046350431787
54,-0.016846170873093,-0.074200547176829,0.909610549122913,-0.36687414705632,0.90961054912408,-0.366874147056587,-0.0169100334032719,-0.0741285628221451
54.5,-0.0173232752336871,-0.0748224254215313,0.908216561346651,-0.369988655883518,0.908216561347818,-0.369988655883739,-0.0173884243446931,-0.0747494095850521
55,-0.0178048665358492,-0.0754412054301572,0.906811785750451,-0.373097199530021,0.906811785751617,-0.373097199530199,-0.0178713146403555,-0.0753671439745105
55.5,-0.0182909175447533,-0.0760568563349355,0.905396250899998,-0.3761997359131,0.905396250901161,-0.376199735913237,-0.0183586769322292,-0.0759817349288827
56,-0.0187814010642744,-0.0766693475508571,0.903969985728962,-0.379296223365124,0.903969985730123,-0.379296223365223,-0.0188504838984775,-0.0765931516703828
56.5,-0.0192762899313135,-0.0772786487645074,0.902533019519477,-0.382386620632783,0.902533019520634,-0.382386620632848,-0.0193467082477779,-0.0772013636938913
57,-0.0197755570100615,-0.077884729923599,0.901085381883355,-0.385470886875952,0.901085381884507,-0.385470886875986,-0.0198473227135901,-0.0778063407564609
57.5,-0.0202791751862275,-0.0784875612271365,0.899627102744024,-0.388548981666206,0.899627102745169,-0.388548981666211,-0.0203523000483803,-0.0784080528674598
58,-0.0207871173612516,-0.0790871131162156,0.89815821231914,-0.391620864985025,0.898158212320278,-0.391620864985004,-0.0208616130178282,-0.0790064702793591
58.5,-0.0212993564465045,-0.0796833562654085,0.896678741103869,-0.394686497221715,0.896678741104999,-0.39468649722167,-0.0213752343950234,-0.079601563479095
59,-0.0218158653575054,-0.0802762615747139,0.895188719854785,-0.397745839171053,0.895188719855906,-0.397745839170987,-0.021893136954675,-0.0801933031800086
59.5,-0.0223366170081621,-0.0808658001620559,0.893688179574371,-0.400798852030692,0.893688179575481,-0.400798852030606,-0.0224152934673437,-0.0807816603143305
60,-0.0228615843050456,-0.0814519433562879,0.892177151496099,-0.403845497398333,0.892177151497196,-0.40384549739823,-0.0229416766937067,-0.0813666060261773
60.5,-0.0233907401417123,-0.0820346626906978,0.890655667070059,-0.406885737268693,0.890655667071144,-0.406885737268575,-0.023472259378869,-0.0819481116650469
61,-0.0239240573930797,-0.0826139298969766,0.889123757949125,-0.409919534030271,0.889123757950195,-0.409919534030141,-0.0240070142467284,-0.0825261487797817
61.5,-0.0244615089098678,-0.0831897168996372,0.887581455975618,-0.412946850461938,0.887581455976673,-0.412946850461798,-0.0245459139944029,-0.0831006891129831
62,-0.0250030675131093,-0.0837619958108586,0.886028793168471,-0.415967649729359,0.88602879316951,-0.41596764972921,-0.0250889312867312,-0.0836717045958562
