"Freq [GHz]","re(St(P1,P1)) []","im(St(P1,P1)) []","re(St(P1,P2)) []","im(St(P1,P2)) []","re(St(P2,P1)) []","im(St(P2,P1)) []","re(St(P2,P2)) []","im(St(P2,P2)) []"
0,0.00310811742392048,0,0.996907215885585,0,0.996907217922853,0,0.00310811618371076,0
0.5,0.00361288848450414,-0.0016674148371898,0.996352495283382,-0.00544132937093167,0.996352495557446,-0.00544132938410868,0.00361266805492733,-0.0016668180045265
1,0.00410727951192769,-0.00398712324924588,0.995741159174138,-0.0102316335322854,0.995741159433237,-0.0102316333777353,0.00410667297150979,-0.00398568208403205
1.5,0.00439999931385771,-0.00649100485713561,0.995245369262516,-0.0150117953136437,0.995245369560365,-0.0150117951949014,0.00439880284646677,-0.00648877111121138
2,0.00452506425355637,-0.00903405340844543,0.994780748204064,-0.019630904034063,0.994780748484217,-0.0196309039602944,0.00452329053573663,-0.00903073786929554
2.5,0.00455183518853985,-0.0115650360458659,0.994367213042064,-0.024163818988594,0.994367213274202,-0.0241638189452651,0.00454955477708907,-0.0115605284027573
3,0.00451817940942689,-0.0140772639700231,0.993991409356626,-0.0286557264794745,0.993991409531528,-0.0286557264516532,0.00451543000545662,-0.0140715294725844
3.5,0.00444292995703677,-0.016573238541703,0.993634029296638,-0.0331286974206897,0.993634029416048,-0.0331286973992135,0.00443971758145345,-0.0165662667543529
4,0.00433574634978662,-0.0190564581896595,0.993278585516272,-0.0375921657439875,0.99327858558657,-0.0375921657246963,0.0043320563848912,-0.0190482443311986
4.5,0.00420185683763208,-0.0215298173731071,0.992912743851729,-0.0420495460685721,0.992912743880957,-0.0420495460504107,0.0041976621014328,-0.021520355962469
5,0.00404424699037342,-0.0239954735462895,0.992527644057546,-0.0465016104264571,0.992527644054077,-0.0465016104098765,0.00403951268389058,-0.0239847563804041
5.5,0.003864704922381,-0.026454993196527,0.99211697752678,-0.0509480711417609,0.992116977498712,-0.0509480711276566,0.00385939158488569,-0.0264430088394327
6,0.0036643460821475,-0.0289095110184885,0.991676244703081,-0.0553882851539917,0.991676244657996,-0.0553882851431826,0.00365841138274892,-0.0288962448037005
6.5,0.00344389038810622,-0.0313598534593709,0.991202226366846,-0.0598215482240043,0.991202226311659,-0.0598215482169255,0.00343729024276751,-0.0313452876475022
7,0.00320381557093796,-0.0338066268701329,0.990692619501568,-0.0642472032414769,0.990692619442481,-0.0642472032381107,0.00319650486226841,-0.0337907408346254
7.5,0.00294444564708485,-0.0362502789748156,0.990145786439023,-0.0686646675023876,0.990145786381488,-0.0686646675022491,0.00293637870449714,-0.0362330493731875
8,0.00266600390025884,-0.0386911416830724,0.989560579573447,-0.0730734273932008,0.989560579522203,-0.0730734273954283,0.00265713483188668,-0.038672542602578
8.5,0.00236864567435591,-0.0411294611395192,0.988936216540796,-0.0774730224052771,0.988936216499885,-0.0774730224087001,0.00235892860491793,-0.0411094642170777
9,0.00205247927588337,-0.043565419057126,0.988272189646125,-0.0818630279490975,0.98827218961896,-0.0818630279523411,0.00204186852344712,-0.0435439935769963
9.5,0.00171757965151809,-0.0459991480582005,0.9875681990635,-0.0862430406258596,0.987568199052912,-0.0862430406274228,0.00170602986369728,-0.0459762610314378
10,0.00136399755132866,-0.0484307428506714,0.986824102933372,-0.0906126669648497,0.986824102941679,-0.0906126669631551,0.00135146381401974,-0.0484063590801345
10.5,0.00103701058435401,-0.0508663585628071,0.986107394880672,-0.0949723768465347,0.986107394889116,-0.0949723768452717,0.000994808630356836,-0.0507935090370495
11,0.000686595468398998,-0.0533024789736523,0.985368880923691,-0.0993171590809574,0.98536888093222,-0.0993171590801296,0.000623869081532114,-0.0531829112266777
11.5,0.000312648285190953,-0.0557386535228606,0.984609059642033,-0.103647562409577,0.9846090596506,-0.103647562409178,0.000237674192821169,-0.0555751781457499
12,-8.48921846758888E-005,-0.0581744168529106,0.983828337448681,-0.107964117208081,0.983828337457244,-0.107964117208093,-0.000164853482542915,-0.0579706970500098
12.5,-0.000506049446967305,-0.0606092961394733,0.983027038990985,-0.112267327820913,0.983027038999504,-0.112267327821334,-0.000584840117915819,-0.0603696208417297
13,-0.000950813876928081,-0.0630428170801842,0.982205417316428,-0.116557666925123,0.982205417324867,-0.116557666925925,-0.00102340570012327,-0.0627718746380559
13.5,-0.00141914692274714,-0.0654745086785749,0.981363663569661,-0.120835571637596,0.981363663577989,-0.120835571638761,-0.00148161617828868,-0.0651771754116179
14,-0.00191098494450492,-0.0679039069720488,0.980501916061759,-0.125101441087738,0.980501916069947,-0.125101441089246,-0.00196044547230834,-0.0675850611031485
14.5,-0.00242624270098268,-0.0703305578528619,0.979620268613788,-0.129355635195597,0.979620268621812,-0.129355635197421,-0.00246074860305878,-0.0699949252813923
15,-0.00296481649671421,-0.0727540191237575,0.978718778125417,-0.133598474419651,0.978718778133256,-0.133598474421771,-0.00298324583632525,-0.0724060536739222
15.5,-0.00352658700317765,-0.0751738619182651,0.977797471356569,-0.137830240266011,0.977797471364206,-0.137830240268404,-0.0035285166986504,-0.0748176595355758
16,-0.00411142177018531,-0.0775896716018902,0.976856350937605,-0.142051176378868,0.976856350945025,-0.14205117638151,-0.00409700208867481,-0.0772289156588517
16.5,-0.0047191774455253,-0.0800010482558502,0.975895400642887,-0.14626149005938,0.975895400650078,-0.146261490062243,-0.00468901244719711,-0.0796389816876131
17,-0.00534970172274285,-0.0824076068310413,0.974914589975195,-0.150461354085922,0.974914589982147,-0.150461354088989,-0.00530473998443537,-0.0820470261512849
17.5,-0.00600283503796661,-0.0848089770463041,0.973913878116071,-0.154650908731494,0.973913878122779,-0.154650908734739,-0.00594427319444757,-0.0844522432245531
18,-0.00667841203736363,-0.0872048030931873,0.972893217300616,-0.158830263894639,0.972893217307073,-0.158830263898039,-0.00660761222091855,-0.0868538646224089
18.5,-0.00737626283675485,-0.0895947431984698,0.971852555675911,-0.162999501277866,0.971852555682115,-0.162999501281404,-0.00729468400062994,-0.0892511672759762
19,-0.00809621409451911,-0.0919784690862935,0.97079183970072,-0.16715867656246,0.970791839706668,-0.167158676566115,-0.00800535645062217,-0.0916434775352215
19.5,-0.00883808991803892,-0.0943556653736568,0.969711016141262,-0.171307821541184,0.969711016146955,-0.171307821544935,-0.00873945125396536,-0.0940301726474342
20,-0.00960171262286991,-0.0967260289261427,0.96861003371406,-0.175446946180683,0.9686100337195,-0.175446946184514,-0.00949675502632485,-0.0964106802012275
20.5,-0.0103869033624723,-0.0990892681949109,0.967488844422597,-0.179576040593763,0.967488844427785,-0.179576040597659,-0.0102770288118172,-0.0987844761330994
21,-0.0111934826449805,-0.101445102551253,0.966347404630083,-0.183695076908489,0.966347404635023,-0.183695076912429,-0.0110800159693848,-0.101151081788683
21.5,-0.0120212707519719,-0.103793261630937,0.965185675906183,-0.187804011026237,0.965185675910878,-0.187804011030213,-0.0119054485801583,-0.103510060427386
22,-0.0128700880727837,-0.10613348469752,0.964003625681286,-0.191902784265158,0.96400362568574,-0.191902784269155,-0.0127530525427197,-0.105861013465486
22.5,-0.0137397553664919,-0.108465520031005,0.962801227737856,-0.19599132488838,0.962801227742076,-0.195991324892383,-0.0136225515360938,-0.108203576672541
23,-0.0146300939623254,-0.11078912434632,0.961578462564707,-0.200069549518883,0.961578462568698,-0.200069549522881,-0.0145136700277899,-0.110537416470695
23.5,-0.0155409259080164,-0.113104062244346,0.960335317596628,-0.204137364444469,0.960335317600395,-0.204137364448451,-0.015426135492044,-0.112862226434542
24,-0.0164720740744378,-0.115410105696982,0.959071787358754,-0.208194666817556,0.959071787362303,-0.208194666821512,-0.0163596799863004,-0.115177724050273
24.5,-0.017423362223826,-0.117707033566761,0.957787873532336,-0.212241345755253,0.957787873535676,-0.212241345759175,-0.0173140412147182,-0.117483647763606
25,-0.0183946150478778,-0.119994631160771,0.956483584956191,-0.216277283345654,0.956483584959327,-0.216277283349534,-0.0182889631882134,-0.119779754325561
25.5,-0.0193856581812161,-0.122272689818065,0.95515893757595,-0.220302355566474,0.955158937578888,-0.220302355570303,-0.0192841965724527,-0.122065816430956
26,-0.020396318194898,-0.124541006529415,0.953813954351421,-0.22431643312226,0.953813954354168,-0.224316433126032,-0.0202994987988853,-0.12434162063543
26.5,-0.0214264225739906,-0.126799383587922,0.952448665130774,-0.228319382206227,0.952448665133338,-0.228319382209937,-0.0213346339996071,-0.126606965531406
27,-0.0224757996826315,-0.129047628268839,0.951063106498837,-0.232311065192671,0.951063106501224,-0.232311065196311,-0.0223893728147119,-0.128861660160423
27.5,-0.0235442787194669,-0.131285552536911,0.94965732160565,-0.236291341265566,0.949657321607867,-0.236291341269131,-0.023463492110514,-0.131105522638546
28,-0.0246316896659206,-0.133512972779402,0.948231359980369,-0.240260066988716,0.948231359982422,-0.240260066992204,-0.0245567746386481,-0.133338378971592
28.5,-0.0257378632293376,-0.135729709563065,0.946785277334745,-0.244217096822487,0.946785277336641,-0.244217096825895,-0.025669008659131,-0.135560062038152
29,-0.0268626307827004,-0.137935587413294,0.945319135359681,-0.248162283591784,0.945319135361427,-0.248162283595104,-0.0267999875449345,-0.137770410719837
29.5,-0.0280058243023558,-0.140130434613761,0.943833001517707,-0.252095478909639,0.943833001519309,-0.252095478912871,-0.0279495093812104,-0.139969269159955
30,-0.0291672763048977,-0.142314083024933,0.9423269488337,-0.25601653356044,0.942326948835164,-0.256016533563581,-0.0291173765687675,-0.142156486133725
30.5,-0.0303468197841602,-0.144486367919901,0.94080105568574,-0.259925297846434,0.940801055687072,-0.259925297849481,-0.0303033954386872,-0.144331914514922
31,-0.0315442881490985,-0.1466471278361,0.939255405597574,-0.263821621900967,0.939255405598781,-0.263821621903919,-0.0315073758828308,-0.146495410825628
31.5,-0.0327595151631445,-0.148796204441543,0.937690087033896,-0.267705355971503,0.937690087034982,-0.267705355974359,-0.0327291310033292,-0.148646834857385
32,-0.0339923348855594,-0.150933442414302,0.936105193199329,-0.271576350675277,0.936105193200301,-0.271576350678036,-0.0339684767829392,-0.150786049353582
32.5,-0.0352425816151054,-0.153058689334051,0.934500821841844,-0.275434457230113,0.934500821842707,-0.275434457232772,-0.0352252317771702,-0.152912919744128
33,-0.0365100898363466,-0.1551717955846,0.932877075061107,-0.279279527662792,0.932877075061866,-0.279279527665353,-0.0364992168284369,-0.155027313924804
33.5,-0.0377946941687852,-0.157272614266395,0.931234059122116,-0.283111414997066,0.931234059122776,-0.283111414999528,-0.0377902548019786,-0.157129102074641
34,-0.039096229318933,-0.159361001118061,0.929571884274405,-0.286929973423214,0.929571884274972,-0.286929973425578,-0.0390981703428983,-0.159218156505603
34.5,-0.0404145300354469,-0.16143681444615,0.927890664576922,-0.290735058450943,0.927890664577399,-0.290735058453207,-0.0404227896535065,-0.161294351539719
35,-0.0417494310673386,-0.163499915062284,0.926190517728667,-0.294526527047118,0.92619051772906,-0.294526527049283,-0.0417639402899128,-0.163357563409439
35.5,-0.0431007671252717,-0.165550166227033,0.924471564905086,-0.298304237759838,0.924471564905398,-0.298304237761904,-0.0431214509767993,-0.165407670177614
36,-0.0444683728459286,-0.167587433599806,0.922733930600159,-0.302068050830067,0.922733930600396,-0.302068050832033,-0.0444951514392002,-0.167444551674062
36.5,-0.0458520827593915,-0.169611585194217,0.920977742474108,-0.305817828292005,0.920977742474272,-0.305817828293875,-0.0458848722501555,-0.169468089446057
37,-0.0472517312594846,-0.171622491338375,0.919203131206571,-0.309553434063278,0.919203131206667,-0.30955343406505,-0.0472904446930963,-0.171478166720537
37.5,-0.0486671525769756,-0.173620024639547,0.91741023035514,-0.313274734025812,0.917410230355173,-0.313274734027492,-0.0487117006378565,-0.173474668376089
38,-0.0500981807555859,-0.175604059952842,0.915599176219049,-0.316981596098344,0.91559917621902,-0.316981596099928,-0.050148472429281,-0.175457480923135
38.5,-0.0515446496306704,-0.17757447435342,0.913770107707875,-0.320673890301238,0.913770107707789,-0.320673890302729,-0.0516005927874084,-0.177426492490884
39,-0.0530063928104941,-0.179531147111888,0.911923166215059,-0.324351488814373,0.911923166214919,-0.324351488815772,-0.0530678947183072,-0.179381592819904
39.5,-0.0544832436599931,-0.181473959672571,0.910058495496033,-0.3280142660287,0.910058495495842,-0.328014266030008,-0.0545502114347025,-0.181322673259326
40,-0.0559750352868956,-0.183402795634284,0.908176241550827,-0.331662098592006,0.908176241550587,-0.331662098593226,-0.0560473762855386,-0.183249626767782
40.5,-0.0574816005301219,-0.185317540733404,0.906276552510889,-0.335294865449454,0.906276552510604,-0.335294865450586,-0.0575592226937724,-0.185162347917426
41,-0.0590027719503422,-0.187218082828939,0.904359578529997,-0.338912447879306,0.904359578529669,-0.338912447880353,-0.059085584101673,-0.187060732900377
41.5,-0.0605383818225673,-0.189104311889363,0.902425471679061,-0.342514729524245,0.902425471678693,-0.342514729525208,-0.0606262939229694,-0.188944679537059
42,-0.0620882621307057,-0.190976119981046,0.900474385844622,-0.346101596418721,0.900474385844216,-0.346101596419601,-0.0621811855013037,-0.190814087286081
42.5,-0.0636522445639554,-0.192833401258066,0.898506476630903,-0.349672937012586,0.898506476630461,-0.349672937013386,-0.0637500920744016,-0.192668857255172
43,-0.0652301605149406,-0.194676051953221,0.896521901265236,-0.353228642191386,0.896521901264761,-0.353228642192108,-0.0653328467434833,-0.194508892212955
43.5,-0.0668218410794927,-0.196503970370111,0.89452081850671,-0.356768605293552,0.894520818506203,-0.356768605294195,-0.0669292824474651,-0.19633409660125
44,-0.0684271170579913,-0.198317056876145,0.892503388557887,-0.360292722124739,0.892503388557351,-0.360292722125307,-0.0685392319415137,-0.198144376547702
44.5,-0.0700458189581643,-0.200115213896321,0.890469772979452,-0.363800890969554,0.890469772978889,-0.363800890970049,-0.0701625277795951,-0.199939639878533
45,-0.0716777769992746,-0.201898345907716,0.888420134607638,-0.367293012600886,0.888420134607048,-0.36729301260131,-0.0717990023006635,-0.201719796131305
45.5,-0.0733228211175868,-0.203666359434506,0.886354637474334,-0.370768990286983,0.886354637473719,-0.370768990287336,-0.0734484876181505,-0.203484756567494
46,-0.0749807809730687,-0.205419163043515,0.88427344672971,-0.374228729796478,0.884273446729072,-0.374228729796764,-0.0751108156125062,-0.205234434184856
46.5,-0.0766514859572138,-0.207156667340118,0.882176728567281,-0.377672139401525,0.882176728566621,-0.377672139401745,-0.076785817926478,-0.20696874372942
47,-0.0783347652019466,-0.20887878496449,0.880064650151273,-0.381099129879144,0.880064650150593,-0.3810991298793,-0.0784733259629271,-0.208687601707085
47.5,-0.0800304475895182,-0.210585430588091,0.877937379546202,-0.384509614510938,0.877937379545503,-0.384509614511031,-0.0801731708849265,-0.210390926394745
48,-0.0817383617633376,-0.212276520910339,0.875795085648562,-0.387903509081283,0.875795085647845,-0.387903509081316,-0.0818851836179616,-0.212078637850901
48.5,-0.0834583361396679,-0.213951974655425,0.873637938120539,-0.391280731874088,0.873637938119805,-0.391280731874061,-0.0836091948540322,-0.213750657925697
49,-0.0851901989201391,-0.215611712569191,0.871466107325647,-0.39464120366824,0.871466107324896,-0.394641203668157,-0.0853450350574959,-0.215406910270412
49.5,-0.0869337781050067,-0.217255657416049,0.869279764266227,-0.397984847731796,0.869279764265461,-0.397984847731659,-0.0870925344724858,-0.217047320346306
50,-0.0886889015071157,-0.218883733975903,0.867079080522717,-0.401311589815035,0.867079080521937,-0.401311589814844,-0.088851523131776,-0.218671815432874
50.5,-0.0904553967665107,-0.220495869041021,0.864864228194617,-0.404621358142407,0.864864228193822,-0.404621358142164,-0.0906218308669535,-0.220280324635459
51,-0.092233091365634,-0.222091991412812,0.862635379843107,-0.407914083403465,0.862635379842299,-0.407914083403174,-0.0924032873197651,-0.221872778892221
51.5,-0.0940218126450958,-0.223672031898534,0.860392708435224,-0.41118969874286,0.860392708434404,-0.41118969874252,-0.0941957219545609,-0.22344911098046
52,-0.0958213878199343,-0.225235923307841,0.858136387289556,-0.414448139749406,0.858136387288724,-0.414448139749019,-0.0959989640717037,-0.225009255522316
52.5,-0.0976316439963483,-0.226783600449174,0.8558665900234,-0.417689344444315,0.855866590022557,-0.417689344443885,-0.0978128428218598,-0.226553148989795
53,-0.0994524081888615,-0.228315000126002,0.853583490501312,-0.420913253268647,0.853583490500456,-0.420913253268173,-0.0996371872210998,-0.228080729709193
53.5,-0.101283507337864,-0.229830061132832,0.851287262785025,-0.424119809069967,0.851287262784159,-0.424119809069451,-0.101471826166704,-0.229591937864852
54,-0.103124768327518,-0.231328724251033,0.848978081084672,-0.427308957088328,0.848978081083795,-0.427308957087773,-0.103316588453632,-0.231086715502322
54.5,-0.104976018003975,-0.232810932244431,0.846656119711274,-0.430480644941562,0.846656119710388,-0.43048064494097,-0.105171302791553,-0.232565006530876
55,-0.106837083193877,-0.234276629854649,0.844321553030465,-0.433634822609937,0.844321553029568,-0.433634822609308,-0.107035797822412,-0.234026756725439
55.5,-0.108707790723121,-0.235725763796214,0.841974555417384,-0.436771442420205,0.841974555416477,-0.436771442419541,-0.108909902138447,-0.235471913727908
56,-0.110587967435848,-0.23715828275141,0.839615301212736,-0.439890459029093,0.839615301211819,-0.439890459028395,-0.110793444300624,-0.236900427047879
56.5,-0.112477440213617,-0.238574137364841,0.837243964679974,-0.442991829406231,0.837243964679048,-0.442991829405502,-0.112686252857416,-0.238312248062799
57,-0.114376035994775,-0.239973280237749,0.834860719963551,-0.446075512816588,0.834860719962615,-0.446075512815826,-0.11458815636392,-0.239707330017555
57.5,-0.116283581793954,-0.241355665922024,0.832465741048239,-0.449141470802392,0.832465741047294,-0.449141470801603,-0.116498983401229,-0.241085628023498
58,-0.118199904721699,-0.242721250913971,0.830059201719478,-0.452189667164623,0.830059201718523,-0.452189667163805,-0.118418562596049,-0.242447099056929
58.5,-0.120124832004196,-0.244069993647738,0.827641275524728,-0.455220067944021,0.827641275523764,-0.455220067943177,-0.120346722640504,-0.243791701957037
59,-0.12205819100308,-0.245401854488503,0.825212135735785,-0.458232641401724,0.825212135734811,-0.458232641400854,-0.122283292312119,-0.245119397423342
59.5,-0.123999809235299,-0.246716795725342,0.822771955312071,-0.461227357999463,0.822771955311087,-0.461227357998569,-0.124228100493933,-0.246430148012596
60,-0.125949514393021,-0.248014781563813,0.820320906864836,-0.46420419037942,0.820320906863843,-0.464204190378503,-0.126180976194707,-0.2477239181352
60.5,-0.127907134363559,-0.249295778118245,0.817859162622285,-0.467163113343701,0.817859162621281,-0.467163113342762,-0.128141748569226,-0.249000674051138
61,-0.1298724972493,-0.250559753403736,0.815386894395581,-0.470104103833485,0.815386894394568,-0.470104103832525,-0.130110246938647,-0.250260383865424
61.5,-0.13184543138762,-0.251806677327864,0.812904273545737,-0.473027140907849,0.812904273544714,-0.47302714090687,-0.132086300810871,-0.25150301752309
62,-0.133825765370775,-0.253036521682096,0.81041147095134,-0.475932205722283,0.810411470950308,-0.475932205721284,-0.134069739900937,-0.252728546803711
62.5,-0.135813328065735,-0.254249260132915,0.80790865697713,-0.478819281506922,0.807908656976087,-0.478819281505906,-0.136060394151391,-0.2539369453155
63,-0.137807948633978,-0.255444868212662,0.805396001443385,-0.481688353544508,0.805396001442332,-0.481688353543477,-0.138058093752632,-0.255128188488963
