"Freq [GHz]","re(St(P1,P1)) []","im(St(P1,P1)) []","re(St(P1,P2)) []","im(St(P1,P2)) []","re(St(P2,P1)) []","im(St(P2,P1)) []","re(St(P2,P2)) []","im(St(P2,P2)) []"
0,0.00367178019519088,0,0.996341166784987,0,0.996341165766353,0,0.00367177621706105,0
0.5,0.00410180002425165,7.86656579983003E-005,0.995835750893924,-0.00579736443134493,0.995835751127245,-0.00579736523274832,0.00410165454892564,7.90819566560685E-005
1,0.00447985565244835,-0.000395991206062263,0.99526756909323,-0.0110208003886498,0.99526756912817,-0.0110208000419831,0.00447947410031091,-0.000394986984023404
1.5,0.00447701565308201,-0.00107416933959925,0.994809780472444,-0.0163405590330399,0.994809780620011,-0.0163405586295724,0.00447674884759586,-0.00107242589491463
2,0.00444910577840396,-0.00165183569145455,0.994279786835143,-0.0215026545715453,0.994279787063125,-0.0215026541821146,0.00444867427828832,-0.0016494078538507
2.5,0.00440710365824959,-0.00218480030982349,0.993727387654766,-0.0265252659102622,0.993727387916022,-0.0265252655754331,0.00440637572343494,-0.00218168879387193
3,0.00435406121552884,-0.00269095866030256,0.993179066090976,-0.0314380711196574,0.993179066343902,-0.0314380708539872,0.00435294607847858,-0.00268714924907876
3.5,0.00429136992344237,-0.00317730464425203,0.992643250648786,-0.0362698415570009,0.992643250865521,-0.0362698413594877,0.00428979498609827,-0.00317277631031132
4,0.00421995848636714,-0.0036467829282163,0.992117786838875,-0.041043474395746,0.992117787005306,-0.0410434742584105,0.00421786276608449,-0.00364151074530028
4.5,0.00414061259510534,-0.00410059278879693,0.991595693313089,-0.0457754535059003,0.991595693425597,-0.0457754534187291,0.00413794452234217,-0.00409454951750732
5,0.00405407650736045,-0.00453911646735072,0.99106860261333,-0.0504770175774816,0.991068602675157,-0.0504770175306621,0.00405079310179257,-0.00453227369870746
5.5,0.00396108660631755,-0.00496234402728923,0.990528487136749,-0.0551556064722387,0.990528487155058,-0.0551556064568945,0.0039571531047311,-0.0049546731354031
6,0.0038623802493869,-0.0053700866917481,0.989968368705775,-0.0598160654649433,0.989968368689571,-0.0598160654732265,0.00385776985213004,-0.00536155967335894
6.5,0.0037586947458943,-0.00576209134854366,0.989382501229372,-0.0644615132890216,0.98938250118816,-0.0644615133139776,0.00375338835287731,-0.00575268157126629
7,0.00365076228791827,-0.00613810470806264,0.988766311089558,-0.0690939267931041,0.988766311032531,-0.0690939268285078,0.00364474817540283,-0.00612778756996235
7.5,0.00353930339390962,-0.00649790988461429,0.988116244381264,-0.0737145222543134,0.988116244316864,-0.0737145222945461,0.00353257681842811,-0.0064866633820122
8,0.00342502010005208,-0.00684134691669058,0.987429593081992,-0.0783240012833089,0.9874295930177,-0.0783240013232742,0.00341758283226867,-0.00682915211644985
8.5,0.00330858953693702,-0.00716832344360441,0.986704331821866,-0.0829227098802852,0.986704331764148,-0.0829227099153576,0.00330044933621609,-0.0071551648578092
9,0.00319065823042591,-0.00747881910403603,0.98593897689813,-0.0875107427216069,0.985938976852464,-0.0875107427476101,0.00318182827447977,-0.00746468496742114
9.5,0.00307183730024291,-0.00777288581984337,0.985132469800235,-0.092088013016606,0.985132469771198,-0.0920880130297741,0.00306233558539365,-0.0077577682728176
10,0.0029526986296991,-0.00805064534888533,0.984284083481405,-0.096654300560159,0.984284083472762,-0.0966543005571365,0.00294254735702681,-0.00803454053138175
10.5,0.00286934906996206,-0.00843943924469492,0.983511207470713,-0.101202168226316,0.983511207462181,-0.10120216822199,0.00286297007036412,-0.00842654568232248
11,0.00278216930502645,-0.00882594700946893,0.982725942755201,-0.105729603043057,0.982725942746913,-0.105729603037481,0.0027794878143157,-0.00881691821728126
11.5,0.00269123298875903,-0.00920999515848564,0.981928959473086,-0.110238093694346,0.981928959465161,-0.110238093687578,0.00269211430967004,-0.00920552605981495
12,0.00259662878348582,-0.00959140249888613,0.981120745547434,-0.114729060545435,0.981120745539978,-0.11472906053755,0.00260086933944445,-0.00959222829747652
12.5,0.00249846265911435,-0.00996998057289389,0.980301631065391,-0.119203843929291,0.980301631058494,-0.119203843920366,0.00250578003854196,-0.00997687460277064
13,0.00239686042817489,-0.0103455344090717,0.979471811204702,-0.123663696595061,0.979471811198443,-0.12366369658518,0.00240688239687994,-0.0103593046884685
13.5,0.00229197051145251,-0.0107178636573471,0.978631367363152,-0.128109779572138,0.978631367357595,-0.128109779561389,0.0023042230057081,-0.0107393478239111
14,0.00218396691616723,-0.0110867641954888,0.977780286305624,-0.132543160768495,0.977780286300821,-0.132543160756963,0.00219786107899707,-0.0111168224472347
14.5,0.00207305239138373,-0.0114520303066317,0.976918477265213,-0.136964815700391,0.976918477261205,-0.136964815688166,0.00208787078311867,-0.0114915359188736
15,0.00195946170237359,-0.0118134575383944,0.976045787024045,-0.141375629833809,0.976045787020862,-0.141375629820977,0.00197434390811363,-0.0118632844743947
15.5,0.0018434649362421,-0.0121708463626056,0.975162013061681,-0.145776402099792,0.975162013059344,-0.145776402086436,0.00185739291197884,-0.0122318534501753
16,0.00172537071433321,-0.0125240067584937,0.974266914899342,-0.150167849222311,0.974266914897864,-0.150167849208512,0.00173715436462971,-0.0125970178736843
16.5,0.00160552914237949,-0.0128727638389345,0.973360223791703,-0.154550610566432,0.97336022379109,-0.154550610552274,0.00161379280924244,-0.0129585435316066
17,0.00148433427717909,-0.0132169646252986,0.972441650928702,-0.158925253275032,0.972441650928951,-0.158925253260582,0.00148750504403439,-0.0133161886533388
17.5,0.00136222583006712,-0.0135564860475434,0.971510894311327,-0.163292277514163,0.971510894312432,-0.163292277499494,0.00135852480509474,-0.0136697063744009
18,0.00123968976535466,-0.0138912441977266,0.970567644460428,-0.167652121690763,0.970567644462376,-0.167652121675943,0.00122712779831008,-0.0140188481723977
18.5,0.00111725739102927,-0.0142212047919252,0.969611589108501,-0.172005167542205,0.969611589111276,-0.172005167527292,0.00109363698293669,-0.0143633684959865
19,0.000995502486950239,-0.0145463946935558,0.968642417012824,-0.176351745026326,0.968642417016406,-0.176351745011381,0.000958427947950369,-0.0147030308309888
19.5,0.000875035982937727,-0.0148669142173552,0.96765982101542,-0.180692136963864,0.967659821019787,-0.18069213694894,0.000821934142139685,-0.0150376154628389
20,0.000756497699337083,-0.0151829497678295,0.966663500462188,-0.18502658340333,0.966663500467314,-0.185026583388475,0.000684651617835763,-0.0153669291934571
20.5,0.000640544711808633,-0.0154947861749237,0.965653163080491,-0.189355285692571,0.965653163086348,-0.189355285677831,0.000547142825574137,-0.0156908172442169
21,0.00052783601755732,-0.0158028178844507,0.964628526402267,-0.193678410251819,0.964628526408826,-0.193678410237235,0.000410038855394507,-0.0160091775120512
21.5,0.000419013377117194,-0.0161075579634202,0.963589318808266,-0.197996092050964,0.963589318815497,-0.197996092036573,0.000274039366947421,-0.0163219772288046
22,0.000314678493485265,-0.0164096437211425,0.96253528025864,-0.202308437799433,0.962535280266511,-0.202308437785269,0.000139909299360974,-0.0166292718884438
22.5,0.000215367066870586,-0.0167098376650787,0.961466162765777,-0.206615528860948,0.961466162774256,-0.206615528847045,8.47132635184433E-006,-0.0169312260384626
23,0.000121520709812251,-0.0170090225496464,0.96038173065703,-0.210917423908035,0.960381730666085,-0.210917423894417,-0.000119407043063124,-0.0172281351719099
23.5,3.34581839629422E-005,-0.0173081894770757,0.959281760667656,-0.21521416133264,0.959281760677255,-0.215214161319333,-0.000242832776609803,-0.0175204475079842
24,-4.86521354931546E-005,-0.017608418399516,0.958166041898013,-0.219505761429906,0.958166041908123,-0.219505761416932,-0.000360913899438098,-0.0178087839351
24.5,-0.000124816328866961,-0.0179108509527017,0.957034375663542,-0.223792228372307,0.957034375674131,-0.223792228359685,-0.000472793779868641,-0.0180939538625791
25,-0.000195233160266706,-0.01821665628955,0.955886575261336,-0.228073551991082,0.955886575272371,-0.228073551978829,-0.000577692876887304,-0.0183769642721101
25.5,-0.000260304228151043,-0.0185269914011035,0.954722465673103,-0.232349709381245,0.954722465684554,-0.232349709369374,-0.000674956755845169,-0.0186590189999487
26,-0.0003206342525095,-0.0188429582002057,0.953541883220832,-0.236620666345745,0.953541883232666,-0.236620666334269,-0.000764108004917774,-0.0189415053612989
26.5,-0.000377020468693146,-0.0191655602663827,0.952344675188624,-0.240886378693356,0.952344675200811,-0.240886378682285,-0.000844898412427464,-0.0192259657921978
27,-0.000430431085768401,-0.0194956624815736,0.951130699421625,-0.245146793403992,0.951130699434136,-0.245146793393336,-0.000917356606044195,-0.0195140533273079
27.5,-0.000481973858126039,-0.0198339567345798,0.949899823910984,-0.249401849674029,0.949899823923789,-0.249401849663794,-0.000981825589633389,-0.0198074714498531
28,-0.000532856848262486,-0.0201809364111942,0.948651926371972,-0.25365147985333,0.948651926385043,-0.253651479843521,-0.00103898453998519,-0.0201079009915044
28.5,-0.000584344259941916,-0.0205368815667726,0.947386893820994,-0.257895610284609,0.947386893834302,-0.257895610275229,-0.00108985007437373,-0.0204169190097769
29,-0.00063771066506596,-0.0209018556194429,0.946104622155988,-0.262134162054893,0.946104622169506,-0.262134162045945,-0.00113575403880184,-0.020735916485499
29.5,-0.000694196971566641,-0.0212757132708894,0.944805015743726,-0.266367051667938,0.944805015757429,-0.266367051659424,-0.00117829752727433,-0.0210660227867219
30,-0.000754971099912793,-0.0216581183311144,0.943487987016696,-0.270594191645638,0.943487987030559,-0.270594191637556,-0.00121928390961712,-0.0214080447669376
30.5,-0.000821095640130443,-0.0220485693370678,0.942153456081567,-0.274815491065701,0.942153456095565,-0.274815491058052,-0.00126063653322772,-0.0217624269727299
31,-0.000893503883610258,-0.0224464303986449,0.940801350340685,-0.27903085604217,0.940801350354794,-0.279030856034949,-0.00130430886670413,-0.0221292369120147
31.5,-0.000972984711430813,-0.0228509645974559,0.939431604127609,-0.283240190154688,0.939431604141807,-0.283240190147894,-0.00135219572166562,-0.0225081761511146
32,-0.00106017600245684,-0.0232613674619839,0.938044158357301,-0.287443394831868,0.938044158371565,-0.287443394825496,-0.00140605366736873,-0.022898614803406
32.5,-0.00115556558944857,-0.0236767984640605,0.936638960191326,-0.291640369693533,0.936638960205636,-0.291640369687578,-0.0014674370177199,-0.0232996443622053
33,-0.00125949838188122,-0.0240964090262414,0.935215962718152,-0.295831012856146,0.935215962732487,-0.295831012850603,-0.0015376532616429,-0.0237101422473716
33.5,-0.0013721880885636,-0.0245193661031238,0.933775124648488,-0.300015221205278,0.933775124662828,-0.300015221200141,-0.00161773908219981,-0.0241288410299267
34,-0.00149373197812624,-0.0249448709273816,0.932316410025412,-0.304192890638594,0.93231641003974,-0.304192890633857,-0.00170845568034739,-0.0245543959462995
34.5,-0.0016241272605349,-0.0253721729455865,0.930839787948992,-0.308363916282438,0.930839787963288,-0.308363916278093,-0.00181030033659724,-0.0249854456962375
35,-0.00176328790350316,-0.025800579288386,0.929345232314941,-0.312528192684806,0.92934523232919,-0.312528192680846,-0.00192353015056573,-0.0254206632457348
35.5,-0.00191106096520288,-0.0262294603239812,0.927832721566881,-0.316685613987199,0.927832721581064,-0.316685613983615,-0.00204819365019299,-0.0258587950732396
36,-0.00206724179117196,-0.0266582519470677,0.926302238461645,-0.32083607407757,0.926302238475749,-0.320836074074355,-0.00218416629205381,-0.0262986887513268
36.5,-0.00223158766345749,-0.0270864552787664,0.924753769847132,-0.32497946672636,0.92475376986114,-0.324979466723504,-0.0023311865650682,-0.0267393098171627
37,-0.00240382968998315,-0.0275136344197056,0.923187306452102,-0.32911568570741,0.923187306466002,-0.329115685704903,-0.00248889025579058,-0.0271797495313253
37.5,-0.00258368287716698,-0.0279394128295127,0.921602842687392,-0.333244624905333,0.921602842701169,-0.333244624903168,-0.00265684127409427,-0.0276192254069374
38,-0.0027708544405885,-0.0283634688191907,0.920000376457959,-0.337366178410789,0.920000376471601,-0.337366178408955,-0.00283455817118833,-0.0280570763977348
38.5,-0.00296505048225471,-0.0287855305510876,0.918379908985216,-0.341480240604898,0.91837990899871,-0.341480240603385,-0.00302153605841438,-0.0284927544598381
39,-0.00316598120587613,-0.0292053708533251,0.916741444639108,-0.345586706233988,0.916741444652444,-0.345586706232786,-0.00321726404628048,-0.028925813931689
39.5,-0.00337336486073431,-0.0296228020768134,0.91508499077941,-0.349685470475639,0.915084990792577,-0.349685470474737,-0.00342123858486604,-0.0293558998738983
40,-0.00358693060697651,-0.030037671155936,0.913410557605729,-0.353776428996974,0.913410557618715,-0.353776428996363,-0.00363297322756889,-0.029782736218545
40.5,-0.00380642048609386,-0.0304498549791765,0.911718158015725,-0.357859478005998,0.911718158028522,-0.357859478005667,-0.0038520053916184,-0.0302061143202814
41,-0.00403159066444597,-0.0308592561328624,0.910007807471088,-0.361934514296713,0.910007807483687,-0.361934514296651,-0.00407790067974251,-0.0306258822900596
41.5,-0.00426221209833061,-0.0312657990484673,0.908279523870814,-0.366001435288658,0.908279523883207,-0.366001435288855,-0.00431025528160245,-0.0310419353278233
42,-0.00449807074859793,-0.0316694265600137,0.906533327431357,-0.370060139061474,0.906533327443535,-0.370060139061919,-0.00454869690889487,-0.031454207149139
42.5,-0.00473896745278352,-0.0320700968613883,0.904769240573259,-0.374110524384988,0.904769240585216,-0.37411052438567,-0.00479288464676358,-0.0318626625156764
43,-0.00498471754415114,-0.0324677808423857,0.902987287813868,-0.378152490745318,0.902987287825597,-0.378152490746227,-0.00504250803437051,-0.0322672908236821
43.5,-0.00523515029035515,-0.0328624597755434,0.901187495665783,-0.382185938367378,0.901187495677279,-0.382185938368503,-0.00529728562362214,-0.0326681006707794
44,-0.00549010820991946,-0.0332541233224115,0.899369892540685,-0.386210768234194,0.899369892551941,-0.386210768235525,-0.00555696320945787,-0.0330651153039545
44.5,-0.00574944631237645,-0.0336427678267042,0.897534508658233,-0.390226882103334,0.897534508669244,-0.390226882104858,-0.00582131187830126,-0.0334583688452472
45,-0.00601303129754482,-0.0340283948622448,0.895681375959712,-0.394234182520779,0.895681375970474,-0.394234182522487,-0.0060901259830401,-0.033847903192844
45.5,-0.00628074074090051,-0.0344110100050661,0.893810528026171,-0.398232572832478,0.893810528036679,-0.398232572834359,-0.00636322112232413,-0.0342337655010121
46,-0.00655246228510475,-0.0347906218011962,0.891922000000741,-0.402221957193849,0.891922000010992,-0.402221957195894,-0.00664043217812216,-0.0346160061507135
46.5,-0.00682809285216984,-0.0351672409040797,0.890015828514926,-0.406202240577429,0.890015828524917,-0.406202240579625,-0.00692161144710507,-0.034994677132197
47,-0.00710753788639867,-0.0355408793581931,0.888092051618597,-0.410173328778857,0.888092051628326,-0.410173328781195,-0.00720662688767171,-0.0353698307706667
47.5,-0.00739071063478353,-0.0359115500080016,0.886150708713486,-0.41413512842139,0.886150708722949,-0.41413512842386,-0.00749536049424898,-0.0357415187354935
48,-0.00767753146893674,-0.0362792660138451,0.884191840489951,-0.418087546959077,0.884191840499147,-0.418087546961669,-0.00778770680317525,-0.0361097912821498
48.5,-0.00796792725060086,-0.0366440404586648,0.882215488866848,-0.422030492678742,0.882215488875776,-0.422030492681445,-0.00808357152934114,-0.0364746966839009
49,-0.00826183074132197,-0.0370058860315772,0.880221696934291,-0.425963874700904,0.88022169694295,-0.425963874703709,-0.00838287032927421,-0.0368362808171805
49.5,-0.00855918005575879,-0.0373648147762016,0.878210508899157,-0.429887602979735,0.878210508907545,-0.429887602982632,-0.0086855276841355,-0.0371945868706214
50,-0.00885991815734927,-0.0377208378933471,0.876181970033156,-0.433801588302159,0.876181970041274,-0.433801588305138,-0.00899147589476385,-0.0375496551528502
50.5,-0.00916399239451371,-0.0380739655891467,0.874136126623328,-0.437705742286186,0.874136126631176,-0.43770574228924,-0.00930065418025794,-0.0379015229785584
51,-0.00947135407524496,-0.0384242069610381,0.872073025924822,-0.441599977378551,0.872073025932401,-0.441599977381668,-0.00961300787137293,-0.038250224616029
51.5,-0.0097819580777439,-0.0387715699151234,0.869992716115825,-0.445484206851729,0.869992716123134,-0.445484206854902,-0.00992848769016275,-0.038595791282438
52,-0.0100957624946605,-0.039116061109445,0.867895246254509,-0.449358344800408,0.867895246261551,-0.449358344803626,-0.0102470491076174,-0.0389382511757859
52.5,-0.0104127283084978,-0.0394576859185241,0.865780666237904,-0.45322230613745,0.865780666244679,-0.453222306140706,-0.010568651771525,-0.0392776295344628
53,-0.0107328190957818,-0.0397964484152702,0.863649026762559,-0.457076006589408,0.863649026769071,-0.457076006592693,-0.0108932589973275,-0.0396139487172229
53.5,-0.0110560007576776,-0.0401323513669797,0.861500379286918,-0.460919362691642,0.861500379293167,-0.460919362694947,-0.0112208373153285,-0.0399472282977699
54,-0.011382241274852,-0.0404653962426665,0.859334775995292,-0.46475229178307,0.859334776001281,-0.464752291786389,-0.0115513560681763,-0.0402774851693563
54.5,-0.011711510484504,-0.0407955832294256,0.857152269763355,-0.468574712000597,0.857152269769087,-0.46857471200392,-0.0118847870531289,-0.0406047336557508
55,-0.0120437798776182,-0.0411229112559155,0.854952914125079,-0.472386542273243,0.854952914130557,-0.472386542276564,-0.0122211042041444,-0.0409289856257361
55.5,-0.0123790224146384,-0.0414473780213623,0.852736763241019,-0.476187702316019,0.852736763246246,-0.47618770231933,-0.01256028330934,-0.041250250608906
56,-0.012717212357887,-0.0417689800287594,0.85050387186789,-0.47997811262355,0.85050387187287,-0.479978112626844,-0.0129023017598387,-0.0415685359110711
56.5,-0.0130583251192069,-0.0420877126211863,0.848254295329361,-0.483757694463497,0.848254295334097,-0.483757694466767,-0.0132471383264576,-0.0418838467279909
57,-0.0134023371214024,-0.0424035700203411,0.845988089488,-0.487526369869773,0.845988089492497,-0.487526369873013,-0.0135947729610641,-0.0421961862564699
57.5,-0.0137492256722079,-0.0427165453665518,0.843705310718314,-0.491284061635587,0.843705310722576,-0.491284061638789,-0.0139451866197963,-0.0425055558021283
58,-0.0140989688495993,-0.0430266307596835,0.841406015880835,-0.495030693306329,0.841406015884866,-0.495030693309489,-0.0142983611056542,-0.0428119548833876
58.5,-0.0144515453973859,-0.0433338173004495,0.839090262297179,-0.49876618917231,0.839090262300985,-0.498766189175422,-0.0146542789282492,-0.0431153813313333
59,-0.0148069346301188,-0.0436380951317435,0.836758107726058,-0.502490474261367,0.836758107729643,-0.502490474264424,-0.0150129231787551,-0.0434158313852979
59.5,-0.0151651163464222,-0.0439394534796889,0.834409610340168,-0.506203474331345,0.834409610343538,-0.506203474334343,-0.0153742774183333,-0.0437132997840683
60,-0.0155260707499618,-0.0442378806941669,0.832044828703941,-0.509905115862481,0.832044828707101,-0.509905115865414,-0.0157383255784911,-0.0440077798527229
60.5,-0.0158897783773299,-0.044533364288633,0.829663821752097,-0.513595326049669,0.829663821755051,-0.513595326052532,-0.016105051872033,-0.0442992635851582
61,-0.0162562200321879,-0.0448258909790907,0.827266648768965,-0.517274032794641,0.82726664877172,-0.51727403279743,-0.0164744407133968,-0.044587741722401
61.5,-0.0166253767250801,-0.0451154467221129,0.824853369368548,-0.52094116469807,0.824853369371111,-0.520941164700781,-0.0168464766473196,-0.0448732038268428
62,-0.0169972296183897,-0.0454020167518483,0.822424043475289,-0.524596651051576,0.822424043477664,-0.524596651054205,-0.0172211442849039,-0.0451556383525569
