"Freq [GHz]","re(St(P1,P1)) []","im(St(P1,P1)) []","re(St(P1,P2)) []","im(St(P1,P2)) []","re(St(P2,P1)) []","im(St(P2,P1)) []","re(St(P2,P2)) []","im(St(P2,P2)) []"
0,0.00368028858372327,0,0.996331620102865,0,0.996331618938711,0,0.00368028928187414,0
0.5,0.00404733755561182,0.000937266531156666,0.995862703553918,-0.00599676797677162,0.995862703631332,-0.00599676810754701,0.00404729923158698,0.000937286444568031
1,0.00435398476587068,0.00139661666738888,0.995292470774974,-0.0114787970890795,0.995292470797153,-0.0114787971410486,0.00435386277750993,0.00139667763274787
1.5,0.00418072390193913,0.00199031548835293,0.994802104109993,-0.0170471025355781,0.994802104117172,-0.0170471025985748,0.00418061225732735,0.00199072317013815
2,0.00401324945324255,0.00252089664341071,0.99420299248975,-0.0224569958045073,0.994202992484544,-0.0224569958673726,0.00401290267279819,0.00252166594316705
2.5,0.00387057424357717,0.00301320316926024,0.993545453126226,-0.0277098285409174,0.993545453114158,-0.027709828595448,0.00386982029866978,0.00301422894015779
3,0.0037565168147955,0.00348913999234668,0.9928652061939,-0.0328237865783052,0.992865206180926,-0.0328237866199732,0.00375527814998211,0.00349029342451956
3.5,0.00366805898982792,0.00396411706350364,0.99218248366276,-0.0378237058416584,0.992182483653644,-0.0378237058690178,0.00366631986384425,0.0039652958514047
4,0.00360029117219818,0.00444824324950766,0.991505328260783,-0.0427342568519222,0.99150532825849,-0.0427342568655948,0.00359806382539452,0.00444938382062965
4.5,0.00354846906474071,0.00494829936634389,0.990833871083085,-0.04757664749466,0.990833871088865,-0.0475766474964452,0.00354577230186814,0.00494937321544064
5,0.00350860859500512,0.00546926167627326,0.990163926470047,-0.0523676903690866,0.990163926483829,-0.052367690361292,0.00350545667780433,0.00547026826499675
5.5,0.00347750383458334,0.00601527966221482,0.989489460156506,-0.057120070771985,0.989489460177337,-0.0571200707570805,0.00347390130064162,0.00601624044786142
6,0.00345256669730076,0.00659027286199798,0.988804065739908,-0.0618430561050562,0.988804065766338,-0.0618430560854426,0.00344850597017077,0.00659122747348118
6.5,0.00343163786610001,0.00719830449608683,0.98810174091996,-0.0665432598700386,0.988101740950326,-0.0665432598479585,0.00342709786704309,0.00719930892113307
7,0.00341281346371836,0.00784383792663856,0.987377227927715,-0.0712253052826313,0.987377227960329,-0.0712253052601159,0.00340775826758355,0.0078449643605758
7.5,0.00339429272744551,0.0085319409120217,0.986626107502729,-0.0758923500781625,0.986626107535995,-0.075892350057023,0.00338866972238089,0.00853327899879996
8,0.00337423869017722,0.00926847774909856,0.985844766619503,-0.0805464824027808,0.985844766651975,-0.0805464823846069,0.00336797586495441,0.00927013708968349
8.5,0.00335063961906906,0.0100603163625097,0.985030310364999,-0.0851890123815915,0.985030310395408,-0.0851890123677714,0.00334364161617623,0.0100624303101933
9,0.00332115688803963,0.0109155719272671,0.984180456444465,-0.0898206845174698,0.984180456471718,-0.0898206845092053,0.00331329937230682,0.0109183028266111
9.5,0.00328294222082121,0.0118439080786752,0.983293431736371,-0.0944418319084424,0.983293431759547,-0.0944418319067566,0.00327406392988733,0.0118474542448803
10,0.0032324022857417,0.0128569199483977,0.982367879544947,-0.0990524883520703,0.982367879563275,-0.0990524883578319,0.00322229382671368,0.0128615248411759
10.5,0.00337286892464959,0.0134811103631556,0.981515946529187,-0.103642326284663,0.98151594654727,-0.103642326288694,0.00336678627548831,0.013486275725084
11,0.00352023035556501,0.0141024074683744,0.980655297584238,-0.108208931011003,0.980655297602272,-0.10820893101338,0.00351849934158036,0.014108223398579
11.5,0.00367450836751944,0.0147206298801086,0.979786457370422,-0.112754326264223,0.979786457388579,-0.112754326265035,0.00367747747383104,0.014727203855204
12,0.00383573061145143,0.0153355884983366,0.97890973069888,-0.11728039930495,0.978909730717306,-0.117280399304295,0.00384377302091503,0.015343048459358
12.5,0.00400393174246217,0.0159470857602595,0.97802523910479,-0.121788893049831,0.978025239123613,-0.121788893047825,0.00401744748716196,0.0159555837415715
13,0.00417915476769784,0.016554914840651,0.977132953784883,-0.126281403387484,0.977132953804207,-0.126281403384238,0.00419857297906256,0.0165646312398064
13.5,0.00436145263934366,0.0171588588018761,0.976232724755974,-0.130759380464764,0.976232724775886,-0.130759380460399,0.00438723387126727,0.017170007407759
14,0.0045508901402026,0.0177586896995914,0.9753243062867,-0.135224132905887,0.975324306307269,-0.135224132900521,0.00458352872474366,0.0177715236178959
14.5,0.00474754611893172,0.0183541676551089,0.974407378786815,-0.139676834103255,0.974407378808092,-0.139676834097004,0.00478757249386949,0.0183689862953997
15,0.00495151614346517,0.0189450399123143,0.973481567420574,-0.144118529882631,0.973481567442597,-0.144118529875609,0.00499949906332472,0.0189621972301102
15.5,0.0051629156548513,0.01953103990683,0.97254645775508,-0.148550146990701,0.972546457777875,-0.148550146983017,0.00521946415952604,0.0195509541275092
16,0.00538188371990156,0.0201118863888152,0.971601608771129,-0.152972501978565,0.971601608794709,-0.152972501970328,0.00544764868448586,0.0201350514775376
16.5,0.00560858750002055,0.0206872826596625,0.97064656356153,-0.157386310159962,0.970646563585898,-0.157386310151267,0.00568426252165616,0.020714281842436
17,0.00584322757548111,0.0212569160091336,0.969680858026603,-0.161792194409355,0.969680858051756,-0.161792194400298,0.00592954886251862,0.0212884376931641
17.5,0.00608604428918383,0.0218204574753775,0.968704027853616,-0.16619069363459,0.968704027879541,-0.166190693625259,0.00618378909765704,0.0218573139592957
18,0.00633732530111261,0.0223775620996336,0.967715614039839,-0.170582270813575,0.967715614066517,-0.17058227080405,0.00644730830458015,0.0224207115011574
18.5,0.00659741457296131,0.0229278699145934,0.966715167190422,-0.174967320526938,0.96671516721783,-0.174967320517295,0.00672048134313885,0.0229784417666159
19,0.0068667230293315,0.0234710079966129,0.965702250794052,-0.179346175950851,0.965702250822162,-0.179346175941161,0.00700373953331715,0.0235303329595458
19.5,0.00714574116282424,0.0240065940350811,0.964676443652467,-0.183719115298091,0.964676443681247,-0.183719115288418,0.00729757783279006,0.024076238123043
20,0.00743505385730747,0.024534242036983,0.963637341615158,-0.188086367712781,0.963637341644575,-0.188086367703182,0.00760256234392806,0.0246160456269453
20.5,0.00773535768351005,0.0250535710033968,0.962584558748127,-0.192448118636321,0.962584558778143,-0.192448118626852,0.00791933785001162,0.025149692642938
21,0.00804748085248014,0.0255642177007549,0.961517728045703,-0.196804514670107,0.96151772807628,-0.196804514660813,0.00824863489300953,0.0256771822836446
21.5,0.00837240586200311,0.026065855017424,0.960436501776919,-0.20115566796567,0.960436501808018,-0.201155667956596,0.00859127564178705,0.0261986051599408
22,0.00871129458747422,0.0265582178561492,0.959340551542822,-0.205501660175587,0.959340551574401,-0.20550166016677,0.00894817743911316,0.0267141661479928
22.5,0.00906551507578568,0.027041139065616,0.958229568108068,-0.209842545999532,0.958229568140086,-0.209842545991007,0.00932035243769958,0.0272242171123864
23,0.00943666848887603,0.0275145985361138,0.957103261059044,-0.214178356359701,0.95710326109146,-0.214178356351499,0.00970890112560774,0.0277292961409277
23.5,0.00982661336270896,0.0279787892032821,0.955961358331358,-0.218509101238824,0.955961358364131,-0.218509101230973,0.0101149968033096,0.0282301734173362
24,0.0102374824068711,0.0284342041603072,0.954803605641616,-0.222834772212426,0.954803605674704,-0.222834772204948,0.0105398572493569,0.0287279030654553
24.5,0.0106716842569796,0.0288817490631215,0.953629765851755,-0.227155344705058,0.953629765885117,-0.227155344697973,0.0109846990064031,0.0292238789881243
25,0.0111318787326313,0.0293228829803671,0.952439618288691,-0.231470779998196,0.952439618322286,-0.231470779991521,0.0114506691491045,0.0297198907329335
25.5,0.0116209092541938,0.0297597879137015,0.951232958037431,-0.235781027015254,0.951232958071221,-0.235781027009004,0.0119387494282087,0.0302181726265227
26,0.0121416705962962,0.0301955611234761,0.950009595222011,-0.240086023907049,0.950009595255955,-0.240086023901235,0.0124496288758942,0.0307214358534667
26.5,0.0126968854900258,0.0306344135645862,0.948769354285481,-0.244385699458948,0.948769354319543,-0.24438569945358,0.0129835440319757,0.0312328691452872
27,0.0132887626734489,0.0310818407566211,0.947512073277664,-0.248679974338877,0.947512073311803,-0.248679974333961,0.0135400916744686,0.0317560901346712
27.5,0.0139185169137052,0.0315447092276417,0.946237603157206,-0.252968762203582,0.946237603191388,-0.252968762199123,0.0141180277926835,0.032295027768847
28,0.0145857553518624,0.0320311758039289,0.944945807112909,-0.257251970678673,0.944945807147098,-0.257251970674675,0.014715078157829,0.0328537187249576
28.5,0.0152877811092807,0.03255033855514,0.943636559907802,-0.261529502226462,0.943636559941965,-0.261529502222926,0.0153277982806866,0.0334360100674986
29,0.0160189352705273,0.0331115257668713,0.942309747248433,-0.2658012549141,0.942309747282535,-0.265801254911024,0.0159515297373862,0.0340451781318032
29.5,0.0167701774567746,0.0337231868058072,0.94096526518092,-0.270067123093143,0.940965265214928,-0.270067123090527,0.016580499912182,0.0346834988918612
30,0.0175291549141108,0.0343914715921265,0.939603019514631,-0.27432699800056,0.939603019548516,-0.274326997998401,0.0172080973029183,0.0353518326024203
30.5,0.0182809738185359,0.0351187562627002,0.938222925273829,-0.278580768289994,0.93822292530756,-0.278580768288287,0.0178273223434193,0.0360493054081423
31,0.0190097214365696,0.0359025218408584,0.936824906177154,-0.282828320501195,0.9368249062107,-0.282828320499936,0.0184313691928934,0.0367731711871624
31.5,0.0197005161938459,0.0367350140585123,0.935408894144545,-0.287069539474619,0.93540889417788,-0.287069539473799,0.0190142505376856,0.03751891057997
32,0.0203416001856503,0.0376039316080301,0.933974828830934,-0.291304308717408,0.93397482886403,-0.291304308717021,0.0195713528890458,0.0382805738357337
32.5,0.0209258949983872,0.0384940476538171,0.932522657185855,-0.295532510726292,0.932522657218686,-0.295532510726329,0.0200998174319041,0.0390513149692766
33,0.0214516032728347,0.039389330928175,0.93105233303802,-0.29975402727229,0.93105233307056,-0.299754027272743,0.0205986815656449,0.0398240184811218
33.5,0.0219217827812519,0.0402749834270155,0.929563816703803,-0.303968739651569,0.92956381673603,-0.303968739652425,0.0210687746215653,0.0405919038234646
34,0.0223431592369541,0.041138917965901,0.928057074618538,-0.308176528906291,0.928057074650428,-0.308176528907543,0.0215124160649603,0.0413490106824448
34.5,0.022724615688567,0.0419724686514316,0.926532078989488,-0.312377276018899,0.926532079021019,-0.312377276020533,0.0219329977956719,0.0420905093887276
35,0.0230757648043567,0.0427703990451171,0.924988807469383,-0.31657086208281,0.924988807500534,-0.316570862084816,0.0223345375865867,0.0428128275470436
35.5,0.0234058541892386,0.0435304329104194,0.923427242849387,-0.320757168452242,0.923427242880138,-0.320757168454606,0.0227212737104441,0.0435136207676043
36,0.0237230817129181,0.0442525622181074,0.921847372770403,-0.324936076873531,0.921847372800735,-0.324936076876242,0.0230973430158359,0.0441916347650697
36.5,0.0240342762231749,0.0449383322155794,0.920249189451657,-0.329107469600036,0.920249189481551,-0.32910746960308,0.0234665572451953,0.0448465088786689
37,0.0243448443561591,0.0455902214312076,0.918632689435524,-0.333271229492507,0.918632689464963,-0.33327122949587,0.0238322719842551,0.0454785628303984
37.5,0.0246588794418605,0.0462111635157605,0.916997873347625,-0.337427240106554,0.916997873376593,-0.337427240110223,0.0241973312023546,0.0460885956741128
38,0.0249793490623639,0.0468042116817975,0.915344745671235,-0.341575385768702,0.915344745699716,-0.341575385772663,0.0245640665475267,0.0466777131915519
38.5,0.0253083049011725,0.0473723236118904,0.913673314535126,-0.345715551642308,0.913673314563107,-0.345715551646546,0.0249343317745583,0.0472471899848594
39,0.025647082225099,0.0479182377387022,0.911983591513988,-0.349847623784497,0.911983591541454,-0.349847623788998,0.0253095563761361,0.0477983658780028
39.5,0.0259964734064669,0.0484444134744229,0.910275591440625,-0.353971489195147,0.910275591467562,-0.353971489199895,0.0256908068341588,0.0483325725784907
40,0.026356870593006,0.0489530131562668,0.908549332229173,-0.358087035858804,0.908549332255569,-0.358087035863785,0.0260788478708834,0.04885108506179
40.5,0.0267283785173232,0.0494459092687969,0.906804834708635,-0.362194152780354,0.90680483473448,-0.362194152785554,0.026474199221553,0.0493550920134191
41,0.0271109011582472,0.0499247055740093,0.905042122466055,-0.366292730015146,0.905042122491337,-0.366292730020548,0.0268771857064302,0.0498456802589977
41.5,0.0275042068256823,0.0503907647150379,0.903261221698707,-0.370382658694197,0.903261221723416,-0.370382658699786,0.0272879798683066,0.0503238289990946
42,0.0279079761236199,0.0508452376924957,0.901462161074719,-0.374463831045043,0.901462161098846,-0.374463831050806,0.0277066373399097,0.0507904105884078
42.5,0.0283218366939554,0.0512890925442373,0.899644971601576,-0.378536140408735,0.899644971625113,-0.378536140414654,0.0281331255884878,0.0512461954280325
43,0.0287453879591892,0.0517231408188623,0.897809686501988,-0.382599481253404,0.897809686524928,-0.382599481259464,0.0285673468954922,0.0516918592253182
43.5,0.0291782184171079,0.0521480612201914,0.895956341096654,-0.386653749184808,0.895956341118989,-0.386653749190995,0.0290091564739075,0.0521279914120906
44,0.0296199174604669,0.0525644202690677,0.894084972693458,-0.390698840954184,0.89408497271518,-0.390698840960482,0.0294583765778369,0.0525551039146285
44.5,0.0300700832180238,0.0529726900915057,0.892195620482687,-0.394734654463724,0.892195620503793,-0.394734654470119,0.0299148073659561,0.0529736397610785
45,0.0305283275360846,0.0533732635755056,0.8902883254379,-0.398761088769958,0.890288325458384,-0.398761088776432,0.0303782351715438,0.053383981218291
45.5,0.0309942789285558,0.0537664671936207,0.888363130222044,-0.402778044085249,0.888363130241901,-0.40277804409179,0.030848438723467,0.0537864572914529
46,0.0314675841027161,0.0541525717978006,0.886420079098515,-0.406785421777665,0.886420079117742,-0.406785421784256,0.0313251937633527,0.0541813505141161
46.5,0.0319479085025818,0.0545318016778007,0.884459217846842,-0.410783124369366,0.884459217865436,-0.410783124375994,0.0318082764177147,0.0545689030167396
47,0.0324349361890955,0.0549043421472373,0.882480593682683,-0.414771055533722,0.882480593700639,-0.414771055540371,0.0322974656108871,0.0549493218989112
47.5,0.0329283692860627,0.055270345889791,0.880484255181874,-0.418749120091269,0.880484255199193,-0.418749120097924,0.0327925447444539,0.0553227839515577
48,0.0334279271546582,0.0556299382662203,0.878470252208287,-0.422717224004665,0.878470252224967,-0.422717224011313,0.0332933028200696,0.0556894397859464
48.5,0.0339333454111741,0.0559832217531041,0.876438635845228,-0.426675274372755,0.876438635861268,-0.426675274379381,0.0337995351434522,0.056049417429906
49,0.0344443748677825,0.0563302796575087,0.874389458330188,-0.430623179423837,0.874389458345588,-0.430623179430427,0.0343110437162807,0.0564028254511068
49.5,0.0349607804509228,0.0566711792284669,0.872322772992722,-0.434560848508237,0.872322773007483,-0.434560848514778,0.0348276373982712,0.0567497556640912
50,0.0354823401338375,0.0570059742661372,0.870238634195274,-0.438488192090269,0.870238634209395,-0.438488192096747,0.0353491319025288,0.0570902854732954
50.5,0.0360088439069102,0.0573347073125935,0.868137097276755,-0.442405121739643,0.868137097290238,-0.442405121746044,0.0358753496723344,0.0574244798992477
51,0.0365400928003308,0.0576574114939354,0.866018218498738,-0.446311550122398,0.866018218511586,-0.44631155012871,0.0364061196759224,0.0577523933299875
51.5,0.0370758979672108,0.057974112071565,0.863882054994079,-0.450207390991411,0.863882055006293,-0.45020739099762,0.0369412771468129,0.0580740710347614
52,0.0376160798308581,0.0582848277505954,0.861728664717847,-0.454092559176526,0.861728664729431,-0.45409255918262,0.037480663290361,0.0583895504724412
52.5,0.0381604672968888,0.05858957178516,0.859558106400424,-0.457966970574354,0.85955810641138,-0.457966970580321,0.0380241249718355,0.0586988624228731
53,0.0387088970288788,0.0588883529136665,0.857370439502632,-0.461830542137779,0.857370439512966,-0.461830542143605,0.0385715143972823,0.0590020319656176
53.5,0.0392612127849629,0.0591811761513976,0.855165724172804,-0.465683191865205,0.85516572418252,-0.46568319187088,0.0391226887952953,0.0592990793271844
54,0.0398172648120289,0.0594680434632772,0.852944021205657,-0.469524838789576,0.852944021214758,-0.469524838795088,0.0396775101054688,0.0595900206149732
54.5,0.0403769092937457,0.0597489543357879,0.850705392002888,-0.473355402967188,0.850705392011381,-0.473355402972525,0.0402358446774884,0.0598748684535636
55,0.0409400078484917,0.0600239062638651,0.848449898535388,-0.477174805466327,0.848449898543278,-0.477174805471479,0.0407975629834929,0.060153632536816
55.5,0.041506427073261,0.0602928951659915,0.846177603306996,-0.48098296835574,0.846177603314289,-0.480982968360696,0.041362539345311,0.0604263201073393
56,0.0420760381297204,0.0605559157385391,0.843888569319697,-0.48477981469297,0.8438885693264,-0.48477981469772,0.0419306516774435,0.0606929363732434
56.5,0.042648716368775,0.0608129617586337,0.841582860040203,-0.488565268512562,0.841582860046323,-0.488565268517096,0.0425017812461039,0.060953484870701
57,0.0432243409902235,0.0610640263432978,0.839260539367835,-0.492339254814157,0.83926053937338,-0.492339254818465,0.0430758124442479,0.0612079677796369
57.5,0.043802794734308,0.0613091021714109,0.836921671603645,-0.496101699550478,0.836921671608622,-0.496101699554552,0.0436526325822258,0.0614563861988295
58,0.0443839636022177,0.0615481816739936,0.83456632142071,-0.499852529615239,0.834566321425127,-0.499852529619069,0.0442321316935205,0.0616987403858288
58.5,0.044967736602849,0.0617812571974443,0.832194553835548,-0.503591672830955,0.832194553839415,-0.503591672834534,0.0448142023548945,0.0619350299663485
59,0.0455540055233459,0.0620083211436546,0.829806434180604,-0.50731905793669,0.829806434183928,-0.507319057940009,0.0453987395201959,0.0621652541171287
59.5,0.0461426647211782,0.0622293660903241,0.827402028077734,-0.511034614575733,0.827402028080526,-0.511034614578785,0.0459856403670348,0.0623894117257229
60,0.0467336109357147,0.0624443848942812,0.824981401412673,-0.51473827328321,0.824981401414942,-0.514738273285987,0.0465748041555331,0.0626075015301859
60.5,0.0473267431174461,0.0626533707802027,0.822544620310413,-0.518429965473644,0.822544620312169,-0.518429965476139,0.047166132098344,0.0628195222412338
61,0.0479219622731721,0.062856317416767,0.82009175111147,-0.522109623428455,0.820091751112723,-0.522109623430662,0.0477595272411705,0.0630254726490989
61.5,0.0485191713256557,0.0630532189819678,0.81762286034899,-0.525777180283423,0.817622860349751,-0.525777180285335,0.0483548943530326,0.0632253517169941
62,0.0491182749863699,0.0632440702190714,0.815138014726665,-0.52943257001609,0.815138014726943,-0.529432570017703,0.0489521398255695,0.0634191586628677
62.5,0.0497191796401038,0.0634288664844731,0.812637281097418,-0.533075727433135,0.812637281097227,-0.533075727434443,0.0495511715807005,0.0636068930308781
63,0.050321793240319,0.0636076037885439,0.810120726442838,-0.536706588157694,0.810120726442188,-0.536706588158693,0.0501518989860111,0.063788554753848
63.5,0.0509260252142525,0.0637802788303855,0.807588417853316,-0.540325088616657,0.80758841785222,-0.540325088617343,0.0507542327772684,0.0639641442077957
64,0.0515317863768585,0.0639468890272999,0.80504042250888,-0.543931166027912,0.805040422507349,-0.54393116602828,0.0513580849875104,0.0641336622594815
