"Freq [GHz]","re(St(P1,P1)) []","im(St(P1,P1)) []","re(St(P1,P2)) []","im(St(P1,P2)) []","re(St(P2,P1)) []","im(St(P2,P1)) []","re(St(P2,P2)) []","im(St(P2,P2)) []"
0,0.00344165520178308,0,0.9965683601622,0,0.996568358648801,0,0.00344169091877689,0
0.5,0.00381883251427695,0.000375432588228364,0.996090978943165,-0.00590417887924843,0.996090979071568,-0.00590417888253825,0.00381877440867839,0.000375636946259306
1,0.0041227198149052,0.000263471318369568,0.995537396416726,-0.0112888519857677,0.995537396372765,-0.011288852035598,0.00412252521898893,0.000263909933639894
1.5,0.00414791034977746,0.000387544204187407,0.995069000189064,-0.016768461403398,0.995069000146854,-0.0167684614644088,0.00414669267104806,0.000388261705360549
2,0.00419136845245482,0.000499161560959749,0.994497623649796,-0.022096016830357,0.994497623614725,-0.0220960168920286,0.00418856650128863,0.000500327369188369
2.5,0.00426259781816007,0.000586096449273654,0.993871376178832,-0.0272733554175097,0.993871376156767,-0.0272733554715696,0.00425749915937956,0.000588185709842648
3,0.00437347311166825,0.000621437565612837,0.993224034258941,-0.0323183408788026,0.993224034254272,-0.0323183409200567,0.00436532386863409,0.000625679380071631
3.5,0.00452504240181018,0.000544513139152158,0.992574386787351,-0.0372549758338234,0.992574386802015,-0.0372549758597689,0.00451398283007309,0.000553708867339964
4,0.00464062224014317,0.000243918947656852,0.991929571358502,-0.0421068913753775,0.991929571391932,-0.0421068913855223,0.00463133912448344,0.000261813660902277
4.5,0.00442260036531783,-0.000289056661237908,0.991289263453289,-0.0468942696468115,0.991289263502954,-0.0468942696420314,0.00442548604869453,-0.000268559026393334
5,0.00370272857176168,-0.000553714995749743,0.990649140641547,-0.0516330290850462,0.990649140703636,-0.051633029067121,0.00370925844723358,-0.00054583745247605
5.5,0.00305271003672636,-0.000288961331079918,0.990003229877392,-0.0563351332947288,0.990003229947471,-0.0563351332659856,0.00305038032190219,-0.000284649374144408
6,0.00272587885999453,0.000102106809841906,0.989345292728101,-0.0610092967941718,0.989345292801614,-0.061009296757268,0.00271961889970718,0.000109959033351537
6.5,0.00257379410543235,0.000419482387513881,0.988669540862846,-0.0656617254638689,0.988669540935456,-0.0656617254216219,0.00256733205810533,0.000429972568735337
7,0.00248654615844046,0.000654645645859375,0.987970939781082,-0.0702967513104031,0.987970939848866,-0.0702967512656656,0.00248069925110261,0.000666257096887612
7.5,0.00242043567729333,0.000831010087213535,0.987245282673512,-0.074917330191882,0.987245282733061,-0.0749173301474366,0.002415139009044,0.000842890205432489
8,0.00236000194684699,0.000967318579747634,0.986489148514105,-0.0795254150360494,0.986489148562545,-0.079525414994551,0.00235504844088391,0.000979052829999993
8.5,0.00230004854773841,0.00107558337012836,0.985699810484097,-0.0841222295535866,0.985699810519067,-0.0841222295174999,0.00229526148976023,0.00108697405241376
9,0.00223908552277668,0.00116334427163256,0.984875130422713,-0.088708467074448,0.984875130442317,-0.0887084670460379,0.002234341627878,0.00117429708336481
9.5,0.00217696711170035,0.00123546460131152,0.984013457028792,-0.0932844346894397,0.984013457031543,-0.0932844346707311,0.00217218770479113,0.00124593562033493
10,0.00211401236061376,0.00129521264312427,0.983113535477557,-0.0978501579727871,0.983113535462312,-0.0978501579655866,0.0021091510775095,0.00130518355661824
10.5,0.00215945925415756,0.00135299849848813,0.982289649717998,-0.102392018231268,0.982289649703139,-0.102392018223992,0.00216116431419769,0.00136529515730466
11,0.00220755025822503,0.00140981570866394,0.981457403825403,-0.106911433972789,0.981457403810922,-0.106911433965455,0.00221613947761777,0.00142478065150886
11.5,0.00225835683631784,0.00146563593971294,0.980617316030838,-0.111410375199457,0.980617316016726,-0.111410375192084,0.00227413893020553,0.00148364615220675
12,0.00231195603300452,0.00152043533549939,0.979769690333055,-0.115890681255778,0.979769690319302,-0.115890681248386,0.00233522760969669,0.00154190464931059
12.5,0.00236843067835824,0.00157419527211911,0.978914651815253,-0.120354052880556,0.97891465180185,-0.120354052873159,0.00239947270729812,0.00159957673845978
13,0.00242786955479745,0.00162690321474868,0.978052178503693,-0.124802049308724,0.978052178490629,-0.124802049301338,0.00246694325079341,0.00165669139239943
13.5,0.00249036751104818,0.00167855368613479,0.977182129615354,-0.129236089250578,0.977182129602618,-0.129236089243215,0.00253770957689541,0.00171328676910543
14,0.00255602550464885,0.00172914935546453,0.976304270232607,-0.133657454746297,0.976304270220189,-0.133657454738971,0.00261184267595511,0.00176941104780859
14.5,0.00262495055056396,0.00177870225539634,0.975418292572607,-0.138067297061935,0.975418292560496,-0.138067297054655,0.00268941339121123,0.00182512328077822
15,0.00269725554917195,0.00182723513329153,0.974523834100612,-0.142466643949815,0.974523834088797,-0.14246664394259,0.0027704914542059,0.00188049424453762
15.5,0.00277305896208474,0.00187478294005361,0.973620492781167,-0.146856407736138,0.973620492769638,-0.146856407728976,0.00285514433807173,0.00193560726950404
16,0.00285248429905494,0.00192139445613115,0.972707839778837,-0.151237393819447,0.972707839767583,-0.151237393812356,0.00294343591123024,0.00199055902161938
16.5,0.00293565937376472,0.00196713404891202,0.971785429919138,-0.155610309265356,0.971785429908149,-0.155610309258341,0.0030354248759934,0.00204546020350671
17,0.00302271528078901,0.00201208354857485,0.970852810206652,-0.159975771266625,0.970852810195918,-0.159975771259693,0.00313116297980651,0.00210043613616007
17.5,0.0031137850408369,0.00205634422013201,0.969909526676058,-0.164334315305161,0.969909526665569,-0.164334315298314,0.0032306929918447,0.00215562717539264
18,0.00320900185699732,0.00210003879754472,0.968955129826347,-0.168686402905883,0.968955129816094,-0.168686402899127,0.0033340464445536,0.00221118891040728
18.5,0.00330849692180341,0.00214331353110797,0.967989178861453,-0.173032428913903,0.967989178851427,-0.17303242890724,0.0034412411489379,0.00226729208557064
19,0.00341239671442412,0.00218634018161046,0.967011244933604,-0.177372728257942,0.967011244923797,-0.177372728251377,0.00355227850408402,0.00232412218107969
19.5,0.00352081973023943,0.00222931787396297,0.966020913559998,-0.181707582186549,0.966020913550402,-0.181707582180081,0.00366714063568793,0.00238187858468564
20,0.00363387259289302,0.00227247469950242,0.965017786359612,-0.186037223980584,0.965017786350218,-0.186037223974216,0.00378578741526978,0.0024407732857008
20.5,0.00375164551310711,0.00231606893031211,0.964001482235366,-0.190361844157661,0.964001482226168,-0.190361844151396,0.00390815343087808,0.00250102902513394
21,0.00387420708090194,0.0023603896824409,0.9629716381077,-0.194681595192121,0.962971638098691,-0.194681595185959,0.00403414500090574,0.00256287684321332
21.5,0.00400159840984407,0.00240575683912025,0.96192790928869,-0.198996595779335,0.961927909279862,-0.198996595773276,0.00416363734408834,0.0026265529785312
22,0.00413382669517415,0.00245252002341845,0.960869969571229,-0.203306934675863,0.960869969562577,-0.203306934669907,0.00429647203948766,0.00269229509264735
22.5,0.0042708583027149,0.00250105639541376,0.959797511095142,-0.207612674148216,0.959797511086659,-0.207612674142365,0.00443245492826888,0.00276033782063978
23,0.00441261157222017,0.00255176704694771,0.958710244041335,-0.211913853062919,0.958710244033016,-0.211913853057171,0.00457135462228725,0.0028309076819375
23.5,0.00455894959545422,0.0026050717824595,0.957607896195951,-0.216210489649684,0.957607896187791,-0.216210489644038,0.00471290179019457,0.00290421742602476
24,0.0047096733118227,0.00266140211297605,0.956490212418759,-0.22050258396814,0.956490212410752,-0.220502583962598,0.00485678938749656,0.0029804599328731
24.5,0.0048645153465175,0.002721192357237,0.955356954043594,-0.224790120106702,0.955356954035736,-0.224790120101263,0.00500267398038295,0.0030598018356347
25,0.00502313508849617,0.00278486884257978,0.954207898233197,-0.22907306814027,0.954207898225482,-0.229073068134931,0.0051501782824141,0.00314237707964171
25.5,0.00518511555659734,0.00285283732953934,0.953042837306377,-0.233351385871363,0.953042837298802,-0.233351385866126,0.00529889497780051,0.00322828067293779
26,0.00534996261812049,0.00292546894432499,0.951861578051681,-0.237625020377193,0.951861578044243,-0.237625020372055,0.00544839184561585,0.00331756291439556
26.5,0.00551710709160474,0.00300308508339175,0.950663941038696,-0.241893909383258,0.95066394103139,-0.241893909378218,0.0055982181285032,0.00341022440096683
27,0.00568591017299191,0.00308594193881695,0.94944975993561,-0.246157982482015,0.949449759928432,-0.246157982477073,0.00574791201145353,0.00350621211187918
27.5,0.00585567246535301,0.00317421546079544,0.948218880839614,-0.250417162213491,0.948218880832561,-0.250417162208646,0.00589700899707868,0.00360541684114568
28,0.00602564666874345,0.00326798769906422,0.946971161625047,-0.254671365022905,0.946971161618116,-0.254671365018154,0.00604505089053298,0.0037076722003373
28.5,0.00619505371059204,0.0033672355220733,0.945706471312858,-0.258920502108898,0.945706471306045,-0.258920502104241,0.00619159504744676,0.00381275534220249
29,0.00636310179177041,0.00347182267911994,0.944424689463853,-0.263164480174516,0.944424689457156,-0.263164480169952,0.0063362234988682,0.00392038946706963
29.5,0.0065290075224777,0.00358149603298696,0.943125705597359,-0.267403202091804,0.943125705590776,-0.267403202087329,0.00647855155373306,0.00403024807453445
30,0.00669201806452796,0.00369588654937036,0.941809418636224,-0.271636567489677,0.941809418629753,-0.271636567485292,0.00661823549476442,0.0041419608212252
30.5,0.00685143302160413,0.00381451530106736,0.940475736378543,-0.275864473273729,0.940475736372181,-0.275864473269433,0.00675497902779348,0.00425512075076373
31,0.00700662475796004,0.00393680436220478,0.93912457499608,-0.280086814085634,0.939124574989824,-0.280086814081424,0.0068885382140883,0.00436929258308605
31.5,0.00715705589579135,0.00406209207496633,0.937755858559038,-0.284303482708966,0.937755858552888,-0.284303482704842,0.00701872470409287,0.00448402169448214
32,0.00730229294003298,0.00418965181755482,0.936369518586579,-0.288514370427527,0.936369518580532,-0.288514370423487,0.00714540719083351,0.00459884339152028
32.5,0.00744201528482474,0.00431871313269916,0.934965493622304,-0.29271936734154,0.934965493616358,-0.292719367337583,0.0072685111028955,0.00471329208306881
33,0.00757601923003381,0.00444848392369868,0.933543728833825,-0.296918362646503,0.933543728827978,-0.296918362642627,0.00738801665134142,0.0048269099832845
33.5,0.00770421703142121,0.00457817240473801,0.932104175635396,-0.30111124487894,0.932104175629649,-0.301111244875143,0.00750395542464544,0.00493925503018078
34,0.00782663137581613,0.0047070075988076,0.930646791332607,-0.305297902132801,0.930646791326956,-0.305297902129083,0.00761640578524164,0.00504990777286918
34.5,0.00794338597217453,0.0048342573870106,0.929171538788018,-0.309478222249871,0.929171538782463,-0.30947822224623,0.00772548735781692,0.00515847705826311
35,0.00805469315364576,0.0049592433923793,0.927678386106712,-0.3136520929871,0.927678386101252,-0.313652092983534,0.00783135491291331,0.00526460442760901
35.5,0.00816083948404228,0.00508135228932893,0.926167306340646,-0.317819402163513,0.926167306335279,-0.317819402160022,0.00793419194176287,0.00536796720800647
36,0.00826217035962667,0.00520004342880287,0.924638277210779,-0.321980037789008,0.924638277205504,-0.321980037785589,0.00803420419339407,0.00546828034904157
36.5,0.00835907451102191,0.00531485292892508,0.923091280845943,-0.326133888177091,0.92309128084076,-0.326133888173744,0.00813161340761476,0.00556529710654297
37,0.00845196916489999,0.00542539458203506,0.921526303537472,-0.330280842043386,0.92152630353238,-0.330280842040111,0.00822665143245721,0.00565880871264457
37.5,0.00854128644728308,0.00553135806334248,0.919943335508633,-0.334420788591536,0.919943335503631,-0.33442078858833,0.00831955486676023,0.00574864319400326
38,0.00862746142415272,0.00563250499558077,0.918342370697959,-0.338553617587917,0.918342370693046,-0.33855361758478,0.00841056032164567,0.00583466350937645
38.5,0.00871092199994145,0.00572866343669154,0.916723406555621,-0.34267921942645,0.916723406550798,-0.342679219423379,0.00849990035175457,0.00591676517604633
39,0.00879208074345161,0.00581972132629915,0.915086443852011,-0.346797485184627,0.915086443847275,-0.346797485181621,0.00858780007015791,0.00599487354415396
39.5,0.00887132859089806,0.00590561936558709,0.913431486497762,-0.350908306671762,0.913431486493115,-0.350908306668822,0.00867447443091163,0.00606894086168364
40,0.00894903028889593,0.00598634372712281,0.911758541374494,-0.355011576470344,0.911758541369933,-0.355011576467468,0.00876012614052885,0.00613894325283826
40.5,0.00902552138433371,0.00606191890722996,0.910067618175551,-0.359107187971276,0.910067618171078,-0.359107187968462,0.00884494414381787,0.00620487771104572
41,0.00910110653889462,0.00613240095187995,0.908358729256145,-0.363195035403707,0.908358729251758,-0.363195035400955,0.00892910261983521,0.00626675918647468
41.5,0.00917605893797191,0.00619787121325999,0.906631889492234,-0.367275013860071,0.906631889487933,-0.367275013857379,0.00901276041917765,0.00632461782779936
42,0.00925062057126835,0.00625843073123789,0.904887116147618,-0.371347019316879,0.904887116143402,-0.371347019314246,0.00909606087336956,0.00637849641994626
42.5,0.0093250031803439,0.00631419528308186,0.903124428748679,-0.37541094865175,0.90312442874455,-0.375410948649176,0.00917913190973718,0.0064284480440342
43,0.00939938969234022,0.00636529110572015,0.901343848966302,-0.379466699657125,0.901343848962258,-0.379466699654608,0.00926208640987397,0.00647453397281561
43.5,0.00947393598573998,0.00641185126656407,0.899545400504476,-0.383514171051026,0.899545400500517,-0.383514171048566,0.00934502275588628,0.0065168218046594
44,0.00954877286082656,0.0064540126398267,0.897729108995166,-0.38755326248522,0.897729108991292,-0.387553262482816,0.00942802551533889,0.00655538383122489
44.5,0.00962400811278008,0.0064919134337118,0.89589500189904,-0.39158387455108,0.895895001895251,-0.391583874548731,0.00951116622275011,0.006590295628214
45,0.00969972862814139,0.00652569120812352,0.89404310841167,-0.395605908783411,0.894043108407965,-0.395605908781116,0.00959450422222285,0.00662163485463751
45.5,0.0097760024451824,0.00655548132114214,0.89217345937485,-0.399619267662476,0.892173459371231,-0.399619267660235,0.00967808754210131,0.00664948024358458
46,0.00985288073538138,0.00658141574419768,0.890286087192725,-0.403623854614447,0.89028608718919,-0.403623854612259,0.00976195377828287,0.00667391076621682
46.5,0.00993039967688025,0.00660362218953336,0.888381025752378,-0.407619574010441,0.888381025748928,-0.407619574008304,0.00984613096786685,0.00669500495037112
47,0.0100085822017146,0.00662222349843922,0.886458310348645,-0.411606331164335,0.886458310345278,-0.41160633116225,0.00993063843921466,0.00671284033548192
47.5,0.010087439607096,0.00663733724418947,0.884517977612841,-0.415584032329488,0.884517977609559,-0.415584032327454,0.0100154876282152,0.00672749304637277
48,0.0101669730274805,0.00664907550925942,0.882560065445184,-0.419552584694506,0.882560065441987,-0.419552584692522,0.0101006828536365,0.00673903746957816
48.5,0.0102471747688697,0.00665754480185154,0.88058461295067,-0.423511896378166,0.880584612947557,-0.423511896376231,0.0101862220469883,0.00674754601721039
49,0.0103280295101333,0.00666284608190848,0.878591660378176,-0.4274618764236,0.878591660375146,-0.427461876421714,0.0102720974343365,0.0067530889648002
49.5,0.0104095153784051,0.00666507487147672,0.876581249062613,-0.431402434791826,0.876581249059667,-0.431402434789988,0.0103582961691122,0.00675573435097565
50,0.0104916049069538,0.0066643214284714,0.874553421369922,-0.435333482354716,0.874553421367061,-0.435333482352926,0.0104448009161788,0.00675554792824473
50.5,0.0105742658847162,0.0066606709665793,0.872508220644751,-0.439254930887457,0.872508220641973,-0.439254930885714,0.0105315903883467,0.00675259315550458
51,0.0106574621069012,0.00665420390721239,0.870445691160637,-0.443166693060577,0.870445691157943,-0.443166693058881,0.0106186398371677,0.00674693122412018
51.5,0.0107411540360111,0.00664499615214176,0.868365878072558,-0.447068682431593,0.868365878069948,-0.447068682429943,0.0107059215003129,0.00673862111055679
52,0.0108252993822917,0.006633119367767,0.866268827371708,-0.450960813436317,0.866268827369181,-0.450960813434712,0.0107934050081233,0.00672771964959218
52.5,0.0109098536121331,0.00661864127387757,0.864154585842357,-0.454843001379879,0.864154585839913,-0.45484300137832,0.0108810577520743,0.00671428162302978
53,0.0109947703923778,0.00660162593137215,0.862023201020683,-0.458715162427493,0.862023201018323,-0.458715162425979,0.010968845217962,0.00669835985965139
53.5,0.0110800019778483,0.00658213402473551,0.859874721155459,-0.462577213595003,0.859874721153182,-0.462577213593533,0.0110567312866052,0.00668000534286639
54,0.0111654995487669,0.00656022313611937,0.857709195170486,-0.466429072739236,0.857709195168291,-0.466429072737811,0.0111446785047774,0.0066592673231034
54.5,0.0112512135041032,0.00653594800876744,0.855526672628675,-0.470270658548195,0.855526672626563,-0.470270658546813,0.0112326483289835,0.00663619343255362
55,0.0113370937162723,0.00650936079821585,0.853327203697694,-0.474101890531098,0.853327203695665,-0.47410189052976,0.0113206013445484,0.0066108298003017
55.5,0.0114230897520179,0.00648051131025007,0.851110839117071,-0.477922689008308,0.851110839115124,-0.477922689007013,0.0114084974623386,0.00658322116628052
56,0.0115091510637938,0.00644944722504726,0.848877630166701,-0.481732975101142,0.848877630164836,-0.481732975099889,0.0114962960952713,0.00655341099282003
56.5,0.0115952271554378,0.00641621430727057,0.846627628636661,-0.485532670721591,0.846627628634878,-0.485532670720381,0.0115839563166071,0.00652144157281842
57,0.011681267725508,0.00638085660212995,0.844360886798276,-0.489321698561969,0.844360886796574,-0.489321698560801,0.011671437001846,0.00648735413381307
57.5,0.0117672227912205,0.00634341661764226,0.842077457376357,-0.493099982084481,0.842077457374736,-0.493099982083355,0.0117586969559032,0.00645118893740504
58,0.0118530427955741,0.00630393549345698,0.839777393522568,-0.496867445510746,0.839777393521028,-0.496867445509662,0.0118456950270781,0.00641298537367074
58.5,0.0119386786999293,0.00626245315670926,0.837460748789847,-0.500624013811253,0.837460748788387,-0.50062401381021,0.0119323902091914,0.00637278205029634
59,0.0120240820639895,0.00621900846545376,0.835127577107844,-0.504369612694788,0.835127577106463,-0.504369612693786,0.0120187417331262,0.00633061687630476
59.5,0.012109205114912,0.00617363934026072,0.83277793275931,-0.508104168597819,0.832777932758008,-0.508104168596858,0.0121047091488939,0.0062865271403133
60,0.0121940008070264,0.00612638288458445,0.830411870357406,-0.511827608673846,0.830411870356183,-0.511827608672924,0.0121902523992171,0.00624054958333387
60.5,0.0122784228734387,0.00607727549453474,0.828029444823881,-0.515539860782723,0.828029444822735,-0.515539860781842,0.012275331885527,0.00619272046618968
61,0.0123624258706412,0.00602635295866749,0.825630711368072,-0.519240853479963,0.825630711367005,-0.519240853479122,0.0123599085271741,0.00614307563164851
61.5,0.0124459652170764,0.0059736505483966,0.82321572546671,-0.522930516006014,0.823215725465719,-0.522930516005213,0.012443943814556,0.00609165056141925
62,0.0125289972264808,0.00591920309964078,0.820784542844465,-0.52660877827552,0.82078454284355,-0.526608778274758,0.0125273998568053,0.00603848042818866
62.5,0.0126114791367173,0.00586304508625513,0.818337219455225,-0.530275570866565,0.818337219454385,-0.530275570865841,0.0126102394245829,0.00598360014286292
