"Freq [GHz]","re(St(P1,P1)) []","im(St(P1,P1)) []","re(St(P1,P2)) []","im(St(P1,P2)) []","re(St(P2,P1)) []","im(St(P2,P1)) []","re(St(P2,P2)) []","im(St(P2,P2)) []"
0,0.00428959626287906,0,0.995716921359417,0,0.995721090424922,0,0.00429411870265994,0
0.5,0.0047229934780546,0.000584619014603049,0.995235686691622,-0.00557823986699546,0.995234976266559,-0.00557906081399651,0.00472250201509894,0.000583774222331357
1,0.00511261832054188,0.000637610174543113,0.994726050602782,-0.0106133492143137,0.99472528144646,-0.0106135866675281,0.00511163820699423,0.000637931246586732
1.5,0.00526192260659997,0.000487465307958956,0.994298022541749,-0.0157146905793759,0.994297192875516,-0.0157149059576263,0.00525958459524389,0.000487245259296998
2,0.00532994238323958,0.000401202227195085,0.993831777592002,-0.0206707355113309,0.993830964625005,-0.0206708807480105,0.00532700065393676,0.000401304034777894
2.5,0.00537202464248399,0.000351783407785078,0.993369736197915,-0.02551624549187,0.993369008629934,-0.0255163189359831,0.00536884894348599,0.000352403621146635
3,0.00540453095079663,0.000324607135839372,0.992925741098969,-0.0302868256927695,0.992925139685902,-0.0302868470878703,0.00540129387273947,0.0003258220564053
3.5,0.00543332904123783,0.000312240294555011,0.992497775179956,-0.0350089060726564,0.992497314959462,-0.0350088976749543,0.00543010749666051,0.000314104554895778
4,0.00546075235643384,0.000310679871409647,0.992077564525589,-0.0396993083972284,0.992077243197707,-0.0396992870064228,0.00545756957227939,0.000313245042764976
4.5,0.00548772701476263,0.000317623016394819,0.991655589370931,-0.0443678019661728,0.991655394628526,-0.0443677776217601,0.00548457147109538,0.000320939106057239
5,0.00551454687944353,0.000331653924380504,0.991223133018942,-0.0490196803243457,0.991223047396372,-0.049019657659322,0.00551138226535297,0.000335767014110644
5.5,0.0055411980622091,0.000351838965006124,0.990772882960233,-0.0536576086823288,0.990772886708774,-0.0536575888377069,0.00553796956453456,0.000356788302518396
6,0.00556751120827115,0.000377513682357389,0.990298940447926,-0.0582827861568553,0.990299013177554,-0.0582827684474623,0.00556415022214285,0.000383329157838119
6.5,0.00559324015817242,0.000408165795279913,0.989796635070685,-0.0628956299394003,0.989796756689212,-0.062895613066817,0.0055896682510288,0.000414866070546083
7,0.00561810592803236,0.000443369068608312,0.989262304968962,-0.0674961612333611,0.989262456230754,-0.0674961440716588,0.00561423837024333,0.00045096040901349
7.5,0.00564182283071313,0.000482745480451463,0.988693098372231,-0.0720842149722474,0.988693261204365,-0.0720841970176442,0.00563757178694246,0.000491221253711593
8,0.00566411459455951,0.000525943738859169,0.988086809950103,-0.0766595487225654,0.988086967642972,-0.0766595303016713,0.0056593919816571,0.000535284504636913
8.5,0.00568472442701629,0.00057262749819742,0.98744175045642,-0.0812218954055988,0.987441887764442,-0.0812218777215028,0.00567944441573864,0.000582801592210025
9,0.00570342115771949,0.000622469406800441,0.986756643996156,-0.085770985657156,0.986756747174257,-0.0857709707338712,0.0056975022946858,0.000633433915140813
9.5,0.00572000270709883,0.000675148652571345,0.986030547029787,-0.0903065545173734,0.986030603822056,-0.0903065450865759,0.00571336964440894,0.000686850672082961
10,0.00573429766650213,0.000730350559427606,0.985262784183101,-0.0948283406644013,0.985262783775637,-0.0948283400250132,0.00572688250116393,0.000742728646275559
10.5,0.00579448586738507,0.000750533097857442,0.984553257663961,-0.0993610817417618,0.984553257276224,-0.0993610810177845,0.00578666364878699,0.000763710263885997
11,0.00585694083683558,0.00076846734695124,0.983826617963265,-0.103875701522411,0.98382661760307,-0.103875700716103,0.00584870203709323,0.000782466866039222
11.5,0.00592157525470069,0.000784078312666914,0.983083701760675,-0.108373051658035,0.983083701435283,-0.10837305077249,0.00591291158661691,0.000798923895458437
12,0.00598829952733493,0.000797294924012704,0.98232521725594,-0.112853989667912,0.982325216971998,-0.112853988706928,0.00597920395361201,0.000813010643735623
12.5,0.00605702199022901,0.000808050098012103,0.981551753880735,-0.117319365849394,0.981551753644225,-0.117319364817346,0.0060474887278143,0.000824660316745884
13,0.00612764911162048,0.000816280792973245,0.980763792567402,-0.121770012551218,0.980763792383621,-0.121770011452954,0.00611767363131087,0.000833810088694875
13.5,0.00620008569634322,0.000821928050145804,0.979961716208176,-0.126206735615107,0.979961716081726,-0.126206734455825,0.00618966471777281,0.000840401144897029
14,0.00627423508922839,0.00082493702397235,0.979145820013517,-0.130630307763996,0.979145819948309,-0.130630306549159,0.00626336657139317,0.000844378713423577
14.5,0.00634999937731893,0.000825257001082047,0.97831632154643,-0.135041463704017,0.978316321545707,-0.135041462439253,0.00633868250481937,0.000845692085825966
15,0.00642727959027928,0.000822841408349539,0.977473370269722,-0.139440896707722,0.977473370336081,-0.139440895398743,0.00641551475547253,0.000844294627159847
15.5,0.00650597589833025,0.000817647810278821,0.976617056494255,-0.143829256455251,0.976617056629682,-0.143829255107788,0.00649376467960851,0.000840143775596935
16,0.00658598780712771,0.000809637896031834,0.975747419658706,-0.148207147925172,0.975747419864612,-0.148207146544914,0.00657333294354093,0.000833201031921416
16.5,0.0066672143490091,0.000798777456508137,0.974864455905533,-0.152575131145223,0.974864456182798,-0.152575129737758,0.00665411971148355,0.000823431939264374
17,0.00674955427008103,0.000785036351841129,0.973968124944626,-0.156933721633632,0.973968125293639,-0.156933720204412,0.00673602482947658,0.000810806053457291
17.5,0.00683290621266069,0.000768388469758019,0.973058356216394,-0.161283391382537,0.973058356637099,-0.161283389936842,0.00681894800492533,0.000795296904391396
18,0.00691716889260854,0.000748811675235661,0.97213505438086,-0.165624570255344,0.972135054872795,-0.165624568798254,0.0069027889812989,0.000776881948826968
18.5,0.00700224127114896,0.000726287751922072,0.971198104169539,-0.169957647689079,0.971198104731879,-0.169957646225452,0.00698744770758739,0.000755542515084695
19,0.007088022720805,0.000700802335833473,0.970247374643449,-0.17428297461037,0.970247375275048,-0.174282973144825,0.0070728245021407,0.000731263740084476
19.5,0.00717441318511916,0.00067234484179135,0.969282722904214,-0.178600865489645,0.969282723603644,-0.178600864026551,0.00715882021056538,0.000704034499218853
20,0.00726131333186059,0.000640908383130689,0.968303997306648,-0.182911600472058,0.968303998072231,-0.18291159901553,0.00724533635738234,0.000673847329521138
20.5,0.00734862469947831,0.000606489685191836,0.967311040220891,-0.187215427535897,0.967311041050734,-0.187215426089793,0.00733227529120006,0.000640698346669577
21,0.0074362498365895,0.000569088993101374,0.966303690390734,-0.191512564639707,0.966303691282763,-0.191512563207625,0.00741954032317613,0.000604587156264547
21.5,0.00752409243432325,0.000528709974374486,0.965281784932419,-0.195803201828199,0.965281785884403,-0.195803200413482,0.00750703585860135,0.000565516759929441
22,0.00761205745139407,0.000485359616864134,0.964245161015356,-0.200087503274463,0.964245162024938,-0.200087501880198,0.00759466752145693,0.000523493456719315
22.5,0.00770005123180012,0.000439048122525598,0.963193657263055,-0.204365609242199,0.963193658327772,-0.204365607871227,0.00768234227183964,0.000478526740299579
23,0.0077879816150925,0.000389788797575008,0.962127114909282,-0.208637637956622,0.962127116026591,-0.208637636611545,0.00776996851618522,0.000430629192452958
23.5,0.00787575803917234,0.000337597939447321,0.961045378741155,-0.212903687376898,0.961045379908447,-0.212903686060085,0.00785745621024231,0.000379816373312192
24,0.00796329163562831,0.000282494721117743,0.959948297857681,-0.21716383686611,0.959948299072302,-0.217163835579708,0.00794471695479404,0.000326106708851803
24.5,0.00805049531764562,0.000224501073214256,0.958835726269253,-0.221418148757361,0.95883572752852,-0.221418147503304,0.00803166408414685,0.000269521376087489
25,0.00813728386053791,0.000163641564367101,0.957707523360671,-0.225666669816643,0.957707524661883,-0.225666668596656,0.00811821274742369,0.000210084186368142
25.5,0.00822357397499535,9.99432802761824E-005,0.956563554237709,-0.229909432604488,0.956563555578163,-0.229909431420104,0.00820427998274809,0.000147821467295195
26,0.00830928437315692,3.34357018751952E-005,0.955403689974767,-0.234146456739684,0.955403691351766,-0.23414645559225,0.00828978478440184,8.27619435694871E-005
26.5,0.00839433582763671,-3.58494169796497E-005,0.954227807778987,-0.23837775006896,0.954227809189852,-0.238377748959649,0.00837464816308592,1.4936617256156E-005
27,0.00847865122365893,-0.000107878171932585,0.953035791084234,-0.242603309747237,0.95303579252631,-0.242603308677053,0.00845879319941478,-5.56213522231452E-005
27.5,0.00856215560446583,-0.000182614630275912,0.951827529586568,-0.246823123233245,0.951827531057232,-0.246823122203036,0.00854214509080115,-0.00012887676798834
28,0.00864477621019638,-0.000260020952513651,0.950602919231284,-0.25103716920555,0.950602920727951,-0.251037168216015,0.0086246311919102,-0.000204792515128505
28.5,0.00872644251041965,-0.000340057512986602,0.949361862160194,-0.255245418404056,0.949361863680323,-0.255245417455757,0.00870618104886278,-0.000283329679390709
29,0.00880708623055287,-0.000422683019286607,0.948104266626604,-0.259447834401992,0.948104268167705,-0.259447833495358,0.00878672642739187,-0.000364447664779499
29.5,0.00888664137237649,-0.000507854630170668,0.946830046884375,-0.263644374313299,0.946830048444008,-0.263644373448638,0.00886620133516003,-0.000448104309833663
30,0.0089650442288805,-0.000595528071712259,0.945539123056505,-0.267834989440109,0.945539124632285,-0.267834988617612,0.00894454203846434,-0.000534256002292066
30.5,0.00904223339368521,-0.000685657751477331,0.944231420987856,-0.272019625864874,0.944231422577458,-0.272019625084627,0.00902168707354462,-0.000622857791934717
31,0.00911814976527869,-0.000778196870481196,0.942906872085955,-0.276198224991403,0.942906873687114,-0.27619822425339,0.00909757725274429,-0.000713863501358158
31.5,0.00919273654632213,-0.000873097532753997,0.941565413153153,-0.280370724038872,0.941565414763665,-0.280370723342983,0.00917215566574858,-0.000807225834514647
32,0.00926593923827002,-0.000970310852338896,0.94020698621291,-0.284537056492588,0.940206987830636,-0.284537055838627,0.00924536767614947,-0.000902896482821269
32.5,0.00933770563157077,-0.00106978705755001,0.938831538332528,-0.288697152515065,0.938831539955393,-0.288697151902754,0.00931716091358215,-0.00100082622867537
33,0.00940798579168162,-0.00117147559238018,0.937439021444233,-0.292850939320698,0.937439023070227,-0.292850938749684,0.00938748526167177,-0.00110096504625834
33.5,0.00947673204117094,-0.00127532521492557,0.936029392166179,-0.296998341517116,0.936029393793359,-0.296998340986977,0.00945629284203875,-0.00120326219948086
34,0.00954389893814961,-0.00138128409272564,0.934602611624685,-0.301139281416021,0.934602613251172,-0.301139280926269,0.00952353799460787,-0.00130766633697577
34.5,0.00960944325126983,-0.00148929989494118,0.93315864527871,-0.305273679316145,0.933158646902694,-0.305273678866231,0.00958917725445585,-0.00141412558404697
35,0.00967332393155601,-0.00159931988130069,0.931697462747434,-0.309401453760723,0.931697464367168,-0.309401453350044,0.00965316932543947,-0.00152258763149882
35.5,0.00973550208128576,-0.00171129098776013,0.930219037641572,-0.3135225217717,0.930219039255375,-0.313522521399604,0.00971547505083709,-0.00163299982129184
36,0.00979594092016955,-0.00182515990883614,0.928723347398933,-0.317636799062699,0.928723349005192,-0.317636798728486,0.00977605738122805,-0.00174530922896898
36.5,0.00985460574904734,-0.00194087317659375,0.927210373124613,-0.321744200232612,0.927210374721776,-0.321744199935536,0.00983488133984189,-0.00185946274282833
37,0.0099114639113343,-0.00205837723626257,0.925680099436075,-0.325844638941513,0.925680101022656,-0.325844638680794,0.00989191398558603,-0.00197540713982391
37.5,0.00996648475241246,-0.00217761851849585,0.924132514313309,-0.329938028070472,0.924132515887885,-0.329938027845292,0.00994712437396816,-0.00209308915818074
38,0.0100196395772001,-0.00229854350826497,0.922567608954187,-0.334024279866669,0.922567610515396,-0.334024279676177,0.010000483516118,-0.00221245556672067
38.5,0.0100709016060732,-0.00242109881042407,0.920985377635048,-0.338103306075123,0.920985379181593,-0.338103305918439,0.0100519643361023,-0.00233345323093692
39,0.0101202459293511,-0.00254523121195605,0.919385817576523,-0.342175018058217,0.919385819107165,-0.342175017934436,0.0101015416267291,-0.00245602917580223
39.5,0.0101676494605182,-0.00267088774095448,0.917768928814564,-0.346239326904118,0.917768930328124,-0.34623932681231,0.0101491920040157,-0.00258013064537366
40,0.0102130908883593,-0.00279801572236882,0.916134714076579,-0.35029614352505,0.916134715571939,-0.350296143464265,0.0101948938605046,-0.00270570515921165
40.5,0.0102565506281846,-0.0029265628305728,0.914483178662614,-0.354345378746344,0.914483180138712,-0.354345378715612,0.0102386273175852,-0.00283270056566765
41,0.010298010772288,-0.00305647713881418,0.91281433033142,-0.35838694338707,0.912814331787253,-0.358386943385407,0.0102803741769897,-0.00296106509208616
41.5,0.0103374550398052,-0.00318770716559857,0.911128179191306,-0.36242074833301,0.911128180625923,-0.362420748359417,0.0103201178716035,-0.00309074739198389
42,0.0103748687261005,-0.00332020191808691,0.909424737595598,-0.366446704602632,0.909424739008108,-0.366446704656098,0.0103578434157443,-0.00322169658926152
42.5,0.0104102386518352,-0.00345391093256886,0.907704020042593,-0.370464723406707,0.907704021432154,-0.370464723486212,0.0103935373550376,-0.00335386231951973
43,0.0104435531118171,-0.00358878431208831,0.905966043079798,-0.374474716202106,0.905966044445627,-0.374474716306622,0.0104271877160196,-0.00348719476854531
43.5,0.0104748018237784,-0.00372477276130279,0.904210825212342,-0.378476594740312,0.904210826553702,-0.378476594868804,0.0104587839555857,-0.0036216447080466
44,0.0105039758771731,-0.00386182761865639,0.902438386815349,-0.382470271111099,0.902438388131557,-0.382470271262528,0.0104883169104003,-0.00375716352870659
44.5,0.0105310676821027,-0.0039999008859386,0.900648750050156,-0.386455657781803,0.900648751340577,-0.386455657955128,0.0105157787463687,-0.00389370327063809
45,0.0105560709184735,-0.00413894525533531,0.898841938784173,-0.39043266763258,0.898841940048224,-0.390432667826758,0.0105411629082715,-0.00403121665132211
45.5,0.0105789804854617,-0.00427891413403003,0.897017978514259,-0.394401213987988,0.897017979751402,-0.394401214201978,0.0105644640696515,-0.00416965709110229
46,0.0105997924513768,-0.00441976166646518,0.895176896293435,-0.39836121064523,0.895176897503179,-0.398361210877989,0.0105856780830391,-0.0043089787363344
46.5,0.010618504003998,-0.00456144275433235,0.893318720660798,-0.402312571899327,0.8933187218427,-0.40231257214982,0.0106048019305898,-0.00444913648025613
47,0.0106351134014478,-0.00470391307438867,0.891443481574485,-0.406255212565507,0.891443482728145,-0.406255212832699,0.010621833675211,-0.0045900859816721
47.5,0.0106496199236738,-0.00484712909417784,0.889551210347536,-0.410189047999033,0.8895512114726,-0.410189048281896,0.0106367724122351,-0.00473178368153526
48,0.0106620238245821,-0.00499104808575712,0.887641939586541,-0.414113994112708,0.887641940682695,-0.414113994410222,0.0106496182217063,-0.00487418681751373
48.5,0.0106723262848912,-0.00513562813748392,0.885715703132914,-0.418029967392234,0.885715704199887,-0.418029967703384,0.010660372121331,-0.00501725343660508
49,0.0106805293657397,-0.00528082816398601,0.883772536006684,-0.421936884909625,0.883772537044248,-0.421936885233408,0.0106690360201382,-0.00516094240591669
49.5,0.0106866359630859,-0.00542660791436544,0.881812474352686,-0.425834664334836,0.881812475360651,-0.425834664670258,0.0106756126728972,-0.00530521342164869
50,0.0106906497629513,-0.00557292797873199,0.879835555389016,-0.429723223945746,0.879835556367232,-0.429723224291822,0.0106801056353311,-0.00545002701640662
50.5,0.0106925751975233,-0.00571974979314582,0.877841817357664,-0.433602482636651,0.87784181830602,-0.43360248299241,0.0106825192201515,-0.00559534456487776
51,0.0106924174021515,-0.0058670356430448,0.875831299477202,-0.437472359925379,0.875831300395623,-0.437472360289861,0.0106828584539584,-0.00574112828798112
51.5,0.0106901821732601,-0.00601474866523111,0.873804041897438,-0.441332775959147,0.873804042785886,-0.441332776331406,0.0106811290350167,-0.00588734125555146
52,0.0106858759271939,-0.0061628528484986,0.871760085655934,-0.445183651519256,0.871760086514406,-0.445183651898363,0.010677337291938,-0.00603394738763352
52.5,0.0106795056600152,-0.00631131303296228,0.869699472636303,-0.449024908024735,0.869699473464833,-0.449024908409773,0.0106714901432878,-0.0061809114544561
53,0.0106710789082607,-0.00646009490817101,0.867622245528196,-0.452856467535,0.86762224632685,-0.452856467925068,0.0106635950581206,-0.0063281990751658
53.5,0.0106606037106758,-0.00660916501006448,0.865528447788897,-0.456678252751622,0.865528448557774,-0.456678253145839,0.0106536600174713,-0.00647577671537081
54,0.010648088570919,-0.00675849071684553,0.863418123606451,-0.460490187019268,0.863418124345683,-0.460490187416766,0.0106416934767954,-0.00662361168358028
54.5,0.0106335424212514,-0.00690804024382352,0.861291317864253,-0.464292194325882,0.861291318574002,-0.464292194725814,0.0106277043293734,-0.00677167212658425
55,0.0106169745872081,-0.00705778263730372,0.859148076107022,-0.468084199302172,0.859148076787482,-0.468084199703711,0.0106117018706762,-0.00691992702385347
55.5,0.0105983947532491,-0.00720768776756697,0.856988444508107,-0.471866127220451,0.8569884451595,-0.471866127622785,0.0105936957636957,-0.00706834618100338
56,0.0105778129293864,-0.0073577263210044,0.854812469838046,-0.475637903992871,0.854812470460625,-0.475637904395212,0.0105736960052397,-0.00721690022238675
56.5,0.010555239418784,-0.00750786979146667,0.852620199434339,-0.479399456169128,0.852620200028383,-0.479399456570708,0.0105517128931792,-0.0073655605828723
57,0.0105306847863234,-0.00765809047086663,0.850411681172359,-0.483150710933647,0.850411681738174,-0.483150711333718,0.0105277569946536,-0.00751429949885352
57.5,0.0105041598281189,-0.00780836143910024,0.848186963437368,-0.486891596102295,0.848186963975287,-0.486891596500131,0.0105018391152178,-0.00766308999854748
58,0.0104756755419852,-0.00795865655332106,0.845946095097572,-0.490622040118671,0.845946095607954,-0.490622040513568,0.0104739702689277,-0.00781190589162728
58.5,0.0104452430988305,-0.00810895043662574,0.843689125478183,-0.49434197204998,0.843689125961412,-0.494341972441257,0.010444161649347,-0.00796072175823281
59,0.0104128738149775,-0.00825921846618538,0.84141610433643,-0.498051321582544,0.841416104792912,-0.498051321969544,0.0104124246014721,-0.00810951293741047
59.5,0.0103785791253846,-0.00840943676086658,0.839127081837488,-0.501750019016959,0.839127082267654,-0.501750019399049,0.0103787705945569,-0.00825825551501558
60,0.0103423705577601,-0.00855958216838582,0.83682210853128,-0.505437995262932,0.836822108935582,-0.505437995639502,0.0103432111958223,-0.00840692631112572
60.5,0.0103042597075551,-0.00870963225202803,0.834501235330115,-0.509115181833818,0.834501235709027,-0.509115182204283,0.0103057580450405,-0.00855550286699625
61,0.0102642582138092,-0.00885956527697163,0.832164513487133,-0.512781510840878,0.83216451384115,-0.51278151120468,0.0102664228299747,-0.00870396343160051
61.5,0.010222377735845,-0.00900936019624543,0.829811994575514,-0.516436914987274,0.82981199490515,-0.516436915343877,0.0102252172626606,-0.00885228694778073
62,0.010178629930783,-0.00915899663635633,0.827443730468425,-0.520081327561821,0.827443730774214,-0.520081327910717,0.0101821530565099,-0.00900045303804986
