"Freq [GHz]","re(St(P1,P1)) []","im(St(P1,P1)) []","re(St(P1,P2)) []","im(St(P1,P2)) []","re(St(P2,P1)) []","im(St(P2,P1)) []","re(St(P2,P2)) []","im(St(P2,P2)) []"
0,0.00362610699875177,0,0.996390075975796,0,0.996390077969409,0,0.00362610408632236,0
0.5,0.00419101269556421,-0.00256560407358464,0.995744586238551,-0.00713881588001541,0.995744586370087,-0.00713881546100481,0.00419077382234434,-0.00256482177869799
1,0.00470876661257336,-0.00587357160989299,0.995017955813122,-0.0135322111807987,0.995017955687807,-0.013532211246897,0.00470807854699373,-0.00587174990461037
1.5,0.00494444134475813,-0.00940707042820321,0.994385042432093,-0.0199162571299318,0.994385042281987,-0.0199162571699247,0.00494283054243283,-0.00940435819941854
2,0.00497804818418501,-0.012941904275781,0.993761287476893,-0.0261127077169974,0.993761287331896,-0.0261127077278935,0.00497564147870477,-0.0129377801998345
2.5,0.00489773168563978,-0.0164462635683549,0.993172924883448,-0.0322063898994465,0.993172924759765,-0.0322063898917087,0.00489469424557321,-0.0164405671362182
3,0.00474242834193106,-0.0199227309320662,0.992607012224838,-0.0382493631003129,0.992607012127468,-0.0382493630846419,0.00473884811493086,-0.0199154182226522
3.5,0.00452964444991544,-0.023377134456112,0.9920427576323,-0.0442670583915472,0.992042757560634,-0.0442670583751514,0.00452555453026449,-0.0233681917926241
4,0.00426790326263937,-0.0268139400390517,0.991462041947995,-0.050269918909656,0.991462041899226,-0.0502699188964364,0.00426330512176953,-0.0268033577353037
4.5,0.00396171419064739,-0.030236093993647,0.990851221689298,-0.0562610450108281,0.990851221660026,-0.0562610450023922,0.00395659156236494,-0.0302238586577399
5,0.00361365554173254,-0.0336454391097654,0.990200458540453,-0.0622402122524655,0.990200458527251,-0.0622402122489909,0.00360798221285741,-0.0336315316709666
5.5,0.00322531298388995,-0.0370430765297805,0.989502697287839,-0.0682058184306538,0.989502697287436,-0.0682058184315206,0.0032190572388151,-0.0370274720366073
6,0.00279773299124297,-0.0404296139135294,0.988752829361796,-0.0741557916609121,0.98875282937111,-0.074155791665099,0.00279086024687469,-0.0404122818450183
6.5,0.00233165593297135,-0.0438053273490695,0.987947101399379,-0.0800879996684802,0.987947101415494,-0.0800879996747952,0.00232413037307522,-0.0437862320333622
7,0.00182764249130596,-0.0471702666633256,0.98708271725976,-0.0860004231089011,0.987082717279891,-0.0860004231161486,0.00181942812924962,-0.0471493676782693
7.5,0.00128614546715955,-0.0505243247863927,0.986157573836169,-0.0918912181363361,0.986157573857649,-0.0918912181434255,0.00127720687056598,-0.0505015773108095
8,0.000707552220143182,-0.0538672842754835,0.985170085035467,-0.0977587278078715,0.985170085055737,-0.0977587278138401,0.000697855028573446,-0.053842639390302
8.5,9.22106250840216E-005,-0.0571988491434841,0.984119062855007,-0.103601470832523,0.984119062871617,-0.103601470836583,8.17219367257316E-005,-0.0571722540907729
9,-0.000559554580745969,-0.0605186670704487,0.983003635311463,-0.109418121363804,0.983003635322065,-0.109418121365353,-0.000570865908075424,-0.0604900654793834
9.5,-0.00124743124307769,-0.0638263452049976,0.981823188253814,-0.115207486396661,0.981823188256179,-0.115207486395271,-0.00125959434879452,-0.0637956772928412
10,-0.00197111283390972,-0.0671214616140219,0.980577322799263,-0.120968483844713,0.980577322791283,-0.120968483840125,-0.0019841546519701,-0.0670886643685318
10.5,-0.00276394948151371,-0.0704052572271507,0.979363509976033,-0.126731906255191,0.97936350996831,-0.126731906250139,-0.0027739765251249,-0.0703702932718109
11,-0.00359469531617562,-0.0736786205982849,0.978110972730655,-0.132469874456631,0.97811097272323,-0.13246987445114,-0.00360148774555902,-0.0736413760208832
11.5,-0.00446325396772884,-0.0769410937803112,0.976820398253411,-0.13818306550727,0.976820398246321,-0.138183065501377,-0.00446658102268449,-0.0769014384535058
12,-0.00536952773593369,-0.0801922259404355,0.975492344566547,-0.143872107621692,0.975492344559822,-0.143872107615429,-0.00536914728733862,-0.0801500112615132
12.5,-0.00631341803168117,-0.0834315742040692,0.974127259000306,-0.149537571694769,0.974127258993971,-0.149537571688177,-0.0063090762263216,-0.0833866305203506
13,-0.00729482582428198,-0.0866587046178404,0.972725495515169,-0.155179965966788,0.972725495509243,-0.155179965959905,-0.00728625686017748,-0.0866108382970721
13.5,-0.00831365208525592,-0.0898731932508614,0.971287330617912,-0.160799733257172,0.971287330612411,-0.160799733250037,-0.0083005781649057,-0.0898221833520232
14,-0.00936979821538231,-0.0930746274556089,0.96981297773955,-0.166397250246106,0.969812977734485,-0.166397250238755,-0.00935192973714649,-0.0930202219520178
14.5,-0.0104631664372937,-0.0962626073128527,0.968302600034651,-0.171972828345215,0.968302600030028,-0.171972828337688,-0.0104402025009269,-0.0962045188164122
15,-0.0115936601298229,-0.0994367472872337,0.96675632162843,-0.177526715762733,0.966756321624254,-0.177526715755064,-0.0115652894516425,-0.0993746482209925
15.5,-0.0127611840729531,-0.10259667812297,0.965174237383997,-0.183059100432049,0.965174237380265,-0.183059100424266,-0.0127270864299249,-0.10253019528935
16,-0.0139656445626668,-0.105742049010827,0.963556421291824,-0.188570113531044,0.963556421288534,-0.188570113523188,-0.0139254929137007,-0.105670757506165
16.5,-0.0152069493431741,-0.108872530058875,0.96190293360033,-0.194059833372585,0.961902933597478,-0.194059833364685,-0.0151604128108093,-0.108795946492753
17,-0.0164850072893989,-0.111987815099009,0.960213826813713,-0.199528289492606,0.960213826811288,-0.199528289484689,-0.0164317552267454,-0.11190539009135
17.5,-0.0177997277546645,-0.115087624858582,0.958489150683579,-0.204975466801549,0.958489150681576,-0.204975466793644,-0.0177394351714781,-0.114998734811349
18,-0.0191510194769318,-0.118171710520278,0.956728956316636,-0.210401309697926,0.95672895631504,-0.210401309690058,-0.0190833741554054,-0.118075648697546
18.5,-0.0205387889114308,-0.121239857682009,0.954933299513198,-0.21580572606981,0.954933299511999,-0.215805726062001,-0.0204635006062437,-0.121135824687007
19,-0.0219629378279874,-0.124291890710002,0.953102243442194,-0.221188591131977,0.953102243441378,-0.221188591124248,-0.0218797500150146,-0.124178984526506
19.5,-0.0234233599782965,-0.127327677449643,0.951235860748235,-0.226549751063766,0.951235860747788,-0.226549751056136,-0.023332064688796,-0.12720488332537
20,-0.0249199366032251,-0.130347134216593,0.949334235176065,-0.23188902642647,0.949334235175971,-0.231889026418957,-0.0248203929494499,-0.130213314817325
20.5,-0.026452530515226,-0.133350230931022,0.947397462787763,-0.237206215349398,0.947397462788009,-0.237206215342017,-0.0263446875692384,-0.133204117396068
21,-0.0280209784608799,-0.136336996175903,0.945425652838575,-0.242501096481766,0.945425652839146,-0.242501096474533,-0.0279049031752031,-0.136177180969577
21.5,-0.0296250814502473,-0.139307521851367,0.94341892836854,-0.24777343171329,0.943418928369419,-0.247773431706213,-0.0295009922834853,-0.139132454641063
22,-0.03126459274396,-0.142261966957039,0.941377426559154,-0.253022968670572,0.941377426560326,-0.253022968663666,-0.03113289954308,-0.142069955162896
22.5,-0.0329392032308058,-0.145200559861209,0.939301298897226,-0.258249442999151,0.939301298898675,-0.258249442992427,-0.032800553678656,-0.144989776012975
23,-0.0346485240283004,-0.148123598212238,0.937190711181791,-0.263452580442947,0.937190711183502,-0.263452580436411,-0.0345038565309301,-0.147892096798983
23.5,-0.0363920663215396,-0.151031445424565,0.935045843404441,-0.268632098733855,0.935045843406399,-0.268632098727515,-0.0362426685135166,-0.150777192489154
24,-0.0381692187499769,-0.153924522451875,0.932866889528654,-0.273787709304748,0.932866889530843,-0.27378770929861,-0.0380167897594197,-0.153645441683624
24.5,-0.039979223085128,-0.156803293384801,0.930654057189561,-0.278919118839117,0.930654057191967,-0.278919118833186,-0.0398259362533697,-0.15649733276514
25,-0.0418211495323972,-0.159668243343121,0.928407567332027,-0.284026030670374,0.928407567334635,-0.284026030664656,-0.0416697103894417,-0.159333466297357
25.5,-0.0436938737321855,-0.162519847261175,0.926127653801914,-0.289108146043305,0.926127653804711,-0.289108146037802,-0.043547565726721,-0.162154551488134
26,-0.045596058382485,-0.165358528598223,0.923814562902774,-0.294165165249549,0.923814562905743,-0.294165165244263,-0.045458766325895,-0.164961393952477
26.5,-0.0475261432477365,-0.168184607854121,0.92146855292807,-0.29919678864825,0.921468552931202,-0.299196788643183,-0.0474023420286394,-0.167754871497479
27,-0.0494823479675404,-0.170998242116696,0.919089893677172,-0.304202717582317,0.919089893680451,-0.304202717577472,-0.0493770424624184,-0.170535894386638
27.5,-0.0514626922640845,-0.173799358710254,0.91667886596178,-0.309182655199863,0.916678865965194,-0.309182655195237,-0.0513812944218883,-0.173305346787849
28,-0.0534650375506739,-0.176587588210091,0.914235761108237,-0.314136307189698,0.914235761111775,-0.314136307185293,-0.0534131694648481,-0.176064007209595
28.5,-0.0554871522781371,-0.179362204292421,0.911760880459984,-0.319063382439008,0.911760880463634,-0.319063382434823,-0.0554703707152701,-0.178812448041239
29,-0.0575268004913352,-0.182122079551904,0.909254534883607,-0.323963593620584,0.909254534887358,-0.323963593616616,-0.0575502493510723,-0.181550918077365
29.5,-0.0595818491811888,-0.184865666859718,0.906717044281144,-0.32883665771636,0.906717044284985,-0.328836657712611,-0.0596498611565662,-0.184279217034748
30,-0.0616503856977281,-0.187591014429403,0.90414873711071,-0.333682296483363,0.90414873711463,-0.333682296479828,-0.0617660708169452,-0.186996576895624
30.5,-0.0637308327192059,-0.190295819208173,0.90154994991698,-0.338500236867598,0.90154994992097,-0.338500236864276,-0.0638957055804855,-0.189701570019008
31,-0.0658220462168615,-0.192977517804727,0.898921026872708,-0.343290211370868,0.898921026876757,-0.343290211367758,-0.0660357506074838,-0.192392066301053
31.5,-0.0679233824783687,-0.195633407874371,0.896262319332054,-0.348051958375055,0.896262319336154,-0.34805195837215,-0.0681835672210068,-0.195065259104345
32,-0.0700347238875572,-0.198260787194064,0.893574185396276,-0.352785222427891,0.893574185400418,-0.35278522242519,-0.0703371052966005,-0.197717770990205
32.5,-0.0721564592402025,-0.200857094121206,0.890856989492104,-0.357489754493921,0.890856989496282,-0.357489754491421,-0.0724950758867108,-0.200345836221647
33,-0.0742894215237316,-0.20342003278117,0.888111101962948,-0.362165312173921,0.888111101967151,-0.362165312171617,-0.0746570528978372,-0.202945540728488
33.5,-0.0764347925416471,-0.205947669287606,0.885336898672916,-0.366811659895742,0.885336898677139,-0.366811659893629,-0.0768234838976648,-0.20551308661275
34,-0.0785939879980997,-0.208438490707788,0.882534760623609,-0.371428569079255,0.882534760627843,-0.37142856907733,-0.0789956073788696,-0.208045042004795
34.5,-0.0807685378977554,-0.210891424852359,0.879705073583438,-0.376015818277778,0.879705073587678,-0.376015818276038,-0.0811752919784435,-0.2105385404877
35,-0.0829599755042241,-0.21330582473086,0.876848227729292,-0.380573193298141,0.87684822773353,-0.38057319329658,-0.0833648267491688,-0.21299140619122
35.5,-0.0851697445063337,-0.215681425541077,0.873964617300208,-0.385100487301341,0.873964617304439,-0.385100487299955,-0.0855666970270393,-0.215402196877073
36,-0.0873991296445865,-0.218018283904327,0.871054640262785,-0.389597500885498,0.871054640267003,-0.389597500884282,-0.087783377359078,-0.217770172773793
36.5,-0.0896492119209943,-0.220316708913924,0.868118697987938,-0.394064042152733,0.868118697992138,-0.394064042151684,-0.0900171638085224,-0.220095209625065
37,-0.0919208463523431,-0.222577193022711,0.865157194938713,-0.398499926761306,0.86515719494289,-0.398499926760417,-0.0922700564986948,-0.222377678817986
37.5,-0.0942146582948602,-0.224800348566544,0.86217053836873,-0.402904977964373,0.86217053837288,-0.402904977963638,-0.0945436928811432,-0.224618316267814
38,-0.0965310535853057,-0.226986853409973,0.859159138030956,-0.407279026636437,0.859159138035073,-0.407279026635854,-0.0968393249262666,-0.226818096984067
38.5,-0.0988702378323587,-0.229137407208466,0.856123405896418,-0.411621911288577,0.856123405900499,-0.411621911288141,-0.0991578297283747,-0.228978126173798
39,-0.101232240819465,-0.231252698295227,0.853063755882523,-0.41593347807337,0.853063755886564,-0.415933478073075,-0.101499742313721,-0.231099552061826
39.5,-0.103616942851019,-0.233333380242642,0.849980603590649,-0.420213580780363,0.849980603594646,-0.420213580780203,-0.10386530069994,-0.233183501248527
40,-0.106024100773815,-0.23538005664384,0.846874366052658,-0.424462080822863,0.846874366056608,-0.424462080822836,-0.106254495453312,-0.235231034625996
40.5,-0.108453372206692,-0.237393272493512,0.843745461486047,-0.428678847216748,0.843745461489948,-0.428678847216848,-0.108667118361909,-0.237243120447429
41,-0.110904337154941,-0.23937351060267,0.840594309057413,-0.432863756551917,0.840594309061261,-0.432863756552138,-0.111102806937714,-0.239220620725748
41.5,-0.113376516661861,-0.241321191662146,0.837421328653943,-0.437016692956976,0.837421328657735,-0.437016692957313,-0.113561083088643,-0.241164287346025
42,-0.11586938847453,-0.243236676803133,0.834226940662663,-0.441137548057679,0.834226940666398,-0.441137548058129,-0.116041385441354,-0.24307476480416
42.5,-0.118382399903006,-0.245120271743486,0.831011565757179,-0.445226220929603,0.831011565760855,-0.445226220930159,-0.118543095515801,-0.244952597118562
43,-0.120914978162702,-0.246972231828985,0.827775624691655,-0.449282618045502,0.827775624695269,-0.449282618046162,-0.121065558351975,-0.246798237075591
43.5,-0.123466538536002,-0.248792767467003,0.824519538101793,-0.453306653217742,0.824519538105345,-0.453306653218499,-0.123608098365662,-0.24861205650005
44,-0.126036490693877,-0.250582049602367,0.821243726312601,-0.457298247536188,0.821243726316088,-0.457298247537039,-0.126170031244179,-0.250394356668057
44.5,-0.128624243497985,-0.252340215003605,0.817948609152719,-0.461257329301894,0.81794860915614,-0.461257329302833,-0.128750672645044,-0.252145378303172
45,-0.131229208570389,-0.254067371216537,0.814634605775102,-0.465183833956893,0.814634605778457,-0.465183833957916,-0.13134934437193,-0.253865310831517
45.5,-0.133850802879482,-0.255763601106502,0.811302134483895,-0.469077704010407,0.811302134487182,-0.469077704011509,-0.133965378599102,-0.255554300734987
46,-0.136488450551933,-0.257428966955667,0.807951612567275,-0.47293888896172,0.807951612570494,-0.472938888962897,-0.13659812061362,-0.257212458950431
46.5,-0.139141584084155,-0.259063514112247,0.80458345613613,-0.476767345219982,0.80458345613928,-0.47676734522123,-0.139246930451749,-0.258839867331501
47,-0.141809645094539,-0.260667274208008,0.801198079968377,-0.480563036021187,0.801198079971458,-0.480563036022502,-0.141911183725909,-0.26043658423034
47.5,-0.144492084729755,-0.262240267972089,0.79779589735879,-0.484325931342515,0.797795897361802,-0.484325931343893,-0.144590271871642,-0.26200264927753
48,-0.147188363815052,-0.26378250767537,0.794377319974175,-0.488056007814279,0.794377319977117,-0.488056007815715,-0.147283601989875,-0.263538087447218
48.5,-0.149897952819029,-0.265293999241971,0.790942757713755,-0.491753248629633,0.790942757716627,-0.491753248631124,-0.149990596416487,-0.265042912494831
49,-0.152620331687647,-0.266774744064492,0.787492618574635,-0.495417643452265,0.787492618577437,-0.495417643453806,-0.152710692117363,-0.26651712985054
49.5,-0.155354989589492,-0.268224740557953,0.784027308522214,-0.499049188322193,0.784027308524948,-0.499049188323781,-0.155443339980887,-0.267960739044794
50,-0.158101424604266,-0.269643985484974,0.780547231365429,-0.502647885559873,0.780547231368094,-0.502647885561504,-0.158188004059802,-0.269373735734322
50.5,-0.16085914337847,-0.271032475081796,0.777052788636697,-0.506213743668742,0.777052788639293,-0.506213743670413,-0.160944160799178,-0.270756113388776
51,-0.163627660766018,-0.272390206011724,0.773544379476472,-0.509746777236343,0.773544379479001,-0.509746777238049,-0.163711298275853,-0.272107864690323
51.5,-0.166406499466709,-0.273717176169522,0.770022400522276,-0.513247006834181,0.770022400524738,-0.513247006835919,-0.166488915466285,-0.273428982691198
52,-0.169195189671711,-0.275013385357471,0.76648724580213,-0.516714458916422,0.766487245804525,-0.51671445891819,-0.169276521553524,-0.274719461767652
52.5,-0.171993268722395,-0.276278835851168,0.762939306632259,-0.520149165717577,0.762939306634589,-0.520149165719372,-0.172073635279526,-0.275979298402961
53,-0.17480028078669,-0.27751353287073,0.759378971519,-0.523551165149269,0.759378971521266,-0.523551165151086,-0.174879784345838,-0.277208491827114
53.5,-0.177615776555504,-0.278717484970991,0.755806626064794,-0.526920500696204,0.755806626066997,-0.526920500698041,-0.177694504863366,-0.278407044536439
54,-0.180439312960558,-0.279890704362366,0.752222652878194,-0.530257221311461,0.752222652880333,-0.530257221313315,-0.18051734085045,-0.279574962712766
54.5,-0.18327045291411,-0.28103320717242,0.748627431487783,-0.533561381311186,0.748627431489861,-0.533561381313053,-0.183347843777401,-0.280712256558532
55,-0.186108765070394,-0.282145013656779,0.745021338259935,-0.536833040268793,0.745021338261954,-0.536833040270672,-0.186185572155026,-0.281818940561599
55.5,-0.188953823608192,-0.283226148366744,0.741404746320313,-0.540072262908786,0.741404746322273,-0.540072262910673,-0.189030091164316,-0.282895033701313
56,-0.191805208033619,-0.284276640279914,0.737778025479044,-0.543279119000246,0.737778025480948,-0.54327911900214,-0.191880972324246,-0.283940559605431
56.5,-0.194662503002045,-0.28529652289924,0.734141542159482,-0.546453683250122,0.73414154216133,-0.54645368325202,-0.194737793194662,-0.284955546666003
57,-0.197525298157944,-0.286285834325089,0.730495659330477,-0.549596035196368,0.730495659332271,-0.549596035198268,-0.197600137111238,-0.285940028120933
57.5,-0.200393187991413,-0.287244617304275,0.726840736442085,-0.552706259101021,0.726840736443827,-0.552706259102919,-0.200467592949623,-0.28689404210687
58,-0.203265771710106,-0.288172919259404,0.723177129364633,-0.555784443843293,0.723177129366323,-0.55578444384519,-0.203339754916048,-0.287817631688144
58.5,-0.206142653125322,-0.289070792301417,0.719505190331081,-0.558830682812757,0.719505190332722,-0.558830682814649,-0.206216222361831,-0.288710844865684
59,-0.209023440551077,-0.289938293227777,0.715825267882582,-0.56184507380268,0.715825267884175,-0.561845073804565,-0.209096599619438,-0.289573734569248
59.5,-0.211907746714955,-0.290775483508388,0.712137706817207,-0.564827718903584,0.712137706818753,-0.56482771890546,-0.211980495857877,-0.290406358635691
60,-0.214795188679713,-0.291582429261055,0.708442848141728,-0.567778724397091,0.708442848143229,-0.567778724398957,-0.21486752495547,-0.291208779775633
60.5,-0.217685387774588,-0.292359201218004,0.70474102902641,-0.570698200650126,0.704741029027869,-0.570698200651979,-0.217757305388145,-0.291981065530426
61,-0.220577969535348,-0.293105874684772,0.701032582762753,-0.573586262009509,0.701032582764171,-0.573586262011349,-0.220649460131618,-0.292723288221086
61.5,-0.223472563652247,-0.293822529492604,0.697317838724086,-0.576443026697028,0.697317838725463,-0.576443026698854,-0.223543616575948,-0.293435524890534
62,-0.226368803925028,-0.294509249945314,0.693597122328978,-0.579268616705022,0.693597122330318,-0.57926861670683,-0.226439406451112,-0.294117857240303
62.5,-0.229266328224266,-0.295166124761425,0.689870755007387,-0.582063157692526,0.68987075500869,-0.582063157694318,-0.229336465762374,-0.294770371562683
63,-0.232164778458328,-0.295793247012317,0.686139054169476,-0.584826778882051,0.686139054170745,-0.584826778883823,-0.232234434734348,-0.295393158669097
63.5,-0.235063800545361,-0.296390714056989,0.68240233317705,-0.587559612957009,0.682402333178286,-0.587559612958763,-0.235132957762743,-0.295986313815413
