"Freq [GHz]","re(St(P1,P1)) []","im(St(P1,P1)) []","re(St(P1,P2)) []","im(St(P1,P2)) []","re(St(P2,P1)) []","im(St(P2,P1)) []","re(St(P2,P2)) []","im(St(P2,P2)) []"
0,0.0047646378486661,0,0.995248378021643,0,0.995248366249143,0,0.00476463029707475,0
0.5,0.00516851486195691,0.00130452899401945,0.994790563703262,-0.00563421623098748,0.994790564583482,-0.0056342189827987,0.00516842877559043,0.00130482084150785
1,0.00553925638141095,0.00210779695696672,0.994293401106152,-0.0107546663642601,0.994293401453515,-0.010754666379988,0.00553897774013734,0.00210848611677861
1.5,0.00568465920014383,0.00273531539540528,0.993873169445964,-0.0159460273441212,0.993873169761775,-0.0159460273671819,0.00568374699347629,0.00273637747423194
2,0.00576027709510463,0.00342078456125705,0.99340157385035,-0.020996849375063,0.993401574124142,-0.0209968494019357,0.00575902962033492,0.00342247719436628
2.5,0.00581671101307624,0.00413967422451833,0.992921965828063,-0.0259338212248963,0.992921966054062,-0.0259338212510283,0.00581526091749129,0.00414203188353923
3,0.00586918106825252,0.00487878305384548,0.992452382722816,-0.0307886564760533,0.992452382899955,-0.0307886564977391,0.00586758572727231,0.00488180515337255
3.5,0.00592342162206227,0.00563147391810759,0.991994709844449,-0.0355872947894955,0.991994709975183,-0.0355872948047971,0.00592170603245723,0.00563515687850469
4,0.00598200088475087,0.00639428372214823,0.991543176767657,-0.0403476760835222,0.991543176856677,-0.0403476760922441,0.00598017489613234,0.00639862680526626
4.5,0.00604624581321489,0.0071653548426589,0.991089523063089,-0.0450810982251806,0.991089523116345,-0.0450810982283514,0.00604431156136287,0.00717036088899725
5,0.00611693768684884,0.00794369757041302,0.990625494535592,-0.0497942604167818,0.990625494559657,-0.049794260416089,0.00611489309237534,0.00794937274409868
5.5,0.00619459844022807,0.00872882175364076,0.990143816704196,-0.05449095363727,0.990143816705849,-0.054490953634553,0.00619243898972299,0.0087351751771374
6,0.00627962123293158,0.00952054126720103,0.989638440396267,-0.0591732236009035,0.989638440382236,-0.0591732235978197,0.006277340949706,0.0095275847263574
6.5,0.00637233517797364,0.0103188644700776,0.989104486376319,-0.0638421039161994,0.989104486353102,-0.0638421039140322,0.00636992718404983,0.0103266122090311
7,0.00647303980757041,0.0111239299464554,0.988538089442828,-0.0684980556344446,0.988538089416572,-0.0684980556339916,0.00647049666779131,0.0111323985381597
7.5,0.0065820246544499,0.0119359673245949,0.987936226700279,-0.0731412217262459,0.987936226676692,-0.0731412217278038,0.00657933859915449,0.0119451755995366
8,0.00669958109945845,0.0127552726085103,0.987296561325592,-0.0777715700240007,0.987296561309895,-0.0777715700274042,0.00669674417717281,0.0127652416276174
8.5,0.0068260100219294,0.0135821922381085,0.986617310403547,-0.0823889709810297,0.986617310400444,-0.0823889709856953,0.0068230142108745,0.0135929452997683
9,0.00696162709708964,0.0144171125797685,0.985897136592825,-0.0869932383519467,0.985897136606497,-0.0869932383569525,0.00695846439237852,0.0144286752539085
9.5,0.00710676674841812,0.0152604528981062,0.985135060522294,-0.0915841494134515,0.985135060556406,-0.0915841494176126,0.00710342923527579,0.0152728530826423
10,0.00726178532979638,0.0161126606196618,0.984330390317742,-0.0961614543485654,0.984330390375469,-0.0961614543505114,0.00725826524942846,0.0161259286161535
10.5,0.00746236177206794,0.0168951270083477,0.98358327921689,-0.10075222347178,0.98358327927491,-0.100752223475313,0.00745872040531975,0.016909096991534
11,0.00767215070763447,0.0176742842337334,0.982817637057947,-0.105323502045638,0.982817637116101,-0.105323502050771,0.00766838322392632,0.0176889617483313
11.5,0.00789107375280883,0.0184499935497349,0.982034389217775,-0.109876108971016,0.982034389275909,-0.109876108977742,0.00788717547605222,0.0184653843795748
12,0.00811904961914804,0.0192221186883161,0.981234331714466,-0.114410878406697,0.981234331772433,-0.114410878414996,0.00811501603471877,0.0192382288526951
12.5,0.00835599420697997,0.0199905259394813,0.980418139743055,-0.118928645960868,0.980418139800718,-0.118928645970704,0.00835182096863421,0.0200073616893084
13,0.00860182070149765,0.0207550842273254,0.979586376983034,-0.123430237130198,0.979586377040267,-0.123430237141523,0.00859750363823653,0.0207726520410603
13.5,0.00885643967124784,0.0215156651820632,0.978739505305982,-0.127916457840592,0.978739505362668,-0.127916457853351,0.00885197479411781,0.0215339717614556
14,0.00911975916883308,0.0222721432079478,0.977877894578837,-0.13238808690928,0.97787789463487,-0.132388086923404,0.00911514267765268,0.0222911954735721
14.5,0.00939168483363449,0.0230243955470537,0.9770018323213,-0.136845870228643,0.977001832376585,-0.136845870244063,0.00938691312364719,0.0230442006336191
15,0.00967211999637621,0.0237723023387937,0.976111533032834,-0.141290516465262,0.976111533087287,-0.141290516481901,0.0096671896648127,0.0237928675902643
15.5,0.0099609657853362,0.0245157466751809,0.975207147054632,-0.145722694069772,0.97520714710818,-0.145722694087548,0.00995587363788732,0.0245370796396682
16,0.0102581212340183,0.0252546146517769,0.974288768874422,-0.150143029402119,0.974288768927001,-0.150143029420951,0.0102528642912009,0.0252767230762228
16.5,0.010563483390097,0.0259887954142681,0.973356444817264,-0.154552105790266,0.97335644486882,-0.154552105810069,0.0105580588935119,0.0260116872389209
17,0.0108769474254418,0.0267181812006947,0.972410180094004,-0.158950463356539,0.972410180144492,-0.158950463377231,0.0108713528439093,0.0267418645533617
17.5,0.011198406747037,0.0274426673792707,0.971449945201436,-0.163338599463475,0.971449945250822,-0.163338599484971,0.0111926397826053,0.0274671505693687
18,0.0115277531086097,0.0281621524818196,0.970475681685342,-0.167716969648812,0.970475681733596,-0.16771696967103,0.0115218117024199,0.0281874439942049
18.5,0.0118648767227753,0.0288765382328249,0.969487307290057,-0.172085988936753,0.969487307337158,-0.172085988959614,0.0118587590607819,0.0289026467214195
19,0.0122096663735239,0.0295857295740842,0.968484720527028,-0.176446033429067,0.968484720572962,-0.176446033452492,0.0122033708920541,0.0296126638552923
19.5,0.0125620095288559,0.0302896346850208,0.967467804700464,-0.180797442094736,0.967467804745222,-0.18079744211865,0.0125555349200046,0.0303174037309391
20,0.0129217924534067,0.0309881649986514,0.966436431431435,-0.185140518690571,0.966436431475014,-0.1851405187149,0.0129151376702461,0.0310167779300761
20.5,0.0132889003208596,0.0316812352132541,0.965390463723116,-0.189475533757341,0.965390463765518,-0.189475533782018,0.0132820645824674,0.0317107012924946
21,0.0136632173259956,0.0323687632997869,0.964329758609767,-0.193802726646628,0.964329758650998,-0.193802726671587,0.0136562001222826,0.0323990919232813
21.5,0.0140446267962019,0.0330506705050841,0.963254169430895,-0.19812230754278,0.963254169470965,-0.198122307567957,0.0140374278925295,0.0330818711958298
22,0.0144330113022763,0.0337268813509159,0.962163547770161,-0.202434459452148,0.962163547809082,-0.202434459477484,0.0144256307438592,0.0337589637507119
22.5,0.0148282527683666,0.0343973236289516,0.961057745096231,-0.206739340138466,0.96105774513402,-0.206739340163905,0.0148206908844459,0.0344302974904709
23,0.0152302325808923,0.0350619283916935,0.959936614140091,-0.211037083988703,0.959936614176766,-0.211037084014195,0.0152224899886699,0.035095803570377
23.5,0.0156388316962903,0.0357206299394772,0.958800010040567,-0.21532780379826,0.958800010076149,-0.215327803823754,0.0156309093046203,0.0357554163852729
24,0.0160539307474484,0.0363733658035896,0.95764779128695,-0.219611592468167,0.957647791321461,-0.219611592493618,0.0160458297602682,0.0364090735525329
24.5,0.0164754101486763,0.0370200767256179,0.956479820484848,-0.223888524609865,0.956479820518313,-0.22388852463523,0.0164671320681765,0.0370567158912674
25,0.0169031501990859,0.0376607066330998,0.955295964968748,-0.228158658055604,0.955295965001191,-0.228158658080844,0.0168946968286025,0.0376982873978362
25.5,0.017337031184243,0.0382952026115739,0.954096097282213,-0.23242203527433,0.95409609731366,-0.23242203529941,0.0173284046308723,0.0383337352177682
26,0.0177769334759738,0.0389235148731326,0.952880095544362,-0.236678684694398,0.95288009557484,-0.236678684719283,0.0177681361528934,0.0389630096142057
26.5,0.0182227376301993,0.0395455967215836,0.951647843719055,-0.240928621935515,0.951647843748592,-0.240928621960175,0.0182137722586946,0.0395860639329546
27,0.0186743244826889,0.0401614045143139,0.950399231801296,-0.245171850953162,0.950399231829919,-0.245171850977567,0.0186651940938756,0.0402028545642514
27.5,0.019131575242627,0.0407708976209722,0.949134155933548,-0.249408365099241,0.949134155961284,-0.249408365123368,0.0191222831788582,0.0408133409013698
28,0.0195943715838824,0.0413740383790926,0.947852518463055,-0.253638148103113,0.947852518489932,-0.253638148126938,0.0195849214998443,0.0414174852961711
28.5,0.0200625957338929,0.0419707920467536,0.946554227949853,-0.257861174977389,0.946554227975901,-0.257861175000891,0.0200529915973767,0.0420152530117039
29,0.0205361305600748,0.0425611267524042,0.945239199133835,-0.262077412852934,0.94523919915908,-0.262077412876094,0.0205263766524165,0.0426066121719912
29.5,0.0210148596536612,0.0431450134419784,0.943907352868131,-0.26628682174755,0.943907352892601,-0.266286821770353,0.0210049605698574,0.0431915337091104
30,0.0214986674109065,0.0437224258234019,0.942558616025053,-0.270489355272751,0.942558616048775,-0.270489355295179,0.0214886280593905,0.043769991307687
30.5,0.021987439111575,0.0442933403086361,0.941192921379973,-0.274684961282888,0.941192921402974,-0.274684961304931,0.0219772647136526,0.0443419613469322
31,0.0224810609946421,0.0448577359533613,0.939810207477725,-0.278873582470776,0.939810207500031,-0.278873582492421,0.0224707570835911,0.0449074228403463
31.5,0.0229794203311566,0.0454155943944403,0.938410418485468,-0.28305515691374,0.938410418507103,-0.283055156934978,0.022968992750983,0.0454663573732041
32,0.0234824054942013,0.0459668997852756,0.936993504035318,-0.287229618573846,0.93699350405631,-0.287229618594669,0.0234718603980507,0.0460187490379589
32.5,0.0239899060259002,0.0465116387291922,0.935559419059594,-0.291396897755815,0.935559419079965,-0.291396897776216,0.0239792498741273,0.0465645843676825
33,0.0245018127014308,0.0470498002109667,0.934108123621032,-0.295556921525967,0.934108123640806,-0.295556921545938,0.0244910522593257,0.047103852267669
33.5,0.0250180175899952,0.0475813755266354,0.932639582739978,-0.299709614095269,0.932639582759179,-0.299709614114809,0.02500715992517,0.0476365439453332
34,0.02553841411272,0.0481063582116938,0.931153766220203,-0.303854897169413,0.931153766238855,-0.303854897188517,0.0255274665921569,0.0481626528385177
34.5,0.0260628970974516,0.0486247439678233,0.929650648474725,-0.307992690268568,0.929650648492847,-0.307992690287234,0.0260518673842111,0.04868217454234
35,0.0265913628304156,0.0491365305882647,0.928130208352757,-0.312122911019342,0.928130208370371,-0.312122911037569,0.0265802588800205,0.0491951067347034
35.5,0.0271237091047321,0.0496417178819637,0.926592428968716,-0.316245475421221,0.926592428985843,-0.316245475439008,0.0271125391612193,0.0497014491005987
36,0.0276598352657576,0.0501403075966063,0.925037297534014,-0.320360298089637,0.925037297550673,-0.320360298106985,0.0276486078574082,0.0502012032553061
36.5,0.0281996422532423,0.0506323033406688,0.923464805192226,-0.324467292477628,0.923464805208436,-0.324467292494539,0.0281883661880017,0.0506943726666333
37,0.0287430326403009,0.0511177105045997,0.921874946858095,-0.328566371077867,0.921874946873874,-0.328566371094342,0.0287317170008883,0.0511809625762987
37.5,0.0292899106691879,0.0515965361812574,0.920267721060711,-0.332657445606761,0.920267721076077,-0.332657445622803,0.0292785648079068,0.0516609799205803
38,0.0298401822838748,0.0520687890857119,0.918643129791127,-0.336740427172102,0.918643129806097,-0.336740427187713,0.0298288158171346,0.0521344332503544
38.5,0.0303937551594343,0.052534479474537,0.917001178354585,-0.340815226425695,0.917001178369175,-0.34081522644088,0.0303823779619931,0.0526013326506318
39,0.0309505387282421,0.0529936190646974,0.915341875227457,-0.344881753702236,0.915341875241681,-0.344881753716999,0.0309391609271771,0.0530616896597031
39.5,0.0315104442029949,0.0534462209521507,0.913665231918969,-0.348939919145606,0.913665231932844,-0.348939919159951,0.0314990761714188,0.0535155171880173
40,0.0320733845965708,0.0538922995302695,0.911971262837717,-0.352989632823661,0.911971262851255,-0.352989632837595,0.0320620369471021,0.0539628294368901
40.5,0.0326392747387397,0.0543318704081985,0.910259985162936,-0.357030804832498,0.910259985176151,-0.357030804846026,0.0326279583167407,0.054403641817163
41,0.0332080312897443,0.0547649503292458,0.908531418720497,-0.361063345391099,0.908531418733403,-0.361063345404226,0.0331967571663425,0.0548379708679068
41.5,0.033779572750777,0.0551915570894297,0.906785585863529,-0.365087164927157,0.906785585876136,-0.365087164939889,0.0337683522156841,0.0552658341752941
42,0.0343538194713714,0.0556117094562634,0.905022511357575,-0.369102174154861,0.905022511369895,-0.369102174167204,0.0343426640255167,0.0556872502917176
42.5,0.0349306936537453,0.0560254270879019,0.903242222270182,-0.373108284145291,0.903242222282227,-0.373108284157253,0.0349196150017366,0.0561022386552867
43,0.0355101193541121,0.0564327304527301,0.901444747864792,-0.377105406390089,0.901444747876571,-0.377105406401675,0.0354991293965454,0.0565108195097723
43.5,0.036092022481006,0.0568336407495187,0.899630119498798,-0.381093452858929,0.899630119510322,-0.381093452870147,0.0360811333066399,0.0569130138251208
44,0.036676330790645,0.0572281798282108,0.897798370525651,-0.385072336051347,0.897798370536928,-0.385072336062205,0.0366655546684579,0.0573088432186261
44.5,0.0372629738793733,0.0576163701114665,0.895949536200846,-0.389041969043397,0.895949536211884,-0.389041969053901,0.0372523232505254,0.0576983298768424
45,0.0378518831732254,0.057998234517041,0.894083653591678,-0.393002265529544,0.894083653602487,-0.393002265539702,0.0378413706429401,0.0580814964783559
45.5,0.0384429919146431,0.0583737963810896,0.892200761490603,-0.396953139860227,0.89220076150119,-0.396953139870046,0.0384326302440344,0.0584583661174826
46,0.0390362351463997,0.0587430793825053,0.890300900332075,-0.400894507075423,0.890300900342446,-0.40089450708491,0.0390260372442616,0.0588289622289948
46.5,0.0396315496927651,0.0591061074683527,0.888384112112707,-0.404826282934565,0.888384112122869,-0.404826282943729,0.0396215286073482,0.0591933085139603
47,0.0402288741379715,0.0594629047805105,0.886450440314641,-0.408748383943103,0.886450440324601,-0.408748383951951,0.0402190430487641,0.0595514288667863
47.5,0.0408281488020156,0.0598134955835969,0.884499929831966,-0.412660727375983,0.884499929841728,-0.412660727384522,0.0408185210115558,0.0599033473035427
48,0.041429315713857,0.0601579041942635,0.882532626900077,-0.416563231298299,0.882532626909648,-0.416563231306536,0.0414199046395968,0.0602490878916597
48.5,0.0420323185820612,0.0604961549119384,0.880548579027834,-0.420455814583357,0.880548579037217,-0.4204558145913,0.0420231377483048,0.0605886746810714
49,0.0426371027629465,0.0608282719511117,0.878547834932404,-0.424338396928343,0.878547834941605,-0.424338396936,0.042628165792884,0.0609221316368983
49.5,0.043243615226282,0.0611542793752323,0.876530444476675,-0.428210898867795,0.876530444485697,-0.428210898875173,0.0432349358341475,0.0612494825737341
50,0.0438518045186054,0.0614742010322984,0.874496458609107,-0.432073241785066,0.874496458617954,-0.432073241792172,0.0438433965019754,0.0615707510916286
50.5,0.0444616207242146,0.061788060492226,0.872445929305945,-0.43592534792191,0.872445929314621,-0.435925347928752,0.0444534979564752,0.0618859605138313
51,0.0450730154238974,0.0620958809860618,0.870378909515655,-0.439767140386373,0.870378909524161,-0.439767140392958,0.0450651918468996,0.0621951338263798
51.5,0.045685941651462,0.0623976853471264,0.868295453105507,-0.443598543159091,0.868295453113847,-0.443598543165426,0.0456784312683919,0.0624982936196039
52,0.0463003538481373,0.0626934959541543,0.866195614810201,-0.447419481098135,0.866195614818377,-0.447419481104227,0.04629317071662,0.0627954620316162
52.5,0.0469162078149102,0.0629833346765076,0.864079450182445,-0.451229879942515,0.86407945019046,-0.45122987994837,0.0469093660403709,0.0630866606938664
53,0.047533460662866,0.0632672228215347,0.861947015545398,-0.455029666314437,0.861947015553252,-0.455029666320063,0.0475269743921727,0.0633719106788202
53.5,0.0481520707616128,0.0635451810841404,0.859798367946898,-0.458818767720418,0.859798367954594,-0.45881876772582,0.0481459541770194,0.0636512324498442
54,0.0487719976858602,0.0638172294986433,0.857633565115397,-0.462597112551332,0.857633565122935,-0.462597112556518,0.0487662649992693,0.0639246458133482
54.5,0.0493932021602284,0.0640833873929823,0.855452665417521,-0.466364630081478,0.855452665424903,-0.466364630086452,0.0493878676077981,0.064192169873271
55,0.0500156460023684,0.0643436733453392,0.853255727817198,-0.470121250466735,0.853255727824424,-0.470121250471506,0.05001072383948,0.0644538229879524
55.5,0.0506392920644802,0.0645981051432426,0.85104281183627,-0.473866904741878,0.85104281184334,-0.47386690474645,0.0506347965610843,0.0647096227294719
56,0.0512641041733059,0.0648466997452196,0.848813977516537,-0.4776015248171,0.848813977523453,-0.477601524821481,0.0512600496096668,0.0649595858455055
56.5,0.0518900470686895,0.0650894732450422,0.846569285383172,-0.481325043473825,0.846569285389934,-0.481325043478018,0.0518864477315424,0.065203728223764
57,0.0525170863407951,0.0653264408386508,0.844308796409442,-0.48503739435982,0.844308796416049,-0.485037394363831,0.0525139565199313,0.065442064859067
57.5,0.0531451883660718,0.0655576167937894,0.842032571982687,-0.488738511983703,0.842032571989138,-0.488738511987539,0.0531425423513658,0.0656746098231199
58,0.053774320242061,0.0657830144224207,0.839740673871501,-0.492428331708853,0.839740673877797,-0.492428331712519,0.053772172320956,0.0659013762370261
58.5,0.054404449721153,0.0660026460559666,0.837433164194077,-0.496106789746776,0.837433164200218,-0.496106789750276,0.054402814176606,0.0661223762466088
59,0.0550355451433799,0.0662165230234335,0.835110105387654,-0.499773823149964,0.835110105393638,-0.499773823153302,0.0550344362522863,0.0663376210005776
59.5,0.0556675753683597,0.0664246556324609,0.832771560179029,-0.503429369804283,0.832771560184856,-0.503429369807464,0.0556670074004591,0.0665471206315907
60,0.0563005097064969,0.0666270531533414,0.830417591556103,-0.50707336842091,0.830417591561773,-0.50707336842394,0.0563004969237668,0.0667508842402588
60.5,0.0569343178495449,0.0668237238060574,0.828048262740405,-0.510705758527869,0.828048262745916,-0.510705758530751,0.0569348745060885,0.0669489198821271
61,0.0575689698006481,0.0670146747503685,0.825663637160564,-0.514326480461166,0.825663637165915,-0.514326480463904,0.0575701101430737,0.0671412345576781
61.5,0.0582044358039787,0.0671999120789883,0.8232637784267,-0.51793547535557,0.823263778431891,-0.517935475358169,0.0582061740722734,0.0673278342053864
62,0.0588406862740815,0.0673794408138826,0.820848750305693,-0.521532685135053,0.820848750310722,-0.521532685137516,0.0588430367029789,0.0675087236978602
62.5,0.0594776917250591,0.0675532649057157,0.818418616697303,-0.525118052502912,0.81841861670217,-0.525118052505242,0.059480668545892,0.0676839068410964
63,0.0601154226997103,0.067721387236465,0.815973441611104,-0.528691520931589,0.815973441615807,-0.52869152093379,0.0601190401427423,0.0678533863768676
63.5,0.0607538496987567,0.0678838096252368,0.813513289144216,-0.532253034652217,0.813513289148754,-0.532253034654292,0.0607581219959866,0.0680171639882726
64,0.0613929431102834,0.0680405328372823,0.811038223459802,-0.535802538643898,0.811038223464174,-0.53580253864585,0.0613978844987094,0.0681752403084509
