"Freq [GHz]","re(St(P1,P1)) []","im(St(P1,P1)) []","re(St(P1,P2)) []","im(St(P1,P2)) []","re(St(P2,P1)) []","im(St(P2,P1)) []","re(St(P2,P2)) []","im(St(P2,P2)) []"
0,0.00404193748943271,0,0.995974841163843,0,0.995974840043345,0,0.00404193413316989,0
0.5,0.00467835590877286,-0.00214867538573316,0.995270715191239,-0.00695386708637713,0.995270715267445,-0.00695386705467982,0.0046781400573721,-0.0021481488347419
1,0.00524239151829775,-0.00510544233949872,0.994534714708028,-0.0131012535414357,0.994534714708976,-0.0131012535349981,0.00524177150099092,-0.00510416439791328
1.5,0.00553328249456087,-0.00825915946471412,0.993951727107454,-0.0190344995494378,0.993951727102001,-0.019034499560636,0.00553109357632309,-0.00825577111355358
2,0.00563517643704259,-0.011439153433237,0.993470744071566,-0.0249120927405002,0.993470744057227,-0.0249120927559154,0.00563330477881863,-0.0114344515804206
2.5,0.00562336418447806,-0.0146054021459108,0.993011404463784,-0.0307863700268669,0.993011404444321,-0.0307863700405981,0.00562145882052789,-0.0146000410352869
3,0.00553509487314052,-0.0177526281170621,0.992533242450437,-0.0366601821334989,0.992533242429554,-0.0366601821435175,0.00553271202123007,-0.0177465605923999
3.5,0.00538941543683613,-0.0208826282361017,0.992018530822119,-0.042527554206238,0.992018530802641,-0.042527554212203,0.00538634809882055,-0.0208756306758247
4,0.00519663865426345,-0.0239982297608474,0.99146015393262,-0.0483825900003438,0.991460153916546,-0.0483825900026975,0.00519282779887043,-0.0239901002670173
4.5,0.00496264650953826,-0.0271019141414595,0.990855878466998,-0.0542209907818432,0.990855878455577,-0.0542209907814186,0.00495809601255104,-0.0270925071740855
5,0.00469095198355163,-0.0301955943475676,0.990205700588268,-0.0600399873165252,0.990205700582061,-0.0600399873143278,0.00468568511092027,-0.0301848115360244
5.5,0.00438374066765945,-0.0332806755845496,0.98951057086894,-0.0658379927238979,0.989510570867843,-0.0658379927209563,0.00437778161829883,-0.0332684508340684
6,0.00404242258977927,-0.0363581653333647,0.988771761273031,-0.071614264900564,0.988771761276287,-0.0716142648978089,0.00403578984923136,-0.0363444529773318
6.5,0.00366793736575532,-0.0394287724126716,0.987990550228868,-0.0773686325395548,0.987990550235103,-0.077368632537695,0.00366064209562911,-0.0394135391427586
7,0.00326092961989577,-0.0424929839894066,0.987168074067514,-0.0831012854206215,0.987168074074774,-0.0831012854200086,0.00325297600970842,-0.0424762036497661
7.5,0.00282185342888885,-0.0455511225593117,0.986305268387111,-0.08881261901195,0.986305268392927,-0.0888126190125167,0.00281323969174796,-0.045532772855962
8,0.00235103650910151,-0.0486033874268088,0.985402858156895,-0.0945031226323518,0.985402858158357,-0.094503122633526,0.00234175598439945,-0.0485834478619651
8.5,0.00184872080929566,-0.0516498848367544,0.984461373236936,-0.100173301668896,0.984461373230766,-0.100173301669541,0.00183876297333807,-0.0516283354148133
9,0.00131508885563858,-0.0546906499616924,0.983481175758141,-0.10582362586228,0.983481175740774,-0.105823625860683,0.00130444018273357,-0.0546674703800978
9.5,0.00075028125656007,-0.0577256630703786,0.982462491488978,-0.111454497105202,0.982462491456635,-0.111454497099023,0.00073892592920366,-0.0577008322159944
10,0.000154408585628429,-0.0607548615271902,0.981405440753786,-0.117066231483902,0.981405440702545,-0.117066231470188,0.000142329072059244,-0.0607283571662478
10.5,-0.000529599049739815,-0.0637180332956628,0.980292546087555,-0.122675935150339,0.980292546036873,-0.122675935134922,-0.000533161950611039,-0.0636936249698614
11,-0.00124593631485626,-0.0666697510667209,0.979142553670992,-0.128262596592675,0.979142553621023,-0.128262596575616,-0.00124022921450928,-0.0666481515682147
11.5,-0.00199443886828199,-0.0696093034827312,0.977956204630131,-0.133826723474516,0.977956204581015,-0.133826723455893,-0.00197864008634596,-0.0695913285276779
12,-0.0027749287203076,-0.0725359407185806,0.976734127009379,-0.139368806421646,0.976734126961241,-0.139368806401547,-0.00274813907237803,-0.072522526675864
12.5,-0.00358721236457904,-0.0754488675476024,0.975476848287461,-0.144889309024445,0.97547684824041,-0.144889309002968,-0.00354844459764914,-0.0754410929667575
13,-0.00443107839231904,-0.0783472349427576,0.97418480771947,-0.150388660361405,0.974184807673602,-0.150388660338656,-0.004379245055396,-0.0783463468361303
13.5,-0.00530629442585451,-0.0812301298430453,0.972858368199488,-0.155867249708429,0.972858368154882,-0.155867249684514,-0.0052401939371538,-0.08123757595743
14,-0.00621260314894867,-0.084096562605616,0.971497827429529,-0.161325423102701,0.971497827386252,-0.161325423077731,-0.00613090379784437,-0.0841140312931641
14.5,-0.00714971712780543,-0.0869454515167689,0.970103428256561,-0.166763481447237,0.970103428214666,-0.166763481421327,-0.00705093873521001,-0.0869749213198192
15,-0.00811731199686083,-0.0897756035351316,0.968675368100754,-0.172181679868268,0.968675368060281,-0.172181679841529,-0.00799980496213926,-0.0898194052864598
15.5,-0.00911501741004084,-0.092585690166846,0.967213807445926,-0.17758022806844,0.967213807406905,-0.177580228040978,-0.00897693891408402,-0.0926465853502529
16,-0.0101424049035409,-0.0953742169938314,0.965718877399108,-0.182959291451235,0.965718877361557,-0.18295929142316,-0.0099816921477347,-0.0954554974186337
16.5,-0.0111989714369384,-0.0981394848465893,0.964190686352084,-0.188318992824554,0.964190686316013,-0.188318992795965,-0.0110133120315976,-0.0982451005247267
17,-0.0122841168057414,-0.100879539863082,0.962629325795407,-0.19365941452162,0.962629325760818,-0.193659414492618,-0.0120709168751904,-0.101014264579527
17.5,-0.0133971122360923,-0.103592108601563,0.961034875346425,-0.198980600805803,0.961034875313312,-0.198980600776482,-0.0131534636500141,-0.103761756401918
18,-0.0145370560900593,-0.106274512817276,0.959407407058818,-0.204282560450655,0.959407407027168,-0.204282560421104,-0.0142597057618093,-0.106486224059108
18.5,-0.0157028104016161,-0.10892355622429,0.957746989083234,-0.209565269408487,0.957746989053027,-0.209565269378789,-0.0153881373525743,-0.109186179817627
19,-0.0168929083585153,-0.111535372156588,0.956053688747883,-0.21482867349961,0.956053688719098,-0.214828673469849,-0.0165369192152534,-0.111859982516767
19.5,-0.0181054168203224,-0.114105215905402,0.954327575125336,-0.220072691070086,0.954327575097944,-0.220072691040333,-0.0177037794109525,-0.114505821125752
20,-0.0193377276301336,-0.116627177673663,0.952568721147784,-0.225297215579142,0.952568721121755,-0.225297215549466,-0.01888587882883,-0.117121702980718
20.5,-0.020586233246386,-0.119093780025456,0.950777205328364,-0.230502118088154,0.950777205303663,-0.23050211805862,-0.0200796278689938,-0.119705453343593
21,-0.0218458090324009,-0.121495405072839,0.948953113141055,-0.235687249631854,0.948953113117646,-0.23568724960252,-0.0212804347128395,-0.12225473862243
21.5,-0.0231089620028178,-0.123819468092001,0.947096538106481,-0.240852443459467,0.947096538084326,-0.240852443430387,-0.0224823578144583,-0.124767135923642
22,-0.024364383422002,-0.126049212067414,0.945207582625876,-0.245997517138864,0.945207582604936,-0.245997517110089,-0.0236776251364585,-0.127240290389876
22.5,-0.0255943929062307,-0.12816194198868,0.943286358600639,-0.251122274521201,0.943286358580872,-0.251122274492772,-0.0248559713328802,-0.129672235987411
23,-0.0267702288036882,-0.130126471899965,0.941332987870394,-0.256226507566571,0.941332987851761,-0.256226507538535,-0.026003736445622,-0.132062017579397
23.5,-0.027842948785167,-0.13189964759591,0.939347602498287,-0.261309998033787,0.939347602480745,-0.261309998006178,-0.0271026812359699,-0.134410863855285
24,-0.0287249275371217,-0.133422588037468,0.937330344928508,-0.266372519038911,0.937330344912013,-0.266372519011761,-0.0281285480974209,-0.136724355498034
24.5,-0.0292503108529459,-0.134621127752831,0.935281368037634,-0.271413836488475,0.935281368022147,-0.271413836461814,-0.029049643034199,-0.139016348638319
25,-0.0290877908330761,-0.135432136434968,0.933200835098374,-0.276433710394063,0.933200835083851,-0.276433710367918,-0.0298263936559757,-0.141315835290986
25.5,-0.0275583641695916,-0.135952618544415,0.931088919671594,-0.281431896075303,0.931088919657995,-0.281431896049698,-0.0304144806621328,-0.143678152039262
26,-0.0234251604894566,-0.137098404112952,0.928945805440261,-0.286408145258552,0.928945805427545,-0.286408145233505,-0.0307774794796206,-0.146200699965876
26.5,-0.0161000290245137,-0.142481449054778,0.926771685996775,-0.291362207078524,0.926771685984902,-0.291362207054053,-0.030919512243982,-0.149036908471414
27,-0.012110626556926,-0.156403159301651,0.924566764593491,-0.296293828989989,0.924566764582421,-0.296293828966109,-0.0309466593640714,-0.152384578806243
27.5,-0.0190086121750211,-0.169818773301043,0.92233125386464,-0.301202757596358,0.922331253854335,-0.30120275757308,-0.0311338573187231,-0.156402126046945
28,-0.0284859341347399,-0.175451616202946,0.920065375526565,-0.306088739401769,0.920065375516987,-0.306088739379105,-0.031897521855733,-0.161038057131884
28.5,-0.0354245867896734,-0.177397480092654,0.917769360062016,-0.310951521492828,0.917769360053131,-0.310951521470785,-0.0335714114941429,-0.16591875022767
29,-0.0402622897350251,-0.178534545238652,0.915443446393349,-0.315790852155831,0.915443446385118,-0.315790852134417,-0.0361409662426388,-0.170518462712468
29.5,-0.0439130384981984,-0.179687295865096,0.913087881548544,-0.320606481434911,0.913087881540935,-0.320606481414128,-0.0392683734851509,-0.174493857262566
30,-0.0469154053127434,-0.181017172198274,0.910702920323379,-0.32539816163611,0.910702920316358,-0.325398161615962,-0.0425651463224442,-0.177808136738729
30.5,-0.0495526907415015,-0.182521801660842,0.908288824942362,-0.330165647782096,0.908288824935895,-0.330165647762584,-0.0457817377605502,-0.180605604670814
31,-0.051976743847712,-0.184166828157718,0.905845864720654,-0.33490869802174,0.905845864714713,-0.334908698002864,-0.0488182428654526,-0.183060860857198
31.5,-0.0542727668595271,-0.185917925497614,0.903374315728695,-0.33962707399856,0.903374315723247,-0.339627073980316,-0.0516635417454762,-0.185310188129245
32,-0.0564909187343212,-0.18774715837405,0.900874460460915,-0.344320541181585,0.900874460455933,-0.344320541163974,-0.0543431934785099,-0.187442489815235
32.5,-0.0586620495351054,-0.189633002213065,0.898346587509665,-0.348988869161998,0.898346587505121,-0.348988869145014,-0.0568916760120709,-0.189510610075325
33,-0.0608058698102496,-0.191559079102362,0.895790991245159,-0.353631831918505,0.895790991241027,-0.353631831902144,-0.0593411033872138,-0.191544166342671
33.5,-0.062935388054709,-0.193512890585675,0.893207971502109,-0.358249208054208,0.893207971498361,-0.358249208038464,-0.0617179332171607,-0.193558908902906
34,-0.0650594266477933,-0.195484810635398,0.890597833273483,-0.362840781007493,0.890597833270097,-0.362840780992359,-0.0640428546879434,-0.195562626904022
34.5,-0.0671841051713589,-0.197467338480581,0.887960886411747,-0.367406339239161,0.887960886408697,-0.36740633922463,-0.066331681332495,-0.197558650658831
35,-0.0693137461507407,-0.199454556173472,0.885297445337765,-0.371945676397898,0.88529744533503,-0.371945676383965,-0.0685963957782756,-0.19954787012307
35.5,-0.0714514457326999,-0.201441736166364,0.882607828757516,-0.376458591465948,0.882607828755076,-0.3764585914526,-0.0708460644258292,-0.201529882179553
36,-0.0735994434729172,-0.203425056107191,0.879892359386632,-0.38094488888667,0.879892359384465,-0.380944888873901,-0.0730875617172505,-0.203503637116065
36.5,-0.0757593680463227,-0.205401389829038,0.877151363682758,-0.385404378675564,0.877151363680845,-0.385404378663365,-0.0753261193323135,-0.205467799471887
37,-0.0779324042431314,-0.207368152644765,0.874385171585673,-0.389836876516115,0.874385171583995,-0.389836876504475,-0.077565734827907,-0.207420946333849
37.5,-0.0801194088059716,-0.209323185622529,0.871594116265046,-0.394242203841769,0.871594116263586,-0.394242203830675,-0.0798094736498032,-0.209361673206251
38,-0.0823209922803693,-0.211264668098285,0.868778533875731,-0.398620187905152,0.868778533874473,-0.398620187894597,-0.0820596923067253,-0.21128864746356
38.5,-0.0845375778324708,-0.213191050847842,0.8659387633204,-0.402970661835639,0.865938763319326,-0.402970661825611,-0.0843182038783712,-0.213200632289184
39,-0.0867694441712259,-0.215101004529645,0.863075146019388,-0.407293464686143,0.863075146018485,-0.40729346467663,-0.0865864014609995,-0.215096494252156
39.5,-0.0890167573167844,-0.216993379530193,0.860188025687556,-0.411588441470056,0.860188025686809,-0.411588441461049,-0.0888653508788317,-0.216975202082853
40,-0.091279594422024,-0.21886717440801,0.857277748117967,-0.415855443189111,0.857277748117362,-0.415855443180596,-0.09115586084016,-0.218835820984216
40.5,-0.0935579618519751,-0.220721510883474,0.854344660972214,-0.420094326852841,0.85434466097174,-0.420094326844808,-0.0934585364423697,-0.22067750494537
41,-0.0958518090600367,-0.222555613857143,0.8513891135772,-0.424304955490344,0.851389113576845,-0.424304955482782,-0.0957738203008052,-0.222499488437056
41.5,-0.0981610393503034,-0.224368795324358,0.848411456728163,-0.428487198154911,0.848411456727915,-0.428487198147806,-0.0981020244120732,-0.224301078235363
42,-0.100485518307081,-0.226160441333622,0.845412042497784,-0.432640929922065,0.845412042497633,-0.432640929915405,-0.100443355028716,-0.2260816457533
42.5,-0.102825080458537,-0.22793000134124,0.842391224051182,-0.436766031881509,0.842391224051118,-0.436766031875282,-0.102797932223258,-0.227840620049052
43,-0.105179534590623,-0.229676979466354,0.839349355466618,-0.440862391123441,0.839349355466633,-0.440862391117637,-0.105165805386863,-0.229577481561151
43.5,-0.107548668019932,-0.231400927263605,0.836286791561738,-0.444929900719642,0.836286791561823,-0.444929900714246,-0.107546965593346,-0.23129175655627
44,-0.109932250056706,-0.233101437715703,0.833203887725185,-0.448968459699709,0.833203887725332,-0.448968459694712,-0.10994135552918,-0.23298301224257
44.5,-0.112330034832844,-0.234778140212779,0.830100999753422,-0.452977973022818,0.830100999753624,-0.452977973018207,-0.11234887752071,-0.234650852487083
45,-0.11474176362818,-0.236430696334551,0.826978483692611,-0.456958351545284,0.826978483692862,-0.456958351541049,-0.114769400064033,-0.23629491407152
45.5,-0.117167166797564,-0.238058796289414,0.823836695685398,-0.460909511984269,0.823836695685692,-0.460909511980395,-0.117202763169224,-0.237914863422501
46,-0.119605965378153,-0.239662155893807,0.820675991822463,-0.464831376877866,0.820675991822794,-0.464831376874343,-0.119648782759937,-0.239510393756641
46.5,-0.122057872438895,-0.241240513998253,0.817496727998698,-0.468723874541843,0.817496727999061,-0.46872387453866,-0.12210725431607,-0.241081222586641
47,-0.12452259422089,-0.24279363028438,0.814299259773889,-0.472586939023268,0.814299259774278,-0.472586939020413,-0.124577955906461,-0.242627089540576
47.5,-0.126999831107174,-0.244321283371507,0.811083942237772,-0.476420510051229,0.811083942238184,-0.47642051004869,-0.127060650727412,-0.244147754452406
48,-0.129489278452563,-0.245823269182626,0.807851129879344,-0.480224532984857,0.807851129879776,-0.480224532982625,-0.129555089238768,-0.24564299568722
48.5,-0.131990627298095,-0.247299399528642,0.804601176460329,-0.483998958758844,0.804601176460777,-0.483998958756906,-0.132061010970638,-0.247112608669535
49,-0.134503564989824,-0.248749500876972,0.801334434892669,-0.487743743826616,0.80133443489313,-0.487743743824962,-0.134578146059268,-0.248556404587399
49.5,-0.137027775717943,-0.250173413276454,0.798051257119965,-0.491458850101341,0.798051257120436,-0.49145885009996,-0.13710621655914,-0.249974209248725
50,-0.139562940989234,-0.251570989415239,0.79475199400274,-0.495144244894923,0.794751994003221,-0.495144244893805,-0.139644937569412,-0.251365862069674
50.5,-0.142108740043459,-0.252942093792198,0.791436995207466,-0.49879990085511,0.791436995207954,-0.498799900854245,-0.142194018205587,-0.252731215177631
51,-0.144664850222425,-0.254286601985562,0.788106609099221,-0.502425795900883,0.788106609099714,-0.50242579590026,-0.144753162441709,-0.254070132613821
51.5,-0.147230947298881,-0.25560440000506,0.784761182637932,-0.506021913156218,0.784761182638429,-0.506021913155829,-0.147322069843711,-0.255382489622665
52,-0.149806705771226,-0.256895383716011,0.781401061278105,-0.50958824088237,0.781401061278605,-0.509588240882205,-0.149900436211001,-0.256668172016756
52.5,-0.152391799128957,-0.258159458325553,0.778026588871947,-0.513124772408777,0.778026588872451,-0.513124772408825,-0.152487954140304,-0.257927075607882
53,-0.154985900092987,-0.259396537922713,0.774638107575839,-0.516631506062696,0.774638107576346,-0.516631506062949,-0.155084313523455,-0.259159105695808
53.5,-0.157588680834283,-0.260606545065206,0.771235957760052,-0.520108445097681,0.771235957760561,-0.52010844509813,-0.157689201988819,-0.26036417660766
54,-0.160199813173741,-0.261789410406921,0.767820477921662,-0.523555597620985,0.767820477922174,-0.52355559762162,-0.160302305294486,-0.261542211281701
54.5,-0.162818968765733,-0.262945072360895,0.76439200460058,-0.526972976519989,0.764392004601095,-0.526972976520803,-0.162923307680008,-0.262693140890141
55,-0.165445819267395,-0.264073476793308,0.760950872298643,-0.53036059938775,0.760950872299162,-0.530360599388733,-0.1655518921824,-0.263816904496254
55.5,-0.168080036495428,-0.265174576744656,0.757497413401689,-0.53371848844774,0.757497413402212,-0.533718488448883,-0.16818774092124,-0.264913448741798
56,-0.170721292571889,-0.266248332174791,0.754031958104571,-0.537046670477862,0.7540319581051,-0.53704667047916,-0.170830535356927,-0.265982727561138
56.5,-0.17336926006026,-0.267294709728932,0.750554834339038,-0.540345176733825,0.750554834339574,-0.540345176735269,-0.173479956525572,-0.267024701918983
57,-0.176023612092883,-0.268313682522156,0.747066367704432,-0.543614042871942,0.747066367704976,-0.543614042873526,-0.176135685253467,-0.268039339569057
57.5,-0.178684022490689,-0.269305229940211,0.743566881401136,-0.54685330887143,0.74356688140169,-0.546853308873145,-0.178797402353641,-0.269026614831286
58,-0.181350165876053,-0.270269337454745,0.74005669616673,-0.550063018956268,0.740056696167294,-0.550063018958107,-0.181464788806659,-0.269986508385464
58.5,-0.184021717779422,-0.271205996451285,0.736536130214797,-0.553243221516694,0.736536130215374,-0.553243221518651,-0.184137525927501,-0.270919007079518
59,-0.186698354740382,-0.272115204068556,0.733005499176316,-0.556393969030389,0.733005499176907,-0.556393969032457,-0.186815295520127,-0.271824103750821
59.5,-0.189379754403613,-0.272996963047824,0.72946511604361,-0.55951531798341,0.729465116044218,-0.559515317985582,-0.189497780021068,-0.272701797059071
60,-0.192065595610249,-0.273851281591198,0.72591529111678,-0.562607328790938,0.725915291117406,-0.562607328793209,-0.192184662633256,-0.273552091329546
60.5,-0.194755558484983,-0.274678173227862,0.722356331952591,-0.565670065717888,0.722356331953237,-0.56567006572025,-0.194875627451084,-0.274374996405577
61,-0.197449324519302,-0.275477656687417,0.718788543315746,-0.56870359679943,0.718788543316414,-0.568703596801881,-0.197570359577619,-0.275170527509296
61.5,-0.200146576651118,-0.276249755779537,0.715212227132519,-0.571707993761489,0.715212227133212,-0.57170799376402,-0.200268545234713,-0.275938705109775
62,-0.202846999341082,-0.276994499279292,0.711627682446682,-0.574683331941249,0.711627682447401,-0.574683331943856,-0.202969871866695,-0.276679554797788
62.5,-0.205550278645803,-0.27771192081752,0.708035205377691,-0.57762969020773,0.708035205378438,-0.577629690210408,-0.205674028238245,-0.277393107166532
63,-0.208256102288164,-0.278402058775743,0.704435089081079,-0.580547150882474,0.704435089081856,-0.580547150885218,-0.208380704526945,-0.278079397697668
63.5,-0.210964159724938,-0.279064956185141,0.700827623711019,-0.583435799660373,0.700827623711829,-0.583435799663178,-0.211089592410968,-0.278738466652175
