"Freq [GHz]","re(St(P1,P1)) []","im(St(P1,P1)) []","re(St(P1,P2)) []","im(St(P1,P2)) []","re(St(P2,P1)) []","im(St(P2,P1)) []","re(St(P2,P2)) []","im(St(P2,P2)) []"
0,0.00559918766117562,0,0.994417309135315,0,0.99441730696708,0,0.00559918261092207,0
0.5,0.00636838728699729,-0.00136926066816301,0.993601607974945,-0.00669172335345181,0.993601607949657,-0.00669172336076151,0.00636777358339202,-0.00136773861724038
1,0.00700127399136363,-0.00368305435613081,0.9928583821582,-0.0124459845567948,0.99285838216516,-0.0124459845668667,0.006999541370174,-0.00367936796875057
1.5,0.00736231440919255,-0.00616881499763622,0.992319960925212,-0.0180218474912621,0.992319960927709,-0.0180218475107523,0.00735907810746639,-0.00616268126324115
2,0.00753429461661881,-0.00868293428749922,0.991903091226989,-0.0235621306877718,0.991903091223209,-0.0235621307116496,0.0075294870639766,-0.00867394232385621
2.5,0.00760670820515585,-0.0111826393908387,0.9915190919829,-0.0291108794124266,0.991519091973551,-0.029110879436768,0.00760025715536194,-0.0111705682477083
3,0.00762055074691936,-0.0136683115344045,0.99112688430538,-0.0346674721610771,0.991126884292294,-0.0346674721830134,0.00761234713202086,-0.013652987543848
3.5,0.0075935227710886,-0.0161458326912314,0.99070888034665,-0.0402252321265166,0.990708880332207,-0.0402252321441914,0.00758344718941117,-0.0161270864530927
4,0.00753331623400033,-0.0186199233769919,0.99025773269263,-0.0457785456263906,0.99025773267938,-0.0457785456389548,0.00752125694028916,-0.018597582918332
4.5,0.00744327524091926,-0.0210935312263558,0.989770583481417,-0.0513236332363896,0.989770583471659,-0.0513236332438858,0.0074291358964933,-0.0210674249118536
5,0.00732483646506932,-0.023568240956882,0.989246543922088,-0.056858187300417,0.989246543917586,-0.0568581873036322,0.00730853778917151,-0.0235382019427384
5.5,0.00717861958461974,-0.0260447338740661,0.988685546219616,-0.0623809149413272,0.988685546221377,-0.0623809149415173,0.00716009787399496,-0.0260106037228347
6,0.00700492300706923,-0.0285231365660472,0.988087810122175,-0.0678911726887499,0.988087810130347,-0.0678911726873785,0.00698412727972864,-0.028484767499128
6.5,0.0068039451543207,-0.0310032593417837,0.987453600084694,-0.0733887042172299,0.98745360009855,-0.0733887042157377,0.006780833913691,-0.0309605152217198
7,0.00657587595166964,-0.0334847510105849,0.986783124625775,-0.0788734610800219,0.986783124643755,-0.0788734610795707,0.00655041410846824,-0.0334375073326658
7.5,0.00632092729158762,-0.0359671951194525,0.986076505487925,-0.0843454847753424,0.986076505507732,-0.0843454847766605,0.00629308350171787,-0.0359153383163893
8,0.00603933615361241,-0.0384501668533872,0.985333779734124,-0.0898048324596985,0.985333779752841,-0.0898048324629546,0.00600908066323047,-0.0383935931776573
8.5,0.00573135693483362,-0.040933264314619,0.984554915675137,-0.0952515328852073,0.984554915689355,-0.0952515328899306,0.00569865992890906,-0.0408718785046212
9,0.0053972509085265,-0.0434161236351329,0.983739832850898,-0.100685562701337,0.983739832856836,-0.100685562706371,0.00536208131060123,-0.0433498375128378
9.5,0.00503727633012518,-0.0458984242677261,0.982888421316446,-0.106106836049902,0.982888421310062,-0.106106836053378,0.00499960098130803,-0.0458271553657843
10,0.00465168050228137,-0.048379888608145,0.982000558195883,-0.111515202496493,0.982000558172975,-0.111515202495855,0.00461146364451959,-0.0483035588858609
10.5,0.00425564758324293,-0.0508405183392702,0.981059877794542,-0.116919826045904,0.98105987777191,-0.116919826042754,0.00421277544238041,-0.0507593437516602
11,0.00383385332476527,-0.053303261957959,0.980084629472472,-0.122307450226982,0.980084629450412,-0.122307450221455,0.00378827118511005,-0.0532171353264266
11.5,0.00338587066436569,-0.0557675669782824,0.979075343381503,-0.127678304897288,0.979075343360274,-0.127678304889549,0.00333752906917795,-0.0556763829418303
12,0.00291131932867239,-0.0582328557024869,0.978032478813732,-0.133032612484942,0.978032478793558,-0.133032612475169,0.00286017362806734,-0.0581365109470191
12.5,0.00240986569836832,-0.0606985307658796,0.976956431870597,-0.138370581509273,0.976956431851665,-0.138370581497671,0.00235587560608197,-0.0605969241956501
13,0.00188122209352748,-0.0631639802744992,0.975847543063552,-0.143692401686077,0.975847543046013,-0.143692401672853,0.00182435125821712,-0.0630570131311048
13.5,0.00132514557803098,-0.0656285824996949,0.974706104648805,-0.148998240412916,0.974706104632779,-0.148998240398288,0.00126536117362441,-0.065516158434348
14,0.0007414363770889,-0.0680917101107266,0.973532367555794,-0.154288240430342,0.973532367541365,-0.154288240414521,0.000678708715550091,-0.0679737352154142
14.5,0.000129935994886199,-0.0705527339408079,0.972326547816924,-0.159562518464464,0.972326547804151,-0.159562518447665,6.4238163820729E-005,-0.0704291167439655
15,-0.000509474888660044,-0.0730110262936803,0.971088832445171,-0.164821164671192,0.971088832434084,-0.164821164653621,-0.000578167362038196,-0.0728816777257126
15.5,-0.00117687867200322,-0.075465963807102,0.969819384736726,-0.170064242720841,0.96981938472733,-0.170064242702693,-0.00124858812973333,-0.0753307971406878
16,-0.00187232317599445,-0.0779169298964888,0.968518348999165,-0.175291790381568,0.968518348991448,-0.175291790363028,-0.00194707011089951,-0.077775860666387
16.5,-0.00259582402594416,-0.0803633168069524,0.967185854722579,-0.180503820479835,0.967185854716509,-0.180503820461075,-0.00267362733615845,-0.0802162627134138
17,-0.00334736702842869,-0.082804527305,0.965822020222829,-0.185700322134977,0.965822020218358,-0.185700322116157,-0.00342824424567229,-0.0826514081046286
17.5,-0.00412691050761921,-0.085239976043038,0.964426955793623,-0.19088126218251,0.964426955790692,-0.190881262163775,-0.00421087800026104,-0.085080713430389
18,-0.0049343875731494,-0.0876690906301043,0.963000766408394,-0.196046586716377,0.963000766406931,-0.196046586697861,-0.00502146072535009,-0.0875036081129519
18.5,-0.00576970829813361,-0.0900913124419622,0.961543554014651,-0.201196222694198,0.961543554014578,-0.201196222676016,-0.00585990166649136,-0.0899195352127409
19,-0.00663276179155808,-0.0925060972024188,0.96005541946348,-0.206330079561452,0.960055419464712,-0.206330079543707,-0.0067260892408057,-0.0923279520079978
19.5,-0.00752341815425178,-0.0949129153661055,0.958536464115394,-0.211448050860643,0.95853646411784,-0.211448050843425,-0.00761989297358268,-0.09472833037767
20,-0.0084415303117224,-0.0973112523308344,0.956986791161565,-0.216550015799866,0.956986791165133,-0.216550015783252,-0.00854116531333005,-0.0971201570153801
20.5,-0.00938693572060761,-0.099700608505485,0.955406506696649,-0.221635840762264,0.955406506701244,-0.221635840746319,-0.00948974332201907,-0.0995029335001196
21,-0.0103594579482675,-0.102080499256884,0.953795720576345,-0.226705380743396,0.953795720581872,-0.226705380728171,-0.0104654502399886,-0.101876176246912
21.5,-0.011358908127297,-0.104450454756873,0.95215454708967,-0.231758480708185,0.952154547096036,-0.231758480693722,-0.0114680969272207,-0.104239416358408
22,-0.0123850862884067,-0.106810019748342,0.950483105472795,-0.2367949768626,0.950483105479908,-0.23679497684893,-0.0124974831843745,-0.106592199396013
22.5,-0.0134377825764956,-0.109158753246862,0.948781520288241,-0.241814697838155,0.94878152029601,-0.241814697825302,-0.0135533989582993,-0.108934085087006
23,-0.0145167783555741,-0.111496228192303,0.947049921690465,-0.246817465789254,0.947049921698804,-0.246817465777232,-0.0146356254376079,-0.111264646981929
23.5,-0.0156218472089224,-0.113822031063052,0.945288445596158,-0.251803097405185,0.945288445604982,-0.251803097393998,-0.0157439360445935,-0.113583472074724
24,-0.0167527558411632,-0.116135761463517,0.943497233775268,-0.256771404839607,0.943497233784499,-0.256771404829259,-0.0168780973300871,-0.115890160396223
24.5,-0.0179092648891512,-0.118437031694054,0.941676433876551,-0.261722196561211,0.941676433886112,-0.261722196551691,-0.0180378697780666,-0.118184324590031
25,-0.0190911296485948,-0.120725466311004,0.939826199399544,-0.26665527812978,0.939826199409366,-0.266655278121078,-0.0192230085268393,-0.120465589478472
25.5,-0.0202981007231742,-0.123000701683188,0.937946689623179,-0.271570452902148,0.937946689633195,-0.271570452894244,-0.0204332640134932,-0.122733591624834
26,-0.0215299246027762,-0.125262385550165,0.936038069499672,-0.276467522672749,0.936038069509819,-0.276467522665625,-0.0216683825481508,-0.12498797889724
26.5,-0.0227863441771384,-0.127510176586446,0.934100509521107,-0.281346288253406,0.934100509531328,-0.281346288247037,-0.0229281068242527,-0.127228410038275
27,-0.0240670991909073,-0.129743743975124,0.9321341855649,-0.286206549997003,0.932134185575144,-0.286206549991362,-0.0242121763708035,-0.129454554243804
27.5,-0.0253719266457371,-0.131962766993506,0.930139278723392,-0.291048108269456,0.93013927873361,-0.291048108264512,-0.0255203279521536,-0.131666090753585
28,-0.0267005611547217,-0.134166934612828,0.928115975121913,-0.295870763874297,0.928115975132062,-0.295870763870018,-0.0268522959205447,-0.133862708455716
28.5,-0.0280527352540199,-0.136355945113479,0.926064465728975,-0.300674318433884,0.926064465739015,-0.300674318430238,-0.0282078125262393,-0.13604410550636
29,-0.0294281796762251,-0.138529505716791,0.923984946161562,-0.305458574731056,0.92398494617146,-0.305458574728008,-0.0295866081897238,-0.138209988965785
29.5,-0.0308266235896001,-0.140687332234037,0.921877616487991,-0.310223337014798,0.921877616497715,-0.310223337012313,-0.0309884117400835,-0.140360074451377
30,-0.0322477948069926,-0.142829148732934,0.91974268103033,-0.314968411273173,0.919742681039853,-0.314968411271216,-0.0324129506233112,-0.142494085807941
30.5,-0.0336914199678887,-0.144954687221775,0.917580348167969,-0.319693605476638,0.91758034817727,-0.319693605475172,-0.0338599510839784,-0.144611754795373
31,-0.035157224696732,-0.14706368735103,0.915390830143643,-0.324398729794508,0.915390830152699,-0.324398729793498,-0.0353291383233812,-0.146712820793604
31.5,-0.0366449337403666,-0.149155896132086,0.913174342872871,-0.329083596787152,0.913174342881668,-0.329083596786564,-0.0368202366369558,-0.148797030524472
32,-0.0381542710871516,-0.151231067672765,0.910931105757616,-0.333748021576314,0.91093110576614,-0.333748021576113,-0.0383329695335362,-0.150864137790142
32.5,-0.0396849600700631,-0.153288962929011,0.908661341504692,-0.338391821995673,0.908661341512933,-0.338391821995825,-0.0398670598387106,-0.152913903227546
33,-0.0412367234558392,-0.155329349472189,0.906365275949368,-0.343014818723622,0.906365275957319,-0.343014818724094,-0.0414222297843265,-0.154946094078213
33.5,-0.0428092835220288,-0.157352001271324,0.904043137884416,-0.347616835400053,0.904043137892072,-0.347616835400813,-0.0429982010859971,-0.156960483972879
34,-0.0444023621235788,-0.159356698489566,0.901695158894788,-0.352197698728743,0.901695158902145,-0.352197698729761,-0.0445946950102147,-0.158956852730173
34.5,-0.0460156807504383,-0.161343227294196,0.899321573197982,-0.356757238566823,0.899321573205039,-0.35675723856807,-0.0462114324325471,-0.160934986168665
35,-0.047648960577477,-0.163311379679419,0.896922617490125,-0.361295288002629,0.896922617496884,-0.361295288004075,-0.0478481338882006,-0.162894675931569
35.5,-0.0493019225078699,-0.165260953301236,0.894498530797696,-0.365811683423148,0.894498530804161,-0.365811683424769,-0.049504519616091,-0.164835719323398
36,-0.050974287210968,-0.167191751323679,0.892049554334812,-0.370306264572112,0.892049554340986,-0.370306264573881,-0.0511803095974347,-0.166757919157822
36.5,-0.0526657751555567,-0.169103582275691,0.889575931365926,-0.374778874599714,0.889575931371815,-0.374778874601609,-0.0528752235897511,-0.168661083616094
37,-0.0543761066392778,-0.170996259917992,0.887077907073787,-0.379229360104822,0.887077907079399,-0.379229360106819,-0.0545889811570551,-0.170545026115316
37.5,-0.0561050018149179,-0.172869603119252,0.884555728432492,-0.383657571170448,0.884555728437835,-0.383657571172525,-0.0563213016969291,-0.172409565185918
38,-0.0578521807141617,-0.174723435740958,0.882009644085407,-0.388063361393189,0.882009644090489,-0.388063361395329,-0.0580719044650628,-0.174254524357746
38.5,-0.0596173632693335,-0.176557586530346,0.879439904227784,-0.392446587907267,0.879439904232615,-0.392446587909451,-0.0598405085977998,-0.176079732054096
39,-0.0614002693335783,-0.178371889020829,0.876846760493859,-0.396807111403695,0.876846760498451,-0.396807111405907,-0.0616268331331171,-0.177885021493184
39.5,-0.0632006186998892,-0.18016618143938,0.874230465848212,-0.401144796145118,0.874230465852576,-0.401144796147342,-0.0634305970304562,-0.179670230596481
40,-0.0650181311193062,-0.181940306620342,0.871591274481194,-0.40545950997673,0.871591274485341,-0.405459509978952,-0.0652515191897183,-0.181435201903398
40.5,-0.0668525263185826,-0.183694111925168,0.868929441708205,-0.409751124333693,0.868929441712147,-0.409751124335902,-0.0670893184697285,-0.18317978249184
41,-0.0687035240175576,-0.185427449167637,0.866245223872639,-0.414019514245397,0.866245223876388,-0.41401951424758,-0.0689437137063953,-0.184903823904155
41.5,-0.07057084394646,-0.187140174544103,0.863538878252286,-0.41826455833688,0.863538878255854,-0.418264558339028,-0.0708144237307953,-0.186607182078084
42,-0.0724542058633003,-0.188832148568379,0.86081066296901,-0.422486138827699,0.860810662972409,-0.422486138829804,-0.0727011673873387,-0.188289717282258
42.5,-0.0743533295715039,-0.190503236010859,0.858060836901529,-0.426684141528471,0.858060836904773,-0.426684141530523,-0.0746036635521592,-0.189951294055898
43,-0.0762679349379028,-0.192153305841524,0.855289659601125,-0.430858455835341,0.855289659604225,-0.430858455837336,-0.0765216311518663,-0.191591781152352
43.5,-0.0781977419111881,-0.193782231176504,0.852497391210105,-0.435008974722547,0.852497391213074,-0.435008974724479,-0.078454789182728,-0.19321105148613
44,-0.0801424705408919,-0.19538988922788,0.849684292382888,-0.439135594733268,0.849684292385737,-0.439135594735133,-0.0804028567303888,-0.194808982083149
44.5,-0.0821018409969534,-0.196976161256425,0.846850624209547,-0.443238215968887,0.846850624212288,-0.443238215970681,-0.0823655529901499,-0.196385454033863
45,-0.0840755735899337,-0.198540932527029,0.843996648141689,-0.447316742076841,0.843996648144333,-0.44731674207856,-0.0843425972878876,-0.197940352449051
45.5,-0.086063388791883,-0.200084092266541,0.841122625920526,-0.451371080237138,0.841122625923084,-0.451371080238782,-0.0863337091016133,-0.199473566417986
46,-0.0880650072579028,-0.201605533623817,0.838228819507033,-0.455401141147673,0.838228819509516,-0.455401141149241,-0.0883386080837146,-0.200984988968764
46.5,-0.090080149848392,-0.203105153631717,0.835315491014077,-0.459406839008421,0.835315491016495,-0.459406839009912,-0.0903570140838694,-0.202474517030572
47,-0.0921085376519981,-0.204582853170905,0.832382902640407,-0.463388091504598,0.832382902642771,-0.463388091506014,-0.0923886471726526,-0.203942051397706
47.5,-0.0941498920092524,-0.206038536935206,0.829431316606414,-0.467344819788854,0.829431316608732,-0.467344819790194,-0.0944332276658099,-0.205387496695141
48,-0.0962039345368814,-0.207472113398401,0.826460995091574,-0.471276948462566,0.826460995093856,-0.471276948463833,-0.0964904761492015,-0.2068107613455
48.5,-0.0982703871527779,-0.208883494782264,0.823472200173482,-0.475184405556285,0.823472200175736,-0.47518440555748,-0.0985601135043929,-0.208211757537237
49,-0.100348972101615,-0.210272597025713,0.820465193768412,-0.479067122509391,0.820465193770645,-0.479067122510518,-0.10064186093487,-0.20959040119393
49.5,-0.102439411981063,-0.211639339754934,0.817440237573318,-0.482925034148993,0.81744023757554,-0.482925034150053,-0.102735439992852,-0.210946611944497
50,-0.104541429768598,-0.212983646254346,0.814397593009239,-0.486758078668108,0.814397593011455,-0.486758078669106,-0.104840572606683,-0.212280313094269
50.5,-0.106654748848858,-0.214305443438311,0.811337521166006,-0.490566197603173,0.811337521168222,-0.490566197604111,-0.106956981108758,-0.213591431596747
51,-0.108779093041528,-0.215604661823465,0.80826028274824,-0.494349335810898,0.808260282750463,-0.494349335811782,-0.109084388263964,-0.214879898025998
51.5,-0.1109141866297,-0.216881235501579,0.805166138022568,-0.4981074414445,0.805166138024803,-0.498107441445333,-0.111222517298595,-0.216145646549542
52,-0.113059754388694,-0.218135102112862,0.802055346766011,-0.501840465929334,0.802055346768263,-0.501840465930121,-0.113371091929699,-0.217388614901669
52.5,-0.115215521615292,-0.219366202819628,0.798928168215516,-0.505548363937957,0.79892816821779,-0.505548363938702,-0.115529836394851,-0.21860874435711
53,-0.117381214157349,-0.22057448228024,0.795784861018586,-0.509231093364624,0.795784861020885,-0.509231093365331,-0.117698475482271,-0.219805979704965
53.5,-0.119556558443747,-0.221759888623282,0.792625683184972,-0.512888615299252,0.7926256831873,-0.512888615299927,-0.119876734561284,-0.220980269222846
54,-0.121741281514663,-0.222922373421875,0.789450892039405,-0.516520894000863,0.789450892041764,-0.51652089400151,-0.122064339613084,-0.222131564651147
54.5,-0.123935111052091,-0.224061891668099,0.786260744175336,-0.520127896870517,0.786260744177729,-0.520127896871142,-0.124261017261742,-0.223259821167418
55,-0.126137775410614,-0.22517840174746,0.783055495409652,-0.523709594423757,0.783055495412082,-0.523709594424364,-0.126466494805449,-0.224364997360753
55.5,-0.128349003648362,-0.226271865413356,0.779835400738364,-0.527265960262575,0.779835400740832,-0.527265960263169,-0.128680500247942,-0.225447055206182
56,-0.130568525558138,-0.227342247761502,0.776600714293225,-0.530796971046912,0.776600714295733,-0.530796971047499,-0.130902762330083,-0.226505960039007
56.5,-0.132796071698673,-0.228389517204273,0.773351689299278,-0.534302606465712,0.773351689301826,-0.534302606466295,-0.13313301056156,-0.227541680529039
57,-0.135031373425967,-0.22941364544494,0.770088578033308,-0.537782849207527,0.770088578035897,-0.537782849208113,-0.135370975252666,-0.228554188654718
57.5,-0.137274162924704,-0.230414607451753,0.766811631783185,-0.541237684930712,0.766811631785815,-0.541237684931303,-0.137616387546135,-0.229543459677081
58,-0.139524173239681,-0.231392381431857,0.763521100808087,-0.544667102233185,0.763521100810758,-0.544667102233787,-0.139868979448996,-0.230509472113538
58.5,-0.141781138307252,-0.232346948805013,0.760217234299594,-0.5480710926218,0.760217234302304,-0.548071092622418,-0.142128483864422,-0.231452207711457
59,-0.14404479298672,-0.233278294177098,0.756900280343635,-0.551449650481325,0.756900280346385,-0.551449650481962,-0.144394634623513,-0.232371651421506
59.5,-0.146314873091679,-0.234186405313372,0.753570485883285,-0.554802773043039,0.753570485886074,-0.554802773043699,-0.146667166517046,-0.233267791370772
60,-0.148591115421261,-0.235071273111491,0.750228096682408,-0.558130460352962,0.750228096685233,-0.55813046035365,-0.148945815327088,-0.234140618835594
60.5,-0.150873257791264,-0.235932891574258,0.74687335729012,-0.561432715239738,0.74687335729298,-0.561432715240456,-0.151230317858503,-0.234990128214148
61,-0.153161039065135,-0.236771257782093,0.74350651100609,-0.564709543282167,0.743506511008983,-0.56470954328292,-0.153520411970296,-0.235816316998724
61.5,-0.15545419918478,-0.23758637186521,0.740127799846657,-0.567960952776414,0.740127799849582,-0.567960952777206,-0.155815836606782,-0.236619185747725
62,-0.157752479201176,-0.238378236975513,0.736737464511763,-0.5711869547029,0.736737464514717,-0.571186954703732,-0.158116331828543,-0.237398738057355
62.5,-0.160055621304768,-0.239146859258173,0.733335744352692,-0.574387562692881,0.733335744355671,-0.574387562693757,-0.160421638843162,-0.238154980532994
63,-0.16236336885562,-0.239892247822908,0.729922877340617,-0.577562792994751,0.72992287734362,-0.577562792995674,-0.162731500035703,-0.238887922760272
