"Freq [GHz]","re(St(P1,P1)) []","im(St(P1,P1)) []","re(St(P1,P2)) []","im(St(P1,P2)) []","re(St(P2,P1)) []","im(St(P2,P1)) []","re(St(P2,P2)) []","im(St(P2,P2)) []"
0,0.0036353294170226,0,0.996374772643321,0,0.996374772439594,0,0.00363532286206691,0
0.5,0.00403824831095534,0.000326466987292662,0.995889767560712,-0.00580106255788237,0.995889768267872,-0.00580106251220158,0.00403817071742907,0.00032661802974232
1,0.00438686181407277,0.000137118793023916,0.995336962333216,-0.0110598827017618,0.995336962379771,-0.0110598826928836,0.00438666234921925,0.000137512483632918
1.5,0.004642465397378,-6.7599546902386E-006,0.994884832686084,-0.0164146127166518,0.994884832724233,-0.0164146127056313,0.00464149153059523,-9.61985622538464E-006
2,0.00482356809917306,-0.000314243210244314,0.994348792420578,-0.0216169947318576,0.994348792447472,-0.0216169947203824,0.00481857953669085,-0.000317909149398332
2.5,0.00484652748300096,-0.0006928972556004,0.993777404250367,-0.0266776951632437,0.993777404264216,-0.0266776951526779,0.00483854086275404,-0.000693443149064166
3,0.00472368698654968,-0.00103243067978021,0.993200110566029,-0.0316210987948899,0.993200110566345,-0.0316210987862657,0.00471611960141605,-0.00102909419739561
3.5,0.0045234554005269,-0.00128026704186901,0.992629575491886,-0.0364738931430875,0.992629575479409,-0.0364738931371633,0.00451823313400856,-0.0012748926069559
4,0.00430621026524936,-0.00143988119974559,0.992067319625631,-0.0412592353315109,0.992067319602029,-0.0412592353288144,0.00430324884294198,-0.00143433948301741
4.5,0.00410351960314426,-0.0015357203181523,0.991508888555527,-0.045995036900452,0.991508888523062,-0.0459950369012798,0.00410193438611905,-0.00153092048338266
5,0.0039258572316152,-0.0015913594193453,0.990947382853189,-0.0506942972467606,0.990947382814412,-0.0506942972511499,0.0039248044376281,-0.00158745375442138
5.5,0.00377349693306117,-0.0016235272279328,0.990375481619163,-0.0553661123340294,0.990375481576673,-0.0553661123417815,0.00377242350689122,-0.00162030910737876
6,0.00364305396328013,-0.00164273330150344,0.989786437054632,-0.060016708699429,0.989786437010907,-0.0600167087101102,0.00364167659883274,-0.00163989421302446
6.5,0.00353042984940632,-0.00165520602063562,0.989174465503953,-0.0646502823257702,0.989174465461255,-0.0646502823387518,0.00352865048716478,-0.00165245419732152
7,0.00343189586126014,-0.00166450955782693,0.988534821468639,-0.0692696148701151,0.988534821428954,-0.0692696148846341,0.00342972669282926,-0.00166161066869819
7.5,0.00334437977523283,-0.00167261891685122,0.987863723537412,-0.0738765053106327,0.987863723502436,-0.0738765053258383,0.00334189159603382,-0.00166940165268414
8,0.00326545563926495,-0.00168057904183971,0.987158223686846,-0.0784720660416696,0.987158223657987,-0.0784720660566602,0.00326274586619046,-0.00167692763854177
8.5,0.00319324380788033,-0.00168889649971504,0.986416065846671,-0.0830569249683712,0.986416065825069,-0.0830569249822357,0.00319041786065211,-0.00168473995077711
9,0.00312629932955288,-0.00169776984728909,0.985635554606803,-0.0876313641480646,0.985635554593366,-0.0876313641599236,0.00312346033870953,-0.0016930715916148
9.5,0.00306351413136918,-0.00170722491146158,0.984815441920394,-0.0921954159994476,0.984815441915821,-0.0921954160084573,0.00306075761082752,-0.00170197417339768
10,0.00300403841164992,-0.00171719431802853,0.983954833261478,-0.096748931082006,0.983954833266292,-0.0967489310873884,0.00300144981015427,-0.00171139923610486
10.5,0.00296243893928713,-0.00177352998698055,0.983169528005963,-0.101282748998323,0.983169528010466,-0.101282749003191,0.0029620698813177,-0.00177270196105095
11,0.00292110806098689,-0.00182593381736407,0.982373110418395,-0.105795386624575,0.982373110422652,-0.105795386628937,0.00292239656926996,-0.00183055413281075
11.5,0.00288040241382514,-0.00187435316806894,0.981566235476167,-0.11028847192399,0.981566235480239,-0.110288471927857,0.00288270991587564,-0.00188484860035043
12,0.00284069440835161,-0.00191876612974529,0.980749364601861,-0.114763550463066,0.980749364605802,-0.114763550466444,0.00284331001340984,-0.00193549704026541
12.5,0.00280236970772305,-0.00195918469097123,0.979922792880832,-0.119222074051436,0.979922792884692,-0.119222074054349,0.00280451638777102,-0.00198243311224111
13,0.00276582411281465,-0.00199565775334287,0.979086674402861,-0.12366539385365,0.979086674406684,-0.12366539385612,0.00276666691945047,-0.00202561577497518
13.5,0.00273145984046088,-0.0020282738853008,0.978241045404931,-0.128094757119802,0.978241045408754,-0.128094757121855,0.00273011623958791,-0.00206503270215297
14,0.00269968120241582,-0.00205716369481967,0.977385845063728,-0.132511306768833,0.977385845067586,-0.132511306770493,0.00269523354384972,-0.00210070372135851
14.5,0.0026708897167933,-0.00208250169484447,0.976520933914867,-0.136916083156204,0.976520933918787,-0.136916083157502,0.00266239977636323,-0.00213268418146795
15,0.00264547871079782,-0.00210450753440439,0.97564610996734,-0.141310027457762,0.975646109971346,-0.141310027458724,0.00263200414995736,-0.00216106813733985
15.5,0.00262382750262098,-0.00212344647321716,0.974761122643205,-0.145693986197351,0.974761122647316,-0.145693986198006,0.00260443998794148,-0.00218599122526397
16,0.00260629527985656,-0.0021396289896316,0.973865684710363,-0.150068716533636,0.973865684714595,-0.150068716534011,0.00258009989662966,-0.00220763309031558
16.5,0.00259321482004896,-0.00215340943112174,0.972959482396004,-0.154434891999395,0.97295948240037,-0.154434891999519,0.002559370306492,-0.00222621921881982
17,0.00258488622388178,-0.00216518364362983,0.972042183874853,-0.158793108453894,0.972042183879362,-0.158793108453793,0.00254262545247211,-0.0022420220272874
17.5,0.00258157085099067,-0.00217538554989805,0.97111344632354,-0.163143890065618,0.971113446328199,-0.163143890065317,0.00253022089935109,-0.00225536106479973
18,0.00258348566033387,-0.00218448268678406,0.970172921723363,-0.167487695189777,0.970172921728176,-0.167487695189298,0.00252248675427755,-0.00226660220025687
18.5,0.00259079815973509,-0.00219297075518421,0.96922026158079,-0.171824922043173,0.96922026158576,-0.171824922042541,0.00251972074342713,-0.00227615568986339
19,0.00260362216127921,-0.0022013672814829,0.968255120720053,-0.176155914109753,0.968255120725179,-0.17615591410899,0.00252218136051641,-0.00228447305396484
19.5,0.00262201452024685,-0.00221020453327947,0.967277160286339,-0.180480965234103,0.967277160291621,-0.180480965233229,0.00253008131872262,-0.00229204273517425
20,0.00264597300532471,-0.00222002187180603,0.966286050082317,-0.184800324378924,0.966286050087753,-0.184800324377957,0.00254358155160631,-0.00229938456007783
20.5,0.00267543540823359,-0.00223135775566785,0.965281470345619,-0.189114200036575,0.965281470351204,-0.189114200035534,0.00256278601047183,-0.00230704308234975
21,0.00271027995365331,-0.00224474163294408,0.964263113060796,-0.193422764295277,0.964263113066525,-0.193422764294177,0.00258773749346722,-0.00231557994237308
21.5,0.00275032701820849,-0.00226068596924112,0.963230682886378,-0.197726156568147,0.963230682892246,-0.197726156567004,0.00261841471482188,-0.00232556543368911
22,0.00279534211357335,-0.00227967865698853,0.96218389776607,-0.202024486998472,0.962183897772071,-0.202024486997298,0.00265473078139339,-0.00233756951548569
22.5,0.00284504003705605,-0.00230217603599669,0.961122489282827,-0.206317839558147,0.961122489288955,-0.206317839556959,0.00269653318987206,-0.0023521525489163
23,0.00289909004655708,-0.00232859672815167,0.960046202805493,-0.210606274858274,0.960046202811739,-0.21060627485708,0.00274360539458102,-0.00236985605962348
23.5,0.0029571218786969,-0.0023593164518223,0.958954797469827,-0.214889832691947,0.958954797476185,-0.214889832690759,0.00279566992685365,-0.00239119383710751
24,0.00301873240123596,-0.0023946639370438,0.957848046028916,-0.219168534329633,0.957848046035377,-0.219168534328462,0.00285239297722095,-0.00241664367211936
24.5,0.00308349267506386,-0.0024349180136749,0.956725734602116,-0.223442384587179,0.956725734608672,-0.223442384586031,0.00291339028607818,-0.00244664000645978
25,0.00315095519738895,-0.0024803058950349,0.955587662346676,-0.22771137368593,0.95558766235332,-0.227711373684814,0.00297823413178167,-0.00248156772720431
25.5,0.00322066110565189,-0.00253100263195671,0.954433641071955,-0.231975478923441,0.954433641078678,-0.231975478922365,0.00304646116123058,-0.00252175728255377
26,0.00329214713973375,-0.00258713166965929,0.953263494812525,-0.236234666172247,0.953263494819318,-0.236234666171217,0.00311758077957242,-0.00256748123341355
26.5,0.00336495218625699,-0.00264876640430667,0.952077059373463,-0.240488891222937,0.952077059380318,-0.240488891221958,0.00319108380417865,-0.00261895228807751
27,0.00343862326067507,-0.00271593260902492,0.950874181858559,-0.244738100986632,0.950874181865469,-0.244738100985709,0.00326645109324947,-0.00267632280185115
27.5,0.00351272081800036,-0.00278861158105315,0.949654720190077,-0.248982234570694,0.949654720197032,-0.248982234569831,0.00334316187986983,-0.00273968566329441
28,0.00358682331898103,-0.00286674385258734,0.948418542626896,-0.253221224240375,0.948418542633888,-0.253221224239576,0.00342070157543684,-0.00280907643774131
28.5,0.00366053101315134,-0.00295023330692223,0.947165527286454,-0.257454996277972,0.947165527293476,-0.25745499627724,0.0034985688486982,-0.00288447659910407
29,0.00373346893179521,-0.00303895154764966,0.945895561674645,-0.261683471749986,0.945895561681689,-0.261683471749324,0.00357628183453884,-0.00296581765416737
29.5,0.00380528911119887,-0.00313274238050809,0.944608542226857,-0.265906567191818,0.944608542233915,-0.265906567191228,0.00365338337639248,-0.00305298594967196
30,0.00387567208892514,-0.00323142628334372,0.943304373862518,-0.270124195218564,0.943304373869582,-0.270124195218047,0.00372944525444124,-0.00314582795065621
30.5,0.00394432773285114,-0.00333480475823578,0.94198296955484,-0.274336265069699,0.941982969561904,-0.274336265069257,0.00380407139587879,-0.00324415578722759
31,0.00401099547456968,-0.0034426644794987,0.94064424991693,-0.278542683094583,0.940644249923986,-0.278542683094216,0.00387690010150277,-0.00334775288392586
31.5,0.00407544402572591,-0.00355478117104768,0.939288142804979,-0.282743353185068,0.93928814281202,-0.282743353184777,0.00394760535352157,-0.00345637950888333
32,0.00413747065862125,-0.00367092316539308,0.937914582938915,-0.286938177160822,0.937914582945934,-0.286938177160606,0.00401589729227486,-0.00356977810676207
32.5,0.00419690013160451,-0.00379085461372974,0.936523511540611,-0.29112705511241,0.936523511547603,-0.29112705511227,0.00408152196469014,-0.00368767830768912
33,0.00425358333621745,-0.00391433833163024,0.93511487598955,-0.295309885706618,0.935114875996507,-0.295309885706553,0.00414426045537297,-0.00380980153246346
33.5,0.00430739573739725,-0.00404113827766706,0.933688629495629,-0.299486566458092,0.933688629502545,-0.299486566458102,0.0042039275131639,-0.0039358651406376
34,0.00435823567104637,-0.00417102167263961,0.932244730788736,-0.303656993970866,0.932244730795605,-0.30365699397095,0.00426036978297345,-0.00406558609171848
34.5,0.00440602255547001,-0.00430376077512662,0.93078314382456,-0.307821064153013,0.930783143831377,-0.30782106415317,0.00431346374585589,-0.00419868411003188
35,0.00445069506509488,-0.00443913433508936,0.929303837506076,-0.311978672407315,0.929303837512834,-0.311978672407542,0.00436311346075474,-0.00433488436054619
35.5,0.00449220930690225,-0.00457692875117277,0.927806785420089,-0.31612971380049,0.927806785426784,-0.316129713800787,0.00440924819022803,-0.00447391965598865
36,0.00453053703236739,-0.00471693895985892,0.926291965588184,-0.320274083213325,0.92629196559481,-0.320274083213688,0.00445181998051475,-0.00461553222533562
36.5,0.00456566391072133,-0.00485896908557271,0.924759360231417,-0.324411675473696,0.92475936023797,-0.324411675474126,0.00449080125436324,-0.00475947508026375
37,0.00459758788299725,-0.00500283288088066,0.923208955548088,-0.328542385474384,0.923208955554562,-0.328542385474877,0.00452618246351977,-0.00490551302016984
37.5,0.00462631761082172,-0.0051483539850059,0.921640741503924,-0.332666108277249,0.921640741510316,-0.332666108277803,0.00455796983716888,-0.00505342331800374
38,0.00465187102914988,-0.0052953660274373,0.920054711634034,-0.336782739205265,0.920054711640339,-0.336782739205878,0.00458618325305088,-0.00520299612914266
38.5,0.0046742740081579,-0.00544371260152099,0.918450862855979,-0.340892173923711,0.918450862862191,-0.34089217392438,0.0046108542496624,-0.00535403466415585
39,0.00469355912625247,-0.00559324713075093,0.916829195293358,-0.344994308511654,0.916829195299476,-0.344994308512377,0.00463202419088271,-0.0055063551638932
39.5,0.00470976455353739,-0.00574383264826861,0.91518971210932,-0.349089039524792,0.915189712115338,-0.349089039525567,0.00464974258848899,-0.00565978671237999
40,0.00472293304305171,-0.00589534150772075,0.9135324193494,-0.35317626405057,0.913532419355315,-0.353176264051393,0.0046640655833215,-0.0058141709195747
40.5,0.0047331110255619,-0.00604765504143856,0.911857325793183,-0.357255879756381,0.911857325798991,-0.35725587975725,0.00467505458216555,-0.0059693615025036
41,0.00474034780260618,-0.00620066317973489,0.910164442814228,-0.361327784931619,0.910164442819926,-0.36132778493253,0.00468277504462872,-0.00612522378974512
41.5,0.004744694831739,-0.00635426404314154,0.908453784247799,-0.365391878524206,0.908453784253384,-0.365391878525156,0.00468729541229496,-0.00628163417079475
42,0.0047462050975044,-0.00650836351757067,0.906725366265904,-0.369448060172221,0.906725366271373,-0.369448060173209,0.0046886861710827,-0.00643847950861232
42.5,0.00474493256144637,-0.00666287482073735,0.904979207259225,-0.373496230231119,0.904979207264576,-0.37349623023214,0.00468701903692043,-0.00659565653067484
43,0.00474093168445355,-0.00681771806671061,0.903215327725505,-0.37753628979703,0.903215327730734,-0.377536289798082,0.00468236625446461,-0.00675307121119917
43.5,0.00473425701487734,-0.00697281983415032,0.901433750164002,-0.381568140726556,0.901433750169107,-0.381568140727636,0.00467479999853548,-0.00691063815476745
44,0.00472496283607049,-0.00712811274266856,0.899634498975649,-0.385591685653428,0.899634498980628,-0.385591685654532,0.00466439186815287,-0.00706827998952564
44.5,0.00471310286732268,-0.00728353504076495,0.89781760036856,-0.389606828002367,0.89781760037341,-0.389606828003492,0.0046512124634398,-0.00722592677630396
45,0.00469873001251886,-0.00743903020795722,0.895983082268553,-0.393613472000451,0.895983082273274,-0.393613472001594,0.00463533103618152,-0.0073835154384454
45.5,0.00468189615123715,-0.00759454657301561,0.894130974234408,-0.397611522686234,0.894130974238994,-0.397611522687391,0.00461681520543555,-0.00754098921583135
46,0.0046626519673984,-0.00775003694963172,0.892261307377521,-0.40160088591689,0.892261307381974,-0.40160088591806,0.00459573073023334,-0.00769829714551329
46.5,0.00464104681100597,-0.00790545829032907,0.890374114285753,-0.405581468373559,0.89037411429007,-0.405581468374736,0.00457214133209211,-0.00785539357041576
47,0.00461712858887864,-0.00806077135906524,0.888469428951151,-0.409553177565103,0.888469428955331,-0.409553177566285,0.00454610856071591,-0.0080122376769054
47.5,0.00459094368069762,-0.00821594042261364,0.88654728670136,-0.413515921830449,0.886547286705401,-0.413515921831632,0.00451769169691779,-0.00816879306138141
48,0.00456253687702507,-0.00837093296056834,0.884607724134461,-0.417469610339652,0.884607724138362,-0.417469610340834,0.00448694768742663,-0.00832502732560436
48.5,0.00453195133631784,-0.00852571939361235,0.882650779057063,-0.421414153093828,0.882650779060823,-0.421414153095006,0.00445393110680958,-0.00848091170012966
49,0.00449922855825774,-0.00868027282953143,0.880676490425431,-0.425349460924074,0.880676490429049,-0.425349460925243,0.00441869414230095,-0.00863642069493675
49.5,0.00446440837103523,-0.00883456882633582,0.878684898289474,-0.429275445489476,0.87868489829295,-0.429275445490634,0.00438128659782377,-0.00879153177612757
50,0.00442752893047832,-0.00898858517177792,0.876676043739437,-0.433192019274322,0.876676043742768,-0.433192019275466,0.00434175591394548,-0.00894622506749343
50.5,0.00438862672917523,-0.00914230167848573,0.874649968855105,-0.437099095584579,0.874649968858293,-0.437099095585705,0.00430014720093275,-0.00910048307558697
51,0.00434773661395504,-0.00929569999391988,0.872606716657418,-0.440996588543733,0.872606716660461,-0.440996588544839,0.0042565032824291,-0.00925429043696402
51.5,0.00430489181030269,-0.00944876342430545,0.870546331062311,-0.44488441308805,0.870546331065208,-0.444884413089131,0.0042108647476356,-0.00940763368617992
52,0.0042601239524529,-0.00960147677174583,0.868468856836679,-0.448762484961321,0.868468856839431,-0.448762484962376,0.00416327001014088,-0.00956050104319806
52.5,0.00421346311808418,-0.00975382618367759,0.866374339556339,-0.45263072070915,0.866374339558945,-0.452630720710175,0.00411375537184905,-0.00971288221883182
53,0.00416493786666189,-0.00990579901388877,0.864262825565868,-0.456489037672831,0.864262825568329,-0.456489037673823,0.00406235509064712,-0.0098647682369456
53.5,0.00411457528062842,-0.0100573836943145,0.862134361940222,-0.460337353982851,0.862134361942537,-0.460337353983808,0.00400910145068933,-0.0100161512721418
54,0.00406240100873262,-0.010208569616882,0.859988996448023,-0.464175588552073,0.859988996450194,-0.464175588552991,0.00395402483433788,-0.0101670245017541
54.5,0.00400843931090034,-0.0103593470246874,0.857826777516444,-0.468003661068618,0.857826777518469,-0.468003661069494,0.00389715379495681,-0.0103173819710143
55,0.00395271310414314,-0.0105097069118301,0.855647754197574,-0.471821491988486,0.855647754199454,-0.471821491989318,0.00383851512989908,-0.0104672184703252
55.5,0.00389524400906366,-0.0106596409312748,0.853451976136212,-0.475629002527942,0.853451976137947,-0.475629002528727,0.00377813395313659,-0.0106165294236549
56,0.00383605239659901,-0.010809141310131,0.851239493538995,-0.47942611465569,0.851239493540587,-0.479426114656425,0.00371603376708435,-0.0107653107871075
56.5,0.0037751574346962,-0.0109582007717961,0.849010357144801,-0.483212751084854,0.84901035714625,-0.483212751085537,0.00365223653326491,-0.0109135589568202
57,0.00371257713466289,-0.0111068124644197,0.846764618196347,-0.486988835264794,0.846764618197653,-0.486988835265421,0.00358676274152347,-0.0110612706853691
57.5,0.00364832839699403,-0.0112549698952094,0.844502328412934,-0.490754291372761,0.844502328414098,-0.490754291373329,0.00351963147757206,-0.0112084430059559
58,0.0035824270564937,-0.0114026668701114,0.842223539964276,-0.494509044305421,0.842223539965299,-0.49450904430593,0.00345086048869953,-0.0113550731636778
58.5,0.00351488792656912,-0.0115498974384343,0.839928305445355,-0.498253019670251,0.839928305446238,-0.498253019670698,0.00338046624752358,-0.0115011585532558
59,0.00344572484258043,-0.0116966558420335,0.837616677852253,-0.501986143776823,0.837616677852996,-0.501986143777204,0.00330846401369711,-0.0116466966626461
59.5,0.00337495070417426,-0.011842936468665,0.835288710558919,-0.505708343627979,0.835288710559524,-0.505708343628293,0.0032348678935295,-0.0117916850219888
60,0.00330257751653029,-0.0119887338091941,0.832944457294821,-0.509419546910925,0.832944457295289,-0.509419546911169,0.00315969089748408,-0.0119361211574203
60.5,0.00322861643048961,-0.0121340424183287,0.830583972123437,-0.513119681988233,0.83058397212377,-0.513119681988405,0.00308294499556316,-0.0120800025492983
61,0.00315307778153451,-0.0122788568785871,0.828207309421561,-0.516808677888764,0.828207309421759,-0.516808677888862,0.00300464117058985,-0.0122233265944259
61.5,0.00307597112760188,-0.0124231717672425,0.825814523859368,-0.520486464298527,0.825814523859434,-0.520486464298549,0.00292478946941799,-0.0123660905719142
62,0.00299730528573611,-0.0125669816259916,0.823405670381222,-0.524152971551465,0.823405670381157,-0.524152971551409,0.00284339905211595,-0.0125082916123362
