"Freq [GHz]","re(St(P1,P1)) []","im(St(P1,P1)) []","re(St(P1,P2)) []","im(St(P1,P2)) []","re(St(P2,P1)) []","im(St(P2,P1)) []","re(St(P2,P2)) []","im(St(P2,P2)) []"
0,0.00349451985158566,0,0.996515887542046,0,0.996515886610723,0,0.00349452510968717,0
0.5,0.00385379910974137,0.000747107406663616,0.996043949281578,-0.00604852967678937,0.996043948402068,-0.0060485304862965,0.00385373535763733,0.000747452056884867
1,0.00413559360740479,0.00102677817637087,0.995469631459002,-0.0115868098809386,0.995469630599672,-0.0115868091727549,0.00413541448898513,0.00102755867894899
1.5,0.00400431878847485,0.00149837770141659,0.994966292460408,-0.017210273847251,0.994966291820232,-0.0172102729524362,0.00400422607857287,0.00149961745902871
2,0.00384483806841818,0.00193094145240735,0.994346307386949,-0.0226736795509659,0.994346306958091,-0.0226736786016026,0.00384482063214708,0.00193269448899969
2.5,0.00367297693239887,0.00232519541526521,0.993660329115944,-0.0279755326138513,0.993660328851978,-0.0279755317154518,0.00367300338874532,0.00232750367234225
3,0.00350162958483802,0.00268723844614094,0.992945858892142,-0.0331318150490496,0.992945858733114,-0.0331318142691543,0.00350166022078646,0.00269012677200209
3.5,0.00333975347590165,0.00302617005982064,0.992225530834323,-0.0381663571061921,0.992225530725376,-0.0381663564773849,0.00333975029258626,0.00302964815690565
4,0.00319260659703535,0.00335218360847733,0.991509664950191,-0.0431039203919283,0.991509664850647,-0.043103919921041,0.00319253921740992,0.00335625123907413
4.5,0.00306255755917362,0.00367543716831698,0.990800153714724,-0.0479665094597905,0.990800153599773,-0.0479665091373533,0.00306240543220904,0.00368008962041166
5,0.00294997562869215,0.00400561382218534,0.990093974145011,-0.0527720492486434,0.990093974003439,-0.0527720490562231,0.00294972798317183,0.00401084615642766
5.5,0.00285395692920354,0.00435195477366968,0.989385739292151,-0.0575343814901075,0.989385739122733,-0.057534381405234,0.00285361185333999,0.00435776452121939
6,0.00277281639653526,0.00472357582708227,0.988669310975095,-0.0622638258507155,0.988669310783074,-0.0622638258498895,0.00277237999565461,0.00472996435403594
6.5,0.00270435630489707,0.00512995367033575,0.987938705328337,-0.0669678838058676,0.987938705122594,-0.0669678838662442,0.00270384253019029,0.00513692655295461
7,0.00264594113255956,0.00558154195345306,0.987188534092796,-0.0716518933777515,0.987188533883816,-0.071651893478033,0.00264537271151299,0.00558910863758655
7.5,0.00259439377974052,0.0060905370159885,0.986414169137176,-0.0763195698667518,0.986414168935707,-0.0763195699875929,0.00259380473206061,0.00609870989914185
8,0.00254569346295225,0.00667186631689098,0.98561175591089,-0.0809734267247091,0.98561175572714,-0.0809734268488471,0.00254513397810813,0.00668065925058858
8.5,0.00249439933359452,0.00734453339871166,0.984778153072783,-0.0856150930050221,0.984778152915992,-0.0856150931172666,0.00249394442094947,0.00735395948627371
9,0.00243262726936605,0.00813354106748854,0.983910842649537,-0.0902455489385519,0.9839108425278,-0.0902455490256751,0.00243239184219576,0.00814360956378657
9.5,0.00234822316914166,0.00907275810740238,0.983007834516353,-0.0948652994535149,0.983007834436599,-0.0948652995041064,0.00234838871854706,0.00908347034695201
10,0.00222139410854755,0.0102093400832333,0.982067576858539,-0.0994745017040328,0.982067576826593,-0.0994745017083316,0.00222225730058917,0.0102206851500783
10.5,0.00235804349206802,0.0106965829239156,0.981202535878842,-0.104062331573794,0.981202535846831,-0.104062331574522,0.00235735811038745,0.0107078983057445
11,0.00250255596891019,0.0111803032197493,0.980330437821829,-0.108626690654395,0.980330437790129,-0.108626690651714,0.00250019985718795,0.0111914499771872
11.5,0.00265518639821118,0.0116603212684354,0.979451692229268,-0.113169773283511,0.979451692198207,-0.113169773277614,0.00265103323840234,0.011671138073821
12,0.00281622509546034,0.0121364643063964,0.978566483219403,-0.117693607577853,0.978566483189265,-0.117693607568953,0.00281014558332376,0.0121467639926931
12.5,0.00298600227535031,0.0126085702869099,0.977674810300409,-0.122200050661982,0.977674810271434,-0.122200050650304,0.00297786585579302,0.0126181359380846
13,0.00316489284922023,0.0130764927654035,0.976776524513669,-0.126690789190931,0.976776524486057,-0.126690789176705,0.00315457018035012,0.0130850733270709
13.5,0.00335332150463152,0.0135401071573202,0.975871359921149,-0.131167343781878,0.975871359895062,-0.131167343765343,0.00334068786194804,0.0135474125670947
14,0.00355176793649298,0.0139993186844376,0.974958960643307,-0.13563107620553,0.974958960618874,-0.135631076186921,0.0035367078187539,0.0140050145551953
14.5,0.00376077201622202,0.0144540723780446,0.97403890377422,-0.140083198408304,0.974038903751541,-0.140083198387846,0.00374318527172071,0.0144577743197729
15,0.0039809385698875,0.0149043655580203,0.973110718566393,-0.144524782632869,0.973110718545538,-0.144524782610786,0.00396074842409043,0.0149056333023831
15.5,0.00421294127868871,0.0153502632467251,0.97217390230383,-0.148956772074066,0.972173902284847,-0.148956772050568,0.00419010470678405,0.0153485948521292
16,0.00445752500533861,0.0157919169925589,0.971227933280645,-0.153379991648829,0.971227933263563,-0.153379991624117,0.0044320459473963,0.0157867435673911
16.5,0.00471550557809539,0.0162295875484908,0.970272281283157,-0.157795158574631,0.970272281267984,-0.157795158548897,0.00468745152507749,0.0162202691487185
17,0.00498776572386223,0.0166636717447632,0.969306415943301,-0.16220289254341,0.969306415930034,-0.162202892516831,0.00495728818524396,0.0166494953909875
17.5,0.00527524543432589,0.0170947336674847,0.96832981329545,-0.166603725350595,0.968329813284067,-0.166603725323339,0.00524260469571042,0.0170749147935347
18,0.00557892459211004,0.0175235398474634,0.967341960830964,-0.170998109894332,0.967341960821438,-0.170998109866555,0.0055445189312876,0.01749722893498
18.5,0.00589979522277087,0.0179510975028068,0.966342361307594,-0.175386428502032,0.966342361299886,-0.175386428473876,0.0058641943051092,0.0179173941499626
19,0.00623882036278489,0.0183786938857367,0.965330535535517,-0.179769000571879,0.96533053552958,-0.179769000543475,0.00620280179714044,0.0183366710425084
19.5,0.0065968763965833,0.0188079333893789,0.964306024329417,-0.184146089538989,0.9643060243252,-0.184146089510459,0.00656146331391064,0.0187566748482779
20,0.00697467605108604,0.019240767251806,0.963268389786932,-0.188517909190866,0.963268389784378,-0.188517909162321,0.00694117200801664,0.0191794215135763
20.5,0.00737267036310141,0.0196795085327137,0.962217216028044,-0.192884629366631,0.962217216027091,-0.192884629338173,0.00734268588738171,0.0196073615786947
21,0.00779093022944263,0.0201268227981433,0.961152109507654,-0.197246381080378,0.96115210950824,-0.197246381052098,0.00776639308536556,0.0200433907195925
21.5,0.00822901195616765,0.0205856831712734,0.960072698994284,-0.201603261111942,0.960072698996344,-0.201603261083922,0.00821215114422075,0.0204908226401352
22,0.00868581667860996,0.021059277970739,0.958978635291403,-0.205955336109231,0.958978635294869,-0.205955336081544,0.00867910906453823,0.0209533079365265
22.5,0.00915946028592435,0.0215508612360957,0.95786959076394,-0.210302646245628,0.957869590768746,-0.210302646218344,0.00916552969089343,0.0214346831545225
23,0.0096471774218716,0.0220635422558459,0.956745258720867,-0.214645208474352,0.956745258726944,-0.214645208447529,0.00966864025074038,0.0219387394861665
23.5,0.0101452881326981,0.0226000205050543,0.955605352694912,-0.21898301941938,0.955605352702192,-0.21898301939307,0.0101845480712823,0.0224689121273309
24,0.0106492558743891,0.0231622866413703,0.954449605652355,-0.223316057939899,0.954449605660773,-0.223316057914151,0.010708262615724,0.0230279095935197
24.5,0.0111538579718731,0.0237513258663218,0.953277769159134,-0.227644287402414,0.953277769168622,-0.227644287377268,0.011233859178538,0.0236173248608349
25,0.0116534728420865,0.0243668723397852,0.952089612523922,-0.231967657691757,0.952089612534416,-0.231967657667248,0.0117548003106871,0.0242372910312223
25.5,0.0121424641229128,0.0250072666341732,0.950884921934348,-0.236286106989435,0.950884921945782,-0.236286106965595,0.0122643989257441,0.0248862544940915
26,0.0126156160316973,0.0256694579030918,0.949663499598772,-0.240599563345006,0.949663499611085,-0.240599563321861,0.0127563690096413,0.0255609299317898
26.5,0.0130685553390443,0.0263491681489683,0.948425162903096,-0.244907946063657,0.948425162916227,-0.244907946041229,0.0132253784608772,0.0262564710397097
27,0.0134980912581172,0.0270412031187528,0.947169743589588,-0.249211166930734,0.947169743603476,-0.249211166909042,0.0136675072357598,0.0269668446674836
27.5,0.0139024186511013,0.0277398628873535,0.945897086962799,-0.253509131291821,0.945897086977387,-0.253509131270878,0.0140805299560423,0.0276853487864723
28,0.0142811586222477,0.0284393855042611,0.944607051126082,-0.257801739004913,0.944607051141315,-0.257801738984733,0.0144639816947259,0.0284051830779957
28.5,0.0146352444631717,0.0291343552200605,0.943299506250978,-0.262088885279457,0.943299506266799,-0.262088885260047,0.0148190149665572,0.0291199757972846
29,0.0149666892717726,0.0298200218434517,0.941974333880751,-0.266370461415356,0.94197433389711,-0.266370461396723,0.0151480979187206,0.0298241914594839
29.5,0.0152782869220297,0.0304925028720355,0.940631426268646,-0.270646355453566,0.94063142628549,-0.270646355435712,0.0154546261890859,0.0305133803960325
30,0.0155732987556186,0.0311488662167898,0.93927068575077,-0.274916452748605,0.939270685768051,-0.274916452731533,0.0157425211673194,0.0311842691924966
30.5,0.0158551678545169,0.031787111439014,0.937892024153152,-0.279180636472081,0.937892024170823,-0.279180636455788,0.0160158711122694,0.0318347193136843
31,0.0161272869069832,0.0324060781962801,0.936495362232122,-0.283438788055321,0.936495362250138,-0.283438788039806,0.016278648105544,0.0324635952181118
31.5,0.0163928299636207,0.0330053125565002,0.935080629146957,-0.287690787578252,0.935080629165273,-0.287690787563509,0.0165345115040789,0.0330705843152121
32,0.0166546462306806,0.0335849176947827,0.93364776196356,-0.291936514110803,0.933647761982135,-0.291936514096826,0.0167866922297367,0.0336560037969855
32.5,0.0169152066354214,0.0341454084318522,0.932196705187815,-0.296175846012437,0.932196705206608,-0.296175845999218,0.0170379431274958,0.034220618638054
33,0.0171765907692231,0.0346875816604415,0.930727410327212,-0.300408661194711,0.930727410346184,-0.300408661182242,0.0172905375964261,0.0347654845655805
33.5,0.0174405017491428,0.0352124084515626,0.929239835479297,-0.304634837351208,0.929239835498412,-0.304634837339477,0.0175462996854205,0.0352918214858526
34,0.0177082982245519,0.0357209491176849,0.927733944945497,-0.308854252158671,0.92773394496472,-0.308854252147669,0.017806651864946,0.0358009172534104
34.5,0.017981035144026,0.0362142896991964,0.926209708868882,-0.313066783452733,0.926209708888178,-0.313066783442447,0.0180726702894108,0.0362940584920215
35,0.018259507308111,0.0366934968973582,0.924667102894467,-0.317272309381216,0.924667102913804,-0.317272309371632,0.0183451407036315,0.0367724838036361
35.5,0.018544291809708,0.0371595879869397,0.923106107850703,-0.321470708537636,0.923106107870051,-0.321470708528741,0.0186246108446844,0.0372373544898181
36,0.0188357870781954,0.0376135123349168,0.921526709450836,-0.325661860077249,0.921526709470165,-0.325661860069027,0.0189114371701221,0.0376897383409365
36.5,0.0191342474026044,0.0380561415483307,0.919928898012895,-0.329845643817673,0.919928898032176,-0.329845643810109,0.0192058250831492,0.0381306027603621
37,0.0194398125833006,0.0384882657878705,0.918312668197115,-0.334021940325915,0.918312668216323,-0.334021940318993,0.0195078626608436,0.038560814262675
37.5,0.019752532839604,0.0389105943023846,0.916678018759668,-0.338190630993396,0.916678018778777,-0.338190630987099,0.0198175483624778,0.038981142097801
38,0.0200723893666278,0.0393237587056972,0.915024952321625,-0.34235159810038,0.915024952340612,-0.342351598094693,0.0201348134201632,0.0393922643560178
38.5,0.0203993110577114,0.0397283179076853,0.913353475152164,-0.346504724871063,0.913353475171005,-0.346504724865969,0.0204595396842516,0.0397947753902173
39,0.0207331879415966,0.0401247639232263,0.91166359696505,-0.350649895520423,0.911663596983723,-0.350649895515902,0.0207915736756257,0.0401891937603931
39.5,0.0210738818632198,0.0405135280225821,0.909955330727526,-0.354786995293784,0.909955330746012,-0.35478699528982,0.0211307375293639,0.0405759701782724
40,0.0214212348888336,0.0408949868660018,0.908228692480768,-0.358915910499998,0.908228692499047,-0.358915910496571,0.0214768374265719,0.0409554951264803
40.5,0.0217750758561431,0.0412694683959616,0.906483701171121,-0.363036528538944,0.906483701189177,-0.363036528536037,0.02182967001965,0.0413281059643524
41,0.0221352254280276,0.0416372573532457,0.904720378491419,-0.367148737924066,0.904720378509233,-0.36714873792166,0.0221890272698203,0.0416940934264709
41.5,0.0225014999495822,0.0419986003475123,0.902938748731662,-0.371252428300513,0.902938748749219,-0.37125242829859,0.0225547000386405,0.0420537074821328
42,0.0228737143554332,0.0423537104564036,0.901138838638465,-0.375347490459414,0.901138838655751,-0.375347490457956,0.0229264807089509,0.0424071625635731
42.5,0.0232516843284629,0.042702771355553,0.899320677282667,-0.379433816348748,0.899320677299666,-0.379433816347735,0.023304165055181,0.0427546421945495
43,0.0236352278723186,0.0430459409994468,0.897484295934543,-0.383511299081216,0.897484295951243,-0.383511299080629,0.0236875535372202,0.0430963030640408
43.5,0.0240241664278166,0.0433833548831908,0.895629727946131,-0.387579832939482,0.89562972796252,-0.387579832939303,0.0240764521549935,0.0434322785958123
44,0.0244183256368688,0.0437151289203337,0.893757008640181,-0.391639313379094,0.89375700865625,-0.391639313379305,0.0244706729710725,0.0437626820659944
44.5,0.0248175358360279,0.0440413619735744,0.891866175205297,-0.39568963702937,0.891866175221033,-0.39568963702995,0.0248700343849174,0.0440876093193734
45,0.0252216323444002,0.0443621380747595,0.889957266596839,-0.399730701692493,0.889957266612234,-0.399730701693425,0.0252743612235544,0.0444071411320474
45.5,0.0256304555967492,0.0446775283688265,0.888030323443239,-0.403762406341046,0.888030323458285,-0.403762406342311,0.0256834846986823,0.0447213452641008
46,0.0260438511615301,0.0449875928138721,0.886085387957345,-0.407784651114164,0.886085387972034,-0.407784651115744,0.0260972422685922,0.0450302782417312
46.5,0.026461669674786,0.0452923816666995,0.884122503852472,-0.411797337312486,0.884122503866798,-0.411797337314363,0.0265154774342244,0.0453339869039264
47,0.0268837667138828,0.0455919367802834,0.882141716262866,-0.415800367392055,0.882141716276821,-0.415800367394211,0.0269380394915983,0.0456325097447244
47.5,0.0273100026295402,0.0458862927367222,0.880143071668276,-0.419793644957295,0.880143071681856,-0.419793644959711,0.0273647832573921,0.0459258780782542
48,0.027740242350334,0.0461754778365777,0.878126617822391,-0.423777074753178,0.878126617835592,-0.423777074755838,0.0277955687801929,0.046214117050324
48.5,0.0281743551704232,0.0464595149629461,0.876092403684878,-0.427750562656711,0.876092403697695,-0.427750562659596,0.0282302610466506,0.04649724651718
49,0.0286122145286326,0.046738422336431,0.874040479356802,-0.431714015667783,0.874040479369232,-0.431714015670876,0.0286687296892773,0.0467752818093692
49.5,0.0290536977849458,0.0470122141750621,0.871970896019218,-0.435667341899507,0.871970896031258,-0.435667341902792,0.0291108487006842,0.0470482343961729
50,0.0294986859988632,0.0472809012714782,0.869883705874729,-0.439610450568084,0.869883705886379,-0.439610450571543,0.0295564961575804,0.0473161124640064
50.5,0.0299470637128335,0.0475444914980435,0.86777896209184,-0.443543251982277,0.867778962103097,-0.443543251985894,0.0300055539567523,0.0475789214203226
51,0.0303987187430152,0.0478029902492129,0.865656718751917,-0.447465657532537,0.86565671876278,-0.447465657536295,0.0304579075643942,0.0478366643329924
51.5,0.0308535419788921,0.0480564008292056,0.863517030798617,-0.451377579679828,0.863517030809087,-0.451377579683712,0.030913445779541,0.0480893423137509
52,0.0313114271926914,0.0483047247920009,0.86135995398963,-0.455278931944194,0.861359953999706,-0.455278931948187,0.0313720605118756,0.0483369548531062
52.5,0.0317722708591559,0.0485479622397391,0.859185544850583,-0.459169628893109,0.859185544860266,-0.459169628897198,0.0318336465738691,0.0485795001131136
53,0.0322359719858754,0.0487861120848054,0.856993860631008,-0.463049586129633,0.856993860640301,-0.463049586133802,0.0322981014869494,0.0488169751835181
53.5,0.0327024319541766,0.049019172280184,0.85478495926223,-0.466918720280404,0.854784959271134,-0.466918720284639,0.032765325301242,0.0490493763060257
54,0.0331715543703774,0.0492471400220508,0.852558899317075,-0.470776948983495,0.852558899325591,-0.47077694898778,0.0332352204283047,0.0492766990708173
54.5,0.0336432449271012,0.0494700119280747,0.850315739971293,-0.474624190876143,0.850315739979426,-0.474624190880465,0.0337076914862137,0.0494989385888533
55,0.0341174112742687,0.049687784194422,0.848055540966609,-0.478460365582387,0.848055540974361,-0.478460365586732,0.0341826451563196,0.0497160896430481
55.5,0.0345939628993175,0.0499004527340847,0.845778362575291,-0.48228539370061,0.845778362582667,-0.482285393704965,0.0346599900509769,0.04992814682097
56,0.0350728110161799,0.0501080132988002,0.843484265566184,-0.48609919679102,0.843484265573186,-0.486099196795372,0.0351396365915454,0.050135104631378
56.5,0.0355538684625299,0.0503104615865504,0.841173311172096,-0.489901697363055,0.841173311178729,-0.489901697367391,0.0356214968959941,0.0503369576065996
57,0.0360370496048057,0.0505077933363715,0.838845561058503,-0.493692818862741,0.838845561064773,-0.493692818867049,0.036105484675435,0.0505337003924797
57.5,0.0365222702505213,0.0507000044119668,0.836501077293469,-0.49747248566001,0.836501077299381,-0.497472485664279,0.0365915151389656,0.0507253278274205
58,0.0370094475673941,0.0508870908754602,0.834139922318748,-0.501240623035974,0.834139922324307,-0.501240623040192,0.0370795049062138,0.0509118350118203
58.5,0.0374985000088355,0.0510690490524224,0.831762158921984,-0.504997157170168,0.831762158927196,-0.504997157174324,0.0375693719270245,0.0510932173690649
59,0.0379893472453625,0.0512458755891972,0.829367850209984,-0.508742015127768,0.829367850214855,-0.508742015131851,0.0380610354077507,0.0512694706990612
59.5,0.0384819101015153,0.0514175675033896,0.826957059582981,-0.512475124846785,0.826957059587518,-0.512475124850785,0.0385544157436508,0.0514405912251932
60,0.0389761104978982,0.051584122228313,0.824529850709866,-0.516196415125232,0.824529850714075,-0.51619641512914,0.0390494344569362,0.0516065756354628
60.5,0.0394718713979618,0.0517455376520467,0.82208628750433,-0.519905815608288,0.822086287508218,-0.519905815612094,0.0395460141400201,0.0517674211184767
61,0.0399691167591854,0.0519018121517373,0.819626434101878,-0.523603256775427,0.819626434105454,-0.523603256779121,0.0400440784035851,0.0519231253948711
61.5,0.040467771488345,0.0520529446236299,0.817150354837681,-0.527288669927547,0.817150354840951,-0.527288669931123,0.0405435518290802,0.052073686744682
62,0.0409677614005441,0.0521989345093204,0.814658114225223,-0.530961987174087,0.814658114228195,-0.530961987177535,0.0410443599253119,0.0522191040311116
62.5,0.0414690131817489,0.0523397818186289,0.812149776935713,-0.534623141420116,0.812149776938394,-0.534623141423428,0.0415464290888125,0.0523593767210937
63,0.0419714543545447,0.0524754871494415,0.809625407778233,-0.538272066353429,0.809625407780633,-0.538272066356599,0.0420496865676798,0.0524945049029918
63.5,0.0424750132468895,0.052606051704858,0.807085071680586,-0.541908696431624,0.807085071682712,-0.541908696434644,0.0425540604286273,0.0526244893017502
