"Freq [GHz]","re(St(P1,P1)) []","im(St(P1,P1)) []","re(St(P1,P2)) []","im(St(P1,P2)) []","re(St(P2,P1)) []","im(St(P2,P1)) []","re(St(P2,P2)) []","im(St(P2,P2)) []"
0,0.00396172133662276,0,0.996052344809868,0,0.996052355098072,0,0.00396172891350943,0
0.5,0.00441020771117451,-0.000269637689637392,0.995495324006761,-0.00716046318111552,0.995495322093944,-0.00716046204252407,0.00441017725938764,-0.000269416421584623
1,0.00475952948045588,-0.00111288285953748,0.994857988299714,-0.0137176719635654,0.994857988427871,-0.0137176716003431,0.00475941120156165,-0.00111245488496436
1.5,0.00459566437597481,-0.00208726876869747,0.994281727864518,-0.0203713350426113,0.994281728122813,-0.0203713346244854,0.00459632154268519,-0.00208732045713234
2,0.00447842112846608,-0.00299017160705972,0.993592777981455,-0.0268479134073338,0.993592778333348,-0.0268479130133983,0.00447913570096237,-0.00299010337662864
2.5,0.00436333820027723,-0.00384998853425067,0.992850129726494,-0.0331609537653996,0.992850130114053,-0.0331609534406869,0.00436373069565477,-0.00384968843433597
3,0.00423842428860866,-0.00467879048167141,0.992089788351275,-0.0393393273643259,0.992089788719831,-0.0393393271227129,0.00423825860071814,-0.00467823405151258
3.5,0.00410007151698943,-0.00548143034590254,0.99132769384327,-0.0454136925721542,0.991327694153472,-0.0454136924081769,0.0040991754447699,-0.00548061075334338
4,0.00394750270753441,-0.00625963677795127,0.990566453145848,-0.0514098295784517,0.990566453375693,-0.0514098294783221,0.00394573800263043,-0.00625855004651221
4.5,0.00378110857758518,-0.00701372513351295,0.989801427783529,-0.0573469084768856,0.989801427925572,-0.057346908425405,0.00377835867679255,-0.007012367075097
5,0.00360183902501321,-0.00774336975827339,0.989024857368293,-0.0632381375496678,0.989024857425624,-0.0632381375334798,0.003598003579526,-0.00774173578014192
5.5,0.00341093930193703,-0.00844798180675976,0.988228223668853,-0.0690921406695564,0.988228223651498,-0.069092140678106,0.0034059315316064,-0.0084460674403477
6,0.00320981660036834,-0.00912690619992951,0.987403433993232,-0.0749143008549833,0.987403433915396,-0.0749143008803461,0.00320356188582549,-0.00912470776108165
6.5,0.00299996230631538,-0.00977952846912267,0.986543320581386,-0.0807078226143574,0.986543320459521,-0.0807078226506359,0.00299239733268464,-0.00977704367596921
7,0.00278290090765798,-0.0104053332007963,0.98564178186867,-0.0864744933223092,0.985641781720157,-0.0864744933649684,0.00277397304533589,-0.0104025616976573
7.5,0.00256015330581139,-0.0110039347200477,0.984693753440881,-0.0922151993502247,0.984693753283168,-0.0922151993955485,0.0025498200796184,-0.0110008784939204
8,0.0023332089888185,-0.0115750909576331,0.983695108425786,-0.0979302636669059,0.983695108275812,-0.0979302637115538,0.00232143756561365,-0.0115717546466882
8.5,0.00210350438807683,-0.0121187067058353,0.98264253685251,-0.103619661021255,0.982642536726352,-0.103619661061995,0.00209027105234405,-0.0121150978044691
9,0.0018724060197009,-0.012634830015843,0.981533426777798,-0.109283152205629,0.981533426690448,-0.10928315223917,0.00185769562682453,-0.0126309589831894
9.5,0.00164119759610301,-0.0131236441460523,0.980365756465986,-0.114920366194148,0.980365756431232,-0.114920366217072,0.00162500300349833,-0.013119524426533
10,0.00141107056152237,-0.0135854566911844,0.979138000420459,-0.120530849412919,0.979138000450837,-0.120530849421644,0.00139339204295751,-0.0135811046566694
10.5,0.00131849687537226,-0.0142513679878027,0.978010488851393,-0.126147773713774,0.978010488881262,-0.126147773723095,0.00130728189541696,-0.0142346700912306
11,0.00122145361230196,-0.0149150634894326,0.976864004164317,-0.13173641166749,0.97686400419363,-0.131736411677368,0.00121559926952647,-0.0148851072245977
11.5,0.00111990813577099,-0.0155763888693565,0.975699283973294,-0.137298873594613,0.975699284002011,-0.137298873604999,0.00111821168578599,-0.0155323827146425
12,0.00101381799809303,-0.0162351877502003,0.974516817663958,-0.14283714113412,0.974516817692046,-0.14283714114497,0.00101499148136137,-0.0161764720393487
12.5,0.000903130254430395,-0.0168913027905453,0.97331688445293,-0.148353055255335,0.973316884480362,-0.1483530552666,0.000905816390293579,-0.0168173587969607
13,0.000787780901706378,-0.0175445769143558,0.972099588240617,-0.153848310105764,0.972099588267372,-0.153848310117395,0.000790570034240004,-0.0174550339814732
13.5,0.000667694470920743,-0.0181948546700643,0.970864888953476,-0.159324451461575,0.970864888979537,-0.159324451473525,0.00066914232567318,-0.0180894952442827
14,0.000542783800466809,-0.0188419837001614,0.9696126302953,-0.164782878701417,0.969612630320655,-0.164782878713643,0.000541429786583003,-0.0187207461519918
14.5,0.000412950015829638,-0.019485816296017,0.96834256398701,-0.170224849384931,0.968342564011654,-0.170224849397386,0.00040733578675417,-0.019348795449293
15,0.000278082737393243,-0.0201262110067493,0.967054370682222,-0.175651485673039,0.967054370706148,-0.175651485685682,0.000266770706445124,-0.0199736563349617
15.5,0.000138060532998946,-0.0207630342655931,0.965747677812467,-0.181063781970532,0.965747677835677,-0.181063781983322,0.000119652028908623,-0.0205953457578798
16,-7.24837458077054E-006,-0.0213961619925747,0.964422074651483,-0.18646261329877,0.96442207467398,-0.186462613311667,-3.40956313706897E-005,-0.0212138837389237
16.5,-0.000157985142829886,-0.0220254811291527,0.96307712490045,-0.191848744016232,0.963077124922237,-0.191848744029202,-0.000194540558599604,-0.0218292927236265
17,-0.000314299093576775,-0.0226508910588068,0.961712377092672,-0.197222836597073,0.961712377113758,-0.19722283661008,-0.000361744017485899,-0.0224415969694634
17.5,-0.000476346261485849,-0.0232723048677688,0.960327373102112,-0.202585460254067,0.960327373122505,-0.202585460267082,-0.000535760380685507,-0.0230508219706871
18,-0.000644287731827453,-0.0238896504025354,0.958921655019541,-0.207937099254113,0.958921655039251,-0.207937099267106,-0.000716637295733041,-0.0236569939228777
18.5,-0.000818287801384099,-0.0245028710851751,0.95749477063601,-0.213278160823361,0.957494770655049,-0.213278160836305,-0.000904415885501109,-0.0242601392284429
19,-0.000998512004365959,-0.0251119264540915,0.956046277747896,-0.21860898257743,0.956046277766274,-0.218608982590299,-0.00109913097651643,-0.0248602840437848
19.5,-0.00118512505179086,-0.0257167924062087,0.954575747472534,-0.22392983944144,0.954575747490267,-0.223929839454209,-0.00130081134976506,-0.0254574538680696
20,-0.0013782887373992,-0.0263174611264447,0.953082766739339,-0.229240950046666,0.953082766756438,-0.229240950059317,-0.00150948000902323,-0.0260516731731628
20.5,-0.00157815986557297,-0.0269139407010508,0.951566940098905,-0.234542482606741,0.951566940115386,-0.234542482619253,-0.00172515446210103,-0.0266429650737279
21,-0.00178488825663536,-0.0275062544226308,0.950027890972272,-0.239834560287807,0.950027890988148,-0.239834560300163,-0.00194784701084577,-0.0272313510361855
21.5,-0.00199861488228942,-0.0280944398054817,0.948465262444299,-0.245117266094892,0.948465262459584,-0.245117266107076,-0.00217756504612926,-0.027816850624911
22,-0.00221947017903812,-0.0286785473400113,0.946878717689054,-0.250390647301766,0.946878717703762,-0.250390647313762,-0.00241431134448389,-0.0283994812838286
22.5,-0.00244757258037043,-0.0292586390235341,0.945267940101088,-0.255654719454463,0.945267940115234,-0.25565471946626,-0.0026580843634505,-0.0289792581513604
23,-0.00268302729983316,-0.0298347867115631,0.943632633194346,-0.260909469979949,0.943632633207943,-0.260909469991532,-0.00290887853307786,-0.0295561939066138
23.5,-0.00292592538736464,-0.0304070703382322,0.941972520319988,-0.266154861431562,0.941972520333051,-0.266154861442923,-0.00316668454140773,-0.0301302986445962
24,-0.00317634307093251,-0.0309755760567836,0.940287344245579,-0.271390834402213,0.940287344258121,-0.271390834413341,-0.00343148961209594,-0.0307015797782104
24.5,-0.0034343413853043,-0.0315403943509389,0.93857686663047,-0.276617310135074,0.938576866642504,-0.276617310145961,-0.00370327777266671,-0.0312700419648053
25,-0.00369996608012452,-0.0321016181657794,0.936840867425899,-0.281834192859907,0.936840867437439,-0.281834192870544,-0.00398203011217924,-0.0318356870551044
25.5,-0.00397324779088259,-0.0326593411026044,0.935079144222943,-0.287041371881363,0.935079144234001,-0.287041371891745,-0.00426772502734574,-0.0323985140623346
26,-0.00425420244919728,-0.0332136557167027,0.933291511566989,-0.292238723443694,0.933291511577577,-0.292238723453812,-0.00456033845640325,-0.0329585191495307
26.5,-0.00454283190327004,-0.0337646519502608,0.931477800253684,-0.297426112394349,0.931477800263814,-0.297426112404201,-0.0048598441002306,-0.0335156956330427
27,-0.00483912471558118,-0.0343124157253618,0.929637856618194,-0.302603393667033,0.929637856627879,-0.302603393676613,-0.00516621363041375,-0.0340700340003535
27.5,-0.00514305710280466,-0.0348570277145894,0.927771541827099,-0.307770413602974,0.927771541836348,-0.307770413612278,-0.00547941688410503,-0.0346215219404904
28,-0.00545459398243059,-0.0353985622994741,0.925878731180088,-0.312927011127377,0.925878731188913,-0.3129270111364,-0.00579942204568701,-0.0351701443853631
28.5,-0.00577369009154055,-0.0359370867202908,0.923959313426959,-0.318073018796443,0.923959313435372,-0.318073018805184,-0.00612619581535712,-0.0357158835605207
29,-0.00610029114525618,-0.0364726604147394,0.922013190103976,-0.32320826372878,0.922013190111987,-0.323208263737237,-0.00645970356486308,-0.0362587190439234
29.5,-0.00643433500539403,-0.0370053345379702,0.920040274892519,-0.328332568433652,0.920040274900137,-0.328332568441822,-0.00679990948068793,-0.036798627831423
30,-0.0067757528334953,-0.0375351516523996,0.918040493002038,-0.33344575154724,0.918040493009272,-0.333445751555121,-0.00714677669508246,-0.0373355844078207
30.5,-0.00712447020634738,-0.0380621455726797,0.916013780578588,-0.338547628486906,0.916013780585449,-0.338547628494497,-0.00750026740535437,-0.0378695608223836
31,-0.00748040817627638,-0.038586341349174,0.91396008413963,-0.34363801203242,0.913960084146127,-0.343638012039719,-0.00786034298191579,-0.0384005267679075
31.5,-0.00784348426249998,-0.0391077553720927,0.911879360035322,-0.348716712842128,0.911879360041463,-0.348716712849135,-0.00822696406557893,-0.0389284496624442
32,-0.00821361336367643,-0.0396263955780884,0.909771573936156,-0.353783539911201,0.909771573941949,-0.353783539917918,-0.00860009065463768,-0.039453294732926
32.5,-0.00859070858527894,-0.0401422617413498,0.90763670034655,-0.358838300978339,0.907636700352004,-0.358838300984763,-0.00897968218227507,-0.0399750251000264
33,-0.00897468197850493,-0.0406553458320422,0.905474722143744,-0.363880802886569,0.905474722148867,-0.363880802892701,-0.00936569758484895,-0.0404936018636517
33.5,-0.00936544519007015,-0.0411656324260934,0.903285630141243,-0.368910851903211,0.903285630146042,-0.368910851909051,-0.00975809536159744,-0.0410089841885362
34,-0.00976291002443025,-0.0416730991518,0.901069422675898,-0.373928254003517,0.90106942268038,-0.373928254009066,-0.010156833626319,-0.0415211293895199
34.5,-0.0101669889216765,-0.0421777171602673,0.898826105217681,-0.378932815121943,0.898826105221855,-0.378932815127203,-0.0105618701515475,-0.0420299930160859
35,-0.0105775953557088,-0.0426794516084454,0.896555690001147,-0.383924341374666,0.896555690005018,-0.383924341379636,-0.0109731624057566,-0.0425355289358715
35.5,-0.0109946441582011,-0.0431782621451138,0.894258195677516,-0.388902639256463,0.894258195681092,-0.388902639261146,-0.0113906675840902,-0.0430376894168449
36,-0.011418051774486,-0.0436741033918528,0.891933646986387,-0.393867515814815,0.891933646989674,-0.393867515819211,-0.011814342633111,-0.0435364252079453
36.5,-0.0118477364578414,-0.0441669254124799,0.889582074446026,-0.398818778803704,0.88958207444903,-0.398818778807814,-0.0122441442700323,-0.0440316856179905
37,-0.0122836184087241,-0.0446566741658827,0.887203514061209,-0.403756236819361,0.887203514063937,-0.403756236823188,-0.0126800289968865,-0.0445234185927232
37.5,-0.0127256198654395,-0.0451432919383519,0.884798007047669,-0.408679699419923,0.884798007050126,-0.408679699423467,-0.0131219531100488,-0.0450115707898677
38,-0.0131736651524863,-0.0456267177526706,0.882365599572161,-0.413588977230774,0.882365599574354,-0.413588977234038,-0.0135698727055274,-0.0454960876521322
38.5,-0.0136276806925038,-0.0461068877521127,0.879906342507259,-0.418483882037144,0.879906342509193,-0.41848388204013,-0.0140237436804029,-0.045976913478101
39,-0.0140875949873241,-0.0465837355583179,0.877420291199985,-0.423364226865345,0.877420291201666,-0.423364226868054,-0.0144835217307686,-0.0464539914909816
39.5,-0.0145533385732022,-0.047057192602656,0.874907505253458,-0.428229826053889,0.874907505254891,-0.428229826056324,-0.014949162346528,-0.0469272639052118
40,-0.0150248439548092,-0.0475271884312551,0.872368048320749,-0.433080495315608,0.87236804832194,-0.43308049531777,-0.01542062080335,-0.0473966719909165
40.5,-0.01550204552212,-0.0479936509842507,0.86980198791021,-0.437916051791733,0.869801987911164,-0.437916051793624,-0.0158978521520952,-0.0478621561362607
41,-0.0159848794538329,-0.0484565068501748,0.867209395201549,-0.442736314098823,0.86720939520227,-0.442736314100445,-0.0163808112059808,-0.0483236559077123
41.5,-0.016473283610544,-0.0489156814966236,0.864590344871993,-0.447541102369319,0.864590344872487,-0.447541102370676,-0.0168694525257507,-0.0487811101082849
42,-0.0169671974204486,-0.049371099478531,0.861944914931906,-0.452330238286405,0.861944914932179,-0.452330238287499,-0.0173637304030877,-0.0492344568337963
42.5,-0.0174665617599808,-0.0498226846254524,0.859273186569263,-0.457103545113813,0.859273186569318,-0.457103545114646,-0.0178635988424968,-0.0496836335272282
43,-0.0179713188314134,-0.0502703602093604,0.856575244002423,-0.461860847721095,0.856575244002266,-0.46186084772167,-0.0183690115418612,-0.0501285770312321
43.5,-0.0184814120391485,-0.0507140490944502,0.853851174340696,-0.466601972604873,0.853851174340332,-0.466601972605193,-0.0188799218718692,-0.0505692236388786
44,-0.0189967858661265,-0.0511536738704519,0.851101067452179,-0.47132674790649,0.851101067451611,-0.471326747906557,-0.019396282854489,-0.0510055091427153
44.5,-0.0195173857515151,-0.0515891569708934,0.848325015838439,-0.476035003426443,0.848325015837674,-0.476035003426259,-0.0199180471406473,-0.0514373688822076
45,-0.0200431579706403,-0.0520204207777409,0.845523114515595,-0.480726570635971,0.845523114514636,-0.480726570635541,-0.0204451669872788,-0.0518647377896663
45.5,-0.0205740495179021,-0.0524473877137286,0.842695460901396,-0.485401282686064,0.842695460900248,-0.48540128268539,-0.0209775942338675,-0.0522875504347101
46,-0.0211100079932651,-0.0528699803236581,0.839842154707931,-0.490058974414207,0.839842154706598,-0.490058974413291,-0.0215152802786249,-0.0527057410673829
46.5,-0.0216509814927586,-0.0532881213458338,0.836963297839611,-0.494699482349066,0.836963297838098,-0.494699482347911,-0.0220581760544069,-0.0531192436599697
47,-0.0221969185033058,-0.0537017337747409,0.834058994296105,-0.49932264471337,0.834058994294416,-0.49932264471198,-0.0226062320044921,-0.0535279919476221
47.5,-0.0227477678021002,-0.0541107409159678,0.831129350079913,-0.503928301425148,0.831129350078053,-0.503928301423526,-0.0231593980583092,-0.0539319194678562
48,-0.0233034783606472,-0.0545150664343077,0.828174473108303,-0.508516294097518,0.828174473106277,-0.508516294095667,-0.0237176236072085,-0.0543309595989995
48.5,-0.023863999253539,-0.0549146343958907,0.825194473129342,-0.513086466037163,0.825194473127153,-0.513086466035088,-0.0242808574803625,-0.0547250455976673
49,-0.0244292795719576,-0.0553093693051055,0.822189461641764,-0.517638662241651,0.822189461639419,-0.517638662239353,-0.0248490479208685,-0.0551141106353422
49.5,-0.0249992683418587,-0.0556991961370265,0.819159551818466,-0.522172729395695,0.819159551815967,-0.522172729393178,-0.025422142562122,-0.055498087834117
50,-0.0255739144467593,-0.0560840403659585,0.816104858433384,-0.526688515866483,0.816104858430737,-0.52668851586375,-0.0260000884045284,-0.055876910301677
50.5,-0.0261531665550109,-0.0564638279906758,0.813025497791586,-0.531185871698165,0.813025497788794,-0.531185871695221,-0.0265828317926098,-0.0562505111655861
51,-0.0267369730514357,-0.056838485556857,0.809921587662354,-0.535664648605583,0.809921587659422,-0.535664648602432,-0.0271703183925545,-0.056618823606929
51.5,-0.0273252819731643,-0.0572079401771656,0.806793247215118,-0.540124699967319,0.806793247212051,-0.540124699963964,-0.0277624931702652,-0.056981780893377
52,-0.0279180409495364,-0.0575721195493807,0.80364059695805,-0.544565880818132,0.803640596954852,-0.544565880814576,-0.0283593003699498,-0.0573393164117313
52.5,-0.0285151971458814,-0.0579309519729299,0.800463758679176,-0.548988047840841,0.800463758675853,-0.548988047837089,-0.0289606834932861,-0.0576913636999884
53,-0.029116697211026,-0.0582843663641417,0.797262855389875,-0.553391059357716,0.797262855386431,-0.553391059353772,-0.029566585279214,-0.0580378564789928
53.5,-0.0297224872283564,-0.0586322922704799,0.794038011270614,-0.557774775321409,0.794038011267052,-0.557774775317276,-0.0301769476843677,-0.0583787286836988
54,-0.0303325126702642,-0.0589746598840211,0.7907893516188,-0.562139057305479,0.790789351615126,-0.562139057301163,-0.0307917118642013,-0.0587139144941105
54.5,-0.0309467183558261,-0.0593114000543686,0.787517002798652,-0.566483768494554,0.787517002794871,-0.566483768490057,-0.0314108181548193,-0.0590433483659235
55,-0.0315650484115498,-0.0596424443011909,0.784221092192953,-0.57080877367414,0.784221092189069,-0.570808773669469,-0.0320342060555494,-0.059366965060911
55.5,-0.0321874462350408,-0.0599677248265474,0.780901748156614,-0.57511393922014,0.780901748152632,-0.575113939215299,-0.0326618142122714,-0.0596846996770886
56,-0.0328138544614383,-0.0602871745271248,0.777559099971932,-0.579399133088076,0.777559099967857,-0.579399133083069,-0.0332935804015365,-0.0599964876786856
56.5,-0.0334442149324917,-0.0606007270065108,0.774193277805471,-0.583664224802064,0.774193277801308,-0.583664224796895,-0.0339294415154843,-0.060302264925962
57,-0.0340784686681425,-0.0609083165875993,0.770804412666473,-0.587909085443541,0.770804412662227,-0.587909085438216,-0.0345693335475875,-0.0606019677048832
57.5,-0.0347165558404789,-0.0612098783252026,0.767392636366732,-0.592133587639785,0.767392636362407,-0.592133587634309,-0.0352131915792351,-0.0608955327566866
58,-0.0353584157499679,-0.0615053480189508,0.763958081481846,-0.596337605552225,0.763958081477448,-0.596337605546603,-0.0358609497671705,-0.0611828973073573
58.5,-0.0360039868038322,-0.061794662226522,0.760500881313803,-0.600521014864562,0.760500881309337,-0.600521014858799,-0.0365125413318028,-0.0614639990970298
59,-0.0366532064964897,-0.0620777582772546,0.757021169854817,-0.60468369277072,0.757021169850289,-0.604683692764822,-0.0371678985464036,-0.0617387764093388
59.5,-0.0373060113919482,-0.0623545742861745,0.753519081752366,-0.60882551796263,0.75351908174778,-0.608825517956602,-0.0378269527271962,-0.0620071681007189
60,-0.0379623371080766,-0.0626250491684648,0.749994752275373,-0.612946370617861,0.749994752270735,-0.612946370611708,-0.0384896342243606,-0.062269113629686
60.5,-0.0386221183026563,-0.0628891226543917,0.746448317281496,-0.617046132387109,0.746448317276811,-0.617046132380838,-0.0391558724139544,-0.0625245530860876
61,-0.0392852886611607,-0.0631467353047066,0.742879913185448,-0.621124686381545,0.742879913180722,-0.621124686375161,-0.0398255956907669,-0.0627734272203425
61.5,-0.039951780886165,-0.0633978285265228,0.739289676928334,-0.625181917160039,0.739289676923571,-0.625181917153549,-0.0404987314621099,-0.0630156774726759
62,-0.0406215266883454,-0.0636423445896704,0.735677745947948,-0.629217710716263,0.735677745943155,-0.629217710709673,-0.0411752061425589,-0.0632512460023466
