"Freq [GHz]","re(St(P1,P1)) []","im(St(P1,P1)) []","re(St(P1,P2)) []","im(St(P1,P2)) []","re(St(P2,P1)) []","im(St(P2,P1)) []","re(St(P2,P2)) []","im(St(P2,P2)) []"
0,0.0040920566560203,0,0.995923136099009,0,0.995923139227671,0,0.00409205841498306,0
0.5,0.00459772860016017,-0.00062926329627544,0.995315456895675,-0.00723933240707098,0.995315457067882,-0.00723933244642083,0.00459786176429589,-0.000629681852611697
1,0.00499844849080944,-0.00190487668545813,0.994644807893181,-0.0138096868359341,0.994644807954359,-0.0138096868597088,0.00499882157252429,-0.00190590195418139
1.5,0.00490759130047103,-0.00337341097486288,0.994054001340491,-0.0204832468119065,0.994054001399721,-0.0204832468421579,0.00490823657777462,-0.00337536159485552
2,0.0048169789778818,-0.0047336536360767,0.993367164851963,-0.0269702052403389,0.993367164911595,-0.0269702052738978,0.00481774489922593,-0.00473641861553631
2.5,0.00471116786780179,-0.00604451206514334,0.992644948692646,-0.0332959947490838,0.99264494875515,-0.0332959947841029,0.00471201524821119,-0.00604805553174614
3,0.00458671112535125,-0.00732479236691219,0.991918462013144,-0.0394976861051077,0.991918462080158,-0.0394976861406544,0.00458762920524869,-0.00732909731035036
3.5,0.00444285254065768,-0.00858162276307617,0.991196970117487,-0.0456090845043953,0.991196970189542,-0.0456090845399491,0.0044438401949165,-0.00858667890087617
4,0.00427972033993562,-0.00981775309110233,0.990477462914739,-0.0516555580723779,0.990477462991374,-0.0516555581074449,0.00428078025272205,-0.00982355298084947
4.5,0.00409782690799654,-0.0110340224966663,0.989751559964825,-0.0576541569531823,0.989751560044817,-0.0576541569871871,0.00409896334776727,-0.0110405599590475
5,0.00389789293532949,-0.0122303573607834,0.989009423452984,-0.0636155138998209,0.98900942353457,-0.0636155139321275,0.00389911076896432,-0.0122376267281794
5.5,0.00368077237978159,-0.0134062300412108,0.988241625628961,-0.0695458488036884,0.988241625710018,-0.0695458488336467,0.00368207658430175,-0.0134142257536176
6,0.00344741404192916,-0.0145608912370774,0.987439878153052,-0.0754485406723582,0.987439878231227,-0.0754485406993872,0.00344880944154724,-0.0145696076030255
6.5,0.00319883808521015,-0.0156934969291305,0.986597206248538,-0.0813252185178879,0.986597206321359,-0.0813252185415285,0.0032003292013002,-0.015702927972856
7,0.00293611927298265,-0.0168031819273491,0.985707883906153,-0.0871764708438345,0.985707883971105,-0.0871764708637928,0.00293771023592637,-0.016813321285059
7.5,0.00266037352008552,-0.0178891043869589,0.984767284812755,-0.0930022886732198,0.984767284867348,-0.0930022886893873,0.00266206801796287,-0.0178999452333999
8,0.00237274626912354,-0.0189504735210102,0.983771718138036,-0.0988023337311921,0.983771718179857,-0.0988023337436514,0.00237454752003563,-0.0189620085162776
8.5,0.00207440202043441,-0.0199865670232535,0.982718276617569,-0.104576096005669,0.982718276644315,-0.104576096014678,0.00207631276098269,-0.0199987882741937
9,0.00176651471567085,-0.0209967418587773,0.981604705401961,-0.110322983074842,0.981604705411472,-0.110322983080819,0.00176853720107994,-0.0210096408917844
9.5,0.0014502588491398,-0.0219804405785595,0.980429292202796,-0.116042368285783,0.980429292193075,-0.116042368289282,0.0014523948620635,-0.0219940083217169
10,0.00112680126320533,-0.022937194490682,0.979190776394811,-0.121733614746305,0.979190776364035,-0.121733614747998,0.001129052129131,-0.0229514212640218
10.5,0.00092044253566903,-0.024049007834364,0.978050631048204,-0.127431661142284,0.97805063101726,-0.127431661150352,0.000923381968511189,-0.0240635875374551
11,0.000702442635910988,-0.0251567961839179,0.976888493317508,-0.133101937714497,0.976888493285713,-0.133101937728647,0.00070606411777796,-0.0251717143699377
11.5,0.000472720506402596,-0.0262605327233549,0.975705118356619,-0.138746350742533,0.975705118323372,-0.138746350762407,0.00047701725661714,-0.0262757785421917
12,0.000231207931685712,-0.0273601937406696,0.974501028384349,-0.144366694539343,0.974501028349128,-0.144366694564545,0.00023617328826174,-0.0273757597382636
12.5,-2.21510056759577E-005,-0.0284557572590427,0.973276547318207,-0.149964639151291,0.97327654728057,-0.149964639181385,-1.65232618971195E-005,-0.0284716391487994
13,-0.000287400574341401,-0.0295472018472558,0.972031832700473,-0.155541723522889,0.972031832660052,-0.155541723557425,-0.00028111595085413,-0.0295633982640542
13.5,-0.000564574115353635,-0.0306345056046866,0.970766904585558,-0.161099353017871,0.970766904542056,-0.161099353056388,-0.000557637191093009,-0.0306510178504089
14,-0.000853694806428246,-0.0317176453118972,0.969481671267486,-0.166638800316258,0.969481671220674,-0.166638800358292,-0.000846109062582492,-0.0317344770999188
14.5,-0.00115477644520827,-0.0327965957350767,0.968175951879227,-0.172161208844972,0.968175951828931,-0.172161208890063,-0.00114654413897526,-0.0328137529396675
15,-0.00146782423170935,-0.033871329070708,0.966849496001263,-0.177667598035515,0.966849495947367,-0.177667598083216,-0.00145894630799465,-0.0338888194859517
15.5,-0.00179283553427434,-0.0349418145159834,0.965502000484617,-0.183158869829581,0.965502000427052,-0.183158869879461,-0.00178331157031958,-0.0349596476276148
16,-0.00212980062702361,-0.0360080179501567,0.964133123732174,-0.188635815967817,0.964133123670912,-0.188635816019461,-0.0021196288051244,-0.0360262047226674
16.5,-0.00247870339000703,-0.0370699017123712,0.962742497699108,-0.194099125696701,0.962742497634162,-0.194099125749719,-0.00246788049375568,-0.0370884543928662
17,-0.00283952196600737,-0.0381274244621896,0.961329737874613,-0.199549393613417,0.961329737806026,-0.19954939366744,-0.00282804339586923,-0.0381463564017399
17.5,-0.00321222937023485,-0.0391805411099568,0.959894451497976,-0.204987127439138,0.959894451425821,-0.204987127493817,-0.00320008917467263,-0.0391998666026181
18,-0.00359679405103386,-0.0402292028052642,0.958436244246123,-0.210412755568874,0.958436244170494,-0.210412755623886,-0.00358398496983126,-0.0402489369444883
18.5,-0.00399318040120278,-0.0412733569729373,0.956954725609958,-0.215826634292314,0.956954725530972,-0.215826634347361,-0.00397969391805109,-0.0412935155247474
19,-0.00440134922067825,-0.0423129473872188,0.955449513155256,-0.22122905461662,0.955449513073046,-0.221229054671427,-0.00438717562252289,-0.0423335466792927
19.5,-0.00482125813221407,-0.0433479142759241,0.953920235841957,-0.226620248650374,0.953920235756669,-0.226620248704689,-0.00480638657321464,-0.0433689711015637
20,-0.00525286195228125,-0.0443781944475239,0.952366536554461,-0.232000395529462,0.952366536466253,-0.232000395583056,-0.00523728052061712,-0.0443997259833941
20.5,-0.00569611301985162,-0.0454037214351319,0.950788073975593,-0.237369626881628,0.95078807388463,-0.23736962693429,-0.00567980880591135,-0.0454257451715843
21,-0.00615096148597805,-0.0464244256522646,0.949184523918551,-0.242728031838007,0.949184523825006,-0.242728031889552,-0.00613392065073787,-0.0464469593351011
21.5,-0.00661735556720616,-0.0474402345561922,0.947555580214664,-0.248075661608152,0.947555580118713,-0.248075661658411,-0.00659956340987244,-0.0474632961386958
22,-0.00709524176588267,-0.0484510728153582,0.94590095524006,-0.253412533640367,0.945900955141884,-0.253412533689191,-0.00707668279006723,-0.0484746804194973
22.5,-0.00758456506037669,-0.049456862478046,0.944220380151465,-0.258738635392552,0.944220380051246,-0.258738635439808,-0.00756522303825519,-0.0494810343637981
23,-0.00808526906812101,-0.0504575231400426,0.942513604890088,-0.264053927740532,0.942513604788008,-0.264053927786104,-0.00806512710217971,-0.0504822776818812
23.5,-0.00859729618424232,-0.0514529721095109,0.940780398002851,-0.269358348051411,0.940780397899091,-0.2693583480952,-0.00857633676634201,-0.0514783277791313
24,-0.00912058769838275,-0.0524431245677515,0.939020546321882,-0.274651812949323,0.939020546216623,-0.274651812991241,-0.00909879276597025,-0.0524690999222273
24.5,-0.00965508389212016,-0.0534278937247885,0.937233854536109,-0.279934220800053,0.93723385442953,-0.27993422084003,-0.00963243488149912,-0.0534545073994059
25,-0.0102007241192217,-0.054407190969114,0.935420144682751,-0.285205453939878,0.935420144575027,-0.285205453977852,-0.0101772020158719,-0.0544344616742152
25.5,-0.0107574468707712,-0.0553809260110898,0.933579255581421,-0.290465380672438,0.933579255472725,-0.290465380708361,-0.0107330322567371,-0.0554088725323147
26,-0.0113251898270119,-0.0563490070197155,0.931711042229311,-0.295713857055888,0.931711042119812,-0.295713857089723,-0.0112998629254444,-0.05637764822111
26.5,-0.0119038898975872,-0.0573113407526464,0.929815375172328,-0.300950728500901,0.92981537506219,-0.30095072853262,-0.0118776306145356,-0.0573406955821589
27,-0.0124934832516865,-0.0582678326794488,0.92789213986408,-0.306175831198449,0.927892139753463,-0.306175831228033,-0.0124662712152656,-0.058297920176404
27.5,-0.0130939053394431,-0.0592183870982048,0.925941236022153,-0.311388993394647,0.925941235911214,-0.311388993422086,-0.0130657199365141,-0.0592492264023734
28,-0.0137050909057828,-0.0601629072456085,0.92396257698906,-0.316590036528395,0.92396257687795,-0.316590036553688,-0.0136759113162993,-0.0601945176075649
28.5,-0.0143269739978018,-0.061101295400805,0.92195608910357,-0.321778776246117,0.921956088992436,-0.32177877626927,-0.0142967792269693,-0.0611336961932805
29,-0.0149594879666158,-0.0620334529832169,0.919921711086738,-0.326955023306461,0.91992171097572,-0.326955023327485,-0.014928256875022,-0.0620666637132203
29.5,-0.0156025654645181,-0.0629592806446715,0.917859393445829,-0.332118584386643,0.917859393335065,-0.332118584405555,-0.0155702767963846,-0.0629933209661582
30,-0.0162561384381802,-0.0638786783561174,0.915769097898444,-0.337269262800846,0.915769097788066,-0.337269262817669,-0.0162227708478852,-0.0639135680830281
30.5,-0.0169201381185486,-0.0647915454892691,0.913650796818357,-0.342406859140126,0.913650796708491,-0.342406859154891,-0.0168856701955667,-0.0648273046087893
31,-0.017594495008002,-0.0656977808934971,0.911504472704032,-0.34753117184222,0.9115044725948,-0.347531171854959,-0.0175589053003937,-0.0657344295794002
31.5,-0.0182791388652599,-0.0665972829682677,0.909330117670318,-0.352641997698786,0.909330117561835,-0.352641997709537,-0.0182424059018456,-0.0666348415942326
32,-0.018973998688482,-0.0674899497314763,0.907127732963385,-0.357739132306874,0.907127732855764,-0.357739132315679,-0.0189361009998236,-0.0675284388842852
32.5,-0.0196790026969269,-0.0683756788839467,0.904897328498772,-0.362822370470603,0.904897328392119,-0.362822370477507,-0.0196399188352304,-0.068415119376483
33,-0.0203940783115038,-0.0692543678704065,0.902638922422096,-0.367891506558447,0.902638922316513,-0.367891506563499,-0.0203537868695517,-0.0692947807543869
33.5,-0.0211191521344949,-0.0701259139372186,0.900352540691876,-0.372946334820955,0.900352540587462,-0.372946334824204,-0.0210776317637079,-0.0701673205156017
34,-0.0218541499286897,-0.0709902141871241,0.898038216683776,-0.377986649673143,0.89803821658062,-0.377986649674645,-0.0218113793564146,-0.0710326360261544
34.5,-0.0225989965961572,-0.0718471656312567,0.895695990815446,-0.383012245945429,0.895695990713638,-0.383012245945239,-0.0225549546422554,-0.0718906245720996
35,-0.0233536161568128,-0.0726966652386636,0.893325910191182,-0.388022919106472,0.893325910090804,-0.388022919104649,-0.0233082817496429,-0.0727411834086049
35.5,-0.0241179317269607,-0.0735386099835367,0.890928028265461,-0.393018465460967,0.890928028166592,-0.393018465457569,-0.024071283918808,-0.0735842098067261
36,-0.0248918654979254,-0.0743728968904054,0.888502404524499,-0.397998682325104,0.888502404427214,-0.397998682320195,-0.0248438834799661,-0.0744196010981093
36.5,-0.0256753387149014,-0.0751994230774242,0.886049104184915,-0.402963368182089,0.886049104089283,-0.402963368175731,-0.0256260018317392,-0.0752472547177896
37,-0.0264682716561084,-0.0760180857979815,0.883568197908617,-0.407912322819858,0.883568197814704,-0.407912322812117,-0.0264175594199481,-0.0760670682452895
37.5,-0.0272705836123405,-0.0768287824807774,0.881059761533033,-0.412845347452932,0.8810597614409,-0.412845347443872,-0.0272184757168471,-0.0768789394441787
38,-0.0280821928669726,-0.0776314107685223,0.87852387581585,-0.417762244830063,0.878523875725554,-0.417762244819749,-0.0280286692008557,-0.0776827663002448
38.5,-0.0289030166764965,-0.0784258685554011,0.875960626193423,-0.422662819329232,0.875960626105017,-0.422662819317732,-0.0288480573368599,-0.0784784470584352
39,-0.0297329712516207,-0.0792120540234345,0.873370102552082,-0.427546877041318,0.873370102465618,-0.427546877028699,-0.0296765565571145,-0.0792658802586819
39.5,-0.0305719717389931,-0.0799898656778621,0.870752399011577,-0.432414225843659,0.870752398927098,-0.432414225829988,-0.0305140822427921,-0.0800449647707511
40,-0.0314199322035652,-0.080759202381643,0.86810761371993,-0.43726467546456,0.86810761363748,-0.437264675449906,-0.0313605487062105,-0.0808155998282105
40.5,-0.0322767656116428,-0.0815199633891888,0.865435848659034,-0.44209803753972,0.865435848578649,-0.44209803752415,-0.0322158691737609,-0.0815776850616303
41,-0.0331423838146382,-0.0822720483794144,0.862737209460323,-0.446914125661414,0.86273720938204,-0.446914125644996,-0.0330799557695637,-0.0823311205310995
41.5,-0.0340166975335509,-0.0830153574882009,0.860011805229927,-0.451712755421202,0.860011805153775,-0.451712755404005,-0.0339527194998677,-0.0830758067581561
42,-0.0348996163441876,-0.0837497913403202,0.857259748382707,-0.456493744446823,0.857259748308715,-0.456493744428914,-0.034834070238206,-0.0838116447571868
42.5,-0.0357910486631451,-0.0844752510809299,0.854481154484652,-0.4612569124339,0.854481154412845,-0.461256912415345,-0.0357239167113255,-0.0845385360663931
43,-0.0366909017345588,-0.0851916384066669,0.851676142103101,-0.466002081172971,0.851676142033498,-0.466002081153839,-0.0366221664858933,-0.085256382778359
43.5,-0.0375990816176342,-0.0858988555964169,0.848844832664322,-0.470729074572349,0.848844832596943,-0.470729074552705,-0.0375287259559925,-0.0859650875703046
44,-0.0385154931749666,-0.0865968055418049,0.845987350318,-0.475437718677211,0.845987350252858,-0.475437718657121,-0.0384435003314154,-0.0866645537340509
44.5,-0.0394400400616508,-0.0872853917774454,0.843103821808195,-0.480127841685322,0.843103821745302,-0.480127841664851,-0.0393663936267503,-0.0873546852057598
45,-0.0403726247152048,-0.0879645185110123,0.840194376350383,-0.484799273959727,0.84019437628975,-0.48479927393894,-0.0402973086512833,-0.0880353865954903
45.5,-0.041313148346285,-0.0886340906531415,0.837259145514218,-0.489451848038706,0.837259145455848,-0.489451848017665,-0.0412361469996965,-0.0887065632165899
46,-0.0422615109302254,-0.0892940138472187,0.83429826311164,-0.494085398643277,0.834298263055537,-0.494085398622045,-0.0421828090435853,-0.0893681211149763
46.5,-0.0432176111993837,-0.089944194499069,0.831311865090036,-0.498699762682484,0.831311865036201,-0.498699762661122,-0.0431371939237915,-0.0900199670983255
47,-0.0441813466363096,-0.0905845398065736,0.828300089430131,-0.503294779256677,0.828300089378561,-0.503294779235246,-0.0440991995435404,-0.090662008765186
47.5,-0.0451526134677321,-0.0912149577892449,0.825263076048329,-0.507870289658998,0.825263075999018,-0.507870289637557,-0.0450687225624102,-0.0912941545340573
48,-0.0461313066593738,-0.0918353573177659,0.822200966703242,-0.512426137375227,0.822200966656182,-0.512426137353833,-0.0460456583911142,-0.0919163136724329
48.5,-0.0471173199115913,-0.0924456481435185,0.819113904906156,-0.516962168082145,0.819113904861338,-0.516962168060855,-0.0470299011871055,-0.0925283963258405
49,-0.0481105456558445,-0.0930457409281031,0.816002035835215,-0.521478229644566,0.816002035792626,-0.521478229623436,-0.0480213438510068,-0.0931303135468734
49.5,-0.0491108750519971,-0.0936355472728749,0.81286550625309,-0.525974172111143,0.812865506212714,-0.525974172090227,-0.0490198780238618,-0.0937219773242386
50,-0.0501181979864561,-0.0942149797484906,0.80970446442794,-0.53044984770907,0.80970446438976,-0.530449847688419,-0.0500253940852239,-0.0943033006118245
50.5,-0.051132403071142,-0.094783951924475,0.806519060057488,-0.534905110837769,0.806519060021485,-0.534905110817435,-0.0510377811520576,-0.0948741973577907
51,-0.0521533776433045,-0.0953423783988185,0.803309444196018,-0.539339818061664,0.80330944416217,-0.539339818041697,-0.0520569270784861,-0.0954345825336864
51.5,-0.0531810077661729,-0.0958901748275934,0.800075769184149,-0.543753828102109,0.800075769152431,-0.543753828082556,-0.0530827184563626,-0.0959843721636002
52,-0.0542151782304588,-0.0964272579546021,0.796818188581215,-0.548147001828539,0.796818188551601,-0.548147001809446,-0.054115040616677,-0.0965234833533385
52.5,-0.0552557725566964,-0.0969535456410444,0.793536857100128,-0.55251920224892,0.793536857072592,-0.552519202230331,-0.055153777631802,-0.0970518343196308
53,-0.0563026729984381,-0.0974689568952116,0.79023193054458,-0.55687029449954,0.79023193051909,-0.556870294481498,-0.0561988123185735,-0.0975693444193637
53.5,-0.0573557605462957,-0.0979734119021897,0.786903565748459,-0.561200145834207,0.786903565724983,-0.561200145816753,-0.0572500262422121,-0.0980759341788285
54,-0.0584149149328376,-0.0984668320535759,0.783551920517373,-0.565508625612879,0.783551920495878,-0.565508625596052,-0.0583072997210871,-0.0985715253229884
54.5,-0.059480014638338,-0.0989491399771952,0.780177153572171,-0.56979560528979,0.780177153552621,-0.569795605273627,-0.0593705118323231,-0.0990560408047498
55,-0.0605509368973854,-0.0994202595668108,0.776779424494354,-0.574060958401091,0.776779424476712,-0.574060958385628,-0.0604395404182491,-0.0995294048342306
55.5,-0.0616275577063449,-0.0998801160118143,0.773358893673293,-0.578304560552044,0.77335889365752,-0.578304560537314,-0.0615142620936996,-0.0999915429080154
56,-0.0627097518316867,-0.100328635826891,0.76991572225516,-0.582526289403808,0.769915722241214,-0.582526289389841,-0.0625945522541564,-0.100442381838391
56.5,-0.0637973928191686,-0.100765746881644,0.76645007209349,-0.58672602465982,0.766450072081331,-0.586726024646647,-0.0636802850847452,-0.100881849782545
57,-0.0648903530038865,-0.10119137843016,0.762962105701305,-0.59090364805183,0.762962105690889,-0.590903648039478,-0.0647713335700797,-0.101309876271716
57.5,-0.0659885035211841,-0.101605461140514,0.759451986204722,-0.595059043325576,0.759451986196003,-0.59505904331407,-0.0658675695049584,-0.101726392240283
58,-0.0670917143184296,-0.102007927124188,0.755919877297976,-0.599192096226143,0.755919877290907,-0.599192096215505,-0.0669688635059084,-0.102131330054785
58.5,-0.0681998541676552,-0.102398709965391,0.75236594319981,-0.603302694483008,0.752365943194345,-0.603302694473259,-0.0680750850235851,-0.102524623542832
59,-0.0693127906790576,-0.102777744750266,0.74879034861116,-0.607390727794805,0.748790348607249,-0.607390727785965,-0.0691861023560276,-0.102906208021936
59.5,-0.0704303903153715,-0.103144968095969,0.745193258674082,-0.611456087813809,0.745193258671675,-0.611456087805893,-0.0703017826627534,-0.103276020328189
60,-0.0715525184070971,-0.103500318179589,0.741574838931882,-0.615498668130149,0.741574838930928,-0.615498668123171,-0.0714219919797183,-0.103633998844828
60.5,-0.0726790391685909,-0.10384373476691,0.737935255290394,-0.619518364255788,0.73793525529084,-0.619518364249761,-0.0725465952351144,-0.103980083530614
61,-0.0738098157150271,-0.104175159240987,0.734274673980352,-0.623515073608251,0.734274673982144,-0.623515073603183,-0.0736754562660278,-0.104314215948059
61.5,-0.0749447100802052,-0.104494534630508,0.730593261520832,-0.627488695494127,0.730593261523918,-0.627488695490028,-0.0748084378359335,-0.104636339291435
62,-0.0760835832352207,-0.104801805637941,0.726891184683728,-0.63143913109236,0.726891184688049,-0.631439131089231,-0.0759454016530406,-0.104946398414586
62.5,-0.0772262951079895,-0.105096918667428,0.723168610459189,-0.63536628343731,0.723168610464692,-0.635366283435156,-0.0770862083894766,-0.105244339858487
