"Freq [GHz]","re(St(P1,P1)) []","im(St(P1,P1)) []","re(St(P1,P2)) []","im(St(P1,P2)) []","re(St(P2,P1)) []","im(St(P2,P1)) []","re(St(P2,P2)) []","im(St(P2,P2)) []"
0,0.00457033248346761,0,0.995442697458202,0,0.995442692394136,0,0.00457032817996605,0
0.5,0.00495917263852519,0.00120172936888352,0.994958316217563,-0.00704768640305176,0.994958318088457,-0.00704768655993604,0.00495919223269325,0.00120156729192544
1,0.0052774351491589,0.00193218296781694,0.994392510920198,-0.0135944933724055,0.994392510858013,-0.0135944936223176,0.00527748233361081,0.00193181664307573
1.5,0.0051293373673662,0.00260355757497877,0.993848470125243,-0.0202104495589879,0.993848469969039,-0.0202104498507332,0.00512920625868851,0.00260267227190525
2,0.00506578249803091,0.00328118433299807,0.993188961732693,-0.0266661832139317,0.993188961503059,-0.0266661834931039,0.00506548472934298,0.00327986020324822
2.5,0.00504277216102933,0.00397918806427455,0.992467973083947,-0.0329703758038651,0.99246797281804,-0.0329703760373921,0.00504226606934255,0.0039774657852103
3,0.00504165294622139,0.00469648926861233,0.991720569653717,-0.0391467092225568,0.991720569389072,-0.0391467093984446,0.00504088646880696,0.00469439067374289
3.5,0.00505428525311125,0.00543108158567307,0.99096414571582,-0.0452220634299163,0.990964145481373,-0.0452220635503124,0.00505320334782144,0.00542862115415943
4,0.005076855408922,0.00618188285598364,0.990203588965992,-0.051220054088585,0.990203588779658,-0.0512200541624868,0.00507540093800007,0.00617907246366478
4.5,0.00510747703696324,0.00694868680753213,0.989436473120456,-0.0571588590204444,0.989436472990283,-0.0571588590586467,0.00510559042465597,0.00694553781463902
5,0.00514520259937112,0.00773192557952562,0.988656836461563,-0.0630513628115601,0.988656836388093,-0.0630513628239955,0.00514282125386722,0.0077284498822312
5.5,0.00518958371786304,0.00853248925835093,0.987857494546531,-0.0689061725229871,0.987857494525113,-0.0689061725177025,0.0051866413985624,0.00852869992151639
6,0.00524046173296955,0.0093516123676185,0.987031286365752,-0.0747287526488751,0.987031286388403,-0.0747287526319278,0.00523688788253429,0.00934752408852013
6.5,0.00529786239128749,0.0101908076463513,0.986171661728562,-0.0805223867822029,0.986171661785324,-0.0805223867579761,0.00529358141961317,0.0101864371604963
7,0.00536194102081944,0.0110518305883147,0.985272901945528,-0.0862889013582819,0.985272902025401,-0.0862889013299046,0.00535687152218134,0.0110471970732151
7.5,0.00543295384629222,0.0119366640999905,0.984330153365013,-0.0920291763232743,0.984330153456594,-0.0920291762930434,0.00542700772978505,0.0119317896096645
8,0.00551124376385054,0.0128475169050013,0.983339374659017,-0.0977434912852964,0.983339374750925,-0.0977434912550121,0.00550432527600256,0.012842426858648
8.5,0.00559723472349372,0.0137868320180168,0.982297250892727,-0.103431753610446,0.982297250973884,-0.103431753581672,0.00558923933974492,0.0137815557632281
9,0.00569143170975819,0.0147573032741053,0.981201100501482,-0.109093645314583,0.981201100561297,-0.10909364528882,0.00568224486810109,0.0147518747452802
9.5,0.00579442477885639,0.015761898951455,0.980048786977382,-0.114728715622195,0.980048787005876,-0.114728715600999,0.00578392042432624,0.0157563574463966
10,0.00590689641856265,0.016803892228896,0.978838639805369,-0.120336437921812,0.978838639793238,-0.120336437906847,0.00589493532117284,0.0167982833308145
10.5,0.00613321362851034,0.0176222415364209,0.977706933218157,-0.125972833579783,0.977706933206914,-0.12597283356526,0.00612084917059127,0.0176163131980465
11,0.00637023197867842,0.0184374177289719,0.976552706801137,-0.13157956091659,0.976552706790704,-0.131579560902547,0.00635743983800337,0.0184311654196949
11.5,0.00661790350803101,0.0192492753495208,0.975377053203233,-0.137158397189294,0.975377053193534,-0.137158397175758,0.00660465874635252,0.0192426945992072
12,0.00687617812508762,0.0200576697241974,0.974180826079078,-0.142711062203594,0.974180826070041,-0.142711062190583,0.00686245517037812,0.0200507561605505
12.5,0.00714500362183969,0.020862456996888,0.972964667750723,-0.1482391996188,0.972964667742278,-0.148239199606324,0.00713077625195502,0.0208552063842462
13,0.00742432568834572,0.0216634941636875,0.971729036001021,-0.153744363487699,0.971729035993106,-0.153744363475765,0.00740956701616333,0.021655902443253
13.5,0.00771408792801132,0.0224606391072122,0.970474229430987,-0.159228009250335,0.970474229423541,-0.159228009238941,0.00769877038808084,0.0224527024386756
14,0.0080142318735591,0.0232537506307642,0.969200411007739,-0.164691488433592,0.969200411000707,-0.164691488422734,0.00799832721031904,0.0232454654352909
14.5,0.00832469700369778,0.0240426884923188,0.967907629587152,-0.170136046366069,0.967907629580483,-0.170136046355738,0.00830817626129995,0.0240340514968898
15,0.00864542076050523,0.0248273134383705,0.966595839318348,-0.175562822289391,0.966595839311995,-0.175562822279575,0.0086282542742831,0.0248183217214359
15.5,0.00897633856753136,0.0256074872375862,0.965264916929901,-0.180972851324936,0.965264916923824,-0.180972851315621,0.00895849595715825,0.0255981382760182
16,0.00931738384863395,0.0263830727142902,0.963914676964451,-0.186367067832852,0.963914676958611,-0.186367067824022,0.00929883401300194,0.0263733644316164
16.5,0.00966848804755885,0.0271539337817521,0.962544885074031,-0.191746309774756,0.962544885068393,-0.191746309766393,0.00964919916141355,0.0271438645976469
17,0.0100295806482793,0.0279199354752926,0.961155269517099,-0.197111323759711,0.961155269511633,-0.197111323751796,0.0100095201606434,0.0279095043563085
17.5,0.0104005891961058,0.0286809439851856,0.959745531013808,-0.202462770514215,0.959745531008486,-0.202462770506731,0.0103797238305192,0.0286701504967128
18,0.0107814393195846,0.0294368266893503,0.958315351121801,-0.207801230570138,0.958315351116599,-0.207801230563065,0.0107597350761813,0.0294256710488001
18.5,0.0111720547531957,0.0301874521858407,0.95686439929349,-0.213127210010075,0.956864399288387,-0.213127210003395,0.011149476912651,0.030175935317039
19,0.0115723573608757,0.0309326903251079,0.955392338769488,-0.218441146147937,0.955392338764466,-0.218441146141631,0.0115488704902305,0.0309208139138961
19.5,0.0119822671603778,0.0316724122420562,0.953898831453449,-0.223743413054244,0.953898831448491,-0.223743413048293,0.0119578351207629,0.0316601787931128
20,0.0124017023484914,0.0324064903878507,0.952383541902212,-0.229034326861523,0.952383541897304,-0.229034326855909,0.0123762883047595,0.0323939032827292
20.5,0.0128305793271437,0.0331347985615196,0.950846140552939,-0.234314150805915,0.950846140548069,-0.234314150800619,0.0128041457594184,0.0331218621179254
21,0.0132688127304069,0.0338572119413068,0.949286306296491,-0.239583099977621,0.949286306291649,-0.239583099972625,0.0132413214475507,0.0338439314736316
21.5,0.0137163154524381,0.0345736071157923,0.947703728494145,-0.244841345765652,0.947703728489322,-0.244841345760941,0.013687727607435,0.0345599889969404
22,0.0141729986763773,0.0352838621147848,0.946098108523223,-0.250089019992114,0.946098108518411,-0.250089019987672,0.0141432747836263,0.0352699138393184
22.5,0.0146387719042383,0.0359878564399683,0.944469160926476,-0.255326218738711,0.94446916092167,-0.255326218734523,0.0146078718587398,0.0359735866886333
23,0.015113542987822,0.0366854710953226,0.942816614230288,-0.260553005873467,0.942816614225482,-0.260553005869517,0.0150814260862414,0.036670889801002
23.5,0.0155972181606919,0.0373765886173061,0.941140211487841,-0.265769416289506,0.941140211483032,-0.26576941628578,0.0155638431242679,0.0373617070324823
24,0.0160897020712524,0.0380610931048202,0.939439710595569,-0.270975458870251,0.939439710590752,-0.270975458866738,0.0160550270705173,0.0380459238706168
24.5,0.0165908978169697,0.0387388702489493,0.93771488442412,-0.27617111919698,0.937714884419295,-0.276171119193666,0.0165548804982372,0.0387234274658674
25,0.0171007069797907,0.0394098073624976,0.935965520799002,-0.281356362015503,0.935965520794167,-0.281356362012376,0.0170633044933535,0.0393941066629464
25.5,0.0176190296628017,0.0400737934093325,0.934191422360612,-0.286531133478964,0.934191422355766,-0.286531133476013,0.0175801986927788,0.0400578520320969
26,0.0181457645282045,0.0407307190335442,0.932392406328776,-0.291695363183646,0.932392406323919,-0.29169536318086,0.0181054613239475,0.040714555900343
26.5,0.0186808088366521,0.0413804765884556,0.930568304192848,-0.296848966014139,0.93056830418798,-0.296848966011508,0.0186389892456277,0.0413641123827606
27,0.0192240584880318,0.0420229601654973,0.928718961344971,-0.301991843813612,0.928718961340093,-0.301991843811126,0.0191806779900615,0.0420064174138193
27.5,0.0197754080637659,0.0426580656229849,0.926844236671152,-0.307123886894088,0.926844236666264,-0.30712388689174,0.0197304218064956,0.0426413687788518
28,0.0203347508707225,0.0432856906148291,0.924944002112251,-0.312244975400746,0.924944002107356,-0.312244975398526,0.0202881137061668,0.0432688661457199
28.5,0.0209019789868257,0.0439057346192357,0.923018142204861,-0.31735498054331,0.92301814219996,-0.317354980541209,0.0208536455088103,0.0438888110967541
29,0.02147698330848,0.0445180989674336,0.921066553610218,-0.322453765706683,0.921066553605312,-0.322453765704697,0.0214269078907714,0.044501107161061
29.5,0.0220596535999201,0.0451226868725056,0.919089144637755,-0.327541187452025,0.919089144632848,-0.327541187450145,0.0220077904348029,0.0451056598472988
30,0.0226498785446235,0.0457194034583941,0.917085834768612,-0.332617096418557,0.917085834763706,-0.332617096416777,0.0225961816816384,0.0457023766770452
30.5,0.0232475457989242,0.0463081557891609,0.91505655418334,-0.337681338135557,0.915056554178436,-0.337681338133871,0.0231919691834445,0.0462911672188933
31,0.0238525420480019,0.046888852898624,0.913001243297121,-0.342733753753135,0.913001243292224,-0.342733753751538,0.0237950395592572,0.0468719431234386
31.5,0.0244647530644118,0.0474614058204692,0.91091985230508,-0.347774180699674,0.91091985230019,-0.34777418069816,0.0244052785525233,0.0474446181593382
32,0.0250840637693701,0.048025727618999,0.908812340739628,-0.35280245327304,0.90881234073475,-0.352802453271604,0.0250225710908707,0.0480091082506573
32.5,0.0257103582970134,0.0485817334206813,0.906678677041278,-0.357818403172065,0.906678677036413,-0.357818403170703,0.0256468013482524,0.048565331515745
33,0.0263435200618776,0.0491293404466839,0.904518838143919,-0.362821859974171,0.904518838139073,-0.362821859972878,0.0262778528096032,0.0491132083079195
33.5,0.02698343182989,0.0496684680466497,0.902332809075232,-0.367812651564419,0.902332809070406,-0.367812651563193,0.0269156083381822,0.0496526612582899
34,0.0276299757931671,0.0501990377339576,0.900120582572583,-0.372790604520829,0.90012058256778,-0.372790604519665,0.0275599502457626,0.0501836153210848
34.5,0.0282830336489825,0.0507209732228078,0.897882158714586,-0.377755544460252,0.897882158709811,-0.377755544459147,0.028210760365859,0.0507059978219211
35,0.0289424866832848,0.0512342004674968,0.895617544568268,-0.382707296348748,0.895617544563523,-0.382707296347699,0.0288679201301815,0.0512197385095035
35.5,0.0296082158592028,0.0517386477043247,0.893326753851667,-0.38764568477997,0.893326753846954,-0.387645684778974,0.0295313106485286,0.0517247696113387
36,0.0302801019110254,0.0522342454966613,0.89100980661158,-0.392570534224724,0.891009806606903,-0.392570534223779,0.0302008127923267,0.052221025894124
36.5,0.0309580254441947,0.0527209267837663,0.888666728916074,-0.397481669254602,0.888666728911436,-0.397481669253706,0.0308763072820372,0.0527084447295669
37,0.0316418670419191,0.0531986269341065,0.88629755256133,-0.402378914742207,0.886297552556735,-0.402378914741357,0.0315576747786584,0.0531869661665511
37.5,0.0323315073790899,0.0536672838040103,0.883902314792329,-0.407262096040337,0.883902314787779,-0.407262096039532,0.0322447959795366,0.0536565330106439
38,0.0330268273442378,0.0541268378026758,0.881481058036853,-0.412131039142189,0.881481058032352,-0.412131039141427,0.0329375517187053,0.0541170909121776
38.5,0.0337277081703913,0.0545772319647342,0.879033829652286,-0.416985570824456,0.879033829647837,-0.416985570823735,0.0336358230719421,0.0545685884642649
39,0.0344340315757476,0.0550184120317916,0.87656068168464,-0.421825518775009,0.876560681680246,-0.421825518774328,0.0343394914667056,0.0550109773123754
39.5,0.0351456799152064,0.0554503265446461,0.874061670639285,-0.426650711706693,0.874061670634948,-0.426650711706051,0.0350484387970644,0.0554442122773473
40,0.0358625363438971,0.0558729269482058,0.8715368572628,-0.431460979458577,0.871536857258523,-0.431460979457972,0.0357625475436635,0.0558682514940164
40.5,0.0365844849939608,0.0562861677115222,0.868986306335443,-0.436256153085903,0.868986306331231,-0.436256153085336,0.0364817008986591,0.0562830565680079
41,0.0373114111659629,0.0566900064658344,0.866410086473696,-0.441036064939839,0.86641008646955,-0.441036064939308,0.0372057828954185,0.0566885927536536
41.5,0.0380432015364235,0.0570844041641071,0.863808269942362,-0.445800548738006,0.863808269938286,-0.445800548737511,0.0379346785425845,0.0570848291564963
42,0.0387797443830684,0.0574693252662124,0.861180932475748,-0.450549439626707,0.861180932471744,-0.450549439626247,0.038668273961825,0.0574717389643986
42.5,0.0395209298295094,0.057844737954819,0.858528153107432,-0.455282574235631,0.858528153103502,-0.455282574235206,0.0394064565282432,0.057849299711967
43,0.040266650111109,0.058210614388032,0.855850014008173,-0.459999790725764,0.855850014004321,-0.459999790725374,0.0401491150119377,0.0582174935837614
43.5,0.0410167998638286,0.0585669309961484,0.853146600331519,-0.464700928831168,0.853146600327747,-0.464700928830813,0.0408961397185617,0.0585763077626575
44,0.0417712764377856,0.0589136688314239,0.850418000066698,-0.469385829895196,0.850418000063009,-0.469385829894876,0.0416474226259022,0.0589257348307931
44.5,0.0425299802370838,0.0592508139816733,0.847664303898402,-0.474054336901685,0.847664303894798,-0.474054336901399,0.0424028575123875,0.0592657732316928
45,0.0432928150871341,0.0595783580608604,0.844885605073073,-0.478706294501584,0.844885605069557,-0.478706294501334,0.0431623400719928,0.0595964278035466
45.5,0.0440596886300751,0.0598962987927288,0.842081999271351,-0.483341549035466,0.842081999267925,-0.483341549035252,0.04392576800812,0.0599177103951363
46,0.0448305127479364,0.0602046407070364,0.839253584486332,-0.487959948552289,0.839253584482998,-0.487959948552111,0.0446930410965593,0.0602296405775995
46.5,0.0456052040116869,0.060503395972346,0.836400460907327,-0.492561342824761,0.836400460904088,-0.492561342824619,0.0454640612044532,0.060532246467081
47,0.0463836841520191,0.060792585394616,0.833522730808811,-0.497145583361622,0.833522730805669,-0.497145583361517,0.0462387322480037,0.0608255656752553
47.5,0.0471658805443686,0.0610722396174058,0.830620498444284,-0.501712523417124,0.830620498441242,-0.501712523417058,0.0470169600662976,0.0611096464066604
48,0.0479517266957489,0.0613424005674672,0.827693869944774,-0.506262017997956,0.827693869941832,-0.506262017997928,0.0477986521816888,0.0613845487236091
48.5,0.0487411627138515,0.0616031231992075,0.824742953221725,-0.510793923867852,0.824742953218888,-0.510793923867864,0.0485837174082544,0.0616503460008349
49,0.049534135728648,0.0618544776031419,0.821767857874046,-0.515308099550086,0.821767857871314,-0.515308099550138,0.0493720652584529,0.0619071265926484
49.5,0.0503306002221121,0.0620965515573957,0.818768695099071,-0.519804405328033,0.818768695096446,-0.519804405328126,0.0501636050836269,0.0621549957345682
50,0.0511305182009119,0.0623294536175238,0.815745577607256,-0.524282703243974,0.81574557760474,-0.524282703244109,0.0509582448657372,0.0623940776982153
50.5,0.0519338591174711,0.0625533168584215,0.812698619540377,-0.528742857096287,0.812698619537972,-0.528742857096467,0.0517558895549262,0.0626245182113823
51,0.0527405994033349,0.0627683034022152,0.809627936393076,-0.533184732435178,0.809627936390785,-0.533184732435401,0.0525564388194917,0.0628464871425729
51.5,0.0535507214204545,0.0629746098863232,0.806533644937564,-0.537608196557041,0.806533644935387,-0.537608196557311,0.0533597840410539,0.0630601814281406
52,0.0543642115546563,0.0631724740432053,0.803415863151313,-0.542013118497611,0.803415863149252,-0.542013118497928,0.0541658043480127,0.0632658281864117
52.5,0.0551810570627155,0.0633621825720263,0.800274710147603,-0.546399369023958,0.80027471014566,-0.546399369024323,0.0549743614357769,0.0634636879114311
53,0.0560012411296087,0.0635440804721321,0.797110306108761,-0.550766820625446,0.797110306106937,-0.550766820625861,0.0557852928752445,0.0636540575619871
53.5,0.0568247353828733,0.0637185819613049,0.793922772221969,-0.555115347503734,0.793922772220266,-0.5551153475042,0.0565984035673812,0.0638372732500803
54,0.0576514888330773,0.063886182988764,0.790712230617505,-0.55944482556189,0.790712230615923,-0.55944482556241,0.0574134549720254,0.0640137120761085
54.5,0.0584814118520576,0.0640474751264067,0.787478804309308,-0.563755132392683,0.787478804307849,-0.563755132393255,0.0582301517415402,0.0641837924438317
55,0.0593143533634937,0.0642031602075623,0.784222617137751,-0.568046147266118,0.784222617136417,-0.568046147266747,0.0590481254540308,0.0643479719066914
55.5,0.0601500689298544,0.064354064369432,0.780943793714517,-0.572317751116285,0.780943793713309,-0.572317751116971,0.0598669153111955,0.0645067412452389
56,0.0609881769602125,0.0645011489867512,0.777642459369479,-0.576569826527536,0.777642459368398,-0.576569826528281,0.0606859460058341,0.0646606130669791
56.5,0.0618281000313407,0.0646455141597682,0.774318740099498,-0.58080225772008,0.774318740098544,-0.580802257720886,0.0615045035554675,0.0648101028010106
57,0.0626689887046046,0.0647883877309029,0.770972762519046,-0.585014930535,0.770972762518221,-0.585014930535868,0.062321710833864,0.0649556996321509
57.5,0.0635096269439127,0.0649310891434297,0.767604653812585,-0.589207732418762,0.76760465381189,-0.589207732419694,0.063136505888128,0.0650978248682492
58,0.0643483224343071,0.0650749530733109,0.764214541688606,-0.59338055240722,0.76421454168804,-0.593380552408218,0.0639476279124819,0.0652367757540728
58.5,0.0651827933202982,0.0652211937675243,0.760802554335279,-0.597533281109181,0.760802554334844,-0.597533281110247,0.0647536178044696,0.0653726542360921
59,0.0660100766631815,0.0653706901400627,0.757368820377638,-0.601665810689529,0.757368820377335,-0.601665810690664,0.0655528421070158,0.0655052830839206
59.5,0.0668265034130058,0.0655236790636528,0.753913468836234,-0.605778034851958,0.753913468836064,-0.605778034853164,0.066343549976966,0.0656341163740052
60,0.0676278058669293,0.0656793673891997,0.750436629087207,-0.609869848821323,0.75043662908717,-0.609869848822602,0.0671239713251231,0.0657581574281438
60.5,0.0684094343285152,0.0658355186008033,0.746938430823718,-0.613941149325641,0.746938430823814,-0.613941149326994,0.0678924589947105,0.065875903705525
61,0.0691671380528678,0.0659881347952047,0.743419004018686,-0.617991834577755,0.743419004018915,-0.617991834579184,0.0686476679055869,0.065985342420367
61.5,0.0698977876228971,0.0661314136571939,0.739878478888788,-0.622021804256689,0.739878478889151,-0.622021804258197,0.0693887503272976,0.0660840193244248
62,0.0706002802981725,0.0662581603265668,0.736316985859676,-0.626030959488705,0.736316985860173,-0.626030959490294,0.0701155324439027,0.0661691929936694
62.5,0.0712762301132233,0.0663607192577554,0.732734655532365,-0.630019202828075,0.732734655532998,-0.630019202829746,0.0708286293366445,0.0662380675948437
63,0.0719301089569482,0.0664322639197445,0.729131618650755,-0.633986438237595,0.729131618651521,-0.63398643823935,0.0715294599367245,0.0662880728315784
63.5,0.072568662379806,0.0664680545138908,0.725508006070244,-0.637932571068842,0.725508006071144,-0.637932571070684,0.0722201430695586,0.0663171396696661
64,0.0731997321736251,0.0664662174668978,0.721863948727412,-0.641857508042201,0.721863948728446,-0.64185750804413,0.0729032858552343,0.0663239145388267
