"Freq [GHz]","re(St(P1,P1)) []","im(St(P1,P1)) []","re(St(P1,P2)) []","im(St(P1,P2)) []","re(St(P2,P1)) []","im(St(P2,P1)) []","re(St(P2,P2)) []","im(St(P2,P2)) []"
0,0.00574685628515681,0,0.99427062815812,0,0.994270627212245,0,0.00574685846390821,0
0.5,0.00651365768560552,-0.00225005345096463,0.99343237151432,-0.00816733292573879,0.993432371451473,-0.00816733288836957,0.00651375799171561,-0.00225054185688833
1,0.00711000177649979,-0.0054288927798396,0.992650727162395,-0.015410668082918,0.992650727233272,-0.0154106681392179,0.00711023290142165,-0.00543001444182778
1.5,0.00743566874341894,-0.00878310795622284,0.992025013232773,-0.0224680538495186,0.992025013265362,-0.0224680539139257,0.00743599717230836,-0.00878492588974922
2,0.00755045920539921,-0.0121739046221307,0.991495810932795,-0.0294752232833435,0.991495810939835,-0.0294752233361493,0.00755082612456803,-0.0121764573920533
2.5,0.00754238981691557,-0.0155508191673004,0.990976892636255,-0.0364833915360432,0.990976892630659,-0.0364833915732721,0.00754274985786729,-0.0155541146441998
3,0.00745424909072412,-0.01891109496699,0.990426002197452,-0.0434942493356303,0.990426002187371,-0.0434942493590018,0.00745456990059346,-0.018915132862972
3.5,0.00730533229291286,-0.0222594983874611,0.989824617930125,-0.0505013287167984,0.989824617920054,-0.0505013287294958,0.00730558901598588,-0.0222642773343313
4,0.00710443536960081,-0.0256003748300433,0.989165003998489,-0.0574985510505908,0.9891650039906,-0.0574985510558061,0.00710460711151573,-0.0256058941846309
4.5,0.00685563585319837,-0.0289365659733178,0.988444291526223,-0.064481509004354,0.98844429152126,-0.0644815090047874,0.00685570375975342,-0.028942826114319
5,0.00656085019078967,-0.0322696397105595,0.987661803246497,-0.0714472787946381,0.987661803244382,-0.071447278792407,0.00656079641666762,-0.0322766419393403
5.5,0.00622100499388711,-0.0356002741133281,0.986817802413787,-0.0783940185911209,0.986817802413994,-0.078394018587753,0.00622081213852077,-0.0356080204783851
6,0.00583658804289389,-0.0389285726671673,0.98591289415959,-0.0853206134151137,0.985912894161412,-0.0853206134116409,0.0058362388349753,-0.0389370658009174
6.5,0.00540790844702421,-0.0422542887361619,0.984947742350469,-0.0922264053049382,0.984947742353166,-0.0922264053019877,0.00540738556431108,-0.0422635317240836
7,0.00493521587579826,-0.0455769763100875,0.983922945262607,-0.0991109999713959,0.983922945265517,-0.0991109999692874,0.00493450183975686,-0.0455869725919182
7.5,0.00441875076003284,-0.0488960873852404,0.982838992325175,-0.105974133551748,0.98283899232776,-0.105974133550601,0.0044178278719631,-0.0489068406826441
8,0.00385876123843221,-0.0522110325181311,0.981696261337373,-0.112815584318106,0.98169626133925,-0.1128155843179,0.00385761153832798,-0.0522225467824002
8.5,0.00325550495361582,-0.0555212167205328,0.980495034346616,-0.119635117026605,0.980495034347555,-0.119635117027252,0.00325411019109101,-0.0555334960948288
9,0.002609244807249,-0.0588260592749164,0.979235520442589,-0.12643245034875,0.979235520442506,-0.126432450350146,0.00260758641853753,-0.0588391080665458
9.5,0.0019202431096369,-0.0621250033599221,0.977917879325766,-0.133207240169153,0.977917879324701,-0.133207240171219,0.00191830219734324,-0.0621388260192584
10,0.00118875612574965,-0.0654175194402518,0.976542242674892,-0.13995907343087,0.976542242672995,-0.139959073433575,0.0011865134396214,-0.0654321205437807
10.5,0.000323402021911501,-0.0685986897930047,0.975090749075363,-0.14671072414313,0.975090749073028,-0.146710724144753,0.000323234390805505,-0.0686144872530647
11,-0.000582955191219647,-0.0717667078302702,0.973582197969845,-0.153433977620764,0.973582197967194,-0.153433977621283,-0.000580906537581249,-0.0717837733838209
11.5,-0.00153014996315914,-0.0749209381618936,0.97201758761894,-0.160128661405474,0.972017587616092,-0.160128661404882,-0.00152573622605046,-0.0749393478352403
12,-0.0025180110402403,-0.0780607429722959,0.970397847584044,-0.166794635174554,0.970397847581113,-0.166794635172864,-0.00251107497682895,-0.0780805772110149
12.5,-0.00354636186206059,-0.081185481597867,0.968723841714362,-0.173431781558751,0.968723841711458,-0.173431781555977,-0.00353673680396965,-0.0812068254015941
13,-0.00461502101363703,-0.0842945100449191,0.966996371909604,-0.180039998096753,0.966996371906827,-0.180039998092932,-0.00460252976394504,-0.0843174531054611
13.5,-0.0057238027424979,-0.0873871804407758,0.965216182437599,-0.186619190312042,0.965216182435044,-0.186619190307214,-0.00570825633349015,-0.0874118172813851
14,-0.00687251755160329,-0.0904628404094465,0.963383964613242,-0.193169265868304,0.963383964610995,-0.193169265862512,-0.00685371384273459,-0.0904892705222844
14.5,-0.00806097288126961,-0.0935208323623771,0.96150036167317,-0.199690129738441,0.961500361671308,-0.199690129731744,-0.00803869497336041,-0.0935491603400909
15,-0.00928897389582445,-0.0965604926933521,0.959565973708286,-0.206181680307717,0.959565973706875,-0.206181680300173,-0.00926298833344613,-0.0965908283492984
15.5,-0.0105563243939548,-0.0995811508652746,0.957581362542319,-0.212643806322957,0.957581362541422,-0.212643806314631,-0.0105263791231324,-0.0996136093350959
16,-0.0118628278656689,-0.102582128374946,0.955547056468565,-0.219076384596058,0.95554705646823,-0.219076384587019,-0.0118286499082454,-0.102616830189828
16.5,-0.013208288723619,-0.105562737580117,0.953463554778244,-0.225479278369919,0.953463554778514,-0.225479278360234,-0.0131695815227004,-0.105599808698912
17,-0.0145925137425257,-0.1085222803712,0.951331332032484,-0.231852336257783,0.951331332033394,-0.23185233624752,-0.0145489541251504,-0.108561852154595
17.5,-0.0160153137478192,-0.11146004666777,0.949150842045708,-0.238195391671728,0.949150842047284,-0.238195391660959,-0.0159665484410301,-0.111502255772327
18,-0.0174765056038884,-0.11437531271784,0.946922521561244,-0.244508262662294,0.946922521563506,-0.244508262651089,-0.0174221472283506,-0.114420300880803
18.5,-0.0189759145637117,-0.117267339175358,0.944646793610731,-0.250790752098055,0.944646793613692,-0.25079075208648,-0.0189155370145685,-0.117315252851986
19,-0.0205133770560653,-0.120135368929168,0.942324070557257,-0.257042648121366,0.942324070560924,-0.257042648109489,-0.0204465101631831,-0.120186358732317
19.5,-0.0220887440045313,-0.122978624654482,0.939954756828742,-0.263263724823767,0.939954756833115,-0.263263724811653,-0.0220148673430873,-0.123032844530249
20,-0.0237018847952318,-0.125796306056269,0.937539251352915,-0.269453743091644,0.937539251357991,-0.269453743079354,-0.0236204204919082,-0.125853912108488
20.5,-0.025352692039009,-0.128587586773411,0.935077949708724,-0.275612451579469,0.935077949714493,-0.275612451567063,-0.0252629963878885,-0.128648735621688
21,-0.0270410873102256,-0.131351610913479,0.932571246011315,-0.281739587774188,0.932571246017765,-0.281739587761722,-0.0269424409747441,-0.131416457432088
21.5,-0.0287670280908573,-0.134087489191923,0.93001953454915,-0.287834879119931,0.930019534556263,-0.287834879107459,-0.0286586246224578,-0.134156183426641
22,-0.0305305162078804,-0.136794294657932,0.92742321119244,-0.293898044177372,0.927423211200198,-0.293898044164943,-0.0304114485568698,-0.13686697765033
22.5,-0.0323316081280146,-0.139471058004858,0.924782674592167,-0.299928793796554,0.924782674600546,-0.299928793784217,-0.032200852755875,-0.139547856162108
23,-0.034170427571423,-0.142116762489779,0.922098327188644,-0.305926832285928,0.922098327197618,-0.305926832273726,-0.0340268256948902,-0.142197780013834
23.5,-0.036047181031559,-0.144730338530672,0.919370576047828,-0.311891858563825,0.91937057605737,-0.311891858551796,-0.0358894164358184,-0.14481564725107
24,-0.0379621769497911,-0.147310658119701,0.916599833542777,-0.317823567281486,0.916599833552858,-0.31782356726967,-0.0377887497008369,-0.147400283841651
24.5,-0.0399158495012669,-0.149856529301204,0.913786517896557,-0.323721649909337,0.913786517907146,-0.323721649897767,-0.0397250447672896,-0.14995043346013
25,-0.0419087882151099,-0.152366691134108,0.910931053601809,-0.329585795780254,0.910931053612873,-0.32958579576896,-0.0416986392792728,-0.152464746104311
25.5,-0.0439417749925317,-0.154839809822645,0.908033871731008,-0.33541569308537,0.908033871742516,-0.33541569307438,-0.0437100194174203,-0.154941765611417
26,-0.0460158305174298,-0.157274477105231,0.905095410150317,-0.341211029819448,0.905095410162235,-0.341211029808787,-0.0457598583310105,-0.157379916304306
26.5,-0.0481322725912516,-0.159669212613494,0.902116113648757,-0.346971494674017,0.902116113661051,-0.346971494663705,-0.0478490653554882,-0.159777489278127
27,-0.0502927895766434,-0.162022472865044,0.89909643399337,-0.35269677787745,0.899096434006005,-0.35269677786751,-0.0499788493656227,-0.162132629309014
27.5,-0.0524995328931425,-0.164332671006792,0.896036829919974,-0.358386571981991,0.896036829932917,-0.358386571972437,-0.052150800714675,-0.164443324149016
28,-0.0547552333189094,-0.166598213639747,0.892937767068181,-0.364040572598252,0.892937767081398,-0.364040572589098,-0.0543669976588074,-0.166707399261199
28.5,-0.057063346567118,-0.168817564418006,0.889799717868397,-0.369658479078298,0.889799717881853,-0.369658479069555,-0.0566301450397075,-0.168922523163757
29,-0.0594282338849338,-0.170989349186585,0.886623161387742,-0.375239995148718,0.886623161401404,-0.375239995140396,-0.0589437553420541,-0.17108623200953
29.5,-0.0618553825561383,-0.173112524992141,0.883408583141021,-0.380784829495369,0.883408583154856,-0.380784829487476,-0.0613123849942094,-0.173195987663756
30,-0.0643516677619429,-0.175186646388941,0.880156474872224,-0.38629269630169,0.880156474886199,-0.386292696294229,-0.0637419415980911,-0.175249292697113
30.5,-0.06692564857113,-0.177212278190308,0.876867334311372,-0.391763315742572,0.876867334325456,-0.391763315735548,-0.0662400796583892,-0.17724390048006
31,-0.0695878719484476,-0.179191624870755,0.87354166491098,-0.397196414435878,0.873541664925142,-0.397196414429292,-0.0688167008862921,-0.17917818210398
31.5,-0.0723511209842648,-0.181129471945063,0.870179975565903,-0.402591725853687,0.870179975580112,-0.402591725847538,-0.0714845647873189,-0.181051748540748
32,-0.0752304732022719,-0.183034556955766,0.866782780319839,-0.407948990695426,0.866782780334066,-0.407948990689713,-0.0742599843847483,-0.18286648129154
32.5,-0.0782429124975613,-0.184921486776552,0.863350598061416,-0.413267957224897,0.863350598075632,-0.413267957219615,-0.0771635073243742,-0.184628200295596
33,-0.081406045570747,-0.186813245150059,0.859883952212365,-0.418548381573292,0.859883952226543,-0.418548381568438,-0.0802203210213436,-0.186349284033258
33.5,-0.0847352187266788,-0.188744092041962,0.856383370410015,-0.423790028010134,0.856383370424129,-0.423790028005702,-0.0834598010609734,-0.18805260410352
34,-0.0882381169002497,-0.190762088127525,0.852849384186014,-0.428992669184052,0.852849384200038,-0.428992669180034,-0.0869130578213236,-0.189776995944672
34.5,-0.0919060839302608,-0.192929435712107,0.849282528642965,-0.434156086335229,0.849282528656875,-0.434156086331616,-0.090606516023257,-0.19158380631493
35,-0.0957026143543946,-0.195317462914085,0.845683342130417,-0.439280069481231,0.845683342144189,-0.439280069478014,-0.0945488606375143,-0.193562206414597
35.5,-0.0995525260330893,-0.197992471584127,0.842052365921462,-0.444364417577921,0.842052365935075,-0.444364417575091,-0.0987095294127004,-0.195827363772193
36,-0.103339800246546,-0.20099129726385,0.838390143891047,-0.44940893865698,0.838390143904478,-0.449408938654525,-0.102992338340488,-0.198501380022152
36.5,-0.106924006190494,-0.204293484911088,0.834697222196887,-0.454413449941557,0.834697222210117,-0.454413449939466,-0.107220084343955,-0.201668337309215
37,-0.110177745291187,-0.207806933485155,0.830974148963817,-0.459377777941441,0.830974148976827,-0.459377777939701,-0.111157641771041,-0.205312578934707
37.5,-0.113030235558655,-0.211383507660984,0.827221473972235,-0.464301758529081,0.827221473985007,-0.46430175852768,-0.11458816789684,-0.209281012319122
38,-0.115490659470604,-0.214862391208055,0.823439748351229,-0.469185236997695,0.823439748363745,-0.469185236996618,-0.117407399961088,-0.213316848788404
38.5,-0.117636604467429,-0.218116718925918,0.819629524276871,-0.474028068102651,0.819629524289116,-0.474028068101883,-0.119664741130313,-0.217157658526051
39,-0.119578652563136,-0.22107810331394,0.815791354676088,-0.478830116087215,0.815791354688048,-0.478830116086744,-0.121520624599568,-0.220627145870194
39.5,-0.121424751223026,-0.223733633645914,0.811925792936453,-0.483591254693711,0.811925792948113,-0.483591254693521,-0.123164444433252,-0.223663189248285
40,-0.123259458522523,-0.226107372555754,0.808033392622175,-0.488311367161044,0.808033392633523,-0.488311367161121,-0.124752954009771,-0.226289614933211
40.5,-0.125138801281976,-0.228240460735316,0.804114707196524,-0.492990346209528,0.804114707207547,-0.492990346209855,-0.126389047121587,-0.228571857824268
41,-0.127094306217375,-0.230177038425219,0.800170289750869,-0.497628094013849,0.800170289761559,-0.497628094014412,-0.128127668220837,-0.230583681955593
41.5,-0.1291399744756,-0.231956805035191,0.796200692740489,-0.502224522164985,0.796200692750834,-0.502224522165767,-0.12999069300101,-0.23239034228063
42,-0.13127875055804,-0.233612301137412,0.792206467727239,-0.506779551621824,0.79220646773723,-0.50677955162281,-0.131980624269612,-0.234043283330622
42.5,-0.133507330835787,-0.235168777535967,0.788188165129186,-0.511293112653204,0.788188165138816,-0.511293112654379,-0.134090137001754,-0.23558056896049
43,-0.135819322288237,-0.23664517048567,0.784146333977252,-0.515765144771026,0.784146333986515,-0.515765144772372,-0.136307818544649,-0.237029335634714
43.5,-0.138207145753253,-0.238055369854994,0.780081521678898,-0.520195596655068,0.780081521687787,-0.52019559665657,-0.138621277788452,-0.238408493691698
44,-0.14066309851779,-0.239409411310677,0.775994273788865,-0.524584426070102,0.775994273797375,-0.524584426071744,-0.141018664019966,-0.239731023922473
44.5,-0.143179896398357,-0.24071446477216,0.771885133786967,-0.528931599775849,0.771885133795094,-0.528931599777617,-0.143489302472324,-0.241005734364384
45,-0.145750911660936,-0.241975603610309,0.767754642862926,-0.53323709343031,0.767754642870666,-0.533237093432187,-0.146023872170863,-0.242238535418355
45.5,-0.148370242476913,-0.243196382461993,0.763603339708192,-0.537500891486942,0.763603339715544,-0.537500891488912,-0.148614364736924,-0.2434333400474
46,-0.151032694916105,-0.244379262551105,0.759431760314751,-0.541722987086168,0.759431760321712,-0.541722987088217,-0.151253951215013,-0.244592690155752
46.5,-0.153733723970597,-0.245525921159122,0.755240437780812,-0.545903381941639,0.755240437787381,-0.545903381943751,-0.153936821260863,-0.245718189424604
47,-0.156469359284294,-0.246637475401105,0.751029902123367,-0.550042086221661,0.751029902129544,-0.550042086223822,-0.15665802517867,-0.246810801643275
47.5,-0.159236129097501,-0.247714643564102,0.746800680097514,-0.554139118426189,0.746800680103298,-0.554139118428384,-0.159413331659158,-0.247871056317676
48,-0.162030988997404,-0.248757861324888,0.742553295022494,-0.558194505259738,0.742553295027888,-0.558194505261952,-0.162199105240315,-0.248899190542349
48.5,-0.164851258242584,-0.249767365488349,0.738288266614359,-0.562208281500573,0.738288266619365,-0.562208281502793,-0.16501220334489,-0.249895247050537
49,-0.167694564394697,-0.250743254373613,0.734006110825177,-0.566180489866501,0.734006110829797,-0.566180489868713,-0.167849890984814,-0.250859142072559
49.5,-0.170558795968489,-0.251685531400868,0.72970733968869,-0.570111180877575,0.729707339692926,-0.570111180879765,-0.170709770656637,-0.251790712330071
50,-0.173442062350463,-0.252594136573418,0.725392461172342,-0.574000412716008,0.7253924611762,-0.574000412718164,-0.173589724950645,-0.252689747562329
50.5,-0.176342660077696,-0.253468969218173,0.721061979035577,-0.57784825108358,0.721061979039059,-0.577848251085689,-0.176487869635035,-0.253556012985139
51,-0.179259044564521,-0.25430990439759,0.716716392694294,-0.581654769056799,0.716716392697407,-0.581654769058849,-0.179402515293373,-0.254389264722605
51.5,-0.182189806434427,-0.25511680472842,0.712356197091393,-0.585420046940062,0.712356197094142,-0.585420046942042,-0.182332135912544,-0.255189260321127
52,-0.185133651713175,-0.255889528858942,0.707981882573279,-0.589144172117077,0.70798188257567,-0.589144172118975,-0.185275343106822,-0.255955765815834
52.5,-0.188089385243523,-0.256627937510366,0.703593934772238,-0.592827238900744,0.703593934774277,-0.592827238902549,-0.18823086491091,-0.256688560378465
53,-0.191055896780813,-0.257331897739947,0.699192834494573,-0.596469348381734,0.699192834496267,-0.596469348383435,-0.191197528280392,-0.257387439269763
53.5,-0.194032149316938,-0.258001285904706,0.694779057614403,-0.600070608275963,0.69477905761576,-0.600070608277549,-0.194174244605907,-0.258052215606156
54,-0.197017169256611,-0.258635989675626,0.690353074973008,-0.603631132771145,0.690353074974035,-0.603631132772609,-0.197159997683059,-0.258682721301192
54.5,-0.200010038134513,-0.259235909358671,0.68591535228362,-0.60715104237264,0.685915352284326,-0.607151042373971,-0.200153833688925,-0.259278807437051
55,-0.203009885615998,-0.259800958710879,0.681466350041551,-0.610630463748729,0.681466350041945,-0.610630463749919,-0.203154852803242,-0.25984034424728
55.5,-0.206015883568873,-0.26033106539005,0.677006523439548,-0.614069529575525,0.67700652343964,-0.614069529576566,-0.206162202181959,-0.260367220839137
56,-0.209027241030793,-0.260826171140151,0.67253632228827,-0.617468378381655,0.672536322288067,-0.617468378382538,-0.209175070046486,-0.260859344746535
56.5,-0.212043199927212,-0.261286231787724,0.668056190941766,-0.620827154392865,0.66805619094128,-0.620827154393584,-0.212192680696524,-0.26131664137777
57,-0.215063031419846,-0.26171121710484,0.663566568227873,-0.62414600737671,0.663566568227113,-0.624146007377258,-0.215214290289984,-0.261739053403104
57.5,-0.21808603278608,-0.262101110579546,0.659067887383386,-0.627425092487439,0.659067887382363,-0.627425092487811,-0.218239183262176,-0.262126540113596
58,-0.221111524746625,-0.262455909123906,0.654560575993929,-0.630664570111224,0.654560575992654,-0.630664570111413,-0.221266669279492,-0.262479076772728
58.5,-0.224138849172538,-0.262775622741714,0.650045055938395,-0.633864605711851,0.650045055936879,-0.633864605711852,-0.224296080641426,-0.262796653975386
59,-0.227167367114114,-0.26306027417198,0.645521743337849,-0.637025369676984,0.645521743336103,-0.637025369676794,-0.227326770059843,-0.263079277023715
59.5,-0.230196457103558,-0.263309898519843,0.6409910485088,-0.640147037165121,0.640991048506836,-0.640147037164734,-0.230358108756653,-0.263326965325807
60,-0.23322551369106,-0.263524542883268,0.636453375920722,-0.643229787953334,0.636453375918551,-0.643229787952746,-0.233389484831012,-0.263539751820662
60.5,-0.236253946180377,-0.263704265981422,0.631909124157711,-0.646273806285909,0.631909124155345,-0.646273806285119,-0.236420301855335,-0.263717682431088
61,-0.239281177535266,-0.263849137788804,0.627358685884198,-0.649279280723968,0.627358685881651,-0.649279280722973,-0.239449977666078,-0.263860815544976
61.5,-0.242306643432611,-0.263959239177847,0.622802447814581,-0.652246403996158,0.622802447811863,-0.652246403994956,-0.242477943320746,-0.263969221524568
62,-0.245329791441727,-0.264034661571741,0.618240790686692,-0.655175372850505,0.618240790683816,-0.655175372849094,-0.245503642197118,-0.26404298224277
62.5,-0.248350080312436,-0.264075506608464,0.613674089238981,-0.658066387907491,0.61367408923596,-0.658066387905872,-0.248526529214445,-0.264082190645248
63,-0.251366979357068,-0.264081885816522,0.609102712191332,-0.660919653514454,0.609102712188178,-0.660919653512624,-0.251546070159478,-0.264086950336799
63.5,-0.254379967913723,-0.264053920302472,0.60452702222938,-0.663735377601351,0.604527022226107,-0.663735377599312,-0.254561741102779,-0.264057375190442
