"Freq [GHz]","re(St(P1,P1)) []","im(St(P1,P1)) []","re(St(P1,P2)) []","im(St(P1,P2)) []","re(St(P2,P1)) []","im(St(P2,P1)) []","re(St(P2,P2)) []","im(St(P2,P2)) []"
0,0.00431943082162434,0,0.995694296711008,0,0.995694297511363,0,0.00431943435478388,0
0.5,0.00481472277363082,1.21185623598308E-005,0.995101775362215,-0.00710599664002132,0.995101775402389,-0.00710599669714895,0.00481479964784626,1.18935493169658E-005
1,0.00521450209464902,-0.000599552539398474,0.994446247763985,-0.0135616218672432,0.994446247753068,-0.0135616218671828,0.0052147323290761,-0.000600090775755291
1.5,0.00515173240614786,-0.001406164263976,0.993868312199261,-0.0201196735505249,0.99386831218974,-0.0201196735512887,0.00515203513865004,-0.0014071805259448
2,0.00508925645372926,-0.00210476210052235,0.993192550379589,-0.0264947376823841,0.993192550371287,-0.026494737684402,0.00508967591250098,-0.00210622706965324
2.5,0.00501674243843109,-0.00275398567252516,0.992478935486488,-0.0327089552967283,0.992478935479101,-0.0327089553001265,0.00501731280439799,-0.0027558960158327
3,0.00493219004403844,-0.00337233450148311,0.991759742672336,-0.0387971748665485,0.991759742665565,-0.0387971748712097,0.0049329407257872,-0.00337469718583172
3.5,0.00483549627370294,-0.00396680855730658,0.99104587541762,-0.0447923738841727,0.99104587541127,-0.0447923738898606,0.00483645273377142,-0.00396963587743393
4,0.00472720359133838,-0.00454017054392253,0.990335676239586,-0.0507200388106366,0.990335676233542,-0.0507200388170528,0.00472838739601578,-0.00454347789059817
4.5,0.00460814361583939,-0.00509338855464314,0.98962163889439,-0.0565977794235621,0.989621638888602,-0.056597779430426,0.00460957235112214,-0.00509719309999035
5,0.00447930248237527,-0.00562662081353871,0.988894391381312,-0.062436905780336,0.98889439137576,-0.0624369057874041,0.00448098969504218,-0.00563094057140745
5.5,0.00434175527486547,-0.00613966593990956,0.988144695581511,-0.0682442773579632,0.988144695576188,-0.0682442773650145,0.00434371048418747,-0.00614451901404767
6,0.00419662614466476,-0.00663218793999576,0.987364290534191,-0.0740238202896499,0.987364290529092,-0.0740238202965129,0.00419885493507755,-0.00663759189079371
6.5,0.00404505975268143,-0.00710383535419634,0.98654614490413,-0.079777611419237,0.986546144899244,-0.0797776114257696,0.00404756394410744,-0.007109806658252
7,0.00388819876901969,-0.00755430606400775,0.985684439935636,-0.0855065992745025,0.985684439930945,-0.0855065992805928,0.00389097665528415,-0.00756085965769415
7.5,0.00372716536439632,-0.00798338206796423,0.984774446966109,-0.0912110630548053,0.984774446961586,-0.0912110630603653,0.00373021200716506,-0.00799053097201785
8,0.00356304583712697,-0.00839094663277606,0.983812376581762,-0.0968908957747878,0.983812376577376,-0.0968908957797527,0.00356635340156403,-0.00839870165638157
8.5,0.00339687798664962,-0.00877699061520065,0.982795232352997,-0.102545774171432,0.982795232348709,-0.102545774175757,0.00340043610489094,-0.00878536013730002
9,0.00322964101483769,-0.009141611929949,0.981720681094123,-0.108175257698173,0.981720681089895,-0.108175257701824,0.00323343716405056,-0.00915060175424998
9.5,0.00306224778430084,-0.0094850106337212,0.980586942262787,-0.113778844126302,0.980586942258578,-0.113778844129265,0.00306626766736423,-0.0094946239123237
10,0.00289553926181882,-0.00980748124386466,0.979392695362057,-0.11935599922537,0.979392695357826,-0.119355999227635,0.00289976718023774,-0.00981771846315116
10.5,0.00280833090814472,-0.0102957529567194,0.978296625378264,-0.124942464546689,0.978296625373893,-0.124942464548528,0.00281183200545054,-0.0103065856691007
11,0.00271691128703547,-0.0107837286710222,0.977180396744052,-0.130501307337782,0.977180396739591,-0.130501307339205,0.00271964186722772,-0.0107951729846936
11.5,0.00262128870046587,-0.0112713971187715,0.976044856885818,-0.136034438100537,0.976044856881312,-0.136034438101555,0.00262320388048635,-0.0112834709532077
12,0.00252147241495263,-0.0117587474317813,0.974890616183267,-0.141543671586483,0.974890616178757,-0.141543671587113,0.00252252607702117,-0.0117714707067296
12.5,0.00241747276454599,-0.0122457691556419,0.973718080676807,-0.147030712268654,0.973718080672329,-0.147030712268915,0.00241761751349489,-0.0122591639998757
13,0.00230930126455926,-0.0127324522609236,0.972527482651343,-0.152497145278352,0.972527482646929,-0.152497145278264,0.00230848839165852,-0.0127465432426623
13.5,0.00219697073708118,-0.0132187871508309,0.971318908676335,-0.157944431791626,0.971318908672012,-0.157944431791214,0.00219515019216904,-0.0132336015318697
14,0.00208049544939765,-0.0137047646642903,0.970092324891445,-0.163373907947245,0.970092324887238,-0.163373907946532,0.0020776158235013,-0.0137203326800481
14.5,0.00195989126655799,-0.0141903760732909,0.968847599485298,-0.168786786490427,0.968847599481225,-0.168786786489437,0.00195589978762378,-0.0142067312411638
15,0.0018351758193868,-0.0146756130730057,0.967584522429166,-0.174184160453036,0.967584522425243,-0.174184160451795,0.00183001836427024,-0.0146927925315223
15.5,0.00170636868934834,-0.0151604677629975,0.966302822605437,-0.179567008293971,0.966302822601678,-0.179567008292504,0.00169998981580752,-0.0151785126444279
16,0.00157349161173073,-0.0156449326174086,0.965002182519943,-0.184936200027716,0.965002182516356,-0.184936200026045,0.00156583461489834,-0.0156638884565665
16.5,0.00143656869868836,-0.0161290004416599,0.963682250814331,-0.190292503962285,0.963682250810924,-0.190292503960432,0.00142757569732216,-0.0161489176237075
17,0.00129562668370056,-0.0166126643127362,0.962342652805307,-0.195636593748881,0.962342652802084,-0.195636593746869,0.00128523874250347,-0.0166335985627657
17.5,0.00115069518902439,-0.0170959174995575,0.960982999276515,-0.20096905551435,0.960982999273478,-0.200969055512201,0.00113885248444176,-0.0171179304166533
18,0.00100180701765509,-0.0175787533592846,0.95960289373977,-0.206290394904874,0.959602893736921,-0.206290394902608,0.000988449055895346,-0.0176019129975349
18.5,0.00084899847119474,-0.0180611652047293,0.958201938368244,-0.21160104391635,0.958201938365582,-0.211601043913985,0.000834064368718274,-0.0180855467032894
19,0.00069230969482148,-0.018543146137104,0.956779738787226,-0.216901367424582,0.956779738784749,-0.216901367422137,0.000675738533284453,-0.0185688324008009
19.5,0.000531785050231104,-0.0190246888374332,0.955335907889789,-0.222191669358371,0.955335907887493,-0.222191669355861,0.000513516319845142,-0.0190517712685119
20,0.000367473516904249,-0.0195057853087888,0.95387006882626,-0.227472198481887,0.953870068824142,-0.227472198479327,0.000347447664394207,-0.0195343645891848
20.5,0.000199429121393369,-0.0199864265602945,0.95238185729855,-0.232743153770473,0.952381857296605,-0.232743153767877,0.000177588221212055,-0.0200166134820492
21,2.77113933333517E-005,-0.0204666022223785,0.950870923273621,-0.238004689377338,0.950870923271842,-0.23800468937472,3.99996350730625E-006,-0.0204985185615434
21.5,-0.000147614154425213,-0.0209463000813228,0.949336932214939,-0.243256919198405,0.949336932213321,-0.243256919195776,-0.000173248167492923,-0.0209800795075763
22,-0.0003264755258503,-0.0214255055193644,0.94777956591685,-0.248499921049357,0.947779565915385,-0.248499921046728,-0.000354079566241783,-0.0214612945296091
22.5,-0.000508793728524637,-0.0219042008449755,0.946198523014332,-0.253733740473597,0.946198523013013,-0.253733740470978,-0.000538409222794634,-0.0219421597039862
23,-0.000694482256657303,-0.0223823644961132,0.944593519229634,-0.258958394202748,0.944593519228455,-0.258958394200148,-0.000726142945420338,-0.0224226681607584
23.5,-0.000883446583487879,-0.0228599700975418,0.942964287407719,-0.264173873292896,0.942964287406671,-0.264173873290321,-0.000917176556430699,-0.0229028090928693
24,-0.00107558368087624,-0.0233369853518886,0.941310577384076,-0.269380145960376,0.941310577383152,-0.269380145957835,-0.00111139507710634,-0.0233825665571323
24.5,-0.00127078158961769,-0.0238133707429522,0.939632155721333,-0.274577160140839,0.939632155720524,-0.274577160138337,-0.00130867192457595,-0.0238619180330335
25,-0.00146891907104296,-0.0242890780294647,0.93792880534492,-0.279764845794636,0.93792880534422,-0.279764845792179,-0.00150886815241563,-0.0243408327025065
25.5,-0.00166986537887909,-0.0247640485081984,0.936200325102821,-0.284943116980687,0.936200325102221,-0.28494311697828,-0.00171183177796835,-0.0248192694117628
26,-0.00187348020030031,-0.025238211027556,0.934446529269997,-0.290111873719698,0.93444652926949,-0.290111873717345,-0.00191739725329915,-0.0252971742757093
26.5,-0.00207961382658028,-0.025711479737351,0.932667247014306,-0.295271003666367,0.932667247013884,-0.29527100366407,-0.002125385153602,-0.025774477887414
27,-0.00228810762663695,-0.0261837515679388,0.930862321837599,-0.300420383608725,0.930862321837255,-0.300420383606489,-0.00233560217696699,-0.026251092100551
27.5,-0.00249879491070315,-0.02665490344345,0.929031611003014,-0.305559880811451,0.92903161100274,-0.305559880809277,-0.00254784157260418,-0.0267269063634328
28,-0.00271150228568789,-0.0271247892504172,0.927174984957277,-0.310689354218526,0.927174984957067,-0.310689354216416,-0.00276188414048167,-0.0272017836009908
28.5,-0.0029260516173697,-0.0275932366060334,0.925292326755,-0.315808655529348,0.925292326754846,-0.315808655527305,-0.00297749997270802,-0.0276755556682013
29,-0.0031422627257241,-0.0280600435006104,0.92338353149041,-0.320917630161095,0.923383531490306,-0.320917630159118,-0.00319445113390382,-0.0281480184375331
29.5,-0.00335995694591973,-0.0285249749276106,0.921448505740713,-0.326016118108982,0.921448505740652,-0.326016118107072,-0.00341249550087896,-0.0286189266367196
30,-0.00357896168558203,-0.0289877596622885,0.919487167024257,-0.331103954714925,0.919487167024231,-0.331103954713083,-0.00363139199630313,-0.0290879886236688
30.5,-0.00379911609459771,-0.0294480874061498,0.917499443275786,-0.336180971354122,0.91749944327579,-0.336180971352346,-0.00385090744972644,-0.0295548613740524
31,-0.0040202779319799,-0.0299056065771053,0.915485272340433,-0.341246996048109,0.915485272340462,-0.3412469960464,-0.00407082529333247,-0.0300191460631414
31.5,-0.0042423316597085,-0.0303599230905249,0.913444601487512,-0.346301854011988,0.913444601487559,-0.346301854010345,-0.00429095623819786,-0.0304803847426667
32,-0.00446519771075715,-0.0308106005374789,0.911377386944705,-0.351345368142765,0.911377386944765,-0.351345368141187,-0.00451115096781701,-0.0309380587370238
32.5,-0.00468884276370762,-0.0312571622134521,0.909283593452946,-0.35637735945498,0.909283593453013,-0.356377359453465,-0.00473131471788407,-0.0313915894948908
33,-0.00491329070874336,-0.0316990954701217,0.90716319384194,-0.361397647469232,0.90716319384201,-0.36139764746778,-0.00495142337781984,-0.0318403427093497
33.5,-0.00513863381326551,-0.0321358588381258,0.905016168626107,-0.366406050558559,0.905016168626173,-0.366406050557167,-0.00517154045101037,-0.0322836365302095
34,-0.00536504340163696,-0.0325668922825701,0.902842505620512,-0.371402386257149,0.902842505620571,-0.371402386255816,-0.00539183386191278,-0.0327207545999511
34.5,-0.00559277917293116,-0.0329916307896521,0.900642199576271,-0.376386471535388,0.900642199576318,-0.376386471534111,-0.00561259123237851,-0.0331509644124857
35,-0.0058221961236295,-0.0334095212328724,0.898415251834769,-0.381358123044794,0.898415251834799,-0.381358123043571,-0.0058342319224306,-0.0335735410944396
35.5,-0.00605374795726349,-0.0338200421337536,0.896161670000029,-0.386317157336054,0.896161670000038,-0.386317157334883,-0.00605731391883785,-0.0339877961364641
36,-0.0062879858920471,-0.0342227255349483,0.893881467628447,-0.391263391053011,0.893881467628433,-0.391263391051889,-0.00628253364673614,-0.0343931098881667
36.5,-0.00652555195717996,-0.0346171797846542,0.891574663935175,-0.396196641105147,0.891574663935132,-0.396196641104072,-0.00651071705792189,-0.0347889658522205
37,-0.00676716621947382,-0.0350031116522236,0.889241283516318,-0.40111672482085,0.889241283516244,-0.40111672481982,-0.00674280096493579,-0.0351749840965088
37.5,-0.00701360789681599,-0.0353803459313526,0.886881356086221,-0.406023460083504,0.886881356086111,-0.406023460082514,-0.00697980453281383,-0.0355509506063409
38,-0.00726569095047458,-0.0357488406144579,0.884494916229031,-0.410916665452196,0.884494916228883,-0.410916665451245,-0.00722279201915332,-0.0359168392812401
38.5,-0.0075242354237911,-0.0361086958962504,0.882082003163817,-0.415796160268709,0.882082003163628,-0.415796160267793,-0.00747282909371477,-0.0362728236571401
39,-0.00779003640304693,-0.0364601557036985,0.879642660522475,-0.420661764752208,0.879642660522243,-0.420661764751324,-0.00773093613998493,-0.0366192763288495
39.5,-0.00806383290318097,-0.0368036011199055,0.877176936139748,-0.425513300082945,0.877176936139469,-0.42551330008209,-0.007998042607744,-0.0369567553642567
40,-0.00834627913329,-0.037139535883997,0.874684881854645,-0.430350588476129,0.874684881854317,-0.4303505884753,-0.00827494657436545,-0.0372859785320392
40.5,-0.00863792042757128,-0.0374685649825621,0.872166553322624,-0.435173453246998,0.872166553322246,-0.435173453246192,-0.00856228312865498,-0.0376077876299259
41,-0.00893917565178276,-0.0377913680630002,0.869622009837915,-0.439981718868019,0.869622009837482,-0.439981718867232,-0.00886050410257211,-0.0379231063237322
41.5,-0.00925032719010049,-0.0381086698785378,0.867051314165363,-0.444775211019041,0.867051314164875,-0.444775211018272,-0.00916987025407395,-0.0382328954880504
42,-0.00957151880264889,-0.038421210149572,0.864454532381272,-0.449553756631143,0.864454532380728,-0.449553756630387,-0.00949045552389882,-0.0385381100047981
42.5,-0.00990276085468855,-0.0387297150893904,0.861831733722666,-0.454317183924829,0.861831733722062,-0.454317183924082,-0.00982216171498329,-0.038839660390922
43,-0.0102439417722383,-0.0390348724458085,0.859182990444492,-0.45906532244317,0.859182990443828,-0.459065322442429,-0.0101647410647737,-0.0391383816624995
43.5,-0.010594844153115,-0.0393373113461531,0.856508377684287,-0.463798003080412,0.856508377683562,-0.463798003079675,-0.0105178237776972,-0.039435010719343
44,-0.0109551637835894,-0.039637587608722,0.853807973333841,-0.468515058106528,0.853807973333054,-0.46851505810579,-0.0108809476299216,-0.0397301724605486
44.5,-0.0113245298586926,-0.0399361745972308,0.85108185791745,-0.473216321188133,0.851081857916599,-0.473216321187391,-0.0112535871463253,-0.0400243739701336
45,-0.0117025249255208,-0.0402334592168802,0.848330114476351,-0.477901627406132,0.848330114475435,-0.477901627405385,-0.0116351804400192,-0.0403180055215695
45.5,-0.012088703395377,-0.0405297423186218,0.845552828458972,-0.48257081327046,0.84555282845799,-0.482570813269703,-0.0120251524612512,-0.0406113468493197
46,-0.0124826078355296,-0.0408252425973854,0.842750087616638,-0.487223716732183,0.84275008761559,-0.487223716731413,-0.0124229340178004,-0.0409045770828688
46.5,-0.0128837826008784,-0.041120103022148,0.839921981904414,-0.491860177193263,0.8399219819033,-0.491860177192477,-0.0128279764360597,-0.0411977868665885
47,-0.0132917846638387,-0.0414143988891043,0.837068603386765,-0.496480035514199,0.837068603385583,-0.496480035513394,-0.0132397621023442,-0.0414909914246153
47.5,-0.013706191729546,-0.0417081467083367,0.834190046147743,-0.501083134019794,0.834190046146493,-0.501083134018965,-0.0136578113585664,-0.0417841436107161
48,-0.0141266078796816,-0.0420013132865461,0.831286406205455,-0.505669316503193,0.831286406204138,-0.505669316502338,-0.0140816863445128,-0.0420771462620418
48.5,-0.0145526670789835,-0.0422938245278863,0.828357781430519,-0.510238428228419,0.828357781429134,-0.510238428227536,-0.0145109924082176,-0.0423698634235202
49,-0.0149840349159008,-0.0425855736236748,0.8254042714683,-0.514790315931526,0.825404271466847,-0.514790315930611,-0.0149453776745449,-0.0426621302118142
49.5,-0.0154204089471551,-0.0428764284295845,0.822425977664696,-0.519324827820507,0.822425977663175,-0.519324827819558,-0.0153845312949386,-0.0429537612409121
50,-0.0158615179883842,-0.0431662379313464,0.819423002995259,-0.52384181357411,0.81942300299367,-0.523841813573123,-0.0158281808176004,-0.0432445576389905
50.5,-0.0163071206507225,-0.0434548377769455,0.816395451997469,-0.528341124339635,0.816395451995811,-0.528341124338607,-0.0162760890306087,-0.0435343127552261
51,-0.0167570033746969,-0.0437420549072119,0.813343430705964,-0.532822612729845,0.813343430704241,-0.532822612728774,-0.0167280505492415,-0.0438228166941177
51.5,-0.0172109781640839,-0.0440277113514309,0.810267046590583,-0.537286132819049,0.810267046588791,-0.537286132817932,-0.0171838883475628,-0.044109859831529
52,-0.0176688801771582,-0.0443116272740743,0.807166408497015,-0.541731540138468,0.807166408495157,-0.541731540137301,-0.0176434503749818,-0.0443952354680774
52.5,-0.0181305652930179,-0.0445936233670924,0.804041626589967,-0.546158691670918,0.804041626588044,-0.5461586916697,-0.0181066063510378,-0.0446787417671665
53,-0.0185959077373415,-0.0448735226826004,0.80089281229866,-0.550567445844918,0.800892812296671,-0.550567445843644,-0.0185732447950269,-0.0449601831111283
53.5,-0.0190647978247999,-0.0451511519960506,0.797720078264552,-0.554957662528228,0.797720078262499,-0.554957662526898,-0.0190432703198047,-0.0452393709925132
54,-0.0195371398541273,-0.0454263427822706,0.794523538291156,-0.559329203020922,0.794523538289039,-0.559329203019533,-0.0195166011994837,-0.0455161245406535
54.5,-0.0200128501756219,-0.0456989318774021,0.791303307295843,-0.563681930047994,0.791303307293661,-0.563681930046543,-0.0199931672072129,-0.0457902707673367
55,-0.0204918554389255,-0.04596876189012,0.78805950126352,-0.568015707751568,0.788059501261277,-0.568015707750052,-0.0204729077103913,-0.0460616446006266
55.5,-0.0209740910204114,-0.0462356814160222,0.784792237202096,-0.572330401682734,0.784792237199792,-0.572330401681151,-0.0209557700053236,-0.0463300887627699
56,-0.0214594996237249,-0.0464995451002898,0.781501633099618,-0.576625878793049,0.781501633097254,-0.576625878791398,-0.021441707870516,-0.046595453536883
56.5,-0.021948030043313,-0.0467602135858356,0.778187807883024,-0.580902007425733,0.7781878078806,-0.58090200742401,-0.0219306803167981,-0.0468575964576619
57,-0.0224396360786182,-0.0470175533772347,0.774850881378396,-0.585158657306569,0.774850881375914,-0.585158657304772,-0.0224226505126263,-0.047116381953492
57.5,-0.0229342755856026,-0.0472714366448092,0.771490974272673,-0.589395699534559,0.771490974270134,-0.589395699532687,-0.0229175848639144,-0.0473716809609634
58,-0.023431909652052,-0.0475217409882219,0.768108208076724,-0.593613006572336,0.768108208074128,-0.593613006570387,-0.0234154522291424,-0.0476233705276121
58.5,-0.0239325018834236,-0.0477683491747641,0.764702705089723,-0.597810452236352,0.764702705087072,-0.597810452234323,-0.0239162232521766,-0.0478713334145966
59,-0.0244360177866962,-0.0480111488640828,0.761274588364784,-0.601987911686864,0.761274588362079,-0.601987911684754,-0.0244198697969907,-0.0481154577077877
59.5,-0.0249424242405573,-0.0482500323283128,0.757823981675756,-0.606145261417736,0.757823981672999,-0.606145261415542,-0.0249263644702227,-0.048355636443187
60,-0.0254516890412612,-0.0484848961742949,0.754351009485173,-0.61028237924606,0.754351009482365,-0.610282379243782,-0.0254356802191678,-0.0485917672506565
60.5,-0.0259637805145129,-0.0487156410727978,0.750855796913265,-0.614399144301618,0.750855796910407,-0.614399144299252,-0.0259477899943536,-0.0488237520184267
61,-0.0264786671847687,-0.048942171498202,0.747338469708008,-0.618495437016181,0.747338469705101,-0.618495437013728,-0.026462666467264,-0.0490514965797392
61.5,-0.0269963174942722,-0.0491643954810178,0.743799154216161,-0.622571139112687,0.743799154213206,-0.622571139110143,-0.0269802817950441,-0.0492749104221327
62,-0.0275166995650999,-0.0493822243747156,0.740237977355251,-0.626626133594251,0.74023797735225,-0.626626133591617,-0.0275006074251394,-0.0494939064192699
