"Freq [GHz]","re(St(P1,P1)) []","im(St(P1,P1)) []","re(St(P1,P2)) []","im(St(P1,P2)) []","re(St(P2,P1)) []","im(St(P2,P1)) []","re(St(P2,P2)) []","im(St(P2,P2)) []"
0,0.00494322441880968,0,0.995068935939344,0,0.995068933829316,0,0.00494322203780939,0
0.5,0.00537447376169098,0.000911936753730913,0.994565628278806,-0.00682577473286017,0.994565628377892,-0.0068257749802747,0.00537452064283528,0.000911839109484447
1,0.00574418693654977,0.00130457747319213,0.994017362595876,-0.0131128224205384,0.99401736276983,-0.0131128222992203,0.00574430015750238,0.00130433685472298
1.5,0.00583929033452613,0.00150675923818611,0.99351117444062,-0.0194687748092441,0.993511174661291,-0.0194687746865263,0.00583967290225118,0.00150646883388106
2,0.00588417863137725,0.00178833423919755,0.992927577186409,-0.025668851908911,0.992927577428205,-0.0256688518120836,0.00588473014746604,0.00178791447260274
2.5,0.00591612115892293,0.00210749172955893,0.992316651532462,-0.0317390986952972,0.992316651766318,-0.0317390986322241,0.00591682114375658,0.0021069289077893
3,0.00594514840327243,0.00244809841557192,0.991701784302484,-0.037712943336528,0.991701784506647,-0.0377129433025463,0.00594600244940446,0.00244738831262126
3.5,0.00597487425003562,0.0028030645296333,0.991088157252204,-0.043618838385628,0.99108815741455,-0.0436188383714153,0.00597589840338131,0.00280220381633534
4,0.00600689625099315,0.00316901742118958,0.990471589938743,-0.0494769203411476,0.990471590054993,-0.0494769203375949,0.00600811176491289,0.00316800198340061
4.5,0.00604205054195428,0.00354432915937419,0.989844318229137,-0.0552999254985576,0.989844318300271,-0.0552999254987476,0.00604348189265957,0.00354315372991554
5,0.00608084956404209,0.00392828325298478,0.989197983450255,-0.061095215172398,0.989197983480407,-0.0610952151719255,0.00608252366787121,0.00392694132181948
5.5,0.00612365881968369,0.00432068461784141,0.988524908881543,-0.0668666193022496,0.988524908876608,-0.0668666192988967,0.00612560475807,0.00431916838976587
6,0.00617077693145507,0.00472166224716286,0.987818505767923,-0.0726157846973718,0.987818505734707,-0.0726157846905311,0.00617302591903568,0.00471996259093643
6.5,0.00622247564538247,0.0051315635390683,0.987073295184806,-0.0783430704128874,0.987073295130539,-0.0783430704030339,0.00622506113089427,0.00512966991418207
7,0.00627902177875023,0.00555089560550659,0.986284787865659,-0.0840481126424413,0.986284787797712,-0.0840481126306862,0.00628197962993926,0.00554879596333802
7.5,0.00634069051344299,0.00598029227917429,0.985449330241938,-0.0897301697474502,0.985449330167667,-0.0897301697352164,0.00634405926429799,0.00597797293727442
8,0.00640777438755769,0.00642049604526296,0.984563959499996,-0.0953883274530902,0.984563959426642,-0.0953883274418645,0.00641159553923659,0.00641794153330455
8.5,0.00648059015112523,0.00687234917555379,0.983626280990224,-0.10102161721665,0.983626280924845,-0.101021617207818,0.0064849085248464,0.0068695420505307
9,0.00655948464310838,0.00733679091422168,0.982634369193624,-0.10662908147525,0.982634369143053,-0.106629081469994,0.00656434878747086,0.00733371154146667
9.5,0.00664484035936599,0.00781485894553891,0.98158668916918,-0.112209806804765,0.981586689139983,-0.112209806803993,0.00665030301747474,0.00781148524089748
10,0.00673708113919991,0.00830769415303267,0.980482034445706,-0.117762938005402,0.980482034444155,-0.117762938009716,0.00674319978339949,0.00830400128023001
10.5,0.00688561371051553,0.00870056873509206,0.97944430171254,-0.123353399195988,0.97944430171106,-0.123353399202103,0.00689227778562309,0.00869660373653991
11,0.00704075605639005,0.00909024508285361,0.978380516495271,-0.128917933099321,0.978380516493674,-0.128917933107209,0.00704799002387059,0.00908599545550892
11.5,0.00720242149135169,0.0094765930895635,0.977291817436452,-0.134457707951682,0.977291817434562,-0.134457707961292,0.00721024951781836,0.00947204580485028
12,0.00737052022094861,0.00985948553919247,0.976179163102608,-0.13997389414922,0.976179163100266,-0.139973894160484,0.00737896616708787,0.00985462705229034
12.5,0.00754495945602773,0.010238798193579,0.975043346491409,-0.145467646298131,0.975043346488468,-0.145467646310966,0.0075540468658616,0.0102336144530497
13,0.007725643529677,0.0106144098743837,0.973885010169848,-0.150940088674189,0.973885010166177,-0.1509400886885,0.00773539562018469,0.010608886332089
13.5,0.00791247401660605,0.010986202539812,0.972704661532222,-0.156392303782459,0.972704661527707,-0.156392303798141,0.00792291366770684,0.0109803241611441
14,0.00810534985466974,0.0113540613559953,0.971502687777811,-0.161825323675913,0.971502687772354,-0.161825323692855,0.00811649959958563,0.0113478126303765
14.5,0.00830416746829243,0.0117178747630202,0.970279370307873,-0.167240123681387,0.970279370301392,-0.167240123699472,0.00831604948429132,0.0117112397146837
15,0.00850882089351629,0.0120775345355506,0.969034898328005,-0.172637618187635,0.969034898320433,-0.172637618206746,0.00852145699305495,0.0120704967345584
15.5,0.00871920190441225,0.0124329358379942,0.967769381514647,-0.178018658168118,0.967769381505929,-0.178018658188133,0.00873261352667992,0.0124254784115143
16,0.00893520014059995,0.0127839772742666,0.96648286166395,-0.18338403013656,0.966482861654047,-0.183384030157361,0.00894940834347624,0.0127760829180512
16.5,0.00915670323560608,0.0131305609321024,0.965175323288454,-0.188734456263113,0.965175323277339,-0.18873445628458,0.00917172868804045,0.0131222119221994
17,0.00938359694581922,0.0134725924219499,0.963846703163333,-0.194070595410596,0.96384670315099,-0.194070595432613,0.00939945992063415,0.0134637706265841
17.5,0.00961576527977762,0.0138099809104952,0.962496898850967,-0.199393044881738,0.96249689883739,-0.199393044904195,0.00963248564690822,0.0138006678021414
18,0.0098530906275496,0.0141426391488322,0.961125776251778,-0.204702342698796,0.961125776236971,-0.204702342721584,0.0098706878477258,0.0141328158164464
18.5,0.0100954538899713,0.014470483495364,0.959733176241966,-0.209998970264953,0.959733176225942,-0.209998970287967,0.0101139470088401,0.0144601306567536
19,0.0103427346074898,0.0147934339334692,0.9583189204665,-0.21528335528258,0.958318920449279,-0.215283355305724,0.0103621422501943,0.0147825319477986
19.5,0.0105948110884112,0.0151114140840609,0.956882816359379,-0.22055587482612,0.956882816340987,-0.2205558748493,0.0106151514546185,0.0150999429644614
20,0.0108515605362981,0.0154243512130563,0.95542466146388,-0.225816858487329,0.95542466144435,-0.225816858510458,0.0108728513956906,0.0154122906393335
20.5,0.011112859176337,0.015732176233938,0.953944247124062,-0.231066591527698,0.953944247103432,-0.231066591550694,0.0111351178645609,0.0157195055653574
21,0.011378582380448,0.016034823705446,0.952441361615719,-0.236305317987527,0.952441361594031,-0.236305318010313,0.0114018257955289,0.0160215219935802
21.5,0.0116486047909496,0.0163322318245585,0.950915792780978,-0.24153324371335,0.950915792758277,-0.241533243735857,0.0116728493901704,0.0163182778261697
22,0.0119228004425883,0.016624342414866,0.949367330226078,-0.246750539275591,0.949367330202413,-0.246750539297754,0.0119480622398351,0.016609714604825
22.5,0.0122010428827565,0.0169111009104868,0.947795767136888,-0.251957342756653,0.947795767112309,-0.251957342778411,0.0122273374463328,0.0168957774946961
23,0.0124832052897288,0.0171924563356491,0.946200901761727,-0.257153762396435,0.946200901736288,-0.257153762417736,0.0125105477406335,0.017176415263954
23.5,0.0127691605887566,0.0174683612800914,0.944582538606085,-0.262339879087655,0.944582538579841,-0.262339879108449,0.0127975655994297,0.0174515802591753
24,0.0130587815658706,0.0177387718704298,0.942940489379114,-0.267515748717626,0.94294048935212,-0.267515748737868,0.0130882633594028,0.017721228376661
24.5,0.0133519409792532,0.0180036477376548,0.941274573727299,-0.272681404356438,0.941274573699612,-0.272681404376089,0.0133825133290598,0.0179853190298718
25,0.013648511668053,0.0182629519809021,0.939584619786592,-0.277836858294029,0.939584619758269,-0.277836858313055,0.0136801878980045,0.0182438151131352
25.5,0.0139483666585144,0.018516651127682,0.937870464580482,-0.282982103930489,0.937870464551579,-0.282982103948859,0.0139811596435291,0.0184966829617652
26,0.0142513792673217,0.0187647150907104,0.93613195428804,-0.288117117525267,0.936131954258617,-0.288117117542954,0.014285301434407,0.0187438923088015
26.5,0.0145574232020527,0.0190071171215302,0.934368944402893,-0.293241859811907,0.934368944373004,-0.293241859828889,0.0145924865317965,0.0189854162384921
27,0.0148663726586491,0.0192438337610752,0.932581299801255,-0.298356277485484,0.932581299770958,-0.298356277501743,0.0149025886871579,0.0192212311367257
27.5,0.0151781024158346,0.01947484478737,0.93076889473475,-0.303460304570242,0.930768894704099,-0.303460304585761,0.015215482237107,0.0194513166385717
28,0.0154924879263987,0.0197001331605124,0.928931612761512,-0.308553863675046,0.928931612730562,-0.308553863689814,0.0155310421951338,0.0196756555730875
28.5,0.0158094054052896,0.0199196849651309,0.927069346627177,-0.313636867144218,0.927069346595981,-0.313636867158225,0.0158491443401222,0.0198942339055908
29,0.0161287319144682,0.020133489350479,0.925181998105654,-0.318709218111154,0.925181998074266,-0.318709218124394,0.016169665301624,0.0201070406775481
29.5,0.0164503454444784,0.0203415384683365,0.92326947780815,-0.323770811461882,0.923269477776621,-0.323770811474352,0.0164924826418388,0.020314067944263
30,0.0167741249926952,0.0205438274088969,0.921331704967568,-0.328821534715405,0.921331704935948,-0.328821534727105,0.016817474934273,0.0205153107105276
30.5,0.017099950638235,0.0207403541347928,0.919368607204363,-0.333861268827337,0.919368607172701,-0.333861268838267,0.0171445218390408,0.0207107668643991
31,0.0174277036135038,0.0209311194134405,0.917380120278932,-0.338889888922961,0.917380120247275,-0.338889888933126,0.0174735041748037,0.0209004371092905
31.5,0.0177572663723793,0.0211161267478526,0.915366187834787,-0.343907264965472,0.915366187803182,-0.343907264974876,0.017804303987332,0.0210843248945023
32,0.0180885226550211,0.0212953823060897,0.913326761136088,-0.348913262364762,0.913326761104578,-0.348913262373413,0.0181368046146838,0.0212624363443905
32.5,0.0184213575493235,0.0214688948495017,0.911261798802443,-0.353907742531763,0.911261798771073,-0.353907742539672,0.018470890749018,0.0214347801863073
33,0.0187556575490111,0.0216366756599049,0.909171266543409,-0.358890563382968,0.909171266512219,-0.358890563390144,0.0188064484950428,0.0216013676774656
33.5,0.0190913106084147,0.0217987384658631,0.90705513689465,-0.36386157979941,0.907055136863681,-0.363861579805867,0.0191433654251266,0.0217622125308909
34,0.0194282061939354,0.021955099368197,0.904913388957349,-0.368820644044052,0.904913388926639,-0.368820644049804,0.0194815306310986,0.0219173308405998
34.5,0.0197662353322454,0.0221057767648689,0.902746008142126,-0.373767606141222,0.902746008111714,-0.373767606146283,0.0198208347727601,0.0220667410061308
35,0.0201052906552502,0.0222507912753827,0.90055298591847,-0.378702314221415,0.90055298588839,-0.378702314225802,0.0201611701231597,0.0222104636565883
35.5,0.0204452664418648,0.0223901656648313,0.898334319570431,-0.383624614834522,0.898334319540716,-0.383624614838253,0.0205024306106651,0.0223485215743144
36,0.0207860586566463,0.0225239247677009,0.896090011959153,-0.388534353234309,0.896090011929838,-0.388534353237403,0.020844511857878,0.0224809396183152
36.5,0.0211275649853395,0.0226520954115739,0.893820071292664,-0.393431373636657,0.893820071263777,-0.393431373639132,0.0211873112174529,0.0226077446475728
37,0.0214696848673857,0.0227747063408377,0.891524510903163,-0.398315519453946,0.891524510874737,-0.398315519455823,0.0215307278048673,0.0227289654443479
37.5,0.0218123195254634,0.0228917881405026,0.889203349032017,-0.403186633507694,0.889203349004078,-0.403186633508993,0.0218746625282104,0.0228446326375897
38,0.0221553719921171,0.0230033731602459,0.886856608622491,-0.408044558221397,0.886856608595066,-0.408044558222141,0.0222190181150478,0.022954778626558
38.5,0.022498747133548,0.0231094954387765,0.88448431712024,-0.412889135795351,0.884484317093353,-0.412889135795562,0.0225636991364343,0.0230594375047559
39,0.0228423516706262,0.023210190628609,0.88208650628148,-0.417720208365059,0.882086506255156,-0.417720208364759,0.0229086120281404,0.0231586449842703
39.5,0.0231860941972108,0.023305495921349,0.879663211988743,-0.422537618144708,0.879663211963004,-0.422537618143921,0.0232536651091654,0.0232524383206039
40,0.0235298851958376,0.0233954499735619,0.877214474074042,-0.427341207557037,0.877214474048907,-0.427341207555785,0.0235987685976133,0.0233408562380897
40.5,0.0238736370508593,0.0234800928333077,0.874740336149281,-0.432130819350824,0.874740336124772,-0.432130819349133,0.0239438346240047,0.0234239388559642
41,0.0242172640591138,0.0235594658674161,0.872240845443713,-0.436906296707098,0.872240845419847,-0.436906296704991,0.0242887772421002,0.0235017276151674
41.5,0.0245606824381972,0.0236336116895645,0.869716052648199,-0.441667483335071,0.869716052624994,-0.441667483332572,0.0246335124373202,0.0235742652059447
42,0.024903810332419,0.0237025740892308,0.867166011766065,-0.44641422355872,0.867166011743536,-0.446414223555855,0.0249779581328338,0.0236415954963076
42.5,0.025246567816531,0.0237663979615657,0.864590779970307,-0.451146362394842,0.864590779948468,-0.451146362391634,0.0253220341934002,0.0237037634614163
43,0.0255888768972912,0.0238251292382488,0.861990417466887,-0.45586374562333,0.86199041744575,-0.455863745619804,0.025665662427042,0.0237608151139304
43.5,0.0259306615129674,0.0238788148193664,0.859364987363906,-0.460566219850375,0.859364987343483,-0.460566219846557,0.0260087665846317,0.0238127974353809
44,0.0262718475308348,0.0239275025063641,0.856714555546381,-0.465253632565204,0.856714555526685,-0.465253632561118,0.026351272357471,0.0238597583086011
44.5,0.0266123627427698,0.0239712409360919,0.854039190556409,-0.469925832190923,0.854039190537446,-0.469925832186593,0.0266931073729414,0.0239017464512565
45,0.0269521368590085,0.0240100795160062,0.851338963478459,-0.474582668129979,0.85133896346024,-0.474582668125432,0.0270342011883112,0.0239388113505091
45.5,0.0272911015001513,0.024044068360525,0.848613947829591,-0.479223990804726,0.848613947812121,-0.479223990799983,0.02737448528277,0.0239710031988424
46,0.0276291901874906,0.0240732582285818,0.845864219454345,-0.483849651693486,0.845864219437631,-0.483849651688574,0.0277138930477749,0.0239983728310663
46.5,0.0279663383317426,0.0240977004623899,0.843089856424115,-0.488459503362536,0.84308985640816,-0.488459503357479,0.0280523597757807,0.0240209716625353
47,0.0283024832202512,0.024117446927434,0.840290938940771,-0.493053399494333,0.840290938925581,-0.493053399489154,0.0283898226474314,0.0240388516285783
47.5,0.0286375640027497,0.0241325499537008,0.837467549244356,-0.497631194912321,0.837467549229933,-0.497631194907044,0.0287262207172896,0.024052065125171
48,0.0289715216757376,0.0241430622781565,0.834619771524631,-0.502192745602607,0.834619771510975,-0.502192745597255,0.0290614948981687,0.024060664950837
48.5,0.0293042990655599,0.0241490369884804,0.831747691836314,-0.506737908732756,0.831747691823428,-0.506737908727353,0.0293955879441467,0.0240647042498054
49,0.0296358408102452,0.0241505274680403,0.828851398017824,-0.511266542667979,0.828851398005706,-0.511266542662548,0.0297284444323225,0.0240642364564039
49.5,0.0299660933401745,0.0241475873421286,0.825930979613347,-0.515778506984887,0.825930979601996,-0.515778506979449,0.030060010743389,0.0240593152406985
50,0.0302950048576474,0.0241402704254343,0.82298652779809,-0.52027366248305,0.822986527787505,-0.520273662477628,0.0303902350410805,0.0240499944553699
50.5,0.030622525315406,0.0241286306707487,0.820018135306551,-0.524751871194528,0.820018135296727,-0.524751871189144,0.0307190672505607,0.0240363280838121
51,0.0309486063941736,0.0241127221188948,0.817025896363656,-0.529212996391532,0.817025896354589,-0.529212996386207,0.0310464590358083,0.0240183701894473
51.5,0.0312732014792761,0.0240925988498601,0.814009906618646,-0.533656902592378,0.814009906610332,-0.533656902587132,0.0313723637760592,0.0239961748662377
52,0.0315962656363871,0.0240683149351142,0.810970263081559,-0.538083455565862,0.810970263073991,-0.538083455560716,0.0316967365413599,0.023969796190378
52.5,0.0319177555864648,0.0240399243910989,0.807907064062196,-0.542492522334188,0.807907064055368,-0.542492522329161,0.0320195340672821,0.0239392881731437
53,0.0322376296799157,0.0240074811338488,0.80482040911145,-0.546883971174561,0.804820409105355,-0.546883971169672,0.0323407147288472,0.0239047047148728
53.5,0.032555847870047,0.0239710389347386,0.801710398964883,-0.551257671619541,0.801710398959513,-0.55125767161481,0.0326602385137119,0.0238660995600589
54,0.0328723716858363,0.0239306513773105,0.798577135488455,-0.555613494456268,0.798577135483799,-0.555613494451712,0.0329780669946494,0.0238235262535212
54.5,0.0331871642040755,0.0238863718151577,0.795420721626287,-0.559951311724631,0.795420721622336,-0.559951311720268,0.0332941633013754,0.0237770380976196
55,0.0335001900209142,0.0238382533308306,0.792241261350387,-0.564270996714468,0.792241261347131,-0.564270996710315,0.0336084920917469,0.0237266881104877
55.5,0.0338114152228448,0.023786348695731,0.789038859612232,-0.568572423961863,0.789038859609659,-0.568572423957936,0.0339210195223745,0.0236725289852437
56,0.0341208073571571,0.0237307103309503,0.785813622296124,-0.572855469244615,0.785813622294223,-0.572855469240929,0.0342317132186729,0.0236146130501389
56.5,0.0344283354018946,0.0236713902690222,0.782565656174253,-0.577120009576927,0.782565656173011,-0.577120009573499,0.03454054224438,0.0235529922296136
57,0.0347339697353338,0.0236084401165387,0.779295068863376,-0.581365923203386,0.779295068862779,-0.581365923200228,0.0348474770705636,0.0234877180062079
57.5,0.0350376821050075,0.0235419110175901,0.776001968783048,-0.585593089592263,0.776001968783083,-0.585593089589391,0.0351524895441387,0.0234188413832913
58,0.0353394455962918,0.0234718536179841,0.772686465115345,-0.589801389428207,0.772686465115997,-0.589801389425632,0.0354555528559085,0.0233464128485679
58.5,0.0356392346005683,0.0233983180301988,0.769348667766,-0.593990704604347,0.769348667767255,-0.593990704602082,0.0357566415081379,0.0232704823382974
59,0.0359370247829725,0.0233213537990105,0.765988687326912,-0.598160918213862,0.765988687328753,-0.59816091821192,0.0360557312816713,0.0231910992022039
59.5,0.0362327930497324,0.0232410098677595,0.762606635039954,-0.602311914541045,0.762606635042366,-0.602311914539435,0.0363527992025963,0.0231083121690054
60,0.0365265175150962,0.0231573345451926,0.759202622762039,-0.606443579051895,0.759202622765004,-0.606443579050627,0.0366478235084424,0.0230221693125198
60.5,0.036818177467853,0.0230703754728313,0.75577676293139,-0.610555798384268,0.755776762934892,-0.610555798383352,0.0369407836139242,0.022932718018296
61,0.0371077533374267,0.0229801795928085,0.752329168534968,-0.614648460337616,0.752329168538989,-0.614648460337061,0.037231660076202,0.0228400049507148
61.5,0.0373952266595392,0.0228867931161186,0.748859953077015,-0.618721453862341,0.748859953081537,-0.618721453862153,0.0375204345596502,0.0227440760204993
62,0.0376805800414193,0.0227902614912263,0.745369230548663,-0.622774669048777,0.745369230553667,-0.622774669048964,0.0378070898001101,0.0226449763525882
62.5,0.0379637971265353,0.0226906293729592,0.741857115398583,-0.626807997115841,0.74185711540405,-0.626807997116409,0.0380916095685985,0.0225427502543039
63,0.0382448625588177,0.0225879405916464,0.738323722504626,-0.630821330399352,0.738323722510539,-0.630821330400307,0.0383739786344355,0.022437441183767
63.5,0.0385237619463403,0.0224822381224149,0.734769167146427,-0.634814562340054,0.734769167152764,-0.6348145623414,0.0386541827277516,0.0223290917184852
64,0.0388004818244114,0.022373564054599,0.731193564978933,-0.638787587471354,0.731193564985674,-0.638787587473094,0.0389322085013279,0.0222177435240655
