"Freq [GHz]","re(St(P1,P1)) []","im(St(P1,P1)) []","re(St(P1,P2)) []","im(St(P1,P2)) []","re(St(P2,P1)) []","im(St(P2,P1)) []","re(St(P2,P2)) []","im(St(P2,P2)) []"
0,0.00577231577710791,0,0.994241845575743,0,0.994241847030935,0,0.00577231667807609,0
0.5,0.00623188827012555,0.00167537110404226,0.993679748261442,-0.00830060996664628,0.993679748320126,-0.00830060991081893,0.0062317389002402,0.00167584428324119
1,0.00661130974645729,0.00280562434952714,0.993030324774791,-0.0160271624096886,0.993030324726417,-0.0160271624041357,0.00661090916215912,0.00280674703244799
1.5,0.00653994094588128,0.00378596803984088,0.992382677268321,-0.0238251674050503,0.992382677224106,-0.0238251673983427,0.00653878884295356,0.00378833921235788
2,0.00654173372059308,0.00483712474413878,0.991602644642944,-0.031440069772195,0.991602644603423,-0.0314400697654893,0.00654019443719633,0.00484034465818972
2.5,0.00657499970571829,0.00592584478528302,0.99075184158279,-0.0388884744280453,0.990751841548079,-0.038888474422178,0.00657321228028263,0.00592984520225315
3,0.00662827389051968,0.00703833020694411,0.989866854276365,-0.0462016972837151,0.98986685424642,-0.0462016972791606,0.00662629053991903,0.00704310847987877
3.5,0.00669759689700111,0.00816863733702444,0.988963291534427,-0.0534114582462157,0.988963291509197,-0.0534114582431711,0.00669543459875266,0.00817420913982669
4,0.00678146539818458,0.00931422779983215,0.988043357627317,-0.0605433541572529,0.988043357606816,-0.0605433541557252,0.0067791250486422,0.0093206162204682
4.5,0.00687936079118701,0.0104742088596694,0.987102287476137,-0.0676155424432361,0.987102287460452,-0.0676155424431242,0.00687683515080684,0.0104814415327361
5,0.00699123230397936,0.011648565152961,0.986132501840589,-0.0746397543267534,0.986132501829871,-0.0746397543278983,0.00698850964830944,0.0116566735515011
5.5,0.00711728982172444,0.0128377922576473,0.985125877162988,-0.0816229113783962,0.985125877157435,-0.0816229113806042,0.00711435577015346,0.0128468116519995
6,0.00725791304091383,0.0140427091582911,0.984074815345261,-0.0885686071122169,0.9840748153451,-0.0885686071152918,0.0072547515429629,0.0140526788084481
6.5,0.00741360965906018,0.0152643570576707,0.982972651501794,-0.0954782460729708,0.982972651507267,-0.0954782460767083,0.00741020356388905,0.0152753205025933
7,0.00758499635477175,0.0165039428266844,0.981813734205156,-0.102351849527202,0.981813734216511,-0.102351849531397,0.00758132776411061,0.0165159482270409
7.5,0.00777279136634146,0.0177628069395559,0.980593362369244,-0.10918859971481,0.980593362386729,-0.109188599719269,0.00776884187187188,0.0177759074619841
8,0.00797781355511648,0.0190424055671317,0.979307671826366,-0.115987197185241,0.979307671850223,-0.115987197189773,0.00797356441483134,0.0190566598095514
8.5,0.00820098549954589,0.0203443012666682,0.977953514833073,-0.12274609061158,0.977953514863531,-0.122746090616,0.00819641778464299,0.0203597737286891
9,0.00844333941422608,0.021670159145041,0.976528350288672,-0.129463621786193,0.976528350325949,-0.129463621790325,0.00843843414635957,0.0216869207494619
9.5,0.00870602531410153,0.0230217466787788,0.97503015022384,-0.136138115015033,0.97503015026814,-0.136138115018712,0.0087007636067358,0.0230398753513636
10,0.008990321179877,0.0244009361030657,0.973457322683258,-0.14276793040226,0.97345732273477,-0.142767930405325,0.0089846843944613,0.0244205174187133
10.5,0.00937609975949101,0.0255758631463316,0.971956944931009,-0.149463046054275,0.971956944982706,-0.149463046059164,0.0093703213198275,0.0255965359654056
11,0.00977981297410066,0.0267442685677723,0.970419540546841,-0.156119998034163,0.970419540598539,-0.156119998040862,0.00977389092263622,0.0267660485083177
11.5,0.010201336506895,0.0279058610176861,0.968846655647101,-0.162740489558222,0.968846655698629,-0.162740489566701,0.0101952695598203,0.0279287642467119
12,0.0106405407078413,0.0290603517784422,0.967239573214298,-0.169326205736607,0.967239573265494,-0.169326205746817,0.0106343282787703,0.0290843949861426
12.5,0.0110972906538293,0.0302074548733611,0.965599337460301,-0.175878788906195,0.96559933751102,-0.175878788918073,0.0110909328764914,0.0302326552464733
13,0.0115714462112554,0.0313468871741853,0.963926778543735,-0.182399819267474,0.963926778593842,-0.182399819280945,0.0115649439611727,0.0313732623685286
13.5,0.0120628621010027,0.0324783685070735,0.962222536914011,-0.18889080024046,0.962222536963389,-0.188890800255444,0.0120562170161211,0.0325059366192955
14,0.0125713879657899,0.0336016217570609,0.960487086737094,-0.195353147930494,0.96048708678564,-0.195353147946898,0.0125646024660377,0.0336304012956545
14.5,0.0130968684398554,0.0347163729709277,0.958720758016384,-0.2017881841027,0.958720758064004,-0.201788184120432,0.0130899457456008,0.0347463828265255
15,0.0136391432209371,0.0358223514584228,0.95692375715497,-0.208197132094314,0.956923757201588,-0.208197132113276,0.0136320873703223,0.0358536108734577
15.5,0.0141980471445124,0.0369192898917874,0.95509618581362,-0.214581115139117,0.955096185859168,-0.214581115159209,0.0141908630096406,0.0369518184295201
16,0.0147734102602581,0.0380069244035206,0.953238058004085,-0.220941156631533,0.953238058048512,-0.220941156652656,0.0147661035622124,0.0380407419165043
16.5,0.0153650579106923,0.0390849946823264,0.951349315422412,-0.227278181914616,0.951349315465674,-0.227278181936672,0.0153576352333655,0.0391201212803476
17,0.0159728108119514,0.0401532440672117,0.949429841074641,-0.233593021232825,0.949429841116706,-0.233593021255717,0.015965279614675,0.0401897000847498
17.5,0.0165964851366678,0.0412114196396556,0.947479471280707,-0.239886413544563,0.947479471321549,-0.239886413568196,0.0165888537656144,0.041249225602912
18,0.0172358925988896,0.0422592723138102,0.945498006164039,-0.246159010939574,0.945498006203643,-0.246159010963858,0.0172281702972476,0.042298448907351
18.5,0.0178908405410142,0.0432965569246904,0.943485218746948,-0.252411383451399,0.943485218785306,-0.252411383476244,0.017883037457911,0.0433371249577539
19,0.0185611320226697,0.0443230323142882,0.941440862777392,-0.258644024095028,0.941440862814501,-0.258644024120351,0.0185532592208434,0.0443650126867963
19.5,0.0192465659115134,0.0453384614155676,0.939364679412993,-0.26485735399452,0.939364679448856,-0.264857354020241,0.0192386353737126,0.0453818750839066
20,0.0199469369758774,0.0463426113342973,0.937256402884718,-0.271051727494924,0.937256402919344,-0.271051727520967,0.0199389616099986,0.0463874792768957
20.5,0.0206620359792276,0.0473352534286713,0.935115765256583,-0.277227437177798,0.935115765289986,-0.277227437204091,0.0206540296221725,0.0473815966114388
21,0.0213916497763725,0.04831616338667,0.932942500390058,-0.283384718720327,0.932942500422256,-0.283384718746803,0.021383627196629,0.0483640027283379
21.5,0.0221355614113721,0.0492851213011185,0.930736347213257,-0.289523755555125,0.930736347244268,-0.289523755581721,0.0221275383103163,0.0493344776385329
22,0.0228935502170839,0.050241911742398,0.928497052385985,-0.295644683301526,0.928497052415834,-0.295644683328182,0.022885543229009,0.050292805795819
22.5,0.0236653919163033,0.0511863238287757,0.92622437244276,-0.301747593950274,0.926224372471473,-0.301747593976935,0.0236574186071683,0.0512387761672177
23,0.024450858724423,0.0521181512943028,0.923918075487155,-0.307832539792209,0.923918075514757,-0.307832539818825,0.0244429375893401,0.0521721823009789
23.5,0.0252497194535642,0.0530371925542434,0.921577942502572,-0.313899537088305,0.921577942529095,-0.313899537114828,0.0252418699130216,0.0530928223921567
24,0.0260617396181149,0.0539432507680029,0.919203768336874,-0.319948569483556,0.919203768362345,-0.319948569509943,0.0260539820129443,0.0540004993457217
24.5,0.0268866815416104,0.0548361338995182,0.916795362411153,-0.325979591171031,0.916795362435606,-0.325979591197242,0.02687903712672,0.054895020837201
25,0.0277243044648997,0.0557156547750637,0.914352549196573,-0.331992529815215,0.914352549220038,-0.331992529841215,0.0277167954017706,0.0557761993707646
25.5,0.0285743646555263,0.0565816311384588,0.911875168497364,-0.33798728924558,0.911875168519874,-0.337987289271333,0.0285670140034993,0.056643852334769
26,0.0294366155182644,0.0574338857036276,0.909363075572921,-0.343963751932639,0.909363075594509,-0.343963751958116,0.0294294472246232,0.0574978020546892
26.5,0.0303108077067386,0.0582722462044993,0.906816141127353,-0.349921781259357,0.906816141148051,-0.349921781284532,0.0303038465956157,0.0583378758434421
27,0.031196689236065,0.0590965454421974,0.90423425119079,-0.355861223601132,0.904234251210631,-0.355861223625979,0.0311899609961843,0.059163906049045
27.5,0.0320940055964412,0.0599066213295152,0.901617306913223,-0.36178191022749,0.901617306932239,-0.361781910251986,0.0320875367677204,0.0599757300995947
28,0.0330024998676214,0.0607023169326435,0.898965224288525,-0.367683659038397,0.898965224306749,-0.367683659062524,0.0329963178266558,0.0607731905455431
28.5,0.033921912834201,0.0614834805101212,0.896277933823641,-0.373566276147687,0.896277933841105,-0.373566276171426,0.0339160457786526,0.0615561350992426
29,0.0348519831016416,0.0622499655489965,0.893555380165562,-0.379429557325515,0.893555380182296,-0.379429557348852,0.0348464600335638,0.0623244166717345
29.5,0.0357924472129686,0.0630016307981788,0.890797521696718,-0.385273289311176,0.890797521712753,-0.385273289334097,0.0357872979210885,0.0630778934067705
30,0.0367430397660676,0.0637383402989666,0.888004330107675,-0.391097251006938,0.888004330123041,-0.391097251029433,0.0367382948070545,0.0638164287120437
30.5,0.0377034935315014,0.0644599634127232,0.885175789954507,-0.396901214562884,0.885175789969233,-0.396901214584943,0.0376991842102572,0.0645398912876103
31,0.0386735395707846,0.0651663748457065,0.882311898206991,-0.402684946362034,0.882311898221107,-0.402684946383647,0.0386696979197818,0.0652481551514934
31.5,0.0396529073550356,0.0658574546710271,0.879412663792634,-0.408448207914384,0.879412663806167,-0.408448207935546,0.0396495661127362,0.0659410996624522
32,0.0406413248839303,0.0665330883477353,0.876478107140645,-0.414190756667825,0.876478107153623,-0.414190756688531,0.0406385174723241,0.0666186095399118
32.5,0.0416385188048906,0.0671931667370217,0.873508259729179,-0.419912346743282,0.873508259741626,-0.419912346763528,0.0416362793061825,0.0672805748810364
33,0.042644214532425,0.0678375861155353,0.870503163638493,-0.425612729600819,0.870503163650436,-0.425612729620602,0.0426425776649111,0.067926891174952
33.5,0.0436581363675537,0.0684662481858106,0.867462871112135,-0.431291654642893,0.8674628711236,-0.431291654662211,0.0436571374607212,0.0685574593141016
34,0.0446800076172389,0.0690790600838068,0.864387444127771,-0.436948869760431,0.864387444138781,-0.436948869779284,0.044679682586126,0.0691721856027421
34.5,0.0457095507137432,0.0696759343835536,0.86127695397889,-0.442584121826892,0.861276953989467,-0.442584121845281,0.0457099360326058,0.0697709817625715
35,0.0467464873338495,0.0702567890989235,0.8581314808683,-0.448197157145033,0.858131480878467,-0.448197157162959,0.0467476200091655,0.0703537649355078
35.5,0.0477905385178614,0.0708215476825184,0.854951113514037,-0.453787721850694,0.854951113523816,-0.45378772186816,0.0477924560607179,0.0709204576835973
36,0.0488414247883065,0.0713701390216847,0.851735948768097,-0.459355562277508,0.851735948777509,-0.459355562294515,0.0488441651862114,0.0714709879860816
36.5,0.0498988662682817,0.0719024974316789,0.848486091248219,-0.464900425286089,0.848486091257282,-0.464900425302641,0.0499024679564381,0.0720052892336238
37,0.0509625827993472,0.0724185626459762,0.84520165298278,-0.470422058560963,0.845201652991515,-0.470422058577065,0.0509670846314395,0.0725233002196987
37.5,0.0520322940589142,0.0729182798037522,0.841882753068772,-0.475920210878154,0.841882753077196,-0.475920210893811,0.0520377352774415,0.0730249651291711
38,0.053107719677043,0.0734015994345467,0.838529517342683,-0.481394632346109,0.838529517350814,-0.481394632361326,0.053114139883249,0.07351023352407
38.5,0.0541885793525821,0.0738684774401316,0.835142078064102,-0.486845074622379,0.835142078071957,-0.486845074637161,0.0541960184760211,0.0739790603265765
39,0.0552745929685725,0.074318875073605,0.831720573611718,-0.492271291108259,0.831720573619314,-0.492271291122614,0.0552830912363609,0.0744314057992468
39.5,0.0563654807068584,0.0747527589157265,0.828265148191423,-0.497673037123372,0.828265148198773,-0.497673037137304,0.0563750786126497,0.07486723552249
40,0.0574609631618183,0.0751701008485293,0.824775951556128,-0.503050070062009,0.824775951563248,-0.503050070075528,0.0574717014345508,0.0752865203693218
40.5,0.0585607614531605,0.0755708780262269,0.821253138736933,-0.508402149532863,0.821253138743838,-0.508402149545974,0.0585726810256201,0.0756892364774264
41,0.0596645973377076,0.0759550728434556,0.817696869785229,-0.513729037483629,0.817696869791931,-0.51372903749634,0.0596777393149531,0.076075365218546
41.5,0.060772193320106,0.0763226729008596,0.814107309525326,-0.519030498311847,0.814107309531837,-0.519030498324166,0.0607865989477966,0.0764448931652274
42,0.0618832727623948,0.0766736709680848,0.810484627317206,-0.52430629896316,0.81048462732354,-0.524306298975096,0.0618989833950699,0.0767978120549651
42.5,0.062997559992369,0.0770080649441831,0.806828996828983,-0.529556209018147,0.80682899683515,-0.529556209029708,0.0630146170617203,0.0771341187517613
43,0.0641147804106756,0.0773258578154864,0.803140595818649,-0.534780000768683,0.80314059582466,-0.534780000779876,0.0641332253938589,0.0774538152051484
43.5,0.0652346605965737,0.0776270576109744,0.799419605924729,-0.539977449284773,0.799419605930594,-0.539977449295606,0.0652545349846035,0.0777569084067011
44,0.0663569284123142,0.0779116773551828,0.795666212465441,-0.54514833247266,0.79566621247117,-0.545148332483144,0.0663782736785823,0.0780434103440826
44.5,0.0674813131060614,0.0781797350186891,0.791880604245986,-0.550292431124979,0.791880604251587,-0.550292431135121,0.0675041706750276,0.0783133379526595
45,0.0686075454133135,0.0784312534662189,0.788062973373596,-0.555409528963596,0.788062973379079,-0.555409528973406,0.0686319566294069,0.0785667130647306
45.5,0.0697353576567643,0.0786662604024202,0.784213515080001,-0.5604994126758,0.784213515085374,-0.560499412685286,0.0697613637535389,0.0788035623564047
46,0.0708644838445437,0.078884788315341,0.780332427550956,-0.565561871944358,0.780332427556225,-0.56556187195353,0.0708921259141332,0.0790239172921804
46.5,0.0719946597668003,0.079086874417668,0.776419911762514,-0.570596699471978,0.776419911767687,-0.570596699480843,0.0720239787297085,0.0792278140672632
47,0.0731256230905652,0.0792725605857637,0.772476171323744,-0.57560369100061,0.772476171328829,-0.575603691009179,0.0731566596658371,0.0794152935476727
47.5,0.074257113452853,0.0794418932965595,0.768501412325573,-0.58058264532604,0.768501412330574,-0.580582645334321,0.074289908128662,0.0795864012081821
48,0.0753888725519559,0.0795949235623401,0.764495843195487,-0.585533364308118,0.764495843200411,-0.585533364316119,0.0754234655566546,0.0797411870681398
48.5,0.076520644236885,0.0797317068634874,0.760459674557823,-0.590455652876999,0.760459674562675,-0.59045565288473,0.0765570755105498,0.0798797056252214
49,0.0776521745949231,0.0798523030792134,0.756393119099389,-0.595349319035704,0.756393119104174,-0.595349319043174,0.0776904837614356,0.0800020157871618
49.5,0.0787832120372414,0.0799567764163535,0.752296391440171,-0.600214173859274,0.752296391444893,-0.600214173866491,0.0788234383769414,0.0801081808015138
50,0.0799135073825494,0.0800451953362533,0.748169708008904,-0.605050031490802,0.748169708013568,-0.605050031497775,0.0799556898055022,0.0801982681834885
50.5,0.0810428139387475,0.0801176324798132,0.74401328692329,-0.609856709134566,0.744013286927898,-0.609856709141304,0.0810869909586516,0.0802723496419224
51,0.0821708875825396,0.0801741645907371,0.739827347874641,-0.614634027046492,0.739827347879198,-0.614634027053003,0.0822170972913188,0.0803305010034263
51.5,0.0832974868369871,0.0802148724370322,0.735612112016789,-0.619381808522131,0.735612112021298,-0.619381808528423,0.0833457668800973,0.0803728021347629
52,0.0844223729469716,0.0802398407308211,0.731367801859034,-0.624099879882353,0.731367801863498,-0.624099879888435,0.0844727604994557,0.0803993368635046
52.5,0.0855453099525458,0.0802491580465086,0.727094641162999,-0.62878807045691,0.72709464116742,-0.628788070462791,0.0855978416958716,0.0804101928970223
53,0.0866660647601461,0.0802429167373545,0.722792854843203,-0.633446212566025,0.722792854847582,-0.633446212571711,0.0867207768598581,0.0804054617398516
53.5,0.0877844072116559,0.0802212128505049,0.718462668871205,-0.638074141500143,0.718462668875546,-0.638074141505643,0.0878413352958716,0.0803852386094863
54,0.0889001101512927,0.0801841460405244,0.714104310183184,-0.642671695497985,0.714104310187488,-0.642671695503307,0.0889592892900762,0.0803496223506477
54.5,0.0900129494903191,0.0801318194814828,0.709718006590799,-0.647238715723008,0.709718006595067,-0.64723871572816,0.0900744141759614,0.0802987153480724
55,0.0911227042695543,0.0800643397776337,0.705303986695222,-0.651775046238387,0.705303986699455,-0.651775046243377,0.091186488397788,0.0802326234378654
55.5,0.092229156719689,0.0799818168727355,0.700862479804202,-0.656280533980622,0.700862479808402,-0.656280533985456,0.0922952935718664,0.0801514558174635
56,0.0933320923193897,0.079884363958051,0.696393715852066,-0.660755028731849,0.696393715856233,-0.660755028736536,0.093400614545657,0.0800553249542406
56.5,0.0944312998511993,0.0797720973790628,0.69189792532253,-0.665198383090966,0.691897925326664,-0.665198383095512,0.0945022394546866,0.0799443464928058
57,0.095526571455229,0.079645136540951,0.687375339174237,-0.669610452443613,0.687375339178339,-0.669610452448027,0.0955999597772929,0.0798186391610204
57.5,0.096617702680651,0.0795036038128494,0.682826188768909,-0.673991094931127,0.682826188772979,-0.673991094935414,0.0966935703871863,0.0796783246747687
58,0.0977044925349916,0.0793476244309291,0.678250705802038,-0.678340171418496,0.678250705806076,-0.678340171422663,0.0977828696038487,0.0795235276415126
58.5,0.0987867435312462,0.0791773264003139,0.673649122236023,-0.682657545461401,0.67364912224003,-0.682657545465455,0.0988676592407751,0.0793543754626566
59,0.0998642617328223,0.0789928403958674,0.669021670235678,-0.6869430832724,0.669021670239653,-0.686943083276347,0.0999477446515675,0.0791709982347395
59.5,0.100936856796326,0.0787942996618587,0.664368582106027,-0.691196653686299,0.66436858210997,-0.691196653690146,0.101022934773907,0.0789735286494722
60,0.102004342012224,0.0785818399105145,0.659690090232326,-0.695418128124773,0.659690090236236,-0.695418128128526,0.102093042171418,0.0787621018926324
60.5,0.103066534343387,0.0783555992194732,0.654986427022242,-0.699607380560276,0.654986427026118,-0.699607380563941,0.103157883073451,0.0785368555418183
61,0.104123254461561,0.0781157179281295,0.650257824850122,-0.703764287479292,0.650257824853963,-0.703764287482874,0.104217277412809,0.0782979294630616
61.5,0.105174326781787,0.077862338532864,0.645504516003294,-0.707888727844959,0.645504516007099,-0.707888727848464,0.105271048861461,0.0780454657062888
62,0.106219579494795,0.0775956055811405,0.640726732630349,-0.711980583059121,0.640726732634119,-0.711980583062556,0.106319024864254,0.0777796083996127
62.5,0.107258844597437,0.077315665564445,0.635924706691347,-0.716039736923827,0.635924706695081,-0.716039736927195,0.10736103667069,0.0775005036424303
63,0.108291957921171,0.0770226668100288,0.631098669909895,-0.720066075602324,0.63109866991359,-0.720066075605633,0.108396919364792,0.0772082993972852
63.5,0.109318759158662,0.076716759371406,0.626248853727052,-0.724059487579581,0.626248853730708,-0.724059487582835,0.109426511893118,0.0769031453804518
64,0.110339091888545,0.0763980949175483,0.621375489257019,-0.728019863622362,0.621375489260634,-0.728019863625565,0.110449657090965,0.076585192951173
