"Freq [GHz]","re(St(P1,P1)) []","im(St(P1,P1)) []","re(St(P1,P2)) []","im(St(P1,P2)) []","re(St(P2,P1)) []","im(St(P2,P1)) []","re(St(P2,P2)) []","im(St(P2,P2)) []"
0,0.00634551481402923,0,0.99366885102063,0,0.993668848837842,0,0.00634551285043017,0
0.5,0.00682266243066465,0.00166101542599861,0.993108942607623,-0.00813369147564558,0.993108942901518,-0.00813369098125705,0.00682263588912591,0.00166105959224438
1,0.00722899489932693,0.00276572491724281,0.992489925499399,-0.0156906217503412,0.992489925521696,-0.0156906219028023,0.00722887023748875,0.00276579619651685
1.5,0.00739727920632216,0.0036746989874139,0.991877747430556,-0.0233109516256711,0.991877747378926,-0.0233109517852235,0.00739663781549105,0.00367466283714535
2,0.00749939786052067,0.00465212998221709,0.991160889565826,-0.0307551841861216,0.991160889462694,-0.0307551843181084,0.00749839351288095,0.00465219293952401
2.5,0.00758897162354222,0.00566727164897252,0.990396445828611,-0.0380516702893896,0.990396445703473,-0.0380516703806375,0.0075876471685814,0.00566747665625833
3,0.00768180600615054,0.00670490806295021,0.989611832706458,-0.0452374329086354,0.989611832583497,-0.0452374329610787,0.00768015530806032,0.00670527164373169
3.5,0.00778385263655923,0.007757611318576,0.988813978026083,-0.0523441741402761,0.988813977920695,-0.0523441741627098,0.00778184870664345,0.00775814775914707
4,0.00789782592230237,0.00882156836841208,0.98799913486388,-0.059394318023462,0.987999134783842,-0.0593943180259862,0.00789543202496223,0.00882229477716567
4.5,0.00802519007616642,0.00989475861500555,0.987159384096522,-0.0664019004931777,0.987159384044366,-0.0664019004846121,0.0080223644740659,0.00989569602694651
5,0.00816687174747788,0.0109761181057895,0.986286036623027,-0.0733747859289329,0.986286036598102,-0.073374785915993,0.00816356992220724,0.0109772916861557
5.5,0.00832355222588554,0.0120651275794517,0.9853711026862,-0.0803167296608844,0.9853711026861,-0.0803167296482146,0.00831972800631609,0.0120665666402404
6,0.00849580055126126,0.0131615953564221,0.984407766650462,-0.087228907160231,0.984407766671904,-0.0872289071507426,0.00849140673147936,0.0131633333643189
6.5,0.0086841396588026,0.014265536073486,0.983390417711652,-0.0941109426803521,0.983390417750973,-0.0941109426756146,0.00867912836246776,0.0142676106914408
7,0.00888908185857207,0.0153770994851117,0.982314514215671,-0.100961568091454,0.982314514269103,-0.100961568092046,0.00888340477181307,0.0153795526538438
7.5,0.00911114929265522,0.0164965268090231,0.981176407443131,-0.107779033582827,0.981176407506933,-0.107779033588628,0.00910475782756118,0.0164994048660128
8,0.00935088662847891,0.0176241229104996,0.979973175506007,-0.114561359291405,0.979973175576527,-0.114561359301806,0.00934373205078765,0.0176274767426605
8.5,0.00960886957256478,0.0187602379417089,0.97870248364559,-0.121306487189524,0.978702483719286,-0.121306487203598,0.00960090311290328,0.018764123168677
9,0.00988571107191961,0.0199052548039691,0.977362472800144,-0.128012371075783,0.977362472873586,-0.128012371092409,0.00987688403257143,0.0199097319898702
9.5,0.0101820662228253,0.0210595802865678,0.975951673036354,-0.134677028321086,0.975951673106228,-0.134677028339035,0.0101723300880029,0.021064715178988
10,0.0104986364682616,0.0222236385693089,0.974468937109233,-0.141298568032637,0.974468937172328,-0.141298568050642,0.0104879430237193,0.0222295023648922
10.5,0.0108788418281639,0.0232813907627887,0.973039141409699,-0.147994903393173,0.973039141472131,-0.147994903412841,0.0108674022048836,0.0232877212383569
11,0.0112761937937899,0.0243315274488811,0.971568160892569,-0.154656366202802,0.971568160954199,-0.154656366224096,0.0112639779804837,0.0243383487020941
11.5,0.0116905010765285,0.025373733057251,0.970057563162426,-0.161284050355623,0.970057563223121,-0.161284050378488,0.0116774799022823,0.0253810700402033
12,0.0121215654366579,0.0264076981514059,0.968508715670496,-0.167879083636902,0.968508715730135,-0.167879083661274,0.0121077105942413,0.0264155766342067
12.5,0.0125691819242897,0.0274331196139164,0.966922797759733,-0.174442605616781,0.966922797818202,-0.174442605642583,0.0125544659916083,0.0274415661475613
13,0.0130331391259542,0.0284497008206781,0.965300814112827,-0.180975748909426,0.965300814170026,-0.180975748936574,0.0130175355856311,0.028458742699319
13.5,0.0135132194162745,0.0294571518040589,0.963643609024489,-0.187479623618486,0.963643609080328,-0.187479623646891,0.0134967026733477,0.0294668170267589
14,0.0140091992141778,0.0304551894047607,0.961951881015446,-0.193955304729763,0.961951881069844,-0.193955304759327,0.0139917446118979,0.0304655066368587
14.5,0.0145208492430755,0.0314435374123274,0.960226197397678,-0.200403822175207,0.960226197450568,-0.200403822205832,0.014502433076807,0.0314545359465015
15,0.0150479347944529,0.0324219266941654,0.95846700848525,-0.206826153274503,0.958467008536575,-0.206826153306087,0.0150285343236783,0.0324336364113049
15.5,0.015590215994312,0.0333900953130704,0.956674661220673,-0.213223217257316,0.956674661270385,-0.213223217289756,0.0155698094527519,0.0334025466430554
16,0.0161474480719072,0.0343477886332102,0.954849412052317,-0.219595871577237,0.954849412100379,-0.21959587161043,0.0161260146757654,0.0343610125157019
16.5,0.016719381630229,0.0352947594145954,0.952991438953732,-0.22594490974426,0.952991439000117,-0.225944909778104,0.0166969015845923,0.0353087872599269
17,0.0173057629176881,0.0362307678960381,0.951100852521298,-0.232271060423503,0.951100852565986,-0.232271060457897,0.0172822174210938,0.0362456315463167
17.5,0.0179063341004632,0.0371555818667169,0.949177706123224,-0.238574987571715,0.949177706166204,-0.238574987606561,0.0178817053476791,0.0371713135572103
18,0.0185208335349905,0.0380689767263682,0.947222005101456,-0.244857291408271,0.947222005142723,-0.244857291443475,0.0184951047180348,0.0380856090472874
18.5,0.0191489960400776,0.0389707355342885,0.945233715049656,-0.251118510042338,0.945233715089213,-0.251118510077808,0.0191221513475221,0.0389883013930372
19,0.0197905531681434,0.03986064904724,0.94321276920612,-0.257359121602135,0.943212769243976,-0.257359121637783,0.0197625777827452,0.0398791816312221
19.5,0.0204452334750872,0.0407385157464415,0.941159075011299,-0.263579546734816,0.941159075047469,-0.263579546770557,0.0204161135697987,0.0407580484865095
20,0.0211127627883239,0.0416041418538398,0.939072519886463,-0.269780151366234,0.939072519920963,-0.269780151401988,0.0210824855207328,0.0416247083884531
20.5,0.0217928644725175,0.0424573413378448,0.936952976293723,-0.27596124962857,0.936952976326578,-0.275961249664261,0.0217614179777782,0.0424789754780157
21,0.0224852596925812,0.0432979359087873,0.93480030613897,-0.282123106880289,0.934800306170206,-0.282123106915846,0.0224526330748929,0.0433206716038861
21.5,0.0231896676735101,0.0441257550043139,0.932614364578637,-0.28826594275742,0.932614364608284,-0.288265942792776,0.023155850996209,0.0441496263087886
22,0.0239058059566523,0.0449406357650184,0.930395003289388,-0.29438993420758,0.930395003317477,-0.294389934242672,0.0238707902309805,0.044965676806096
22.5,0.0246333906520195,0.0457424230005479,0.928142073256946,-0.300495218468893,0.928142073283513,-0.300495218503661,0.0245971678246467,0.0457686679469707
23,0.0253721366862871,0.0465309691465221,0.925855427136868,-0.30658189596489,0.92585542716195,-0.306581895999281,0.0253346996256433,0.0465584521783697
23.5,0.0261217580461187,0.0473061342125494,0.923534921236252,-0.312650033094066,0.923534921259886,-0.312650033128028,0.0260831005276258,0.0473348894921926
24,0.026881968016502,0.048067785721658,0.921180417161406,-0.318699664898972,0.921180417183633,-0.31869966493246,0.0268420847067656,0.0480978473658855
24.5,0.0276524794137845,0.0488157986414883,0.918791783172537,-0.324730797604821,0.918791783193395,-0.32473079763779,0.0276113658538323,0.0488472006948444
25,0.028433004813131,0.0495500553075852,0.916368895282603,-0.330743411021689,0.916368895302134,-0.3307434110541,0.0283906574007639,0.0495828317169502
25.5,0.0292232567701267,0.0502704453391236,0.913911638133748,-0.336737460807741,0.913911638151993,-0.336737460839558,0.0291796727414684,0.0503046299295635
26,0.0300229480362971,0.050976865547449,0.911419905681221,-0.342712880593446,0.911419905698222,-0.342712880624638,0.0299781254466168,0.05101249199936
26.5,0.0308317917683156,0.0516692198377691,0.908893601711367,-0.348669583968786,0.908893601727165,-0.348669583999322,0.0307857294722001,0.0517063216653355
27,0.0316495017306994,0.0523474191043887,0.906332640217296,-0.354607466336962,0.906332640231934,-0.354607466366816,0.0316021993616555,0.0523860296353604
27.5,0.0324757924918163,0.0530113811198274,0.903736945653025,-0.360526406639251,0.903736945666542,-0.360526406668401,0.0324272504413755,0.053051533476641
28,0.0333103796130368,0.0536610304182239,0.901106453084384,-0.366426268956406,0.90110645309682,-0.366426268984829,0.0332605990094471,0.0537027575004583
28.5,0.0341529798308999,0.0542962981733734,0.898441108252733,-0.372306903992565,0.898441108264131,-0.372306904020244,0.0341019625174745,0.0543396326415524
29,0.0350033112321687,0.0549171220717868,0.895740867565484,-0.37816815044793,0.895740867575882,-0.378168150474849,0.0349510597453666,0.0549620963325155
29.5,0.0358610934216745,0.0555234461811305,0.893005698025592,-0.384009836286612,0.893005698035028,-0.384009836312757,0.0358076109689904,0.0555700923735686
30,0.0367260476828704,0.056115220814424,0.890235577110603,-0.389831779906075,0.890235577119116,-0.389831779931434,0.0366713381206017,0.0561635707980817
30.5,0.0375978971310296,0.0566924023903637,0.887430492610401,-0.39563379121451,0.887430492618029,-0.395633791239073,0.0375419649419956,0.0567424877341985
31,0.0384763668590449,0.0572549532901252,0.884590442431515,-0.401415672622315,0.884590442438294,-0.401415672646076,0.0384192171303228,0.0573068052629357
31.5,0.0393611840757972,0.0578028417110037,0.881715434374778,-0.407177219953665,0.881715434380743,-0.407177219976617,0.0393028224765443,0.0578564912730888
32,0.040252078237087,0.0583360415172552,0.878805485892128,-0.412918223283839,0.878805485897313,-0.412918223305978,0.0401925109965126,0.0583915193133184
32.5,0.0411487811691266,0.0588545320884682,0.875860623827496,-0.418638467707779,0.875860623831937,-0.418638467729103,0.0410880150546766,0.0589118684417393
33,0.0420510271846145,0.0593582981658148,0.872880884146006,-0.42433773404499,0.872880884149734,-0.424337734065496,0.0419890694804307,0.0594175230733611
33.5,0.0429585531914302,0.0598473296965096,0.869866311655025,-0.43001579948562,0.869866311658073,-0.43001579950531,0.0428954116771383,0.0599084728256974
34,0.0438710987939886,0.0603216216767981,0.866816959720085,-0.435672438182261,0.866816959722482,-0.435672438201134,0.0438067817238722,0.0603847123628792
34.5,0.0447884063873188,0.0607811739937921,0.863732889978178,-0.441307421791691,0.863732889979955,-0.441307421809751,0.044722922469935,0.0608462412385686
35,0.045710221243942,0.0612259912664556,0.860614172050539,-0.446920519970525,0.860614172051725,-0.446920519987775,0.045643579622223,0.0612930637379895
35.5,0.0466362915936264,0.0616560826860393,0.857460883256634,-0.452511500828415,0.857460883257256,-0.452511500844858,0.0465685018255203,0.0617251887193636
36,0.047566368696121,0.0620714618562508,0.854273108330787,-0.458080131342215,0.854273108330872,-0.458080131357857,0.0474974407358095,0.0621426294550372
36.5,0.0485002069069658,0.0624721466334348,0.851050939142603,-0.46362617773426,0.851050939142177,-0.463626177749107,0.0484301510867119,0.0625454034725762
37,0.049437563736503,0.0628581589670334,0.847794474422124,-0.469149405817644,0.847794474421212,-0.469149405831703,0.049366390749152,0.0629335323960928
37.5,0.0503781999021977,0.0632295247405852,0.844503819490439,-0.474649581311203,0.844503819489065,-0.474649581324482,0.0503059207843835,0.0633070417880643
38,0.0513218793744141,0.0635862736135034,0.84117908599633,-0.480126470126649,0.841179085994517,-0.480126470139155,0.0512485054904946,0.0636659609918809
38.5,0.0522683694157758,0.0639284388638754,0.837820391659384,-0.48557983863014,0.837820391657154,-0.485579838641883,0.0521939124425297,0.0640103229753675
39,0.0532174406142552,0.0642560572325013,0.834427860019872,-0.491009453880384,0.834427860017247,-0.491009453891372,0.0531419125263708,0.0643401641754932
39.5,0.0541688669101456,0.0645691687683992,0.831001620195627,-0.496415083845167,0.831001620192626,-0.496415083855411,0.0540922799665251,0.0646555243444938
40,0.0551224256170734,0.0648678166759662,0.827541806646027,-0.501796497598101,0.827541806642669,-0.50179649760761,0.0550447923479726,0.0649564463976043
40.5,0.0560778974372008,0.0651520471640004,0.824048558943159,-0.507153465497182,0.824048558939465,-0.507153465505967,0.0559992306322287,0.0652429762625925
41,0.0570350664707961,0.0654219092967644,0.82052202155017,-0.512485759346659,0.820522021546157,-0.512485759354731,0.056955379167787,0.0655151627312877
41.5,0.057993720220331,0.0656774548472587,0.816962343606737,-0.517793152543555,0.816962343602422,-0.517793152550925,0.0579130256951044,0.0657730573132659
42,0.0589536495892748,0.0659187381528775,0.813369678721605,-0.523075420210099,0.813369678717004,-0.52307542021678,0.0588719613462966,0.0660167140918617
42.5,0.059914648875765,0.0661458159735903,0.809744184772055,-0.528332339313205,0.809744184767184,-0.528332339319207,0.0598319806397161,0.0662461895826586
43,0.0608765157613214,0.066358747352803,0.806086023710182,-0.533563688772035,0.806086023705056,-0.53356368877737,0.0607928814695841,0.0664615425945995
43.5,0.0618390512947843,0.0665575934810216,0.802395361375815,-0.538769249554612,0.802395361370449,-0.538769249559293,0.0617544650908458,0.0666628340938531
44,0.0628020598716539,0.0667424175624513,0.79867236731592,-0.543948804764357,0.798672367310326,-0.543948804768396,0.0627165360994316,0.0668501270705657
44.5,0.0637653492090044,0.0669132846846466,0.794917214610288,-0.549102139717342,0.794917214604479,-0.549102139720751,0.0636789024080918,0.0670234864086053
45,0.0647287303161533,0.0670702616913127,0.791130079703348,-0.554229042011005,0.791130079697337,-0.554229042013797,0.0646413752179847,0.0671829787584131
45.5,0.065692017461263,0.0672134170583656,0.787311142241887,-0.559329301584992,0.787311142235686,-0.55932930158718,0.0656037689861895,0.067328672413059
46,0.0666550281340514,0.0673428207733312,0.783460584918498,-0.564402710774743,0.783460584912116,-0.564402710776339,0.0665659013893216,0.0674606371875917
46.5,0.0676175830047837,0.067458544218177,0.779578593320551,-0.569449064358387,0.779578593314,-0.569449064359405,0.0675275932834207,0.0675789443017674
47,0.0685795058797259,0.0675606600556408,0.775665355784514,-0.574468159597458,0.775665355777803,-0.57446815959791,0.0684886686602886,0.0676836662662296
47.5,0.0695406236532272,0.0676492421191325,0.771721063255403,-0.579459796271909,0.771721063248542,-0.579459796271807,0.0694489546004429,0.0677748767722171
48,0.0705007662566053,0.0677243653062604,0.767745909151213,-0.584423776709857,0.767745909144211,-0.584423776709215,0.0704082812228549,0.0678526505848461
48.5,0.0714597666040025,0.0677861054760449,0.763740089232101,-0.589359905812453,0.763740089224966,-0.589359905811284,0.0713664816316483,0.0679170634400391
49,0.0724174605353837,0.0678345393498621,0.759703801474192,-0.59426799107425,0.759703801466933,-0.594267991072566,0.0723233918599116,0.0679681919451345
49.5,0.0733736867568334,0.0678697444161573,0.755637245947799,-0.599147842599386,0.755637245940422,-0.5991478425972,0.073278850810797,0.068006113483229
50,0.074328286778321,0.067891798838969,0.751540624699906,-0.603999273113912,0.751540624692418,-0.603999273111236,0.0742327001960603,0.0680309061212814
50.5,0.075281104849094,0.0679007813702895,0.747414141640752,-0.608822097974526,0.74741414163316,-0.608822097971373,0.0751847844722033,0.0680426485220179
51,0.0762319878908473,0.0678967712662887,0.743258002434366,-0.613616135173984,0.743258002426678,-0.613616135170368,0.0761349507743743,0.0680414198596575
51.5,0.0771807854288383,0.0678798482074201,0.739072414392893,-0.618381205343424,0.739072414385112,-0.618381205339356,0.0770830488481767,0.0680272997394836
52,0.0781273495210836,0.067850092222429,0.734857586374572,-0.623117131751815,0.734857586366707,-0.623117131747307,0.0780289309795388,0.0680003681212756
52.5,0.0790715346857984,0.0678075836162676,0.73061372868525,-0.627823740302741,0.730613728677303,-0.627823740297806,0.0789724519227915,0.0679607052466168
53,0.0800131978272174,0.0677524029019301,0.726341052983262,-0.6325008595287,0.72634105297524,-0.632500859523351,0.0799134688270965,0.0679083915700842
53.5,0.0809521981599415,0.0676846307362102,0.722039772187596,-0.637148320583095,0.722039772179502,-0.637148320577343,0.0808518411613706,0.0678435076943266
54,0.0818883971319542,0.0676043478593779,0.717710100389192,-0.641765957230059,0.717710100381032,-0.641765957223916,0.0817874306378412,0.0677661343090328
54.5,0.0828216583464404,0.0675116350387787,0.713352252765282,-0.646353605832285,0.713352252757059,-0.646353605825763,0.0827201011343682,0.067676352133787
55,0.0837518474825447,0.0674065730163478,0.70896644549665,-0.650911105336968,0.708966445488368,-0.65091110533008,0.0836497186156738,0.0675742418648103
55.5,0.0846788322152007,0.0672892424600214,0.704552895687725,-0.655438297260004,0.704552895679387,-0.65543829725276,0.0845761510535998,0.067459884125577
56,0.0856024821341618,0.0671597239190527,0.70011182128939,-0.659935025668547,0.700111821281001,-0.65993502566096,0.0854992683465288,0.0673333594213
56.5,0.0865226686623542,0.0670180977831997,0.695643441024439,-0.664401137162042,0.695643441016002,-0.664401137154123,0.0864189422380896,0.0671947480972677
57,0.0874392649736888,0.0668644442457846,0.69114797431557,-0.66883648085182,0.691147974307087,-0.668836480843581,0.0873350462352738,0.0670441303010273
57.5,0.0883521459104377,0.0666988432705963,0.686625641215846,-0.67324090833936,0.686625641207321,-0.673240908330811,0.0882474555260808,0.0668815859483893
58,0.0892611879003085,0.0665213745626235,0.682076662341547,-0.677614273693291,0.682076662332983,-0.677614273684444,0.0891560468968129,0.0667071946932408
58.5,0.0901662688733248,0.0663321175425974,0.677501258807326,-0.681956433425222,0.677501258798724,-0.681956433416088,0.0900606986491334,0.0665210359011497
59,0.0910672681786341,0.066131151325314,0.672899652163603,-0.686267246464473,0.672899652154967,-0.686267246455063,0.0909612905170021,0.0663231886267302
59.5,0.0919640665013507,0.0659185547017275,0.668272064336145,-0.690546574131763,0.668272064327477,-0.690546574122088,0.0918577035836081,0.0661137315947621
60,0.0928565457795517,0.0656944061247681,0.663618717567735,-0.694794280111947,0.663618717559038,-0.694794280102017,0.0927498201983943,0.0658927431850255
60.5,0.0937445891215292,0.0654587836988854,0.658939834361908,-0.699010230425825,0.658939834353183,-0.699010230415651,0.0936375238943019,0.0656603014208384
61,0.0946280807234127,0.0652117651732601,0.654235637428663,-0.703194293401115,0.654235637419913,-0.703194293390708,0.0945206993053262,0.0654164839612625
61.5,0.0955069057872622,0.0649534279386823,0.649506349632123,-0.707346339642622,0.64950634962335,-0.707346339631993,0.0953992320844992,0.0651613680969591
62,0.0963809504397506,0.064683849028052,0.644752193940076,-0.711466242001657,0.644752193931282,-0.711466241990815,0.0962730088224011,0.0648950307496615
62.5,0.0972501016515195,0.0644031051204766,0.639973393375349,-0.715553875544749,0.639973393366536,-0.715553875533706,0.0971419169663021,0.0646175484752379
63,0.0981142471573336,0.0641112725489289,0.635170170968977,-0.719609117521714,0.635170170960148,-0.719609117510479,0.0980058447400429,0.0643289974703187
63.5,0.0989732753771236,0.063808427311447,0.63034274971512,-0.723631847333092,0.630342749706277,-0.723631847321675,0.098864681064751,0.0640294535824526
64,0.0998270753380235,0.0634946450858292,0.625491352527677,-0.72762194649701,0.625491352518822,-0.727621946485422,0.0997183154804969,0.0637189923237646
