"Freq [GHz]","re(St(P1,P1)) []","im(St(P1,P1)) []","re(St(P1,P2)) []","im(St(P1,P2)) []","re(St(P2,P1)) []","im(St(P2,P1)) []","re(St(P2,P2)) []","im(St(P2,P2)) []"
0,0.00508567569073648,0,0.994931352892309,0,0.99493135328521,0,0.00508566998763627,0
0.5,0.00569164006986966,-0.00106208574963063,0.994226697163544,-0.00852813157090537,0.994226698468317,-0.00852813174365252,0.00569163398479589,-0.0010620313967884
1,0.00618651153475369,-0.00288272783667409,0.993468512236003,-0.016284841025147,0.993468511997879,-0.0162848406991003,0.00618650550466171,-0.00288262473453216
1.5,0.00642660793134731,-0.00486101438971076,0.992809193197031,-0.023841863707414,0.992809193155072,-0.0238418634285331,0.00642659161965575,-0.00486085428094896
2,0.00648106282396732,-0.00685203205127038,0.992189139041667,-0.0313376869563839,0.992189139089573,-0.0313376867872677,0.00648106241085777,-0.00685180379276851
2.5,0.00642895599842586,-0.00881530564861421,0.99153856353067,-0.0388068855225043,0.991538563594835,-0.0388068854483006,0.00642899438755506,-0.00881502230218523
3,0.00630885326135466,-0.0107485893318131,0.990828616111593,-0.0462457510812921,0.990828616157162,-0.046245751066964,0.00630894327935216,-0.0107482739789333
3.5,0.00613956253341508,-0.0126553925524195,0.990050951297472,-0.0536465778886939,0.990050951315221,-0.0536465779001958,0.00613970785291729,-0.0126550721209657
4,0.00593123283074259,-0.014539036963793,0.989205821443294,-0.0610040123939957,0.989205821438797,-0.0610040124052329,0.00593142922063583,-0.0145387394055945
4.5,0.00569007166556323,-0.0164019524736485,0.988296706314528,-0.0683155260257742,0.988296706300534,-0.0683155260202337,0.00569030794648118,-0.0164017050447818
5,0.00542037243252569,-0.0182458796939278,0.987327905636662,-0.0755807792825545,0.987327905627797,-0.0755807792526806,0.00542063131295523,-0.0182457076464848
5.5,0.00512542825808948,-0.0200721415770717,0.986303466583948,-0.0828008936162457,0.986303466593189,-0.0828008935617603,0.00512568719100548,-0.0200720670793642
6,0.0048079628711768,-0.0218818467141819,0.985226748847874,-0.0899778447845003,0.985226748884379,-0.0899778447102841,0.00480819498720941,-0.0218818879663507
6.5,0.00447034022504578,-0.0236760227212161,0.984100306749433,-0.0971140077860539,0.984100306817432,-0.097114007700025,0.00447051534603415,-0.0236761932715641
7,0.00411466791713067,-0.0254556983498588,0.982925927361646,-0.104211838239852,0.982925927460101,-0.104211838151055,0.00411475362722724,-0.0254560066207494
7.5,0.00374284797414948,-0.0272219508854965,0.981704738455849,-0.111273664294737,0.981704738578651,-0.111273664211735,0.0037428107142059,-0.0272223999104586
8,0.00335660124945725,-0.0289759306386488,0.980437339217957,-0.1183015626235,0.980437339354449,-0.118301562553149,0.00335640739784576,-0.0289765180030992
8.5,0.00295747882718012,-0.030718870524777,0.979123928784824,-0.125297295134419,0.979123928920495,-0.125297295080968,0.00295709573281461,-0.0307195884944136
9,0.00254686745346433,-0.0324520861147501,0.977764420556591,-0.132262287323827,0.977764420673834,-0.132262287288349,0.00254626439226047,-0.0324529219292966
9.5,0.00212599270188993,-0.0341769698093,0.976358537718392,-0.139197633571238,0.976358537797237,-0.139197633551275,0.00212514173470832,-0.0341779061151932
10,0.00169592178928293,-0.0358949816404941,0.974905889549126,-0.146104118587836,0.974905889567936,-0.146104118577248,0.00169479850660925,-0.0358959970343049
10.5,0.00123295498356754,-0.0376522159083361,0.973392770958598,-0.153016361014312,0.973392770978208,-0.153016361006557,0.00123160498240174,-0.0376532446635478
11,0.000747762673101088,-0.039403955035398,0.97183656558647,-0.159894912687616,0.971836565606549,-0.159894912682657,0.000746175446916908,-0.0394049916855601
11.5,0.00024039704651635,-0.041149936252534,0.970238396522918,-0.166741115802428,0.970238396543161,-0.166741115800202,0.000238562169083578,-0.0411509750730965
12,-0.000289087049231598,-0.0428898966813525,0.968599171042157,-0.173556264753795,0.968599171062284,-0.173556264754207,-0.000291179919822651,-0.0428909316900667
12.5,-0.000840632078711115,-0.0446235733390719,0.966919605572455,-0.180341588688165,0.966919605592214,-0.180341588691094,-0.000842993195989725,-0.0446245982964375
13,-0.00141417778683287,-0.0463507031446677,0.965200249966876,-0.187098238841934,0.965200249986043,-0.187098238847243,-0.00141681731185381,-0.0463517115544314
13.5,-0.00200966116665766,-0.0480710229263512,0.963441510542682,-0.193827279969191,0.963441510561062,-0.193827279976732,-0.00201258916386821,-0.0480720080360486
14,-0.00262701642624702,-0.0497842694304347,0.961643671534254,-0.200529685185598,0.961643671551677,-0.200529685195208,-0.00263024285932284,-0.0497852242319734
14.5,-0.00326617495460424,-0.0514901793316129,0.959806914748587,-0.207206333604004,0.959806914764911,-0.207206333615515,-0.00326970968224466,-0.0514910965619215
15,-0.00392706528673309,-0.0531884892447283,0.957931337325888,-0.213858010199602,0.957931337340995,-0.213858010212846,-0.00393091805842266,-0.0531893613864614
15.5,-0.00460961306787577,-0.0548789357380524,0.956016967593866,-0.220485407411024,0.956016967607658,-0.22048540742583,-0.00461379351960897,-0.0548797550203455
16,-0.00531374101697082,-0.0565612553481323,0.95406377906699,-0.227089128053101,0.95406377907939,-0.227089128069301,-0.00531825866694371,-0.0565620137474303
16.5,-0.0060393688893865,-0.0582351845962434,0.952071702685259,-0.233669689183797,0.952071702696211,-0.233669689201225,-0.00604423313364733,-0.0582358738371944
17,-0.00678641343896319,-0.0599004600064865,0.950040637414783,-0.240227526629364,0.950040637424246,-0.240227526647861,-0.00679163354703655,-0.0599010715629018
17.5,-0.00755478837945189,-0.0615568181255872,0.947970459348038,-0.246762999927217,0.947970459355989,-0.246762999946629,-0.00756037348992367,-0.0615573432214869
18,-0.00834440434536232,-0.0632039955444172,0.945861029448249,-0.253276397494348,0.945861029454675,-0.253276397514527,-0.00835036346143625,-0.0632044251551425
18.5,-0.00915516885230883,-0.0648417289212713,0.943712200082071,-0.259767941870893,0.943712200086973,-0.259767941891698,-0.00916151083732819,-0.064842053774687
19,-0.00998698625689265,-0.066469755006962,0.941523820479984,-0.266237794923606,0.941523820483372,-0.266237794944906,-0.00999371982983782,-0.0664699655847505
19.5,-0.0108397577161954,-0.0680878106717553,0.939295741255835,-0.272686062923183,0.939295741257731,-0.272686062944853,-0.0108468914471479,-0.0680878972107841
20,-0.0117133811469236,-0.069695632934152,0.937027818107243,-0.279112801433363,0.937027818107673,-0.279112801455286,-0.0117209234525094,-0.0696955854279597
20.5,-0.0126077511842927,-0.0712929589916005,0.934719914807754,-0.285518019969075,0.934719914806754,-0.285518019991142,-0.0126157103230974,-0.071292767191959
21,-0.0135227591406881,-0.072879526253117,0.932371905590715,-0.291901686396237,0.932371905588324,-0.291901686418347,-0.0135311432086561,-0.0728791796717179
21.5,-0.0144582929641917,-0.0744550723738739,0.929983677013862,-0.29826373105788,0.929983677010128,-0.298263731079941,-0.0144671098900006,-0.07445456028411
22,-0.0154142371970235,-0.0760193352917768,0.927555129383358,-0.304604050620576,0.927555129378327,-0.304604050642502,-0.0154234947374483,-0.0760186467306418
22.5,-0.0163904729339779,-0.0775720532660389,0.925086177806231,-0.310922511642096,0.925086177799956,-0.310922511663809,-0.0164001786692361,-0.0775711770361407
23,-0.0173868777809117,-0.079112964917788,0.922576752931347,-0.317218953866452,0.922576752923883,-0.31721895388788,-0.0173970391100061,-0.0791118895894865
23.5,-0.0184033258133741,-0.0806418092727232,0.920026801430928,-0.32349319325611,0.920026801422331,-0.323493193277189,-0.018413949949423,-0.0806405231863925
24,-0.0194396875354271,-0.0821583258058329,0.917436286267444,-0.329745024773705,0.917436286257771,-0.329745024794377,-0.0194507815009968,-0.082156817074257
24.5,-0.0204958298387511,-0.0836622544881944,0.914805186784273,-0.33597422492716,0.914805186773584,-0.335974224947373,-0.0205074004611876,-0.083660510999094
25,-0.0215716159620918,-0.0851533358358614,0.912133498652894,-0.342180554093011,0.912133498641248,-0.342180554112718,-0.0215836698688595,-0.0851513452545636
25.5,-0.0226669054511398,-0.0866313109608541,0.909421233704403,-0.348363758633094,0.909421233691859,-0.348363758652253,-0.0226794490651706,-0.0866290607331075
26,-0.0237815541189077,-0.0880959216242543,0.906668419668892,-0.354523572819679,0.906668419655508,-0.354523572838255,-0.0237945936539666,-0.0880933989791934
26.5,-0.0249154140066863,-0.0895469102914122,0.903875099842463,-0.360659720583805,0.903875099828299,-0.360659720601766,-0.0249289554627559,-0.0895441022446757
27,-0.0260683333456587,-0.0909840201892658,0.901041332698473,-0.366771917101023,0.901041332683587,-0.366771917118341,-0.0260823825043524,-0.090980913546272
27.5,-0.0272401565192515,-0.0924069953657651,0.89816719145684,-0.372859870228053,0.898167191441289,-0.372859870244708,-0.0272547189392532,-0.0924035767251581
28,-0.0284307240262983,-0.0938155807514118,0.895252763622904,-0.378923281803115,0.895252763606743,-0.378923281819086,-0.0284458050388475,-0.09381183650867
28.5,-0.0296398724451029,-0.095209522222879,0.892298150505313,-0.384961848821823,0.892298150488598,-0.384961848837095,-0.0296554771495163,-0.0952054385741032
29,-0.0308674343984746,-0.0965885666687365,0.889303466720735,-0.390975264499761,0.88930346670352,-0.390975264514322,-0.0308835676577218,-0.0965841296146137
29.5,-0.0321132385198253,-0.0979524620572327,0.886268839691728,-0.396963219231984,0.886268839674065,-0.396963219245825,-0.0321299049561622,-0.0979476574071858
30,-0.0333771094204005,-0.0993009575061292,0.883194409142911,-0.40292540145887,0.883194409124851,-0.402925401471986,-0.0333943134110632,-0.0992957708826594
30.5,-0.0346588676577305,-0.10063380335458,0.880080326599554,-0.408861498447024,0.880080326581146,-0.408861498459411,-0.034676613330705,-0.100628220197796
31,-0.0359583297053889,-0.101950751237002,0.876926754891832,-0.414771196993137,0.876926754873125,-0.414771197004795,-0.0359766209352558,-0.101944756809357
31.5,-0.0372753079241207,-0.103251554158926,0.873733867667325,-0.420654184058054,0.873733867648365,-0.420654184068983,-0.037294148327993,-0.103245133550157
32,-0.0386096105344492,-0.104535966574802,0.870501848913685,-0.42651014733762,0.870501848894516,-0.426510147347825,-0.038629003467997,-0.104529104707082
32.5,-0.0399610415908095,-0.105803744467696,0.867230892492969,-0.432338775776311,0.867230892473634,-0.432338775785797,-0.0399809901443973,-0.105796426100998
33,-0.0413294009573227,-0.107054645430869,0.863921201688675,-0.438139760029077,0.863921201669216,-0.438139760037853,-0.0413499079522506,-0.107046855168558
33.5,-0.0427144842852596,-0.108288428751165,0.860572988766227,-0.4439127928763,0.860572988746684,-0.443912792884374,-0.0427355522701334,-0.108280151045814
34,-0.0441160829922918,-0.109504855494178,0.857186474547373,-0.449657569596347,0.857186474527784,-0.44965756960373,-0.0441377142395186,-0.109496074653624
34.5,-0.0455339842436018,-0.110703688591143,0.853761887998709,-0.455373788299736,0.853761887979111,-0.45537378830644,-0.0455561807460277,-0.110694388784771
35,-0.046967970934926,-0.111884692927473,0.850299465834431,-0.461061150228544,0.850299465814858,-0.461061150234583,-0.0469907344026244,-0.111874858192762
35.5,-0.0484178216776102,-0.11304763543291,0.846799452133208,-0.466719360024357,0.846799452113693,-0.466719360029744,-0.0484411535348256,-0.113037249682219
36,-0.0498833107857463,-0.114192285173192,0.843262097969008,-0.472348125967713,0.843262097949585,-0.472348125972464,-0.0499072121680141,-0.11418133220082
36.5,-0.0513642082654671,-0.115318413443197,0.839687661055603,-0.477947160191733,0.8396876610363,-0.477947160195864,-0.0513886800169088,-0.115306876932694
37,-0.0528602798064621,-0.116425793861442,0.836076405404403,-0.483516178872321,0.83607640538525,-0.483516178875851,-0.0528853224772718,-0.116413657393212
37.5,-0.0543712867757917,-0.117514202465907,0.83242860099526,-0.489054902397138,0.832428600976284,-0.489054902400084,-0.0543969006199249,-0.117501449525078
38,-0.0558969862140541,-0.118583417811047,0.8287445234598,-0.494563055515288,0.828744523441027,-0.494563055517669,-0.0559231711871254,-0.118570031795646
38.5,-0.0574371308339792,-0.119633221065934,0.82502445377686,-0.5000403674695,0.825024453758314,-0.500040367471334,-0.0574638865913877,-0.119619185295356
39,-0.0589914690215019,-0.120663396113411,0.82126867797957,-0.505486572112382,0.821268677961273,-0.505486572113689,-0.0590187949167822,-0.120648693837197
39.5,-0.0605597448393769,-0.12167372965016,0.817477486873618,-0.5109014080082,0.817477486855593,-0.510901408009002,-0.0605876399227997,-0.121658344057101
40,-0.0621416980333848,-0.122664011287569,0.813651175766251,-0.51628461852147,0.813651175748517,-0.516284618521787,-0.0621701610508091,-0.122647925515136
40.5,-0.0637370640411906,-0.123634033653286,0.809790044205544,-0.521635951893524,0.80979004418812,-0.521635951893375,-0.0637660934331794,-0.123617230797402
41,-0.0653455740038912,-0.124583592493331,0.805894395729502,-0.526955161308119,0.805894395712406,-0.526955161307526,-0.0653751679051086,-0.124566055618506
41.5,-0.0669669547803057,-0.125512486774632,0.801964537624562,-0.53224200494703,0.80196453760781,-0.532242004946015,-0.0669971110191884,-0.125494198924461
42,-0.0686009289640447,-0.126420518787865,0.798000780693063,-0.537496246036496,0.79800078067667,-0.53749624603508,-0.0686316450627768,-0.126401462995909
42.5,-0.0702472149033984,-0.127307494250421,0.794003439029293,-0.542717652885277,0.794003439013274,-0.542717652883482,-0.0702784880781839,-0.127287653551496
43,-0.0719055267240741,-0.12817322240938,0.789972829803718,-0.547905998915047,0.789972829788083,-0.547905998912895,-0.0719373538857254,-0.128152579851258
43.5,-0.0735755743548171,-0.129017516144308,0.785909273055012,-0.553061062683743,0.785909273039774,-0.553061062681256,-0.0736079521096575,-0.128996054799853
44,-0.0752570635559341,-0.129840192069718,0.781813091489549,-0.55818262790245,0.78181309147472,-0.558182627899649,-0.0752899882070296,-0.129817895049483
44.5,-0.0769496959507452,-0.130641070637002,0.77768461028801,-0.563270483446332,0.777684610273597,-0.563270483443239,-0.0769831634994668,-0.130617921102308
45,-0.0786531690599795,-0.131419976235666,0.773524156918769,-0.568324423360108,0.773524156904781,-0.568324423356743,-0.0786871752078974,-0.131395957412181
45.5,-0.080367176339128,-0.13217673729365,0.769332060957783,-0.573344246858459,0.769332060944228,-0.573344246854845,-0.080401716490247,-0.132151832485501
46,-0.082091407218757,-0.132911186376525,0.765108653914672,-0.578329758321799,0.765108653901555,-0.578329758317958,-0.0821264764820875,-0.132885378980973
46.5,-0.083825547147799,-0.133623160285357,0.760854269064722,-0.583280767287734,0.76085426905205,-0.583280767283685,-0.083861140340263,-0.13359643380806
47,-0.0855692776398091,-0.134312500152979,0.756569241286566,-0.588197088438529,0.756569241274342,-0.588197088434294,-0.085605389289479,-0.134284838223891
47.5,-0.0873222763221936,-0.134979051538451,0.752253906905274,-0.593078541584908,0.752253906893502,-0.593078541580507,-0.0873589006718513,-0.134950437928376
48,-0.0890842169883996,-0.135622664519411,0.747908603540653,-0.597924951646413,0.747908603529336,-0.597924951641866,-0.0891213479994128,-0.135593083157275
48.5,-0.0908547696530697,-0.136243193782072,0.743533669960513,-0.602736148628589,0.743533669949652,-0.602736148623916,-0.0908924010095565,-0.136212628772937
49,-0.0926336006101333,-0.13684049870853,0.739129445938717,-0.607511967597222,0.739129445928313,-0.607511967592444,-0.0926717257234106,-0.13680893435242
49.5,-0.0944203724938511,-0.137414443461098,0.734696272117811,-0.612252248649819,0.734696272107865,-0.612252248644955,-0.0944589845071269,-0.137381864272673
50,-0.0962147443427805,-0.137964897063315,0.730234489876061,-0.616956836884524,0.730234489866572,-0.616956836879593,-0.0962538361360644,-0.137931287792456
50.5,-0.0980163716666704,-0.138491733477259,0.725744441198719,-0.621625582366649,0.725744441189686,-0.621625582361669,-0.0980559358618606,-0.138457079130635
51,-0.0998249065162797,-0.138994831676809,0.721226468553372,-0.626258340092965,0.721226468544793,-0.626258340087954,-0.0998649354823747,-0.138959117540479
51.5,-0.101639997556117,-0.139474075716411,0.716680914769214,-0.630854969953916,0.716680914761087,-0.630854969948893,-0.101680483414495,-0.139437287379542
52,-0.103461290140121,-0.139929354794936,0.712108122920103,-0.63541533669387,0.712108122912425,-0.635415336688852,-0.103502224769817,-0.139891478174714
52.5,-0.105288426390303,-0.140360563314141,0.707508436211273,-0.639939309869555,0.707508436204039,-0.639939309864558,-0.105329801433192,-0.140321584681955
53,-0.107121045278385,-0.140767600931232,0.702882197869576,-0.644426763806772,0.702882197862781,-0.644426763801814,-0.107162852144185,-0.140727506940222
53.5,-0.108958782710505,-0.141150372604989,0.698229751037131,-0.648877577555516,0.698229751030771,-0.648877577550613,-0.109001012581462,-0.14110915031904
54,-0.110801271615054,-0.141508788634854,0.693551438668289,-0.653291634843586,0.693551438662358,-0.653291634838752,-0.110843915450188,-0.141466425559152
54.5,-0.112648142033777,-0.141842764692373,0.688847603429776,-0.657668824028786,0.688847603424269,-0.657668824024038,-0.112691190572526,-0.141799248805604
55,-0.11449902121629,-0.142152221844294,0.684118587603959,-0.662009038049805,0.684118587598868,-0.662009038045157,-0.114542464981351,-0.142107541632599
55.5,-0.116353533718199,-0.142437086566602,0.679364732995107,-0.666312174375856,0.679364732990425,-0.666312174371321,-0.116397363017362,-0.142391231059393
56,-0.118211301503099,-0.142697290748703,0.674586380838579,-0.670578134955146,0.674586380834299,-0.670578134950739,-0.118255506429817,-0.14265024955644
56.5,-0.120071944048775,-0.142932771686909,0.669783871712856,-0.674806826162259,0.669783871708971,-0.674806826157993,-0.120116514481173,-0.142884535040944
57,-0.121935078458017,-0.143143472066328,0.664957545454336,-0.678998158744512,0.664957545450836,-0.6789981587404,-0.121980004056015,-0.143094030860904
57.5,-0.123800319574575,-0.143329339930171,0.660107741074811,-0.68315204776735,0.660107741071687,-0.683152047763403,-0.123845589774724,-0.143278685766668
58,-0.125667280104876,-0.143490328635443,0.655234796681581,-0.687268412558843,0.655234796678826,-0.687268412555073,-0.125712884112488,-0.143438453868939
58.5,-0.12753557074631,-0.143626396793922,0.650339049400113,-0.691347176653339,0.650339049397717,-0.691347176649757,-0.127581497524344,-0.143573294582103
59,-0.129404800323012,-0.143737508197223,0.6454208352992,-0.695388267734337,0.645420835297152,-0.695388267730954,-0.129451038577174,-0.143683172551683
59.5,-0.131274575930329,-0.14382363172474,0.640480489318552,-0.699391617576611,0.640480489316842,-0.699391617573437,-0.131321114089704,-0.143768057564618
60,-0.133144503089346,-0.143884741233139,0.635518345198766,-0.703357161987667,0.635518345197385,-0.70335716198471,-0.133191329281841,-0.143827924441028
60.5,-0.135014185913167,-0.143920815426084,0.630534735413632,-0.707284840748548,0.630534735412569,-0.707284840745817,-0.135061287934918,-0.143862752906068
61,-0.136883227286966,-0.1439318377028,0.625529991104701,-0.711174597554052,0.625529991103945,-0.711174597551556,-0.136930592564769,-0.143872527440354
61.5,-0.138751229064184,-0.143917795984106,0.620504442018089,-0.715026379952407,0.62050444201763,-0.715026379950154,-0.13879884460992,-0.143857237107533
62,-0.140617792281747,-0.143878682514547,0.615458416443463,-0.718840139284431,0.615458416443288,-0.718840139282427,-0.14066564463761,-0.143816875357434
62.5,-0.142482517397647,-0.143814493639358,0.610392241155154,-0.722615830622232,0.610392241155253,-0.722615830620483,-0.14253059257091,-0.143751439803392
63,-0.144345004554841,-0.143725229555089,0.605306241355382,-0.726353412707477,0.605306241355744,-0.72635341270599,-0.144393287940754,-0.143660931972321
