"Freq [GHz]","re(St(P1,P1)) []","im(St(P1,P1)) []","re(St(P1,P2)) []","im(St(P1,P2)) []","re(St(P2,P1)) []","im(St(P2,P1)) []","re(St(P2,P2)) []","im(St(P2,P2)) []"
0,0.00471316962858737,0,0.995296284381766,0,0.995296296852757,0,0.00471317687640749,0
0.5,0.00516527669334721,0.000558910612941332,0.994704502348299,-0.00846648933905314,0.994704503249011,-0.00846648100946723,0.00516506455815602,0.00055983894176137
1,0.00551440288270477,0.000551909658931038,0.993989399230188,-0.0163239572831451,0.993989400372486,-0.0163239549915595,0.00551382139498102,0.00055407733582058
1.5,0.00540921493260438,0.000801644636680976,0.993278248609131,-0.0242602273367183,0.993278250620746,-0.0242602246928953,0.00540799204899489,0.000804580154124324
2,0.00526995758022153,0.00102117898774168,0.99240845646189,-0.0319942400477178,0.992408459125992,-0.0319942375690676,0.00526804782525492,0.00102458114684545
2.5,0.00510405785047352,0.00120220918998371,0.991448645029268,-0.0395341618058662,0.991448647964858,-0.0395341597989454,0.00510158798628391,0.00120579738018733
3,0.00492055241425682,0.00133732693784339,0.990445046570871,-0.0469077318791378,0.990445049393109,-0.0469077304393615,0.00491782217815162,0.00134093306166072
3.5,0.00473025645297143,0.00141960711593647,0.989422116586951,-0.0541477883942481,0.989422118999301,-0.0541477874748839,0.00472770721737881,0.00142328791689472
4,0.00454666191414299,0.00144197099232812,0.98838833228588,-0.0612838788861101,0.988388334106681,-0.0612838783734579,0.00454479344669512,0.00144615377684243
4.5,0.00438825838372625,0.00139657643151025,0.98734244400673,-0.0683391016751198,0.987342445158419,-0.0683391014418895,0.004387433278491,0.00140225831409246
5,0.00428365350884174,0.00127516034635278,0.98627822225873,-0.0753299574805002,0.986278222743874,-0.0753299574147261,0.00428362361999113,0.00128415504278045
5.5,0.00428201272714712,0.00107372862061261,0.985187471026528,-0.0822674455101948,0.985187470903726,-0.0822674455264671,0.00428076420993684,0.00108874816568161
6,0.00447083345669297,0.000813503328745746,0.984061714043056,-0.0891584243509262,0.984061713407537,-0.0891584243914672,0.00446208451403873,0.000836867974077116
6.5,0.00498304236441388,0.000612068809760835,0.982893030336436,-0.096006821854405,0.982893029305971,-0.0960068218853278,0.00495366963428234,0.000638619696412768
7,0.00586397524041743,0.000825650497932706,0.981674400503925,-0.10281457699195,0.98167439920915,-0.102814576997901,0.0058072578964829,0.000826532218292542
7.5,0.00660423120403658,0.00187753165785853,0.980399794850246,-0.109582323789567,0.980399793428183,-0.109582323768342,0.00656586330036463,0.00182498799098063
8,0.00639652876125507,0.00327337301713415,0.979064137515582,-0.116309867680348,0.979064136105322,-0.116309867638207,0.00641928017882243,0.00322192770785223
8.5,0.0055297574575717,0.00411460702277067,0.977663219192276,-0.122996508072877,0.977663217932103,-0.122996508020777,0.00557141428276869,0.00410658264266051
9,0.0046604427430391,0.00438858957565103,0.976193595264798,-0.129641252031276,0.976193594290216,-0.129641251982003,0.00468803224386908,0.00440774416027745
9.5,0.00398511007236598,0.00438982441767166,0.974652486602182,-0.136242952927457,0.974652486044552,-0.136242952893575,0.00399535198157577,0.00441725324905695
10,0.00348066755614333,0.00429050293447242,0.973037690004881,-0.142800398328625,0.973037689990441,-0.142800398321078,0.00347834778818416,0.00431752260135232
10.5,0.00357009444967625,0.00449641232854781,0.971525568977864,-0.149401182883055,0.971525568963798,-0.149401182877666,0.00357135725517854,0.00452474522238822
11,0.00366387105217034,0.00470105348578498,0.969986545771584,-0.155964057041359,0.969986545757645,-0.155964057038048,0.00366887538882599,0.00473070097627515
11.5,0.00376199476337319,0.00490436453315235,0.968421605745963,-0.162491708373503,0.968421605731932,-0.16249170837217,0.00377089705685274,0.00493532971016775
12,0.00386446267426044,0.00510628348420727,0.966831411724737,-0.168986659706055,0.966831411710422,-0.16898665970658,0.00387741663013957,0.00513857139137519
12.5,0.0039712715408923,0.00530674825592259,0.965216353185684,-0.175451253223707,0.965216353170919,-0.175451253225962,0.00398842794490128,0.00534036613466871
13,0.00408241775691656,0.00550569668876388,0.963576591367901,-0.181887642159241,0.963576591352546,-0.181887642163086,0.00410392426250741,0.00554065423254579
13.5,0.00419789732464446,0.00570306657008812,0.961912099887203,-0.188297788481937,0.961912099871143,-0.188297788487227,0.00422389822681335,0.00573937618847209
14,0.00431770582463273,0.0058987956611336,0.960222700741517,-0.194683465189792,0.960222700724658,-0.194683465196383,0.00434834181887675,0.00593647275325937
14.5,0.0044418383837069,0.0060928217277878,0.958508095797083,-0.201046262016198,0.958508095779352,-0.201046262023945,0.00447724630891425,0.00613188496466899
15,0.0045702896413137,0.00628508257529692,0.956767893987801,-0.207387593561339,0.956767893969146,-0.207387593570097,0.00461060220533518,0.00632555419029357
15.5,0.00470305371411175,0.00647551608717611,0.955001634548378,-0.213708709042985,0.95500163452876,-0.213708709052618,0.00474839920067846,0.0065174221738169
16,0.00484012415866036,0.00666406026848909,0.953208806649594,-0.220010703025583,0.953208806628992,-0.220010703035958,0.00489062611427327,0.00670743108469862
16.5,0.00498149393208297,0.00685065329372225,0.951388865821904,-0.226294526628446,0.951388865800307,-0.226294526639437,0.00503727083140731,0.00689552357132017
17,0.00512715535051506,0.00703523355946478,0.949541247550427,-0.232560998833618,0.949541247527838,-0.232560998845104,0.00518832023878812,0.00708164281760548
17.5,0.00527710004517101,0.00721773974209228,0.947665378407295,-0.238810817612884,0.947665378383726,-0.238810817624753,0.00534376015606308,0.00726573260312358
18,0.0054313189157979,0.00739811086065956,0.945760685061468,-0.245044570673615,0.945760685036939,-0.245044570685763,0.00550357526313078,0.00744773736661997
18.5,0.00558980208127891,0.00757628634522067,0.943826601475626,-0.251262745686992,0.943826601450166,-0.251262745699322,0.00566774902299033,0.00762760227293646
19,0.0057525388271118,0.0077522061107218,0.941862574567332,-0.257465739912143,0.941862574540974,-0.257465739924564,0.00583626359982581,0.00780527328319214
19.5,0.00591951754943965,0.00792581063668862,0.939868068579308,-0.263653869168121,0.939868068552091,-0.263653869180549,0.00600909977202357,0.00798069722810024
20,0.00609072569529862,0.00809704105284248,0.937842568372742,-0.269827376134511,0.937842568344708,-0.269827376146874,0.00618623683981234,0.00815382188423386
20.5,0.00626614969867345,0.00826583923077928,0.935785581828678,-0.275986437982792,0.935785581799874,-0.275986437995018,0.00636765252717791,0.00832459605299363
21,0.0064457749119381,0.00843214788184277,0.933696641516334,-0.282131173355649,0.933696641486809,-0.282131173367677,0.0065533228777257,0.0084929696419811
21.5,0.00662958553218096,0.00859591066124676,0.931575305763653,-0.288261648721948,0.931575305733457,-0.288261648733724,0.00674322214412115,0.00865889374841955
22,0.00681756452189242,0.00875707227850331,0.929421159244609,-0.294377884141739,0.929421159213794,-0.294377884153211,0.00693732267077174,0.00882232074420441
22.5,0.00700969352340314,0.0089155786141184,0.927233813179645,-0.300479858479661,0.927233813148265,-0.300479858490786,0.00713559476937264,0.00898320436202926
23,0.00720595276644315,0.00907137684251258,0.925012905229824,-0.306567514106947,0.925012905197932,-0.306567514117684,0.00733800658699052,0.00914149978205048
23.5,0.00740632096809696,0.00922441556099884,0.922758099151776,-0.312640761132556,0.922758099119426,-0.312640761142873,0.00754452396633709,0.00929716371835942
24,0.00761077522439502,0.00937464492459372,0.920469084268929,-0.318699481203268,0.920469084236174,-0.318699481213135,0.0077551102979192,0.00945015450447784
24.5,0.00781929089270533,0.00952201678635767,0.918145574804703,-0.324743530910956,0.918145574771598,-0.324743530920349,0.00796972636380544,0.00960043217700424
25,0.00803184146404279,0.0096664848428003,0.91578730911505,-0.330772744843401,0.915787309081646,-0.330772744852298,0.00818833017275766,0.00974795855637156
25.5,0.00824839842434355,0.00980800478379762,0.913394048850716,-0.336786938312614,0.913394048817066,-0.336786938320999,0.0084108767865676,0.00989269732359688
26,0.00846893110370894,0.00994653444630011,0.910965578073816,-0.342785909792257,0.910965578039971,-0.342785909800117,0.00863731813750446,0.0100346140917709
26.5,0.00869340651257799,0.0100820339709422,0.908501702348382,-0.348769443093265,0.908501702314391,-0.348769443100588,0.00886760283687038,0.01017367647088
27,0.00892178916375042,0.0102144659604677,0.906002247820535,-0.354737309304309,0.906002247786447,-0.354737309311089,0.00910167597478123,0.0103098541244693
27.5,0.00915404087916377,0.0103437956386743,0.903467060300597,-0.360689268521402,0.903467060266461,-0.360689268527635,0.00933947891143383,0.0104431188164711
28,0.00939012058032956,0.0104699910083272,0.90089600435666,-0.366625071388697,0.900896004322521,-0.36662507139438,0.00958094906027301,0.0105734444464374
28.5,0.00962998406134746,0.0105930230062419,0.898288962426928,-0.372544460470386,0.898288962392831,-0.372544460475521,0.00982601966368246,0.0107008070712737
29,0.00987358374348701,0.0107128656534126,0.895645833956248,-0.378447171471729,0.895645833922237,-0.378447171476318,0.0100746195620255,0.0108251849114624
29.5,0.0101208684103836,0.0108294961977646,0.892966534560797,-0.384332934325345,0.892966534526913,-0.384332934329393,0.01032667295713,0.0109465583396737
30,0.0103717829230651,0.0109428952467652,0.890250995223632,-0.390201474157298,0.890250995189917,-0.390201474160812,0.0105820991715938,0.0110649098495972
30.5,0.0106262679141788,0.0110530468867389,0.887499161522891,-0.396052512146018,0.887499161489383,-0.396052512149005,0.0108408124055974,0.0111802240027694
31,0.0108842594610475,0.0111599387853738,0.884710992893597,-0.401885766285651,0.884710992860335,-0.401885766288123,0.011102721493267,0.0112924873511688
31.5,0.0111456887375013,0.0112635622734976,0.881886461923469,-0.407700952064302,0.881886461890488,-0.40770095206627,0.0113677296610141,0.0114016883333981
32,0.0114104816448155,0.0113639124018061,0.879025553682605,-0.413497783066429,0.879025553649941,-0.413497783067906,0.0116357342906644,0.0115078171423326
32.5,0.0116785584225889,0.0114609879678556,0.876128265086579,-0.419275971507691,0.876128265054265,-0.419275971508691,0.011906626690648,0.0116108655622955
33,0.0119498332409637,0.0115547915082406,0.873194604292187,-0.42503522870964,0.873194604260254,-0.425035228710178,0.0121802918789314,0.0117108267740142
33.5,0.0122242137762946,0.0116453292505712,0.870224590124871,-0.430775265520863,0.870224590093349,-0.430775265520955,0.0124566083818485,0.0118076951259054
34,0.0125016007731834,0.0117326110195989,0.867218251536723,-0.436495792690405,0.867218251505642,-0.436495792690068,0.0127354480534137,0.011901465870642
34.5,0.0127818875967046,0.0118166500916675,0.864175627093836,-0.44219652119873,0.864175627063225,-0.442196521197983,0.0130166759201365,0.0119921348664145
35,0.0130649597797182,0.0118974629915874,0.861096764491738,-0.447877162550855,0.861096764461621,-0.447877162549716,0.0133001500567381,0.0120796982428703
35.5,0.0133506945712959,0.0119750692261404,0.857981720097571,-0.45353742903579,0.857981720067974,-0.453537429034277,0.0135857214985181,0.0121641520324116
36,0.0136389604935631,0.0120494909486683,0.854830558517721,-0.459177033955977,0.854830558488667,-0.459177033954112,0.0138732341963634,0.0122454917682916
36.5,0.0139296169155927,0.0121207525496934,0.851643352189557,-0.464795691830005,0.85164335216107,-0.464795691827807,0.0141625250205782,0.0123237120518446
37,0.0142225136543783,0.0121888801692749,0.848420180996003,-0.47039311857149,0.848420180968102,-0.470393118568981,0.0144534238197316,0.0123988060921468
37.5,0.0145174906143292,0.0122539011278011,0.845161131901653,-0.475969031646757,0.845161131874358,-0.475969031643957,0.014745753540637,0.0124707652224463
38,0.0148143774780912,0.0123158432733372,0.841866298609245,-0.481523150213585,0.841866298582576,-0.481523150210516,0.0150393304152845,0.0125395783988139
38.5,0.0151129934627828,0.0123747342453074,0.838535781235289,-0.487055195243105,0.838535781209263,-0.487055195239789,0.0153339642200904,0.0126052316875925
39,0.0154131471568154,0.0124306006564201,0.835169686003724,-0.492564889626652,0.835169685978357,-0.492564889623112,0.0156294586121384,0.0126677077493624
39.5,0.0157146364533107,0.0124834671971849,0.831768124956549,-0.498051958269212,0.831768124931855,-0.498051958265469,0.0159256115461968,0.012726985328232
40,0.0160172485965979,0.0125333556701795,0.828331215680378,-0.503516128170905,0.828331215656372,-0.503516128166983,0.0162222157751329,0.012783038756279
40.5,0.0163207603582874,0.0125802839643795,0.824859081047977,-0.508957128497791,0.824859081024672,-0.508957128493713,0.0165190594349935,0.0128358374838502
41,0.0166249383588512,0.012624264983228,0.821351848973846,-0.514374690643155,0.821351848951253,-0.514374690638943,0.016815926714412,0.0128853456471285
41.5,0.0169295395494309,0.0126653055436949,0.81780965218299,-0.519768548280273,0.81780965216112,-0.51976854827595,0.0171125986062263,0.012931521684853
42,0.0172343118666124,0.0127034052671299,0.814232627992068,-0.525138437407595,0.814232627970931,-0.525138437403183,0.0174088537372106,0.0129743180162448
42.5,0.0175389950701053,0.012738555486186,0.810620918102142,-0.530484096387128,0.810620918081747,-0.530484096382651,0.0177044692697666,0.0130136807920695
43,0.0178433217696345,0.0127707381952366,0.806974668402322,-0.535805265976766,0.806974668382675,-0.535805265972246,0.0179992218672835,0.0130495497302395
43.5,0.0181470186428591,0.0127999250743474,0.803294028783613,-0.541101689357186,0.803294028764721,-0.541101689352646,0.018292888712739,0.0130818580464679
44,0.0184498078408458,0.012826076618752,0.799579152962349,-0.546373112153904,0.79957915294422,-0.546373112149366,0.0185852485681015,0.0131105324891589
44.5,0.018751408571728,0.0128491414067607,0.79583019831262,-0.551619282454986,0.795830198295256,-0.551619282450473,0.018876082860222,0.01313549348603
45,0.0190515388467045,0.0128690555387975,0.792047325707114,-0.556839950824882,0.79204732569052,-0.556839950820416,0.0191651767773113,0.0131566554078492
45.5,0.0193499173659084,0.0128857422787495,0.788230699365894,-0.562034870314774,0.788230699350072,-0.562034870310379,0.0194523203588489,0.0131739269522586
46,0.0196462655150115,0.0128991119258414,0.78438048671259,-0.567203796469822,0.784380486697543,-0.567203796465517,0.0197373095609399,0.0131872116479521
46.5,0.0199403094372053,0.012909061940787,0.780496858237579,-0.572346487333601,0.78049685822331,-0.572346487329408,0.0200199472787831,0.0131964084765743
47,0.0202317821396998,0.0129154773440516,0.776579987367721,-0.577462703450045,0.776579987354228,-0.577462703445986,0.0203000443081093,0.0132014126067472
47.5,0.0205204255894803,0.0129182313968398,0.772630050342244,-0.582552207863142,0.772630050329528,-0.582552207859238,0.0205774202281759,0.0132021162316205
48,0.0208059927501434,0.0129171865670975,0.76864722609444,-0.587614766114605,0.768647226082499,-0.587614766110877,0.0208519041902115,0.0131984094985335
48.5,0.0210882495104122,0.0129121957737298,0.764631696138797,-0.592650146239736,0.764631696127631,-0.592650146236205,0.021123335597019,0.0131901815167245
49,0.0213669764556944,0.0129031038928192,0.760583644463275,-0.597658118761648,0.760583644452879,-0.597658118758333,0.021391564661765,0.0131773214268136
49.5,0.0216419704367956,0.0128897495002599,0.756503257426397,-0.602638456684031,0.756503257416769,-0.602638456680953,0.0216564528366828,0.0131597195139301
50,0.0219130458947362,0.012871966816509,0.752390723658908,-0.607590935482584,0.752390723650043,-0.607590935479761,0.0219178731054496,0.0131372683450854
50.5,0.0221800359072618,0.0128495878114622,0.74824623396972,-0.612515333095257,0.748246233961614,-0.612515333092708,0.0221757101362071,0.0131098639106744
51,0.0224427929309074,0.0128224444213105,0.744069981255913,-0.61741142991142,0.74406998124856,-0.617411429909164,0.0224298602954971,0.0130774067498722
51.5,0.0227011892219625,0.0127903708249373,0.739862160416556,-0.622279008760048,0.739862160409951,-0.622279008758104,0.022680231526638,0.0130398030401996
52,0.0229551169298778,0.0127532057251989,0.735622968270152,-0.627117854897037,0.735622968264288,-0.627117854895423,0.022926743099137,0.0129969656325988
52.5,0.0232044878671106,0.0127107945805185,0.731352603475493,-0.631927755991711,0.731352603470363,-0.631927755990443,0.0231693252385433,0.0129488150149701
53,0.0234492329695233,0.0126629917344305,0.727051266455759,-0.636708502112607,0.727051266451354,-0.636708502111703,0.0234079186485795,0.0128952801891746
53.5,0.0236893014707795,0.0126096623950361,0.722719159325674,-0.641459885712609,0.722719159321987,-0.641459885712085,0.0236424739393625,0.0128362994489174
54,0.0239246598222397,0.0125506844224117,0.718356485821584,-0.646181701613475,0.718356485818606,-0.646181701613346,0.0238729509770086,0.0127718210486125
54.5,0.0241552903963367,0.0124859498894807,0.713963451234274,-0.650873746989817,0.713963451231995,-0.6508737469901,0.0240993181708831,0.0127018037561342
55,0.0243811900160397,0.0124153663903321,0.709540262344419,-0.655535821352594,0.709540262342828,-0.655535821353303,0.0243215517151744,0.0126262172852262
55.5,0.02460236835572,0.0123388580788867,0.705087127360516,-0.660167726532138,0.705087127359603,-0.660167726533288,0.0245396348014023,0.0125450426061346
56,0.0248188462594821,0.0122563664298327,0.700604255859197,-0.664769266660769,0.700604255858951,-0.664769266662373,0.0247535568179368,0.0124582721356605
56.5,0.0250306540219891,0.0121678507223072,0.696091858727786,-0.669340248155028,0.696091858728197,-0.6693402481571,0.0249633125516421,0.0123659098102391
57,0.0252378296741531,0.0120732882546712,0.691550148109025,-0.673880479697555,0.691550148110079,-0.673880479700107,0.0251689014054905,0.0122679710477586
57.5,0.0254404173121085,0.0119726743055086,0.686979337347834,-0.678389772218649,0.68697933734952,-0.678389772221694,0.0253703266444323,0.0121644826056079
58,0.0256384655029315,0.011866021861562,0.682379640940056,-0.682867938877527,0.68237964094236,-0.682867938881077,0.0255675946800762,0.0120554823438501
58.5,0.0258320257949402,0.0117533611375387,0.677751274483061,-0.687314795043313,0.677751274485971,-0.687314795047378,0.0257607144028967,0.0119410189034678
59,0.0260211513544856,0.0116347389156197,0.673094454628167,-0.691730158275763,0.673094454631669,-0.691730158280354,0.025949696568802,0.0118211513103177
59.5,0.0262058957451429,0.0115102177340634,0.668409399034761,-0.696113848305772,0.66840939903884,-0.696113848310898,0.0261345532450562,0.0116959485157636
60,0.0263863118594845,0.0113798749547112,0.663696326326098,-0.700465687015646,0.663696326330741,-0.700465687021318,0.0263152973187667,0.0115654888850162
60.5,0.0265624510082693,0.0112438017385491,0.658955456046669,-0.704785498419188,0.658955456051861,-0.704785498425413,0.0264919420695307,0.0114298596439653
61,0.026734362167172,0.0111021019570105,0.654187008621112,-0.709073108641587,0.654187008626838,-0.709073108648375,0.0266645008063339,0.0112891562948385
61.5,0.0269020913770998,0.0109548910645593,0.649391205314583,-0.713328345899143,0.649391205320828,-0.713328345906499,0.026832986567513,0.0111434820103941
62,0.0270656812908225,0.0108022949554864,0.644568268194548,-0.71755104047882,0.644568268201297,-0.717551040486752,0.0269974118814833,0.0109929470155619
62.5,0.0272251708560544,0.0106444488249723,0.639718420093948,-0.721741024717663,0.639718420101183,-0.721741024726177,0.0271577885850396,0.0108376679646018
63,0.0273805951232193,0.0104814960514332,0.634841884575674,-0.725898132982073,0.634841884583382,-0.725898132991175,0.0273141276953176,0.0106777673209032
63.5,0.027531985164928,0.0103135871141636,0.629938885898335,-0.730022201646947,0.629938885906498,-0.730022201656641,0.0274664393309991,0.0105133727456188
