"Freq [GHz]","re(St(P1,P1)) []","im(St(P1,P1)) []","re(St(P1,P2)) []","im(St(P1,P2)) []","re(St(P2,P1)) []","im(St(P2,P1)) []","re(St(P2,P2)) []","im(St(P2,P2)) []"
0,0.00653258367657372,0,0.993485956336372,0,0.993485940780374,0,0.00653256945616931,0
0.5,0.00736388003021204,-0.00289315515119881,0.992557773137058,-0.00971068003152809,0.992557774973491,-0.00971068302415112,0.00736366395100774,-0.00289209172916749
1,0.00798601079523564,-0.00679483900333366,0.991672796337301,-0.0184166587288033,0.991672796187164,-0.018416658729123,0.00798540456906593,-0.00679243790679784
1.5,0.00830512989329613,-0.0108854597354284,0.990925440736648,-0.0269208610930001,0.990925440586633,-0.0269208610773539,0.00830401913909284,-0.0108815634087716
2,0.00837951432387207,-0.0150185258815654,0.990258151329837,-0.0353640724217197,0.99025815119076,-0.0353640723912481,0.00837797038303734,-0.0150129061831166
2.5,0.00830367576302393,-0.0191372909625152,0.989578698779155,-0.0438033774008524,0.989578698657832,-0.0438033773604616,0.00830178044481933,-0.0191298252619205
3,0.00812398054937447,-0.0232377165150179,0.988841325809038,-0.0522409133851909,0.98884132570894,-0.0522409133405723,0.00812179835788651,-0.0232283130513196
3.5,0.00786133077778839,-0.0273243171408506,0.988026005812341,-0.060669419542517,0.988026005734471,-0.0606694194989785,0.00785892067045069,-0.0273128893266037
4,0.00752519371448024,-0.0314012459502315,0.987124509446057,-0.0690819031638874,0.987124509389669,-0.0690819031258716,0.00752261886568828,-0.031387707286699
4.5,0.00711991328707295,-0.0354710303260806,0.986133939667169,-0.0774731600346676,0.986133939630292,-0.0774731600054839,0.00711724580207429,-0.0354552955151117
5,0.0066475148384626,-0.0395348053633704,0.985053790673183,-0.0858396019094663,0.985053790653061,-0.0858396018911982,0.00664483712174668,-0.0395167927328082
5.5,0.00610898885365474,-0.0435927358337995,0.983884571714688,-0.0941788210268122,0.983884571708148,-0.094178821020332,0.00610639312626438,-0.0435723695255046
6,0.00550489063141679,-0.0476443672991218,0.982627152400744,-0.102489197845234,0.982627152404474,-0.102489197850282,0.00550247754875288,-0.0476215787946943
6.5,0.00483561877858318,-0.0516888769953576,0.981282457627108,-0.110769601913647,0.981282457637874,-0.110769601928931,0.00483349572022806,-0.0516636059536228
7,0.00410153866241725,-0.0557252418641054,0.979851337915847,-0.119019178421469,0.979851337930648,-0.119019178444812,0.00409981802295722,-0.0556974363842446
7.5,0.00330303075207117,-0.0597523461517975,0.978334528363867,-0.127237202623745,0.978334528380023,-0.127237202652201,0.00330182840712556,-0.0597219626124348
8,0.00244050358670656,-0.0637690472400836,0.976732650903198,-0.135422985036608,0.976732650918417,-0.135422985066604,0.00243993761055616,-0.0637360498573631
8.5,0.00151439134605413,-0.0677742136001367,0.975046235694794,-0.14357581328928,0.975046235707197,-0.143575813316712,0.00151458099784874,-0.0677385738232132
9,0.000525145926963178,-0.0717667447149442,0.973275748819937,-0.15169491963743,0.973275748828065,-0.15169491965776,0.000526210889149392,-0.0717284405487408
9.5,-0.000526771787166203,-0.0757455797285989,0.971421619723811,-0.15977946586441,0.971421619726621,-0.159779465872735,-0.000524711950786294,-0.0757045950469308
10,-0.00164089946697032,-0.0797096993434137,0.969484265383409,-0.167828539519104,0.969484265380263,-0.167828539510232,-0.00163772567169351,-0.0796660232336555
10.5,-0.00288780767299696,-0.0835541034043805,0.967444791017397,-0.175872514569487,0.967444791014822,-0.175872514560733,-0.00288372877321452,-0.083508238173561
11,-0.00419295521735441,-0.0873780732894147,0.965323165508151,-0.183874096009224,0.965323165506117,-0.183874096000618,-0.0041879200524001,-0.0873300202177631
11.5,-0.00555597674485586,-0.0911806862521436,0.963120841921368,-0.191832631639173,0.963120841919846,-0.191832631630748,-0.00554993324465797,-0.0911304471596486
12,-0.00697649084137469,-0.0949610265255654,0.960839211380218,-0.199747522070086,0.960839211379178,-0.199747522061869,-0.00696938600487634,-0.0949086038351874
12.5,-0.00845410016282699,-0.0987181856296342,0.958479604777875,-0.207618210893648,0.958479604777284,-0.207618210885659,-0.00844588003901203,-0.0986635824326569
13,-0.00998839157020109,-0.102451262677461,0.956043295436457,-0.215444175909445,0.956043295436284,-0.215444175901701,-0.00997900124180739,-0.102394482800819
13.5,-0.0115789362706796,-0.106159364680018,0.953531502488877,-0.223224921426457,0.953531502489092,-0.223224921418973,-0.0115683198406633,-0.106100412755552
14,-0.0132252899648563,-0.109841606849239,0.950945394781762,-0.230959971624475,0.950945394782333,-0.230959971617266,-0.0132133905456497,-0.109780488384771
14.5,-0.0149269930001112,-0.113497112899513,0.948286095121517,-0.238648864935232,0.948286095122417,-0.238648864928304,-0.014913752705745,-0.113433834351629
15,-0.0166835705301437,-0.117125015347355,0.945554684710587,-0.246291149383768,0.945554684711787,-0.246291149377128,-0.0166689304712628,-0.117059584195826
15.5,-0.018494532680714,-0.12072445580926,0.942752207645373,-0.253886378817681,0.942752207646847,-0.253886378811329,-0.0184784329625212,-0.120656880632992
16,-0.0203593747215901,-0.124294585297612,0.939879675370618,-0.26143410994367,0.939879675372339,-0.26143410993761,-0.0203417544447627,-0.124224875852029
16.5,-0.0222775772447712,-0.12783456451457,0.936938071006514,-0.268933900087059,0.93693807100846,-0.26893390008129,-0.0222583745093482,-0.127762731810331
17,-0.0242486063489487,-0.131343564143788,0.933928353484171,-0.276385305589299,0.933928353486319,-0.276385305583819,-0.0242277582612227,-0.131269620526758
17.5,-0.026271913830281,-0.134820765139948,0.930851461441922,-0.283787880760603,0.93085146144425,-0.28378788075541,-0.0262493565126787,-0.13474472437231
18,-0.0283469373794643,-0.138265359015957,0.927708316849656,-0.291141177308653,0.927708316852145,-0.291141177303741,-0.0283226059834241,-0.138187236358394
18.5,-0.0304731007851231,-0.141676548127709,0.924499828340581,-0.298444744169501,0.924499828343214,-0.298444744164867,-0.0304469295069478,-0.141596360422563
19,-0.0326498141435394,-0.145053545956379,0.921226894239988,-0.305698127672855,0.921226894242749,-0.305698127668492,-0.0326217362432006,-0.144971311711686
19.5,-0.0348764740747174,-0.148395577388075,0.917890405288769,-0.312900871980234,0.917890405291642,-0.312900871976135,-0.0348464218975771,-0.148311316862423
20,-0.0371524639447961,-0.15170187899082,0.914491247065908,-0.320052519741074,0.914491247068879,-0.320052519737231,-0.0371203689461925,-0.151615614278928
20.5,-0.0394771540948034,-0.154971699288742,0.911030302119092,-0.32715261291831,0.911030302122148,-0.327152612914718,-0.039442946867452,-0.154883454407702
21,-0.0418499020757632,-0.158204299033412,0.907508451816238,-0.334200693741068,0.907508451819371,-0.334200693737718,-0.0418135123798947,-0.158114100009517
21.5,-0.0442700528901229,-0.161398951472207,0.903926577933338,-0.34119630574788,0.903926577936534,-0.341196305744765,-0.0442314096862774,-0.161306826428319
22,-0.0467369392395131,-0.164554942613688,0.90028556399562,-0.34813899488924,0.900285563998872,-0.348138994886352,-0.0466959707238901,-0.164460921857066
22.5,-0.0492498817788155,-0.167671571489856,0.896586296390063,-0.355028310663083,0.896586296393361,-0.355028310660413,-0.0492065154210699,-0.167575687600421
23,-0.0518081893764952,-0.170748150415261,0.892829665267616,-0.361863807261142,0.892829665270955,-0.361863807258685,-0.0517623519598484,-0.170650438334248
23.5,-0.0544111593812091,-0.173784005242911,0.889016565253417,-0.368645044708072,0.889016565256789,-0.368645044705818,-0.0543627770447286,-0.173684502361868
24,-0.0570580778946181,-0.176778475616915,0.885147895982886,-0.375371589978501,0.885147895986287,-0.375371589976446,-0.0570070761775052,-0.17667722186704
24.5,-0.0597482200503769,-0.179730915221838,0.881224562480941,-0.382043018080266,0.881224562484364,-0.3820430180784,-0.0596945239380706,-0.179627953163628
25,-0.0624808502992614,-0.182640692028751,0.877247475400673,-0.388658913094539,0.877247475404115,-0.388658913092856,-0.0624243842711622,-0.182536066941971
25.5,-0.0652552227003551,-0.185507188537953,0.873217551136962,-0.395218869165808,0.873217551140418,-0.395218869164303,-0.0651959107789319,-0.185400948511928
26,-0.0680705812182519,-0.188329802018394,0.869135711829396,-0.401722491436495,0.869135711832864,-0.40172249143516,-0.068008347019283,-0.188221998042636
26.5,-0.0709261600261879,-0.191107944743804,0.865002885267899,-0.408169396922568,0.865002885271377,-0.408169396921397,-0.0708609268098451,-0.190998630799016
27,-0.0738211838150176,-0.193841044225586,0.860820004713347,-0.414559215327845,0.860820004716832,-0.414559215326832,-0.0737528745374918,-0.193730277375086
27.5,-0.0767548681079478,-0.196528543442551,0.856588008644475,-0.420891589795705,0.856588008647964,-0.420891589794845,-0.0766834054732582,-0.196416383924162
28,-0.0797264195809076,-0.199169901067568,0.852307840441366,-0.427166177597868,0.852307840444858,-0.427166177597157,-0.0796517260925133,-0.199056412386058
28.5,-0.0827350363884484,-0.20176459169129,0.847980448014851,-0.4333826507606,0.847980448018345,-0.433382650760032,-0.0826570344002403,-0.201649840711425
29,-0.0857799084950133,-0.204312106043059,0.843606783390303,-0.439540696629246,0.843606783393798,-0.439540696628818,-0.0856985202612106,-0.204196163083395
29.5,-0.0888602180114477,-0.206811951209253,0.839187802253404,-0.445640018372514,0.839187802256901,-0.445640018372219,-0.088775365734875,-0.206694890136743
30,-0.0919751395365466,-0.209263650849239,0.834724463464773,-0.451680335428202,0.834724463468269,-0.451680335428038,-0.0918867454147195,-0.209145549174812
30.5,-0.095123840503462,-0.211666745409283,0.830217728549545,-0.457661383892396,0.830217728553041,-0.457661383892358,-0.0950318267718284,-0.211547684384487
31,-0.0983054815307209,-0.214020792334668,0.825668561167424,-0.46358291685429,0.825668561170919,-0.463582916854375,-0.0982097705023522,-0.213900857049567
31.5,-0.101519216777624,-0.216325366280485,0.821077926568021,-0.469444704678979,0.821077926571516,-0.469444704679184,-0.101419730878561,-0.216204645762921
32,-0.104764194303698,-0.218580059321492,0.816446791035883,-0.475246535240597,0.816446791039377,-0.475246535240919,-0.104660856103068,-0.2184586466379
32.5,-0.108039556431897,-0.220784481161579,0.811776121328985,-0.480988214108253,0.811776121332479,-0.48098821410869,-0.107932288665813,-0.220662473519491
33,-0.111344440115146,-0.222938259343443,0.807066884114104,-0.486669564687227,0.807066884117597,-0.486669564687777,-0.111233165703312,-0.222815758195859
33.5,-0.11467797730579,-0.225041039459138,0.802320045402057,-0.492290428317853,0.80232004540555,-0.492290428318512,-0.114562619359568,-0.224918150610895
34,-0.118039295327443,-0.227092485362301,0.797536569985406,-0.497850664334496,0.797536569988899,-0.497850664335262,-0.117919777148031,-0.226969319078576
34.5,-0.121427517248636,-0.229092279382915,0.792717420880942,-0.503350150086987,0.792717420884435,-0.503350150087859,-0.121303762313823,-0.228968950499971
35,-0.124841762257585,-0.231040122545629,0.787863558778925,-0.508788780926808,0.787863558782419,-0.508788780927783,-0.124713694195384,-0.230916750583864
35.5,-0.128281146037269,-0.232935734792765,0.782975941500835,-0.514166470160242,0.782975941504329,-0.514166470161318,-0.12814868858451,-0.232812444072069
36,-0.131744781139901,-0.234778855213279,0.778055523467107,-0.519483148970652,0.778055523470603,-0.519483148971827,-0.131607858083646,-0.234655774970643
36.5,-0.135231777359683,-0.236569242279116,0.773103255176165,-0.524738766311941,0.773103255179662,-0.524738766313216,-0.135090312459059,-0.236446506788323
37,-0.138741242102571,-0.238306674090577,0.768120082695832,-0.529933288775201,0.768120082699331,-0.529933288776575,-0.138595158988339,-0.238184422783672
37.5,-0.14227228075154,-0.239990948632464,0.763106947168059,-0.535066700430427,0.763106947171559,-0.535066700431897,-0.142121502800376,-0.239869326222562
38,-0.145823997025578,-0.241621884043052,0.758064784327745,-0.540139002645133,0.758064784331247,-0.540139002646699,-0.145668447205681,-0.241501040647779
38.5,-0.149395493330294,-0.243199318898067,0.752994524036304,-0.54515021388161,0.75299452403981,-0.54515021388327,-0.149235094014539,-0.243079410162712
39,-0.152985871097678,-0.244723112512182,0.747897089830501,-0.550100369474462,0.747897089834008,-0.550100369476217,-0.152820543840061,-0.244604299731249
39.5,-0.156594231112052,-0.246193145260716,0.74277339848697,-0.554989521390018,0.742773398490481,-0.554989521391866,-0.156423896382683,-0.246075595496167
40,-0.160219673818734,-0.247609318924563,0.737624359602763,-0.559817737969105,0.737624359606276,-0.559817737971045,-0.160044250692061,-0.247493205118495
40.5,-0.163861299611266,-0.248971557061594,0.732450875192139,-0.564585103654611,0.732450875195655,-0.564585103656643,-0.163680705401628,-0.248857058140428
41,-0.167518209092261,-0.250279805408105,0.727253839299799,-0.569291718705194,0.727253839303317,-0.569291718707318,-0.167332358930183,-0.250167106374548
41.5,-0.171189503302026,-0.251534032314134,0.722034137630626,-0.57393769889642,0.722034137634147,-0.573937698898635,-0.170998309643965,-0.251423324322141
42,-0.174874283907948,-0.252734229216728,0.716792647196004,-0.578523175210541,0.716792647199528,-0.578523175212847,-0.174677655971449,-0.252625709623463
42.5,-0.178571653346333,-0.25388041115547,0.711530235976693,-0.583048293516076,0.711530235980218,-0.583048293518472,-0.178369496461766,-0.253774283542702
43,-0.182280714906763,-0.254972617334731,0.706247762602186,-0.587513214238284,0.706247762605714,-0.587513214240769,-0.182072929776019,-0.254869091490227
43.5,-0.18600057274717,-0.25601091173714,0.700946076046476,-0.591918112021566,0.700946076050005,-0.591918112024142,-0.185787054598927,-0.255910203584315
44,-0.189730331825516,-0.256995383792704,0.695626015340076,-0.596263175384776,0.695626015343606,-0.596263175387441,-0.189510969455998,-0.256897715253981
44.5,-0.193469097731347,-0.257926149107683,0.690288409298126,-0.60054860637036,0.690288409301657,-0.600548606373114,-0.19324377241893,-0.257831747883614
45,-0.197215976397275,-0.258803350256686,0.684934076264396,-0.604774620188216,0.684934076267928,-0.604774620191059,-0.196984560678986,-0.258712449498778
45.5,-0.200970073666721,-0.259627157640451,0.679563823870955,-0.608941444855087,0.679563823874487,-0.608941444858018,-0.200732429964716,-0.259539995490671
46,-0.204730494689869,-0.260397770410115,0.674178448813262,-0.613049320830272,0.674178448816794,-0.613049320833292,-0.204486473776589,-0.26031458937414
46.5,-0.20849634311469,-0.261115417456394,0.668778736640416,-0.617098500648403,0.668778736643946,-0.617098500651511,-0.208245782406783,-0.261036463570588
47,-0.212266720033982,-0.261780358458608,0.663365461560277,-0.621089248549974,0.663365461563805,-0.621089248553169,-0.212009441707622,-0.261705880202368
47.5,-0.216040722642617,-0.262392884983643,0.657939386259174,-0.625021840110277,0.6579393862627,-0.62502184011356,-0.215776531566939,-0.262323131878991
48,-0.219817442551594,-0.262953321618199,0.652501261735877,-0.628896561867374,0.6525012617394,-0.628896561870744,-0.219546124043212,-0.262888542447183
48.5,-0.223595963697035,-0.263462027108577,0.647051827149514,-0.632713710949676,0.647051827153034,-0.632713710953134,-0.223317281107743,-0.263402467666147
49,-0.227375359773186,-0.263919395469944,0.641591809681121,-0.636473594703679,0.641591809684636,-0.636473594707224,-0.227089051935877,-0.26386529575558
49.5,-0.231154691108986,-0.264325857010793,0.636121924408463,-0.640176530322367,0.636121924411972,-0.640176530325999,-0.230860469684857,-0.264277447746502
50,-0.234933000898555,-0.2646818791969,0.630642874193797,-0.643822844474778,0.6306428741973,-0.643822844478497,-0.234630547693122,-0.264639377542871
50.5,-0.238709310687741,-0.264987967251356,0.625155349584231,-0.647412872937163,0.625155349587727,-0.647412872940967,-0.238398275035991,-0.264951571574521
51,-0.242482615013315,-0.265244664351665,0.619660028724319,-0.650946960226174,0.619660028727808,-0.650946960230063,-0.24216261137741,-0.265214547888409
51.5,-0.246251875090446,-0.265452551239885,0.614157577280541,-0.654425459234476,0.61415757728402,-0.65442545923845,-0.245922481069151,-0.265428854484694
52,-0.250016011450991,-0.265612245005736,0.608648648377304,-0.657848730869145,0.608648648380773,-0.657848730873204,-0.249676766470679,-0.265595066656581
52.5,-0.25377389545431,-0.265724396734128,0.603133882544125,-0.661217143693194,0.603133882547583,-0.661217143697336,-0.253424300499139,-0.265713783038485
53,-0.257524339629779,-0.265789687627061,0.597613907673612,-0.664531073570554,0.597613907677058,-0.664531073574779,-0.257163858474676,-0.265785620007307
53.5,-0.261266086874222,-0.265808823115859,0.592089338989905,-0.667790903314797,0.592089338993339,-0.667790903319106,-0.260894149408097,-0.265811204019891
54,-0.264997798628377,-0.265782524376463,0.586560779027214,-0.670997022341882,0.586560779030634,-0.670997022346273,-0.264613806993029,-0.26579116141196
54.5,-0.26871804230717,-0.265711516554904,0.581028817618092,-0.67414982632716,0.581028817621497,-0.674149826331634,-0.268321380720834,-0.265726105140038
55,-0.272425278473535,-0.265596512915356,0.575494031891108,-0.677249716866891,0.575494031894497,-0.677249716871445,-0.272015327740497,-0.265616617933102
55.5,-0.276117848539584,-0.265438194061025,0.56995698627755,-0.680297101144471,0.569956986280922,-0.680297101149105,-0.275694006341374,-0.265463231356738
56,-0.279793964164208,-0.265237181382233,0.564418232526829,-0.683292391601564,0.564418232530183,-0.683292391606278,-0.279355672241527,-0.265266400408512
56.5,-0.28345169999622,-0.264994004004458,0.558878309730227,-0.686236005614324,0.558878309733562,-0.686236005619116,-0.282998479204841,-0.265026473495585
57,-0.287088991973288,-0.264709058805762,0.553337744352664,-0.689128365174849,0.553337744355979,-0.68912836517972,-0.28662048585485,-0.264743658035474
57.5,-0.290703643986039,-0.264382563625271,0.547797050272141,-0.691969896578034,0.547797050275434,-0.691969896582981,-0.290219670846461,-0.264417982508232
58,-0.294293346265353,-0.264014504673332,0.542256728826531,-0.69476103011392,0.542256728829802,-0.694761030118945,-0.293793958711267,-0.26404925659983
58.5,-0.297855709200291,-0.263604580444142,0.536717268867402,-0.697502199765689,0.53671726887065,-0.697502199770788,-0.297341258587885,-0.263637032107649
59,-0.301388316225756,-0.263152146134723,0.531179146820537,-0.70019384291336,0.53117914682376,-0.700193842918533,-0.300859517539222,-0.263180568469041
59.5,-0.3048887986542,-0.262656164598074,0.525642826752857,-0.70283640004332,0.525642826756054,-0.702836400048567,-0.304346789094149,-0.262678807979341
60,-0.308354933568039,-0.262115171946808,0.520108760445427,-0.705430314463718,0.520108760448598,-0.705430314469036,-0.307801315922989,-0.262130366739883
60.5,-0.311784762916209,-0.261527267608051,0.514577387472249,-0.70797603202581,0.514577387475392,-0.707976032031199,-0.31122162316186,-0.261533547772146
61,-0.315176727763829,-0.26089013923074,0.509049135284544,-0.7104740008513,0.509049135287658,-0.710474000856759,-0.314606616021018,-0.26088638214669
61.5,-0.318529806609494,-0.260201131568337,0.503524419300237,-0.712924671065708,0.503524419303321,-0.712924671071236,-0.31795567237179,-0.260186702043432
62,-0.321843641709059,-0.259457364625784,0.498003642998362,-0.715328494537794,0.498003643001416,-0.715328494543389,-0.321268718677892,-0.259432246217444
62.5,-0.325118633825695,-0.258655899759721,0.49248719801811,-0.717685924625065,0.492487198021132,-0.717685924630726,-0.324546276741779,-0.258620793592341
63,-0.328355985389139,-0.257793943682156,0.486975464262255,-0.719997415925365,0.486975464265244,-0.71999741593109,-0.327789470026372,-0.257750315323041
63.5,-0.33155767599377,-0.256869071089897,0.481468810004684,-0.72226342403455,0.481468810007639,-0.722263424040338,-0.330999982163695,-0.256819130791949
