"Freq [GHz]","re(St(P1,P1)) []","im(St(P1,P1)) []","re(St(P1,P2)) []","im(St(P1,P2)) []","re(St(P2,P1)) []","im(St(P2,P1)) []","re(St(P2,P2)) []","im(St(P2,P2)) []"
0,0.00647239031741265,0,0.993541709234705,0,0.993541715040919,0,0.00647239706751179,0
0.5,0.00700534480752424,0.00138342199713293,0.992931782418594,-0.0080683249392095,0.99293178219564,-0.00806832528369483,0.00700515392438916,0.0013841056170385
1,0.00744852948712982,0.00214435001634428,0.992292228668273,-0.0154962375330072,0.992292229025464,-0.0154962376068646,0.00744800107980303,0.00214593205405933
1.5,0.0076650774947673,0.00272084697604669,0.991679298635218,-0.0229958557847034,0.991679298951494,-0.0229958558785182,0.0076636421235019,0.00272311197465136
2,0.0077838068714069,0.00334465275048323,0.99098162363527,-0.0303146700489432,0.99098162390549,-0.0303146701488082,0.0077817424322868,0.0033480457334214
2.5,0.00787265080463495,0.00400393802048704,0.990254449856769,-0.0374920235365508,0.990254450081324,-0.0374920236308363,0.00787010922706521,0.00400854708894727
3,0.00795443410293162,0.00468634241032717,0.989518753211156,-0.0445703388698924,0.989518753393616,-0.0445703389505301,0.00795147064519863,0.00469218175875419
3.5,0.00803820386519472,0.00538449887471515,0.988775359123973,-0.0515819280084076,0.988775359269132,-0.0515819280707177,0.00803482558972646,0.00539157038184435
4,0.00812812107055461,0.00609419081259155,0.988016470269838,-0.05854747716866,0.988016470382605,-0.0585474772106069,0.00812431062127295,0.00610249808177787
4.5,0.00822636560499501,0.00681297322574359,0.987232041516969,-0.0654786830518699,0.987232041601863,-0.0654786830732554,0.00822209235939741,0.00682252465690159
5,0.0083342275969428,0.00753941271710179,0.98641255275855,-0.0723812842711125,0.986412552819578,-0.0723812842729625,0.00832945312989708,0.00755022190411037
5.5,0.00845256753689205,0.00827267606330562,0.985549916124336,-0.0792573710495894,0.985549916165026,-0.0792573710337008,0.00844724844283196,0.0082847615893531
6,0.00858202940808284,0.00901230080823989,0.984637576994459,-0.0861069098321492,0.984637577017948,-0.086106909800777,0.0085761188276362,0.00902568598032616
6.5,0.00872314745321073,0.00975806227625942,0.983670328359625,-0.0929286858683431,0.983670328368771,-0.0929286858240115,0.00871659592866586,0.00977277493136786
7,0.00887640339737644,0.0105098934342127,0.982644061129637,-0.0997208669794745,0.982644061127105,-0.0997208669248231,0.00886915936296478,0.0105259658377062
7.5,0.00904225905351261,0.0112678348212949,0.981555533253669,-0.106481334414359,0.981555533242007,-0.106481334352071,0.00903426911854133,0.0112853036494167
8,0.00922117602698408,0.0120320022026776,0.980402181032969,-0.113207874173288,0.980402181014659,-0.113207874106009,0.00921238513748429,0.0120509085964846
8.5,0.00941362836023217,0.0128025650101185,0.979181973186821,-0.119898285660571,0.979181973164321,-0.119898285590876,0.00940397988772167,0.012822954689796
9,0.00962011118073376,0.0135797315330759,0.977893300955951,-0.126550441542685,0.977893300931712,-0.126550441473051,0.00960954696688975,0.0136016549645843
9.5,0.00984114703201607,0.0143637384343909,0.976534896343965,-0.133162318837251,0.976534896320451,-0.133162318770021,0.00982960740712128,0.0143872510429888
10,0.0100772908462753,0.0151548430875019,0.975105771508337,-0.139732013064303,0.975105771488028,-0.139732013001681,0.0100647146330892,0.0151800055148219
10.5,0.0103625688369383,0.0158661508820139,0.973729205713817,-0.146370879019547,0.973729205700071,-0.146370878971065,0.0103490519396858,0.0158927049692656
11,0.0106603264826292,0.016570914508979,0.972312496556354,-0.152976945580039,0.972312496547499,-0.152976945545942,0.0106458247565373,0.0165988798355734
11.5,0.0109703713184951,0.0172688797326281,0.970857116773586,-0.159551260574257,0.970857116768007,-0.159551260554581,0.0109548408797669,0.0172982768153429
12,0.0112925047232856,0.0179597995773757,0.969364348835511,-0.166094903193066,0.969364348831669,-0.166094903187672,0.011275901963688,0.017990649869891
12.5,0.011626522251037,0.0186434345003677,0.967835296447868,-0.172608963040194,0.967835296444322,-0.172608963048783,0.0116088038527138,0.0186757603925591
13,0.0119722139675502,0.0193195525467087,0.966270897375833,-0.179094522383508,0.966270897371243,-0.179094522405644,0.0119533369180495,0.0193533773636738
13.5,0.0123293647906478,0.0199879294872618,0.964671937038877,-0.185552641434477,0.964671937032017,-0.185552641469608,0.0123092863981638,0.0200232774880544
14,0.0126977548332302,0.0206483489390337,0.963039062419409,-0.191984346426684,0.963039062409171,-0.191984346474161,0.0126764327420338,0.0206852453150961
14.5,0.0130771597481427,0.0213006024682252,0.961372795915444,-0.198390620229707,0.961372795900838,-0.198390620288806,0.0130545519541925,0.0213390733414927
15,0.0134673510738902,0.0219444896760486,0.95967354884828,-0.204772395218077,0.959673548828434,-0.204772395288012,0.01344341594061,0.0219845620967196
15.5,0.013868096580267,0.0225798182675043,0.957941634408008,-0.211130548112434,0.957941634382169,-0.211130548192375,0.0138427928544718,0.0226215202114513
16,0.0142791606129852,0.0232064041033551,0.956177279881951,-0.217465896517818,0.956177279849476,-0.21746589660691,0.014252447440934,0.0232497644691687
16.5,0.0147003044364115,0.0238240712355706,0.954380638063583,-0.223779196899339,0.95438063802394,-0.223779196996705,0.0146721413799754,0.0238691198412295
17,0.0151312865735655,0.0244326519265887,0.952551797782702,-0.230071143755512,0.952551797735459,-0.230071143860271,0.0151016336264879,0.0244794195057343
17.5,0.0155718631425619,0.025031986652776,0.950690793532229,-0.236342369772359,0.950690793477049,-0.236342369883635,0.0155406807467909,0.0250805048505869
18,0.0160217881887051,0.0256219240924926,0.948797614193988,-0.242593446765382,0.948797614130625,-0.242593446882309,0.0159890372507798,0.0256722254611637
18.5,0.0164808140115035,0.0262023210992479,0.946872210886226,-0.24882488724037,0.946872210814516,-0.248824887362101,0.0164464559189712,0.0262544390930479
19,0.0169486914858977,0.0267730426604309,0.944914503970378,-0.255037146427054,0.944914503890232,-0.255037146552767,0.016912688123743,0.0268270116303473
19.5,0.0174251703770415,0.0273339618421504,0.942924389264774,-0.261230624661124,0.942924389176172,-0.261230624790024,0.0173874841441053,0.027389817030121
20,0.0179099996480156,0.0278849597207285,0.940901743519339,-0.267405670009884,0.940901743422321,-0.26740567014121,0.017870593473385,0.0279427372534493
20.5,0.0184029277599155,0.0284259253014676,0.938846429208818,-0.273562581054496,0.938846429103482,-0.27356258118752,0.0183617651192614,0.028485662183787
21,0.0189037029637666,0.0289567554252546,0.936758298703146,-0.279701609757534,0.936758298589639,-0.279701609891567,0.0188607478956102,0.0290184895331478
21.5,0.0194120735838035,0.02947735466366,0.934637197873018,-0.285822964358213,0.93463719775153,-0.285822964492604,0.0193672907056938,0.0295411247367952
22,0.0199277882916654,0.0299876352031476,0.932482969186824,-0.29192681224958,0.932482969057584,-0.291926812383717,0.019881142816243,0.0300534808370416
22.5,0.0204505963711238,0.0304875167190681,0.930295454352419,-0.298013282801937,0.93029545421569,-0.298013282935248,0.0204020541220572,0.0305554783568445
23,0.0209802479729914,0.0309769262400776,0.928074496553864,-0.304082470105419,0.928074496409936,-0.30408247023737,0.0209297754007667,0.0310470451638292
23.5,0.0215164943599165,0.0314557980036565,0.92581994232963,-0.310134435611657,0.925819942178819,-0.310134435741754,0.0214640585574633,0.031528116325422
24,0.0220590881408044,0.0319240733033954,0.923531643135025,-0.316169210660421,0.923531642977668,-0.316169210788208,0.0220046568589394,0.0319986339557632
24.5,0.0226077834946486,0.0323817003287126,0.921209456627725,-0.322186798881904,0.921209456464175,-0.322186799006963,0.0225513251573262,0.0324585470550589
25,0.023162336383605,0.0328286339976736,0.91885324771165,-0.328187178469209,0.918853247542272,-0.32818717859116,0.0231038201029548,0.0329078113420445
25.5,0.0237225047551702,0.0332648357835661,0.916462889370823,-0.334170304318728,0.916462889195996,-0.334170304437225,0.0236619003463154,0.0333463890802235
26,0.0242880487333804,0.0336902735358859,0.914038263321541,-0.340136110038503,0.91403826314165,-0.340136110153233,0.0242253267290166,0.0337742488985224
26.5,0.0248587307989624,0.0341049212963718,0.911579260508014,-0.346084509826583,0.911579260323451,-0.346084509937268,0.0247938624636929,0.0341913656070081
27,0.0254343159584331,0.0345087591107227,0.909085781463809,-0.352015400222782,0.909085781274968,-0.352015400329174,0.0253672733028474,0.0345977200083123
27.5,0.0260145719021474,0.0349017728366101,0.906557736558762,-0.357928661738325,0.906557736366039,-0.357928661840208,0.0259453276966343,0.0349932987053472
28,0.0265992691513531,0.0352839539485912,0.903995046148663,-0.363824160368568,0.903995045952454,-0.363824160465754,0.0265277969396425,0.0353780939059543
28.5,0.0271881811943229,0.0356552993404899,0.901397640642854,-0.369701748994504,0.901397640443555,-0.369701749086831,0.0271144553067487,0.0357521032250248
29,0.0277810846116782,0.03601581112584,0.89876546050298,-0.375561268679012,0.898765460300979,-0.375561268766346,0.0277050801781524,0.0361153294846992
29.5,0.0283777591910206,0.0363654964368987,0.896098456184356,-0.381402549863993,0.896098455980043,-0.381402549946223,0.0282994521537313,0.0364677805131568
30,0.0289779880310616,0.0367043672227902,0.89339658802998,-0.387225413474475,0.893396587823735,-0.387225413551516,0.0288973551568652,0.0368094689425413
30.5,0.0295815576353898,0.0370324400472535,0.890659826125749,-0.393029671935762,0.890659825917947,-0.393029672007546,0.0294985765279212,0.0371404120065157
31,0.0301882579961172,0.0373497358865027,0.887888150124366,-0.398815130109453,0.887888149915376,-0.398815130175937,0.0301029071075988,0.037460631337932
31.5,0.0307978826675948,0.0376562799276329,0.885081549044279,-0.404581586154053,0.885081548834461,-0.404581586215212,0.0307101413103575,0.0377701527670735
32,0.0314102288304595,0.0379521013680298,0.882240021049132,-0.410328832315552,0.882240020838838,-0.410328832371379,0.0313200771881673,0.0380690061209005
32.5,0.0320250973462475,0.038237233216177,0.879363573212378,-0.41605665565316,0.879363573001951,-0.416056655703666,0.0319325164848308,0.0383572250237187
33,0.032642292802856,0.0385117120942615,0.876452221271018,-0.421764838705059,0.876452221060794,-0.421764838750271,0.0325472646811599,0.0386348466996543
33.5,0.0332616235511237,0.0387755780429461,0.873505989371806,-0.427453160098752,0.873505989162108,-0.42745316013871,0.033164131031269,0.0389019117773022
34,0.0338829017328228,0.0390288743286341,0.870524909812739,-0.433121395110322,0.870524909603881,-0.433121395145082,0.0337829285902871,0.0391584640968867
34.5,0.034505943300361,0.0392716472535687,0.867509022782198,-0.438769316176601,0.867509022574485,-0.438769316206231,0.0344034742337861,0.0394045505202623
35,0.0351305680284996,0.0395039459690413,0.864458376097698,-0.444396693364004,0.864458375891424,-0.444396693388586,0.0350255886692274,0.0396402207440356
35.5,0.0357565995183935,0.0397258222920002,0.861373024945872,-0.450003294797478,0.86137302474132,-0.450003294817102,0.0356490964397388,0.039865527116096
36,0.0363838651942759,0.0399373305253026,0.85825303162502,-0.45558888705281,0.858253031422463,-0.45558888706758,0.0362738259205436,0.0400805244557959
36.5,0.0370121962931027,0.0401385272818396,0.855098465291304,-0.461153235515248,0.855098465091005,-0.461153235525274,0.0368996093083499,0.0402852698780197
37,0.0376414278474684,0.0403294713127502,0.851909401709451,-0.466696104707203,0.851909401511661,-0.466696104712607,0.0375262826040309,0.0404798226213364
37.5,0.0382713986621289,0.0405102233399076,0.848685923008647,-0.472217258587555,0.848685922813607,-0.472217258588466,0.038153685588907,0.0406642438804411
38,0.0389019512844395,0.0406808458928479,0.845428117444144,-0.477716460824908,0.845428117252083,-0.477716460821462,0.038781661794958,0.0408385966430419
38.5,0.0395329319690277,0.0408414031502951,0.842136079164977,-0.483193475046929,0.842136078976117,-0.483193475039268,0.0394100584692762,0.0410029455313428
39,0.0401641906370221,0.0409919607864115,0.838809907988085,-0.488648065067759,0.838809907802634,-0.488648065056033,0.0400387265330828,0.0411573566482608
39.5,0.0407955808301393,0.0411325858218899,0.835449709178995,-0.494079995095304,0.835449708997151,-0.494079995079669,0.0406675205356142,0.041301897428487
40,0.0414269596599506,0.0412633464799828,0.832055593239216,-0.499489029920068,0.832055593061166,-0.499489029900682,0.04129629860319,0.041436636494484
40.5,0.042058187752622,0.0413843120475561,0.828627675700365,-0.504874935087047,0.828627675526288,-0.504874935064076,0.0419249223837663,0.0415616435175149
41,0.0426891291894264,0.0414955527412303,0.825166076925029,-0.510237477052104,0.825166076755092,-0.510237477025715,0.0425532569872689,0.0416769890837532
41.5,0.0433196514433239,0.0415971395786632,0.82167092191431,-0.515576423324084,0.82167092174867,-0.51557642329445,0.0431811709219999,0.0417827445655383
42,0.0439496253118977,0.0416891442550158,0.818142340121961,-0.520891542593846,0.818142339960767,-0.520891542561141,0.0438085360274104,0.0418789819978166
42.5,0.0445789248469146,0.041771639024623,0.814580465275011,-0.526182604851303,0.8145804651184,-0.526182604815705,0.0444352274035013,0.041965773959777
43,0.0452074272807959,0.0418446965878908,0.810985435200728,-0.531449381491434,0.810985435048826,-0.531449381453123,0.0450611233371421,0.0420431934617206
43.5,0.0458350129502514,0.0419083899834217,0.807357391659769,-0.536691645410176,0.807357391512697,-0.536691645369334,0.0456861052255638,0.0421113138371487
44,0.046461565217341,0.0419627924853584,0.803696480185362,-0.541909171091018,0.803696480043227,-0.541909171047826,0.0463100574972763,0.0421702086400716
44.5,0.047086970388208,0.0420079775059334,0.800002849928318,-0.547101734683054,0.800002849791221,-0.547101734637697,0.0469328675306722,0.042219951547513
45,0.04771111762973,0.0420440185032059,0.796276653507715,-0.552269114071183,0.796276653375747,-0.552269114023847,0.0475544255705458,0.0422606162672017
45.5,0.0483338988843165,0.0420709888939371,0.792518046867053,-0.55741108893908,0.792518046740296,-0.557411088889949,0.0481746246427679,0.0422922764504012
46,0.0489552087830786,0.042088961971584,0.788727189135688,-0.562527440825527,0.788727189014214,-0.562527440774786,0.0487933604673335,0.0423150056098401
46.5,0.0495749445575925,0.0420980108293496,0.784904242495372,-0.567617953174617,0.784904242379246,-0.567617953122451,0.0494105313700099,0.0423288770427085
47,0.0501930059504557,0.0420982082882443,0.781049372051691,-0.572682411380338,0.781049371940969,-0.572682411326931,0.050026038192777,0.042333963758645
47.5,0.0508092951248521,0.0420896268300985,0.777162745710236,-0.577720602825947,0.777162745604967,-0.577720602771485,0.0506397842032786,0.042330338412683
48,0.0514237165733011,0.0420723385354631,0.773244534057312,-0.582732316918573,0.773244533957536,-0.582732316863236,0.0512516750034627,0.0423180732430671
48.5,0.0520361770257926,0.042046415026332,0.769294910245016,-0.587717345119385,0.769294910150764,-0.587717345063356,0.0518616184376041,0.0422972400138909
49,0.0526465853574734,0.0420119274136098,0.765314049880503,-0.592675480969705,0.765314049791799,-0.592675480913162,0.0524695244998813,0.0422679099624724
49.5,0.0532548524960635,0.0419689462492605,0.761302130919288,-0.597606520113333,0.76130213083615,-0.597606520056456,0.0530753052416825,0.042230153751401
50,0.0538608913291612,0.0419175414830442,0.757259333562412,-0.60251026031541,0.757259333484849,-0.602510260258373,0.0536788746787978,0.0421840414251727
50.5,0.0544646166115957,0.0418577824237811,0.753185840157312,-0.607386501478046,0.753185840085326,-0.607386501421024,0.0542801486986575,0.0421296423713328
51,0.0550659448729743,0.0417897377050409,0.749081835102267,-0.612235045652982,0.749081835035854,-0.612235045596147,0.0548790449677645,0.0420670252860524
51.5,0.0556647943255703,0.0417134752551862,0.744947504754249,-0.617055697051484,0.744947504693398,-0.617055696995004,0.05547548283946,0.0419962581440424
52,0.0562610847726858,0.0416290622716841,0.740783037340069,-0.621848262051678,0.740783037284761,-0.621848261995719,0.0560693832621657,0.0419174081727292
52.5,0.0568547375176213,0.0415365651995884,0.736588622870657,-0.626612549203521,0.736588622820867,-0.626612549148245,0.0566606686882238,0.0418305418306003
53,0.0574456752733783,0.0414360497141222,0.732364453058385,-0.631348369231561,0.732364453014083,-0.631348369177129,0.0572492629834663,0.0417357247896381
53.5,0.0580338220732136,0.041327580707256,0.728110721237284,-0.636055535035658,0.728110721198433,-0.636055534982228,0.0578350913376304,0.0416330219217477
54,0.0586191031821571,0.041211222278205,0.723827622286052,-0.640733861689804,0.723827622252608,-0.640733861637527,0.0584180801757321,0.0415224972890943
54.5,0.0592014450096096,0.0410870377277517,0.71951535255375,-0.645383166439162,0.719515352525665,-0.645383166388189,0.0589981570705097,0.0414042141382638
55,0.0597807750231181,0.0409550895563058,0.715174109788075,-0.650003268695479,0.715174109765294,-0.650003268645954,0.0595752506560417,0.0412782348981536
55.5,0.0603570216634354,0.0408154394656125,0.710804093066113,-0.654593990030946,0.710804093048576,-0.654593989983012,0.0601492905426372,0.0411446211815081
56,0.0609301142609569,0.0406681483640247,0.706405502727478,-0.65915515417064,0.706405502715121,-0.659155154124435,0.0607202072330948,0.0410034337900146
56.5,0.061499982953628,0.0405132763752451,0.701978540309758,-0.663686586983625,0.701978540302509,-0.663686586939283,0.0612879320404265,0.0408547327228629
57,0.0620665586064132,0.0403508828504563,0.697523408486163,-0.668188116472811,0.697523408483949,-0.66818811643046,0.0618523970071318,0.0406985771886942
57.5,0.0626297727324139,0.0401810263837491,0.693040311005324,-0.672659572763645,0.693040311008063,-0.672659572723411,0.0624135348261065,0.040535025620841
58,0.0631895574157088,0.0400037648307606,0.688529452633135,-0.677100788091723,0.688529452640743,-0.677100788053727,0.0629712787632725,0.0403641356957774
58.5,0.0637458452360161,0.0398191553304423,0.683991039096599,-0.68151159678937,0.683991039108987,-0.681511596753727,0.063525562582009,0.0401859643546981
59,0.0642985691952309,0.0396272543298642,0.679425277029583,-0.685891835271284,0.679425277046658,-0.685891835238106,0.0640763204694553,0.0400005678281319
59.5,0.0648476626459357,0.0394281176119775,0.674832373920436,-0.690241342019274,0.6748323739421,-0.690241341988666,0.0646234869647707,0.0398080016635138
60,0.0653930592219427,0.0392218003262444,0.670212538061395,-0.694559957566172,0.670212538087548,-0.694559957538237,0.065166996889416,0.0396083207556263
60.5,0.0659346927709447,0.0390083570220562,0.665565978499739,-0.69884752447896,0.665565978530274,-0.698847524453794,0.0657067852795316,0.0394015793798275
61,0.0664724972893442,0.0387878416848517,0.660892904990616,-0.703103887341159,0.660892905025427,-0.703103887318854,0.0662427873204829,0.0391878312279845
61.5,0.0670064068593275,0.0385603077748509,0.65619352795151,-0.707328892734536,0.656193527990483,-0.707328892715177,0.0667749382836369,0.038967129447025
62,0.0675363555882517,0.038325808268328,0.651468058418283,-0.711522389220162,0.651468058461303,-0.711522389203829,0.0673031734654392,0.0387395266800279
62.5,0.0680622775504087,0.0380843957013262,0.646716708002761,-0.715684227318863,0.64671670804971,-0.715684227305632,0.0678274281288564,0.0385050751097663
63,0.0685841067312307,0.0378361222157433,0.641939688851806,-0.719814259491107,0.641939688902562,-0.71981425948105,0.0683476374472491,0.0382638265046206
63.5,0.0691017769740003,0.037581039607695,0.637137213607848,-0.723912340116362,0.637137213662289,-0.723912340109542,0.0688637364507362,0.0380158322667801
64,0.0696152219291308,0.0373191993780734,0.632309495370821,-0.727978325471941,0.632309495428819,-0.727978325468418,0.069375659975114,0.0377611434826436
