"Freq [GHz]","re(St(P1,P1)) []","im(St(P1,P1)) []","re(St(P1,P2)) []","im(St(P1,P2)) []","re(St(P2,P1)) []","im(St(P2,P1)) []","re(St(P2,P2)) []","im(St(P2,P2)) []"
0,0.00524934200109328,0,0.9947692075948,0,0.99476920797315,0,0.00524933984883091,0
0.5,0.00595616754056394,-0.00190520327145194,0.993959224852787,-0.00898515903555364,0.993959224857218,-0.00898515894851926,0.00595600434634846,-0.00190479361654639
1,0.00652063204964648,-0.00469466390578432,0.99311568344422,-0.0170789250882528,0.993115683454509,-0.0170789250995824,0.00652016601515015,-0.00469368333483899
1.5,0.00679245609310541,-0.0076648009536342,0.99239130029545,-0.0249599734103434,0.992391300354416,-0.0249599733531873,0.00679152974359987,-0.00766317262485217
2,0.00684046847838893,-0.0106578924575054,0.991731886478764,-0.0327702846008719,0.991731886582784,-0.0327702845432647,0.00683909624641998,-0.0106554289016287
2.5,0.0067548956981236,-0.0136227894440299,0.991055796470802,-0.0405617973372454,0.991055796591965,-0.04056179730126,0.00675310803556162,-0.0136193992083893
3,0.00658093920967584,-0.0165555348864412,0.990323562548322,-0.0483351775904044,0.990323562665072,-0.0483351775768384,0.00657875058589674,-0.0165511573220893
3.5,0.00634065627454472,-0.0194600439428658,0.98951974233875,-0.0560825285339828,0.989519742438075,-0.0560825285363755,0.00633807285393928,-0.0194546251891001
4,0.00604566767213344,-0.0223403869061922,0.988640016451948,-0.0637967121942076,0.988640016527234,-0.0637967122044891,0.00604269500837074,-0.0223338739701902
4.5,0.00570271610950845,-0.0251996728673571,0.987685026361332,-0.0714728674011056,0.987685026410282,-0.0714728674118703,0.00569936321642261,-0.0251920134134611
5,0.00531609624222273,-0.028040167717986,0.986657482166844,-0.0791082320399354,0.986657482189921,-0.0791082320453231,0.00531237711695365,-0.0280313113375019
5.5,0.00488876909124514,-0.0308635542249469,0.985560758996743,-0.0867016611118654,0.985560758996034,-0.0867016611078455,0.00488470276249053,-0.0308534538045944
6,0.00442290250368615,-0.0336711360415167,0.984398204955752,-0.0942531577368833,0.984398204934135,-0.0942531577212282,0.00441851229691692,-0.0336597487953707
6.5,0.00392014871847834,-0.0364639717472866,0.983172812708424,-0.101763483092467,0.983172812668982,-0.101763483064576,0.00391546116344799,-0.036451259811388
7,0.00338179596522514,-0.0392429567979393,0.981887086765663,-0.10923385096577,0.98188708671127,-0.109233850926411,0.0033768396071463,-0.0392288874131239
7.5,0.00280885733277203,-0.0420088713514462,0.980543018202963,-0.116665698026812,0.980543018136028,-0.116665697977863,0.00280366160472545,-0.0419934167078644
8,0.00220212730035441,-0.0447624070081192,0.979142116955684,-0.124060517743914,0.979142116877989,-0.124060517688088,0.00219672154552553,-0.0447455438385553
8.5,0.00156222097460734,-0.0475041810819894,0.977685472258756,-0.131419745786931,0.977685472171393,-0.131419745727532,0.00155663366011316,-0.0474858900884261
9,0.000889603620644441,-0.0502347438637063,0.976173823646005,-0.138744685741468,0.976173823549358,-0.138744685682195,0.000883861753229576,-0.0502150090508033
9.5,0.000184614355235535,-0.0529545822294502,0.97460763222616,-0.146036465378277,0.974607632119935,-0.146036465323049,0.000178743088999067,-0.0529333902044122
10,-0.000552514012770511,-0.055664121586144,0.972987146583055,-0.153296015308014,0.972987146466335,-0.153296015260826,-0.000558491598196376,-0.0556414608698255
10.5,-0.00133763010739768,-0.0583712917168802,0.971287985101475,-0.160555808732884,0.971287984986916,-0.160555808680895,-0.00134349130950379,-0.0583474777889013
11,-0.00215995336876568,-0.0610673872141749,0.969535317483908,-0.167778260806521,0.969535317371928,-0.16777826074996,-0.00216569153701718,-0.0610424172595874
11.5,-0.00301932776644182,-0.0637518933826469,0.967730350633649,-0.174964346091135,0.967730350524625,-0.174964346030274,-0.00302493611561877,-0.0637257644849116
12,-0.00391558998688979,-0.0664242973423015,0.965874096892561,-0.182115003213295,0.965874096786823,-0.182115003148433,-0.00392106159183897,-0.066397006487704
12.5,-0.00484856943260364,-0.0690840881215045,0.963967396405584,-0.189231118359812,0.963967396303411,-0.189231118291274,-0.00485389722312335,-0.0690556322037557
13,-0.00581808822177793,-0.0717307567512506,0.962010938983888,-0.196313513160427,0.962010938885518,-0.196313513088549,-0.00582326497764776,-0.0717011325762629
13.5,-0.00682396118858822,-0.0743637963607569,0.960005284960235,-0.203362936340682,0.960005284865861,-0.20336293626581,-0.00682897953474934,-0.0743330006515817
14,-0.00786599588415596,-0.0769827022743761,0.957950884690967,-0.210380058544723,0.95795088460074,-0.210380058467203,-0.00787084828604739,-0.0769507316763187
14.5,-0.0089439925782705,-0.0795869721098845,0.955848096491437,-0.217365469766317,0.955848096405465,-0.217365469686499,-0.00894867133732469,-0.0795538231957753
15,-0.0100577442619482,-0.0821761058781525,0.953697202896924,-0.224319678878503,0.953697202815287,-0.224319678796726,-0.0100622415112543,-0.0821417751537785
15.5,-0.0112070366508984,-0.0847496060842161,0.95149842522194,-0.231243114811233,0.951498425144678,-0.231243114727829,-0.0112113443510453,-0.0847140899939061
16,-0.0123916481899978,-0.0873069778297744,0.949251936450391,-0.23813612898718,0.949251936377517,-0.238136128902469,-0.0123957581250875,-0.0872702727621313
16.5,-0.0136113500588324,-0.0898477289171016,0.946957872531157,-0.244998998684929,0.946957872462658,-0.244998998599219,-0.0136152538326807,-0.0898098312108901
17,-0.0148659061783956,-0.0923713699544129,0.944616342181222,-0.251831931053969,0.944616342117061,-0.251831930967551,-0.0148695952109302,-0.0923322759045746
17.5,-0.0161550732190449,-0.0948774144626512,0.942227435314907,-0.25863506755583,0.942227435255027,-0.258635067468978,-0.0161585387428898,-0.094837120326468
18,-0.0174786006097774,-0.0973653789837323,0.93979123022556,-0.265408488649881,0.939791230169885,-0.265408488562858,-0.0174818336670481,-0.0973238809871155
18.5,-0.0188362305489287,-0.099834783190214,0.937307799647454,-0.272152218580375,0.937307799595894,-0.272152218493424,-0.018839221988229,-0.0997920775341141
19,-0.0202276980163711,-0.102285149996397,0.934777215822554,-0.278866230153855,0.934777215775006,-0.278866230067199,-0.0202304384900096,-0.10224123286334
19.5,-0.0216527307873169,-0.104716005670836,0.932199554690631,-0.285550449423157,0.932199554646981,-0.285550449337006,-0.0216552107487337,-0.104670873231576
20,-0.0231110494477858,-0.107126879950257,0.92957489931312,-0.292204760216603,0.929574899273246,-0.292204760131151,-0.0231132591492124,-0.107080528370534
20.5,-0.0246023674118555,-0.109517306154856,0.926903342631945,-0.298829008469201,0.926903342595716,-0.298829008384622,-0.0246042969021982,-0.109469731602253
21,-0.0261263909407723,-0.111886821304944,0.924184989654938,-0.30542300632722,0.924184989622221,-0.305423006243676,-0.0261280300637329,-0.111838019955853
21.5,-0.0276828191639978,-0.114234966238924,0.921419959149943,-0.311986536009038,0.921419959120596,-0.311986535926674,-0.027684157556436,-0.114184934285587
22,-0.0292713441023092,-0.116561285732562,0.918608384920409,-0.318519353414098,0.91860838489429,-0.318519353333046,-0.0292723711928455,-0.116510019390209
22.5,-0.0308916506930129,-0.11886532861952,0.915750416726632,-0.325021191478664,0.915750416703599,-0.325021191399042,-0.0308923557008868,-0.118812824133575
23,-0.0325434168173761,-0.121146647913087,0.912846220908735,-0.331491763282094,0.912846220888643,-0.331491763204005,-0.0325437887515573,-0.121092901566449
23.5,-0.034226313330357,-0.123404800929099,0.909895980760147,-0.33793076491115,0.909895980742851,-0.337930764834688,-0.0342263409889183,-0.123349809049488
24,-0.0359400040927291,-0.125639349409973,0.906899896693735,-0.344337878092366,0.906899896679092,-0.344337878017611,-0.0359396760624816,-0.125583108377329
24.5,-0.0376841460056609,-0.127849859649797,0.903858186236897,-0.350712772604224,0.903858186224765,-0.350712772531248,-0.037683450662064,-0.127792365903728
25,-0.0394583890478692,-0.130035902620445,0.900771083886632,-0.357055108481952,0.90077108387687,-0.357055108410813,-0.0394573145552093,-0.129977152667713
25.5,-0.0412623763153983,-0.132197054098614,0.897638840851114,-0.363364538028186,0.897638840843584,-0.363364537958935,-0.0412609106272517,-0.132137044520663
26,-0.0430957440641163,-0.134332894793758,0.894461724700242,-0.369640707642893,0.894461724694809,-0.369640707575572,-0.0430938749240919,-0.134271622254261
26.5,-0.0449581217550147,-0.13644301047681,0.891240018944189,-0.375883259485753,0.891240018940721,-0.375883259420396,-0.0449558366977862,-0.136380471729235
27,-0.0468491321023738,-0.138526992109652,0.887974022555957,-0.382091832983765,0.887974022554326,-0.382091832920398,-0.0468464184550059,-0.138463184004835
27.5,-0.0487683911248755,-0.140584435975204,0.884664049451395,-0.388266066196343,0.884664049451474,-0.388266066134985,-0.0487652360084417,-0.140519355468931
28,-0.0507155081997372,-0.142614943808118,0.881310427937854,-0.394405597049505,0.881310427939523,-0.394405596990167,-0.0507118985312431,-0.142548587968686
28.5,-0.0526900861199275,-0.144618122925909,0.877913500140851,-0.400510064450049,0.877913500143991,-0.400510064392738,-0.0526860086145357,-0.144550488941689
29,-0.0546917211545346,-0.146593586360499,0.874473621416403,-0.406579109289929,0.874473621420901,-0.406579109234645,-0.0546871623281003,-0.146524671547453
29.5,-0.0567200031123581,-0.148540952990035,0.870991159755398,-0.41261237535027,0.870991159761144,-0.412612375297011,-0.0567149492842716,-0.148470754799217
30,-0.0587745154087573,-0.150459847670893,0.867466495185171,-0.418609510113793,0.867466495192059,-0.418609510062548,-0.0587689527051095,-0.1503883636959
30.5,-0.0608548351358509,-0.152349901369776,0.863900019172487,-0.424570165493688,0.863900019180415,-0.424570165444443,-0.0608487494929125,-0.152277129354147
31,-0.0629605331360764,-0.154210751295771,0.860292134031312,-0.430493998486345,0.860292134040182,-0.430493998439083,-0.0629539103041045,-0.154136689140325
31.5,-0.065091174079199,-0.156042041032294,0.856643252338045,-0.436380671754728,0.856643252347763,-0.436380671709429,-0.0650839996265683,-0.1559666868024
32,-0.0672463165427815,-0.157843420668754,0.852953796356351,-0.442229854148553,0.852953796366828,-0.442229854105192,-0.0672385758604449,-0.157766772601522
32.5,-0.0694255130961723,-0.159614546931874,0.849224197473188,-0.448041221166947,0.849224197484337,-0.448041221125498,-0.0694171914024581,-0.159536603443256
33,-0.0716283103880418,-0.161355083316506,0.845454895647294,-0.453814455368704,0.845454895659034,-0.453814455329136,-0.0716193927337839,-0.161275843008295
33.5,-0.0738542492374961,-0.163064700215835,0.841646338871019,-0.459549246734834,0.841646338883271,-0.459549246697115,-0.0738447205115078,-0.162984161882564
34,-0.0761028647287956,-0.164743075050834,0.83779898264614,-0.465245292987632,0.837798982658831,-0.465245292951728,-0.0760927096636875,-0.164661237686558
34.5,-0.078373686309697,-0.166389892398854,0.833913289474073,-0.47090229987014,0.833913289487131,-0.470902299836016,-0.0783628894880376,-0.166306755203797
35,-0.0806662378934335,-0.168004844121195,0.829989728360708,-0.476519981389497,0.829989728374066,-0.476519981357112,-0.0806547837542686,-0.167920406508267
35.5,-0.0829800379643484,-0.169587629489535,0.826028774335962,-0.482098060027334,0.826028774349556,-0.482098059996651,-0.0829679108100648,-0.169501891090712
36,-0.0853145996871727,-0.171137955311081,0.822030907988017,-0.487636266920131,0.822030908001787,-0.487636266891108,-0.0853017836907274,-0.171050915983614
36.5,-0.0876694310199609,-0.172655536052288,0.817996615012125,-0.493134342012096,0.817996615026014,-0.493134341984692,-0.0876559102324695,-0.172567195884768
37,-0.0900440348306646,-0.174140093961015,0.813926385773783,-0.498592034182975,0.813926385787737,-0.498592034157147,-0.0900297931893526,-0.174050453279249
37.5,-0.0924379090173327,-0.175591359186965,0.809820714886039,-0.504009101352911,0.809820714900009,-0.504009101328614,-0.0924229303538602,-0.175500418559681
38,-0.0948505466319249,-0.177009069900268,0.805680100800637,-0.509385310566316,0.805680100814575,-0.509385310543508,-0.0948348146810809,-0.176916830144631
38.5,-0.0972814360076958,-0.178392972408052,0.801505045412682,-0.514720438056517,0.801505045426544,-0.514720438035152,-0.0972649344164759,-0.178299434594978
39,-0.0997300608901355,-0.179742821268857,0.797296053678489,-0.520014269292775,0.797296053692234,-0.520014269272807,-0.0997127732271967,-0.179647986728122
39.5,-0.102195900571407,-0.181058379404739,0.793053633246264,-0.525266599011149,0.793053633259853,-0.525266598992533,-0.102177810336915,-0.180962249729878
40,-0.104678430028246,-0.182339418210909,0.788778294099259,-0.530477231230524,0.788778294112657,-0.530477231213215,-0.104659520664113,-0.182241995263888
40.5,-0.107177120063263,-0.183585717662755,0.78447054821104,-0.535645979255012,0.784470548224213,-0.535645979238964,-0.107157374963789,-0.183487003578421
41,-0.109691437449586,-0.184797066420093,0.780130909212503,-0.540772665663825,0.780130909225422,-0.540772665648991,-0.109670839972501,-0.184697063610385
41.5,-0.112220845078773,-0.185973261928488,0.775759892070299,-0.545857122289624,0.775759892082935,-0.545857122275959,-0.112199378556701,-0.18587197308641
42,-0.114764802111922,-0.187114110517496,0.771358012776297,-0.550899190186268,0.771358012788625,-0.550899190173726,-0.114742449864256,-0.187011538620843
42.5,-0.117322764133888,-0.188219427495658,0.766925788047767,-0.555898719586792,0.766925788059763,-0.555898719575328,-0.117299509479106,-0.18811557581049
43,-0.119894183310516,-0.189289037242105,0.762463735037937,-0.560855569852381,0.76246373504958,-0.56085556984195,-0.119870009578929,-0.189183909325967
43.5,-0.122478508548795,-0.190322773294599,0.75797237105662,-0.565769609413056,0.757972371067891,-0.565769609403614,-0.122453399095747,-0.190216372999484
44,-0.125075185659814,-0.191320478433865,0.753452213300582,-0.5706407157007,0.753452213311465,-0.570640715692202,-0.125049123879346,-0.191212809908915
44.5,-0.127683657524411,-0.192282004764052,0.748903778593385,-0.575468775075029,0.748903778603865,-0.575468775067433,-0.127656626863395,-0.192173072457997
45,-0.130303364261383,-0.193207213789163,0.744327583134383,-0.580253682743063,0.744327583144448,-0.580253682736324,-0.130275348234151,-0.1930970224525
45.5,-0.132933743398135,-0.194095976485293,0.739724142256629,-0.584995342672572,0.739724142266268,-0.584995342666648,-0.132904725601607,-0.193984531172202
46,-0.135574230043607,-0.194948173368522,0.735093970193413,-0.589693667500003,0.735093970202615,-0.589693667494852,-0.135544194172943,-0.19483547943853
46.5,-0.138224257063343,-0.195763694558303,0.730437579853184,-0.594348578433282,0.730437579861943,-0.594348578428864,-0.138193186928135,-0.195649757677688
47,-0.140883255256536,-0.196542439836176,0.725755482602621,-0.598960005149922,0.72575548261093,-0.598960005146196,-0.140851134797559,-0.196427265979128
47.5,-0.143550653534873,-0.197284318699656,0.721048188057608,-0.603527885690782,0.721048188065463,-0.603527885687708,-0.143517466841426,-0.197167914149197
48,-0.146225879103008,-0.197989250411128,0.716316203881913,-0.608052166349845,0.716316203889312,-0.608052166347385,-0.146191610430861,-0.197871621759809
48.5,-0.148908357640478,-0.198657164041589,0.711560035593341,-0.612532801560319,0.711560035600283,-0.612532801558435,-0.148872991430457,-0.19853831819197
49,-0.151597513484849,-0.199287998509069,0.706780186377166,-0.616969753777377,0.706780186383651,-0.616969753776032,-0.151561034382093,-0.199167942674001
49.5,-0.15429276981589,-0.19988170261156,0.701977156906655,-0.621362993357805,0.701977156912683,-0.621362993356962,-0.154255162689811,-0.199760444314288
50,-0.156993548840566,-0.200438235054291,0.697151445170479,-0.625712498436825,0.697151445176054,-0.62571249843645,-0.156954798805547,-0.200315782128405
50.5,-0.159699271978602,-0.200957564471159,0.692303546306856,-0.63001825480235,0.692303546311981,-0.630018254802408,-0.159659364415483,-0.200833925060419
51,-0.162409360048391,-0.201439669440154,0.687433952444235,-0.634280255766881,0.687433952448915,-0.634280255767338,-0.162368280626776,-0.201314851998219
51.5,-0.165123233452989,-0.201884538492583,0.682543152548363,-0.638498502037294,0.682543152552605,-0.638498502038118,-0.165080968154433,-0.201758551782683
52,-0.167840312365932,-0.202292170115896,0.677631632275585,-0.642673001582691,0.677631632279394,-0.642673001583849,-0.167796847508063,-0.202165023210497
52.5,-0.170560016916607,-0.202662572749923,0.672699873832197,-0.646803769500539,0.672699873835582,-0.646803769502002,-0.170515339178233,-0.20253427503043
53,-0.173281767374881,-0.202995764776309,0.667748355839744,-0.650890827881261,0.667748355842713,-0.650890827882998,-0.173235863822158,-0.202866325932869
53.5,-0.176004984334699,-0.20329177450092,0.662777553206076,-0.654934205671457,0.66277755320864,-0.65493420567344,-0.175957842448422,-0.203161204532388
54,-0.178729088896329,-0.203550640128982,0.657787937002059,-0.658933938535927,0.657787937004227,-0.658933938538129,-0.178680696600433,-0.20341894934314
54.5,-0.181453502846933,-0.203772409732709,0.652779974343792,-0.662890068718645,0.652779974345576,-0.66289006872104,-0.181403848538279,-0.203639608746819
55,-0.184177648839129,-0.203957141211133,0.647754128280196,-0.666802644902835,0.647754128281607,-0.666802644905396,-0.184126721418673,-0.203823240952928
55.5,-0.186900950567183,-0.204104902241848,0.642710857685851,-0.670671722070286,0.642710857686902,-0.670671722072989,-0.186848739472625,-0.203969913951084
56,-0.189622832940473,-0.204215770224341,0.637650617158975,-0.674497361360047,0.637650617159678,-0.674497361362867,-0.189569328180492,-0.204079705455042
56.5,-0.192342722253837,-0.204289832214548,0.632573856924395,-0.678279629926624,0.632573856924764,-0.678279629929541,-0.192287914444038,-0.204152702838102
57,-0.195060046354416,-0.204327184850254,0.627481022741421,-0.682018600797804,0.627481022741471,-0.682018600800795,-0.195003926755098,-0.204189003059539
57.5,-0.197774234804574,-0.204327934266884,0.622372555816494,-0.685714352732216,0.622372555816238,-0.68571435273526,-0.197716795360473,-0.204188712581624
58,-0.200484719040483,-0.204292196003211,0.617248892720502,-0.689366970076742,0.617248892719955,-0.689366970079821,-0.20042595242262,-0.204151947276797
58.5,-0.203190932525927,-0.204220094896424,0.612110465310648,-0.692976542623897,0.612110465309825,-0.692976542626991,-0.203130832175722,-0.204078832324474
59,-0.205892310900874,-0.204111764965953,0.606957700656787,-0.696543165469238,0.606957700655704,-0.696543165472329,-0.205830871076691,-0.203969502096907
59.5,-0.20858829212436,-0.203967349285345,0.601791020972094,-0.700066938868952,0.601791020970767,-0.700066938872025,-0.208525507950653,-0.203824100033452
60,-0.211278316611216,-0.203786999841421,0.596610843547985,-0.703547968097674,0.596610843546429,-0.703547968100713,-0.211214184130462,-0.203642778502516
60.5,-0.213961827362151,-0.203570877379811,0.591417580693186,-0.706986363306628,0.591417580691417,-0.706986363309618,-0.21389634358976,-0.203425698650347
61,-0.216638270086723,-0.203319151235863,0.586211639676848,-0.710382239382191,0.586211639674882,-0.710382239385118,-0.216571433069114,-0.203173030235726
61.5,-0.219307093318711,-0.203031999149778,0.580993422675613,-0.713735715804942,0.580993422673467,-0.713735715807793,-0.21923890219476,-0.202884951449481
62,-0.221967748523425,-0.202709607064634,0.575763326724537,-0.717046916509275,0.575763326722227,-0.717046916512039,-0.221898203589487,-0.202561648717599
62.5,-0.224619690196504,-0.20235216890582,0.570521743671778,-0.720315969743653,0.57052174366932,-0.720315969746319,-0.224548792975188,-0.202203316486537
63,-0.227262375953781,-0.201959886340141,0.565269060136951,-0.723543007931566,0.565269060134362,-0.723543007934123,-0.227190129266685,-0.201810156989118
63.5,-0.229895266611843,-0.201532968512621,0.56000565747307,-0.726728167533252,0.560005657470366,-0.726728167535693,-0.229821674656395,-0.201382379989183
