"Freq [GHz]","re(St(P1,P1)) []","im(St(P1,P1)) []","re(St(P1,P2)) []","im(St(P1,P2)) []","re(St(P2,P1)) []","im(St(P2,P1)) []","re(St(P2,P2)) []","im(St(P2,P2)) []"
0,0.0058828905615087,0,0.994133972606505,0,0.994134008433321,0,0.00588292172807314,0
0.5,0.00647784537337515,-0.000297199364247547,0.993430506896889,-0.00947470788394966,0.993430507555544,-0.00947470797209959,0.00647773488976711,-0.000296301277550981
1,0.00694672883482816,-0.00130924624082596,0.992667516434254,-0.0182150410380366,0.992667514600488,-0.0182150382036532,0.00694654325740984,-0.00130722949684525
1.5,0.0071950465718249,-0.00246167420329257,0.991951925748767,-0.02676620413013,0.99195192510658,-0.026766202042424,0.00719495911840973,-0.00245848177328867
2,0.00727578470577495,-0.00363170102498955,0.99124087952002,-0.0352426366922582,0.991240879362613,-0.0352426353742636,0.00727589943463602,-0.00362737879579633
2.5,0.00726155325584665,-0.00477719347056293,0.990473473827355,-0.0436777881318182,0.990473473809543,-0.0436777873953869,0.00726193889579596,-0.00477178425225944
3,0.00718927139026393,-0.00589425621169504,0.989625468009572,-0.0520681187049128,0.989625467989933,-0.0520681183531657,0.00718998433470786,-0.00588779942725282
3.5,0.00707742551614965,-0.00698552116272211,0.988691733217625,-0.0604062495269382,0.98869173316284,-0.0604062494009074,0.00707851559054662,-0.00697805597928891
4,0.00693623335322768,-0.00805387545079217,0.987675073547764,-0.0686873812935538,0.987675073479649,-0.0686873812803981,0.0069377451901691,-0.00804544205612778
4.5,0.00677210588748944,-0.00910155026160009,0.986581014792706,-0.0769097719946954,0.986581014756273,-0.0769097720246155,0.00677407929150053,-0.00909219003023765
5,0.00658959528796199,-0.0101302231010161,0.985415445127322,-0.0850740281063187,0.985415445170406,-0.0850740281449482,0.00659206543505475,-0.0101199782642736
5.5,0.00639227995006819,-0.0111412402148527,0.984183587056148,-0.0931822833458007,0.984183587216686,-0.0931822833847793,0.00639527764024217,-0.011130153339006
6,0.0061831833343744,-0.0121357937164186,0.982889620077399,-0.101237510192989,0.982889620376264,-0.1012375102402,0.00618673534644953,-0.0121239071375561
6.5,0.0059649781813208,-0.0131150395879036,0.981536628420347,-0.109243005645061,0.981536628858271,-0.109243005715606,0.00596910772888154,-0.0131023948797155
7,0.00574008778188795,-0.0140801698190014,0.980126704762324,-0.117202036742944,0.980126705319693,-0.117202036851485,0.00574481505283447,-0.0140668073334398
7.5,0.00551073661175544,-0.0150324528461372,0.978661117789238,-0.125117615970865,0.978661118427749,-0.125117616125545,0.00551607936936821,-0.0150184113468077
8,0.00527897601331057,-0.015973253010614,0.977140493432408,-0.132992374785981,0.977140494097786,-0.132992374983954,0.00528495023680484,-0.0159585694063011
8.5,0.0050466979995798,-0.0169040365304713,0.975564983962782,-0.140828506960484,0.975564984587971,-0.140828507184884,0.00505331854445336,-0.0168887457082234
9,0.00481564397108654,-0.0178263691315577,0.973934413442546,-0.148627758708039,0.973934413950971,-0.148627758926132,0.0048229252328853,-0.0178105038833509
9.5,0.00458741186576894,-0.0187419088673182,0.972248396227192,-0.156391448052825,0.972248396535836,-0.156391448215121,0.00459536843476238,-0.0187254999011253
10,0.0043634635008794,-0.0196523965508928,0.970506429594048,-0.164120500778135,0.970506429616213,-0.164120500818186,0.0043721107990146,-0.0196354725750219
10.5,0.00413069226416581,-0.0206240631640373,0.968729728067919,-0.171802537045277,0.968729728084774,-0.17180253707194,0.00414000554034943,-0.0206065488530309
11,0.00388617040945774,-0.0215940522640667,0.966905393900746,-0.179453886475485,0.96690539391481,-0.179453886488564,0.00389616876025635,-0.0215759828750661
11.5,0.0036298439788382,-0.0225622657845066,0.965033097234482,-0.187075799141535,0.965033097248107,-0.187075799141272,0.00364054468379693,-0.022543677721925
12,0.00336165713813355,-0.0235286029919095,0.963112490241332,-0.194669285829471,0.963112490256642,-0.194669285816479,0.00337307559891373,-0.0235095337302833
12.5,0.00308155227275925,-0.0244929603384501,0.961143229088684,-0.202235155201866,0.961143229107543,-0.202235155177037,0.00309370195593545,-0.0244734483413795
13,0.00278947009011743,-0.0254552313121015,0.959124988131489,-0.209774046374305,0.959124988155483,-0.209774046338755,0.00280236247387999,-0.0254353159473091
13.5,0.00248534972889386,-0.0264153062844934,0.957057468433171,-0.217286456927227,0.957057468463609,-0.21728645688222,0.00249899425391609,-0.0263950277350222
14,0.00216912887559961,-0.0273730723566397,0.954940402249462,-0.224772766635327,0.954940402287375,-0.224772766582229,0.00218353290034545,-0.0273524715282965
14.5,0.0018407438887581,-0.0283284132027357,0.952773554720589,-0.23223325733197,0.952773554766745,-0.232233257272192,0.00185591264951096,-0.0283075316278327
15,0.00150012993112775,-0.0292812089122858,0.950556723703014,-0.239668129380002,0.950556723757938,-0.239668129314964,0.00151606650702735,-0.0292600886498136
15.5,0.00114722111039023,-0.0302313358308326,0.948289738424079,-0.247077515223495,0.948289738488077,-0.247077515154594,0.00116392639376373,-0.0302100193631967
16,0.000781950628721551,-0.0311786663996441,0.945972457451195,-0.254461490468749,0.945972457524369,-0.254461490397327,0.000799423301021784,-0.0311571965261512
16.5,0.000404250941714146,-0.0321230689947294,0.943604766321288,-0.261820082901013,0.943604766403571,-0.261820082828342,0.000422487455354004,-0.0321014887220095
17,1.40539270974127E-005,-0.0330644077656448,0.941186575066993,-0.269153279795231,0.941186575158165,-0.269153279722495,3.3048493489507E-005,-0.0330427601952508
17.5,-0.00038870893627041,-0.0340025424745567,0.938717815795294,-0.276461033830024,0.938717815895009,-0.27646103375831,-0.000368964352163936,-0.0339808706880154
18,-0.000804106378667901,-0.0349373283361476,0.936198440415765,-0.283743267867535,0.936198440523573,-0.283743267797825,-0.000783622056978739,-0.0349156752777731
18.5,-0.00123220713854361,-0.035868615858947,0.933628418573596,-0.290999878819176,0.933628418688961,-0.290999878752344,-0.00121099559604287,-0.0358470242167634
19,-0.0016730797498633,-0.0367962506888062,0.931007735813358,-0.298230740779779,0.931007735935681,-0.29823074071659,-0.00165115572412183,-0.0367747627739696
19.5,-0.00212679231728796,-0.0377200734552408,0.928336391979499,-0.305435707579931,0.928336392108129,-0.305435707521045,-0.00210417274318681,-0.0376987310803971
20,-0.00259341227874044,-0.0386399196214839,0.925614399846467,-0.312614614878504,0.925614399980723,-0.312614614824476,-0.00257011625707659,-0.0386187639785347
20.5,-0.0030730061549199,-0.0395556193391369,0.922841783963276,-0.319767281893899,0.922841784102455,-0.319767281845182,-0.00304905491288138,-0.0395346908769416
21,-0.00356563928536635,-0.0404669973084117,0.920018579692703,-0.326893512853025,0.920018579836094,-0.326893512809981,-0.00354105612867583,-0.040446335610985
21.5,-0.00407137555070231,-0.0413738726450119,0.917144832423227,-0.333993098220887,0.917144832570119,-0.333993098183789,-0.00404618580725508,-0.0413535163108301
22,-0.00459027708072052,-0.0422760587548037,0.914220596931375,-0.341065815760434,0.914220597081069,-0.341065815729471,-0.00456450803559982,-0.0422560452778737
22.5,-0.00512240394805263,-0.0431733632174951,0.911245936872828,-0.348111431461589,0.911245937024644,-0.348111431436879,-0.00509608476982626,-0.043153728870887
23,-0.00566781384720733,-0.0440655876806542,0.908220924382017,-0.355129700369717,0.908220924535295,-0.355129700351308,-0.00564097550547682,-0.0440463674032288
23.5,-0.00622656175884317,-0.0449525277654406,0.905145639761666,-0.36212036733681,0.905145639915775,-0.362120367324685,-0.00619923693307106,-0.0449337550525455
24,-0.00679869959923152,-0.0458339729855564,0.90202017124574,-0.369083167713152,0.902020171400079,-0.369083167707244,-0.00677092257893708,-0.0458156797845133
24.5,-0.00738427585497203,-0.0467097066809614,0.898844614821195,-0.376017827992848,0.8988446149752,-0.376017827993041,-0.00735608243145014,-0.0466919232921685
25,-0.00798333520311378,-0.0475795059680166,0.8956190740959,-0.382924066423165,0.895619074249042,-0.382924066429298,-0.00795476255292427,-0.0475622609525301
25.5,-0.00859591811699739,-0.0484431417077529,0.892343660201893,-0.389801593584956,0.892343660353679,-0.389801593596833,-0.00856700467754506,-0.0484264618022376
26,-0.00922206045824897,-0.0493003784940713,0.889018491724817,-0.396650112949421,0.889018491874794,-0.396650112966815,-0.00919284579586616,-0.0492842885339957
26.5,-0.0098617930555237,-0.0501509746637001,0.885643694651935,-0.40346932141483,0.885643694799689,-0.403469321437487,-0.009832317726575,-0.0501354975156736
27,-0.0105151412707787,-0.0509946823298246,0.882219402332386,-0.41025890982573,0.882219402477539,-0.410258909853376,-0.0104854466764008,-0.0509798388339502
27.5,-0.0111821245540328,-0.0518312474413007,0.878745755444597,-0.41701856347623,0.87874575558681,-0.417018563508573,-0.0111522527892269,-0.0518170563644005
28,-0.011862755987775,-0.0526604098694143,0.875222901966754,-0.423747962598347,0.875222902105725,-0.423747962635081,-0.0118327496856935,-0.0526468878699511
28.5,-0.0125570418224195,-0.0534819035241432,0.871650997147104,-0.430446782835971,0.871650997282566,-0.430446782876782,-0.0125269439947815,-0.0534690651296157
29,-0.0132649810044049,-0.0542954565018579,0.868030203471636,-0.437114695704658,0.868030203603358,-0.437114695749225,-0.0132348348791113,-0.0542833140993702
29.5,-0.0139865646988212,-0.0551007912663675,0.864360690627274,-0.443751369037329,0.864360690755057,-0.443751369085327,-0.0139564135559287,-0.0550893551070142
30,-0.0147217758086685,-0.0558976248651408,0.860642635459268,-0.45035646741575,0.860642635582945,-0.450356467466854,-0.0146916628160106,-0.0558869030827474
30.5,-0.0154705884931358,-0.0566856691824598,0.856876221921894,-0.45692965258772,0.856876222041326,-0.456929652641606,-0.0154405565429716,-0.0566756678270832
31,-0.0162329676875552,-0.0574646312311071,0.853061641021906,-0.463470583869776,0.853061641136983,-0.463470583926124,-0.0162030592357283,-0.0574553543176162
31.5,-0.017008868627961,-0.0582342134840669,0.849199090754491,-0.469978918535321,0.849199090865129,-0.469978918593815,-0.0169791255371347,-0.0582256630559255
32,-0.0177982363834539,-0.0589941142474976,0.845288776031677,-0.476454312188057,0.845288776137818,-0.476454312248389,-0.0177686997720615,-0.0589862904557401
32.5,-0.0186010053998468,-0.0597440280760104,0.841330908603351,-0.482896419120709,0.84133090870496,-0.482896419182579,-0.0185717154984528,-0.0597369292732105
33,-0.0194170990583178,-0.0604836462310226,0.837325706971136,-0.489304892659018,0.837325707068197,-0.489304892722135,-0.0193880950751332,-0.060477269079844
33.5,-0.0202464292530541,-0.061212657182618,0.833273396295509,-0.495679385491088,0.833273396388027,-0.495679385555171,-0.0202177492503436,-0.061206996778351
34,-0.0210888959920828,-0.0619307471550149,0.829174208296607,-0.502019549982199,0.829174208384606,-0.502019550046979,-0.0210605767752183,-0.0619257971612573
34.5,-0.0219443870256935,-0.0626376007153281,0.825028381149196,-0.508325038475259,0.825028381232715,-0.508325038540477,-0.021916464046548,-0.0626333535117477
35,-0.0228127775070051,-0.0633329014048623,0.820836159372333,-0.514595503577113,0.820836159451426,-0.514595503642522,-0.0227852847833332,-0.0633293482457423
35.5,-0.0236939296893804,-0.0640163324117218,0.816597793714236,-0.520830598430974,0.816597793788971,-0.520830598496342,-0.0236668997417174,-0.0640134635937529
36,-0.0245876926654342,-0.0646875772829623,0.812313541032916,-0.527029976975267,0.812313541103373,-0.527029977040371,-0.0245611564729181,-0.0646853823205019
36.5,-0.0254939021524308,-0.0653463206740005,0.807983664173074,-0.533193294189225,0.807983664239342,-0.533193294253858,-0.0254678891287791,-0.0653447884798061
37,-0.0264123803288117,-0.065992249132389,0.803608431839787,-0.539320206325592,0.803608431901968,-0.539320206389559,-0.0263869183194774,-0.0659913682016093
37.5,-0.0273429357264861,-0.0666250519124837,0.799188118469465,-0.545410371130809,0.799188118527666,-0.545410371193926,-0.0273180510277806,-0.0666248105074975
38,-0.028285363183343,-0.0672444218168998,0.794723004098545,-0.55146344805307,0.794723004152883,-0.551463448115169,-0.0282610805840237,-0.0672448081504317
38.5,-0.0292394438601664,-0.0678500560600588,0.790213374230365,-0.557479098438681,0.790213374280961,-0.557479098499604,-0.0292157867056921,-0.0678510584738502
39,-0.0302049453258009,-0.0684416571484868,0.785659519700622,-0.563456985717089,0.785659519747603,-0.563456985776693,-0.0301819356051036,-0.0684432642847088
39.5,-0.0311816217139708,-0.0690189337719637,0.781061736541808,-0.569396775575053,0.781061736585305,-0.569396775633204,-0.0311592801682437,-0.0690211347345031
40,-0.0321692139546416,-0.0695816016990295,0.776420325846962,-0.575298136120328,0.77642032588711,-0.575298136176907,-0.0321475602072418,-0.0695843862017576
40.5,-0.0331674500821946,-0.0701293846698546,0.771735593633074,-0.581160738035315,0.771735593670011,-0.581160738090214,-0.0331465027883748,-0.07013274316905
41,-0.0341760456219879,-0.0706620152790065,0.76700785070444,-0.586984254721064,0.767007850738305,-0.586984254774185,-0.034155822636767,-0.070665939087187
41.5,-0.035194704056112,-0.0711792358402421,0.762237412516228,-0.592768362432047,0.762237412547161,-0.592768362483306,-0.0351752226181797,-0.0711837172188372
42,-0.0362231173682731,-0.0716807992251798,0.757424599038507,-0.598512740402112,0.757424599066649,-0.598512740451433,-0.0362043942974629,-0.0716858314536868
42.5,-0.0372609666668388,-0.0721664696674472,0.752569734620966,-0.604217070961976,0.752569734646457,-0.604217071009294,-0.0372430185723087,-0.0721720470870026
43,-0.0383079228841048,-0.0726360235238449,0.747673147858505,-0.609881039648668,0.747673147881486,-0.609881039693927,-0.0382907663800511,-0.0726421415534855
43.5,-0.0393636475488136,-0.0730892499840505,0.742735171457895,-0.61550433530727,0.742735171478506,-0.615504335350426,-0.0393472994742441,-0.073095905108337
44,-0.0404277936279509,-0.0735259517205721,0.737756142105652,-0.621086650185325,0.73775614212403,-0.621086650226342,-0.040412271266801,-0.0735331414477021
44.5,-0.0415000064327762,-0.073945945470919,0.732736400337259,-0.62662768002024,0.732736400353539,-0.626627680059089,-0.0414853277304811,-0.0739536682609419
45,-0.0425799245830313,-0.0743490625444052,0.727676290407878,-0.632127124120031,0.727676290422194,-0.632127124156693,-0.0425661083555469,-0.0743573177076988
45.5,-0.0436671810222778,-0.0747351492465786,0.722576160164642,-0.63758468543772,0.722576160177124,-0.637584685472184,-0.043654247153525,-0.0747439368132806
46,-0.0447614040763784,-0.075104067214966,0.717436360920619,-0.643000070639689,0.717436360931395,-0.643000070671951,-0.0447493737001164,-0.0751133877766412
46.5,-0.0458622185462708,-0.0754556936606935,0.712257247330546,-0.64837299016829,0.712257247339741,-0.648372990198352,-0.0458511142085594,-0.0754655481860745
47,-0.0469692468254409,-0.0757899215115059,0.707039177268379,-0.65370315829898,0.707039177276113,-0.653703158326852,-0.0469590926240525,-0.0758003111387083
47.5,-0.0480821100318423,-0.0761066594528055,0.701782511706726,-0.658990293192262,0.701782511713118,-0.658990293217961,-0.048072931729309,-0.0761175852609388
48,-0.0492004291435313,-0.0764058318645218,0.696487614598217,-0.664234116940686,0.696487614603379,-0.664234116964231,-0.0491922542508873,-0.076417294628117
48.5,-0.0503238261269083,-0.0766873786528799,0.691154852758834,-0.669434355611131,0.691154852762876,-0.669434355632551,-0.050316683955663,-0.0766993785829718
49,-0.0514519250463097,-0.0769512549774781,0.685784595753256,-0.674590739282645,0.685784595756283,-0.674590739301973,-0.0514458467267046,-0.0769637914535594
49.5,-0.0525843531436569,-0.0771974308754216,0.680377215782212,-0.679703002080022,0.680377215784326,-0.679703002097293,-0.0525793716078642,-0.0772105021727616
50,-0.0537207418770629,-0.0774258907856362,0.674933087571892,-0.684770882203348,0.674933087573189,-0.684770882218604,-0.0537168918066074,-0.0774394938026635
50.5,-0.0548607279076534,-0.0776366329778225,0.669452588265409,-0.689794121953715,0.66945258826598,-0.689794121967002,-0.0548580456450029,-0.0776507629683666
51,-0.0560039540243971,-0.0778296688918113,0.663936097316317,-0.694772467755292,0.663936097316252,-0.694772467766657,-0.0560024774493481,-0.0778443192070046
51.5,-0.0571500699974427,-0.0780050223942869,0.658383996384216,-0.699705670173931,0.658383996383597,-0.699705670183427,-0.0571498383696006,-0.0780201842388324
52,-0.0582987333513514,-0.0781627289609905,0.652796669232401,-0.704593483932491,0.652796669231307,-0.704593483940175,-0.0582997871206697,-0.0781783911682917
52.5,-0.059449610050616,-0.078302834793493,0.647174501627591,-0.709435667923035,0.647174501626097,-0.709435667928963,-0.0594519906385729,-0.0783189836238504
53,-0.0606023750910045,-0.0784253958804894,0.641517881241707,-0.714231985216051,0.641517881239883,-0.714231985220284,-0.0606061246455789,-0.0784420148461805
53.5,-0.0617567129915191,-0.0785304770142657,0.635827197555701,-0.71898220306687,0.635827197553611,-0.71898220306947,-0.0617618741196374,-0.0785475467348463
54,-0.0629123181830866,-0.0786181507735076,0.630102841765416,-0.72368609291939,0.630102841763122,-0.723686092920421,-0.0629189336646374,-0.0786356488641389
54.5,-0.0640688952914613,-0.0786884964839595,0.624345206689477,-0.72834343040726,0.624345206687035,-0.72834343040679,-0.0640770077793416,-0.0787063974789521
55,-0.0652261593132482,-0.078741599168595,0.618554686679185,-0.732953995352655,0.618554686676647,-0.732953995350749,-0.0652358110241424,-0.0787598744817368
55.5,-0.0663838356853361,-0.0787775484989279,0.612731677530404,-0.737517571762742,0.612731677527818,-0.73751757175947,-0.0663950680860917,-0.0787961664214705
56,-0.0675416602494016,-0.0787964377588734,0.606876576397423,-0.74203394782398,0.606876576394833,-0.742033947819408,-0.0675545137439232,-0.0788153634953852
56.5,-0.0686993791144697,-0.0787983628321738,0.600989781708777,-0.746502915894334,0.600989781706221,-0.746502915888535,-0.0687138927360007,-0.0788175585737858
57,-0.0698567484217452,-0.0787834212238647,0.595071693085001,-0.750924272493542,0.595071693082517,-0.750924272486584,-0.0698729595352643,-0.0788028462577732
57.5,-0.0710135340170588,-0.0787517111255306,0.589122711258311,-0.7552978182915,0.589122711255929,-0.755297818283454,-0.0710314780362868,-0.0787713219790108
58,-0.072169511037303,-0.078703330533305,0.58314323799417,-0.759623358094887,0.583143237991917,-0.759623358085823,-0.0721892211604888,-0.0787230811499033
58.5,-0.073324463418099,-0.0786383764266017,0.577133676014744,-0.763900700832105,0.577133676012645,-0.763900700822094,-0.0733459703863609,-0.0786582183716729
59,-0.0744781833307001,-0.0785569440145732,0.571094428924211,-0.768129659536629,0.571094428922286,-0.768129659525739,-0.0745015152122478,-0.078576826706875
59.5,-0.0756304705567018,-0.0784591260561831,0.565025901135899,-0.772310051328837,0.565025901134166,-0.772310051317139,-0.0756556525597478,-0.0784789970218809
60,-0.0767811318095886,-0.0783450122586761,0.558928497801254,-0.776441697396428,0.558928497799725,-0.776441697383988,-0.0768081861262236,-0.0783648174038176
60.5,-0.0779299800124201,-0.0782146887580764,0.552802624740585,-0.780524422973458,0.55280262473927,-0.780524422960344,-0.0779589256951492,-0.0782343726554051
61,-0.0790768335411,-0.0780682376842172,0.546648688375594,-0.78455805731811,0.546648688374501,-0.78455805730439,-0.0791076864131641,-0.0780877438700616
61.5,-0.0802215154426609,-0.0779057368116889,0.540467095663655,-0.788542433689246,0.540467095662787,-0.788542433674984,-0.0802542880426948,-0.0779250080886437
62,-0.0813638526378594,-0.077727259297021,0.534258254033819,-0.792477389321803,0.534258254033178,-0.792477389307063,-0.0813985541988667,-0.0777462380381722
62.5,-0.0825036751171102,-0.0775328735014055,0.528022571324537,-0.796362765401106,0.528022571324121,-0.796362765385952,-0.0825403115792137,-0.0775515019519796
