"Freq [GHz]","re(St(P1,P1)) []","im(St(P1,P1)) []","re(St(P1,P2)) []","im(St(P1,P2)) []","re(St(P2,P1)) []","im(St(P2,P1)) []","re(St(P2,P2)) []","im(St(P2,P2)) []"
0,0.00518494175855722,0,0.994834374287166,0,0.99483436603623,0,0.00518494087629051,0
0.5,0.00588616190419344,-0.00292661776086689,0.993973956485178,-0.0106720022546583,0.99397395672516,-0.0106720041550439,0.00588649751066583,-0.00292757302484148
1,0.00641614951511116,-0.00676550584627478,0.992998907109435,-0.020411246625887,0.992998908273442,-0.0204112453080398,0.00641700299215131,-0.00676778988530913
1.5,0.00658182906311033,-0.0107949527214402,0.992116023076727,-0.0298999518824274,0.992116023929739,-0.0298999518037029,0.00658323023821161,-0.0107987518895847
2,0.00647903125587845,-0.0148248433135763,0.991246488051345,-0.0393125732456774,0.991246488398351,-0.0393125734833415,0.00648097026147987,-0.0148302641427005
2.5,0.00620619636926989,-0.0188087831987058,0.990305371498772,-0.0486873371810805,0.990305371549045,-0.0486873373926073,0.00620869410276281,-0.0188158875943198
3,0.00581073752416295,-0.0227440225393121,0.989258735812371,-0.0580173719068497,0.989258735745166,-0.0580173720122126,0.00581383117765544,-0.022752868784881
3.5,0.00531636738474672,-0.0266339041940871,0.988097691077377,-0.0672916717283645,0.988097691000271,-0.0672916717399907,0.00532009606680894,-0.0266445549660475
4,0.00473661295254679,-0.0304814930238066,0.98682379203376,-0.0765024630805318,0.986823792000176,-0.0765024630369346,0.00474101055549614,-0.03049401437233
4.5,0.00408035765167813,-0.0342889838970546,0.985442500469846,-0.0856456616047563,0.985442500498337,-0.0856456615451702,0.00408545020005313,-0.0343034423668982
5,0.00335415102289627,-0.0380580023230692,0.983960244234378,-0.0947200530703753,0.983960244322891,-0.0947200530255268,0.00335995645775133,-0.0380744621685034
5.5,0.00256321457944031,-0.0417899136781115,0.982383091238105,-0.103726376793574,0.982383091373773,-0.103726376783158,0.00256974384898601,-0.0418084347086563
6,0.0017118986550666,-0.0454860204682941,0.980716199900903,-0.11266655637312,0.980716200066574,-0.112666556406277,0.00171915746354556,-0.0455066566439362
6.5,0.000803898926179936,-0.0491476644635434,0.978963661999713,-0.121543113151001,0.978963662178123,-0.121543113227986,0.000811889738063454,-0.0491704632103236
7,-0.000157634165321552,-0.0527762654630557,0.977128543763821,-0.130358746439315,0.977128543940082,-0.130358746553593,-0.000148910128224045,-0.0528012676170446
7.5,-0.00117003307798447,-0.0563733219203826,0.975213019564055,-0.139116051573002,0.975213019726976,-0.139116051713311,-0.00116057401582537,-0.0564005621801735
8,-0.0022310703411394,-0.0599403907228773,0.973218538991823,-0.14781734524927,0.973218539134418,-0.147817345401408,-0.00222087233300639,-0.0599698984823309
8.5,-0.00333892272989245,-0.0634790573611568,0.971145994780794,-0.156464570313338,0.971145994900284,-0.156464570461657,-0.00332797851822897,-0.0635108577990922
9,-0.0044921371835972,-0.0669909035132532,0.968995874992249,-0.165059256575781,0.968995875089745,-0.165059256704324,-0.00448043529764958,-0.0670250188298747
9.5,-0.00568959669439162,-0.0704774762167339,0.966768392449898,-0.173602519098075,0.966768392529932,-0.173602519191416,-0.00567712089731598,-0.0705139269246944
10,-0.00693048601051094,-0.0739402608957196,0.964463589938473,-0.182095079933845,0.964463590008452,-0.18209507997768,-0.00691721503745846,-0.073979067093509
10.5,-0.00816478204149068,-0.0774239479007388,0.962078619422662,-0.19053954725001,0.962078619489174,-0.190539547294839,-0.00815087617685706,-0.0774655694344215
11,-0.00945990392663576,-0.0808843711563187,0.959625415502143,-0.19893179773103,0.959625415565185,-0.198931797776497,-0.00944531773261842,-0.0809287766456888
11.5,-0.0108150881035246,-0.0843206317692506,0.957104712789432,-0.207273472788272,0.957104712849045,-0.207273472834047,-0.0107997840479131,-0.0843677967928156
12,-0.0122295799255901,-0.0877318060920835,0.954517021304728,-0.215565975676214,0.954517021360991,-0.215565975721987,-0.0122135267284781,-0.0877817127805245
12.5,-0.0137026319691006,-0.0911169543129886,0.951862679532896,-0.223810476495014,0.951862679585918,-0.223810476540503,-0.0136858033097831,-0.0911695908617824
13,-0.0152335020265935,-0.0944751273043227,0.949141899697814,-0.232007922674795,0.949141899747731,-0.232007922719748,-0.0152158755391875,-0.0945304874592869
13.5,-0.0168214510216848,-0.0978053720762322,0.946354805774524,-0.24015905309343,0.946354805821491,-0.240159053137627,-0.0168030075198219,-0.0978634546249473
14,-0.0184657409877287,-0.101106736121557,0.943501464923341,-0.248264414379977,0.943501464967527,-0.248264414423224,-0.0184464638695871,-0.10116754440967
14.5,-0.020165633191405,-0.104378270884094,0.940581913101693,-0.256324378301342,0.940581913143276,-0.256324378343478,-0.0201455079859401,-0.104441812366513
15,-0.0219203864424683,-0.107619034536011,0.937596175617733,-0.264339159417701,0.937596175656898,-0.26433915945859,-0.0218994004657051,-0.107685320367144
15.5,-0.0237292556055522,-0.110828094211715,0.934544283357107,-0.272308832425309,0.93454428339404,-0.272308832464843,-0.0237073977023782,-0.11089713887539
16,-0.0255914903144423,-0.114004527814409,0.931426285357275,-0.280233348789617,0.931426285392161,-0.280233348827713,-0.0255687506666199,-0.114076348791961
16.5,-0.0275063338800954,-0.117147425486498,0.928242258334601,-0.288112552413603,0.928242258367623,-0.288112552450202,-0.0274827038654263,-0.117222042960393
17,-0.0294730223788184,-0.12025589081521,0.924992313696024,-0.295946194193397,0.924992313727357,-0.295946194228457,-0.0294484944696946,-0.120333327405009
17.5,-0.0314907839047868,-0.123329041829249,0.921676602494981,-0.303733945392163,0.921676602524793,-0.303733945425665,-0.0314653515969824,-0.123409322356578
18,-0.0335588379704983,-0.126366011829939,0.91829531872357,-0.311475409819563,0.918295318752023,-0.311475409851502,-0.0335324957350804,-0.126449163109179
18.5,-0.0356763950392098,-0.129365950090867,0.91484870127143,-0.319170134843295,0.914848701298677,-0.319170134873684,-0.0356491382920349,-0.129452000742475
19,-0.0378426561743139,-0.132328022452442,0.91133703482727,-0.326817621284935,0.911337034853449,-0.326817621313795,-0.0378144812588223,-0.132417002736093
19.5,-0.0400568127919202,-0.135251411832019,0.907760649951502,-0.334417332268285,0.907760649976744,-0.334417332295653,-0.0400277169718751,-0.135343353497017
20,-0.0423180465041739,-0.138135318665682,0.904119922507652,-0.341968701097133,0.904119922532076,-0.341968701123052,-0.0422880279637708,-0.138230254816393
20.5,-0.0446255290422322,-0.14097896129424,0.90041527260562,-0.349471138242802,0.900415272629335,-0.349471138267326,-0.0445945868915671,-0.141076926268556
21,-0.0469784222490518,-0.143781576303178,0.896647163180811,-0.356924037521731,0.896647163203913,-0.356924037544918,-0.0469465565333823,-0.143882605562299
21.5,-0.049375878133314,-0.146542418824256,0.892816098308924,-0.364326781540842,0.892816098331499,-0.364326781562755,-0.0493430898449173,-0.146646548852259
22,-0.0518170389768669,-0.149260762804643,0.888922621336163,-0.371678746484294,0.888922621358285,-0.371678746505001,-0.0517833300685594,-0.149368031016554
22.5,-0.0543010374890074,-0.151935901248262,0.884967312888123,-0.378979306310244,0.884967312909859,-0.378979306329815,-0.0542664108886034,-0.152046345905499
23,-0.0568269970017453,-0.154567146432938,0.880950788807186,-0.386227836420835,0.88095078882859,-0.386227836439342,-0.0567914566269061,-0.154680806565159
23.5,-0.0593940317009257,-0.157153830106172,0.876873698057226,-0.393423716862979,0.876873698078342,-0.393423716880492,-0.0593575824739749,-0.157270745438685
24,-0.0620012468887183,-0.159695303661705,0.872736720625648,-0.400566335112119,0.872736720646514,-0.400566335128713,-0.0619638947510996,-0.159815514547744
24.5,-0.0646477392735211,-0.1621909382986,0.868540565445581,-0.407655088485874,0.868540565466224,-0.407655088501619,-0.0646094911996531,-0.162314485655825
25,-0.0673325972838228,-0.164640125164133,0.864285968355345,-0.414689386229582,0.864285968375784,-0.414689386244548,-0.0672934612941761,-0.164767050414849
25.5,-0.0700549014029589,-0.167042275481522,0.85997369010778,-0.421668651311194,0.859973690128027,-0.421668651325448,-0.0700148865762091,-0.167172620496161
26,-0.0728137245220649,-0.169396820663297,0.855604514438379,-0.428592321958876,0.85560451445844,-0.428592321972483,-0.0727728410062417,-0.169530627706762
26.5,-0.0756081323088403,-0.171703212410897,0.851179246198352,-0.435459852970852,0.851179246218226,-0.435459852983873,-0.0755663913313851,-0.171840524091456
27,-0.0784371835899883,-0.173960922801001,0.846698709556502,-0.442270716823709,0.846698709576183,-0.442270716836203,-0.0783945974666947,-0.174101782021429
27.5,-0.0812999307454426,-0.176169444358924,0.842163746272097,-0.449024404602288,0.842163746291573,-0.449024404614309,-0.0812565128882405,-0.176313894269673
28,-0.0841954201126803,-0.178328290119415,0.837575214039571,-0.455720426771653,0.837575214058826,-0.455720426783254,-0.084151185036257,-0.178476374073578
28.5,-0.0871226923996026,-0.180436993675047,0.832933984904898,-0.462358313809205,0.832933984923912,-0.462358313820429,-0.0870776557268517,-0.180588755184952
29,-0.0900807831045972,-0.182495109212396,0.828240943752742,-0.468937616712878,0.828240943771491,-0.468937616723769,-0.0900349615709087,-0.182650591907692
29.5,-0.0930687229425481,-0.184502211536183,0.823496986862917,-0.47545790739953,0.823496986881375,-0.475457907410126,-0.0930221343989464,-0.184661459123261
30,-0.0960855382756577,-0.186457896081484,0.818703020534312,-0.481918779005947,0.81870302055245,-0.48191877901628,-0.0960382016908089,-0.186620952304143
30.5,-0.0991302515480466,-0.188361778914134,0.813859959774177,-0.488319846103443,0.813859959791964,-0.488319846113543,-0.0990821870091472,-0.188528687515401
31,-0.102201881723191,-0.190213496719448,0.808968727050481,-0.494660744835801,0.808968727067884,-0.494660744845692,-0.102153110435773,-0.190384301404456
31.5,-0.105299444723318,-0.192012706779338,0.804030251104976,-0.500941132989099,0.804030251121963,-0.5009411329988,-0.105249989009985,-0.192187451179213
32,-0.108421953869971,-0.193759086937959,0.799045465824536,-0.507160690001077,0.799045465841072,-0.507160690010607,-0.108371837168103,-0.19393781457465
32.5,-0.111568420324994,-0.195452335555968,0.794015309168373,-0.513319116916767,0.794015309184424,-0.513319116926135,-0.11151766718344,-0.195635089807977
33,-0.11473785353124,-0.197092171453519,0.788940722148742,-0.519416136296369,0.788940722164274,-0.519416136305583,-0.114686489606032,-0.197278995522489
33.5,-0.11792926165238,-0.198678333842112,0.783822647862817,-0.525451492080728,0.783822647877797,-0.525451492089793,-0.117877313701497,-0.19886927072024
34,-0.121141652011187,-0.200210582245417,0.778662030573496,-0.531424949419118,0.77866203058789,-0.531424949428032,-0.1210891478884,-0.200405674683669
34.5,-0.124374031525757,-0.201688696409206,0.773459814836946,-0.537336294463581,0.773459814850723,-0.537336294472343,-0.124321000173585,-0.201887986886308
35,-0.127625407143124,-0.203112476200541,0.768216944674844,-0.543185334133596,0.768216944687974,-0.543185334142197,-0.127571878584931,-0.203316006892726
35.5,-0.13089478626978,-0.204481741496364,0.762934362789306,-0.54897189585444,0.762934362801759,-0.548971895862871,-0.130840791601043,-0.204689554247863
36,-0.134181177198627,-0.20579633206164,0.757613009818615,-0.554695827272294,0.757613009830365,-0.554695827280543,-0.134126748577409,-0.206008468355908
36.5,-0.137483589531934,-0.207056107417248,0.752253823631967,-0.5603569959488,0.752253823642989,-0.560356995956852,-0.137428760168584,-0.207272608348908
37,-0.140801034599858,-0.208260946697767,0.746857738661495,-0.565955289037516,0.746857738671767,-0.565955289045352,-0.140745838745983,-0.208481852945272
37.5,-0.144132525874163,-0.209410748499362,0.741425685269992,-0.571490612944478,0.741425685279493,-0.571490612952078,-0.144076998810888,-0.209636100298364
38,-0.147477079376749,-0.210505430717971,0.735958589152742,-0.576962892974874,0.735958589161455,-0.576962892982218,-0.147421257402298,-0.210735267835396
38.5,-0.150833714082636,-0.211544930377978,0.730457370772054,-0.582372072967613,0.730457370779963,-0.582372072974676,-0.150777634499271,-0.2117792920868
39,-0.154201452317076,-0.2125292034516,0.724922944823072,-0.587718114919433,0.724922944830163,-0.587718114926191,-0.154145153417422,-0.212768128506318
39.5,-0.157579320146484,-0.213458224669204,0.719356219729568,-0.593000998600047,0.719356219735834,-0.593000998606474,-0.157522841199262,-0.213701751282014
40,-0.160966347762871,-0.214331987320779,0.713758097168478,-0.598220721159645,0.713758097173911,-0.598220721165714,-0.160909728998074,-0.214580153138442
40.5,-0.164361569861513,-0.215150503048802,0.708129471621964,-0.60337729673002,0.708129471626559,-0.603377296735705,-0.164304852455058,-0.215403345130208
41,-0.167764026011581,-0.215913801632735,0.702471229955913,-0.608470756020414,0.702471229959668,-0.608470756025687,-0.167707252069459,-0.216171356427158
41.5,-0.171172761019483,-0.216621930765401,0.696784251023779,-0.61350114590912,0.696784251026697,-0.613501145913951,-0.171115973561439,-0.216884234091454
42,-0.174586825284683,-0.217274955821497,0.691069405294744,-0.618468529031775,0.691069405296829,-0.618468529036138,-0.174530068227457,-0.217542042846774
42.5,-0.17800527514777,-0.217872959618494,0.685327554505244,-0.62337298336722,0.685327554506503,-0.623372983371086,-0.177948593287919,-0.218144864839906
43,-0.181427173230565,-0.218416042170199,0.679559551332894,-0.628214601821684,0.679559551333336,-0.628214601825028,-0.18137061222691,-0.218692799394999
43.5,-0.184851588768089,-0.218904320433229,0.673766239091964,-0.632993491812049,0.673766239091602,-0.632993491814844,-0.184795195123795,-0.219185962760725
44,-0.188277597932177,-0.219337928046687,0.667948451449523,-0.637709774848838,0.66794845144837,-0.637709774851058,-0.188221418976509,-0.21962448785065
44.5,-0.191704284146602,-0.21971701506531,0.662107012161446,-0.642363586119546,0.662107012159522,-0.642363586121166,-0.191648368016379,-0.220008523977053
45,-0.195130738393531,-0.220041747686354,0.656242734827513,-0.646955074072871,0.656242734824836,-0.646955074073868,-0.195075134014305,-0.220338236578506
45.5,-0.198556059511171,-0.220312307970522,0.65035642266483,-0.651484400004366,0.65035642266142,-0.651484400004719,-0.198500816578153,-0.220613806941472
46,-0.201979354482477,-0.220528893557191,0.644448868298858,-0.655951737643981,0.644448868294742,-0.65595173764367,-0.20192452344125,-0.220835431916212
46.5,-0.205399738714799,-0.220691717374251,0.638520853571378,-0.660357272745928,0.63852085356658,-0.660357272744933,-0.205345370741828,-0.221003323627291
47,-0.208816336310352,-0.220801007342815,0.632573149364682,-0.664701202681274,0.632573149359231,-0.664701202679578,-0.208762483293327,-0.221117709178953
47.5,-0.212228280327425,-0.220857006077116,0.626606515441386,-0.668983736033631,0.62660651543531,-0.668983736031221,-0.21217499484546,-0.221178830355683
48,-0.215634713032223,-0.22085997057985,0.620621700299223,-0.67320509219827,0.620621700292553,-0.673205092195132,-0.215582048335933,-0.2211869433182
48.5,-0.219034786141277,-0.220810171933286,0.614619441040235,-0.677365500984968,0.614619441033004,-0.677365500981091,-0.218982796132762,-0.22114231829521
49,-0.222427661054362,-0.220707894986399,0.608600463253762,-0.681465202224881,0.608600463246003,-0.681465202220256,-0.22237640026712,-0.221045239271191
49.5,-0.225812509077847,-0.220553438038347,0.602565480912698,-0.685504445381683,0.602565480904446,-0.685504445376303,-0.225762032656637,-0.220896003670486
50,-0.229188511638454,-0.220347112518548,0.59651519628246,-0.689483489167213,0.596515196273751,-0.689483489161077,-0.229138875319141,-0.220694922038019
50.5,-0.232554860487378,-0.220089242663673,0.590450299842148,-0.693402601161845,0.590450299833017,-0.693402601154949,-0.232506120576769,-0.220442317716884
51,-0.235910757894747,-0.219780165191814,0.584371470217402,-0.697262057439756,0.584371470207887,-0.697262057432101,-0.235862971250456,-0.220138526523134
51.5,-0.239255416834405,-0.219420228974131,0.578279374124463,-0.701062142199282,0.578279374114601,-0.701062142190871,-0.239208640844754,-0.21978389641801
52,-0.242588061159011,-0.219009794704248,0.572174666324966,-0.704803147398509,0.572174666314794,-0.704803147389348,-0.242542353723001,-0.219378787177922
52.5,-0.245907925765462,-0.218549234565675,0.56605798959101,-0.708485372396232,0.566057989580565,-0.708485372386327,-0.245863345272825,-0.218923570062444
53,-0.249214256750644,-0.218038931897545,0.559929974680061,-0.712109123598406,0.559929974669384,-0.71210912358777,-0.249170862062002,-0.218418627480606
53.5,-0.252506311557533,-0.217479280858922,0.553791240319277,-0.715674714110206,0.553791240308401,-0.715674714098851,-0.252464161984685,-0.217864352655746
54,-0.255783359111682,-0.216870686091961,0.547642393198803,-0.719182463393768,0.547642393187768,-0.719182463381707,-0.255742514398029,-0.217261149289204
54.5,-0.259044679948124,-0.216213562384182,0.541484027973683,-0.722632696931705,0.541484027962525,-0.722632696918957,-0.259005200249261,-0.216609431223116
55,-0.262289566328733,-0.215508334330127,0.535316727273964,-0.726025745896468,0.535316727262719,-0.726025745883052,-0.262251512193224,-0.215909622102564
55.5,-0.265517322350104,-0.214755435992643,0.529141061722632,-0.729361946825593,0.529141061711335,-0.72936194681153,-0.26548075470045,-0.215162155037358
56,-0.268727264042008,-0.213955310564061,0.522957589961017,-0.732641641302888,0.522957589949703,-0.732641641288203,-0.268692244155833,-0.21436747226368
56.5,-0.271918719456483,-0.213108410027516,0.51676685868131,-0.735865175645597,0.516766858670011,-0.735865175630315,-0.271885308947954,-0.21352602480586
57,-0.275091028747649,-0.212215194818644,0.510569402665848,-0.739032900597556,0.510569402654597,-0.739032900581705,-0.275059289549136,-0.212638272138513
57.5,-0.278243544242307,-0.211276133487909,0.504365744832857,-0.742145171028359,0.504365744821685,-0.742145171011969,-0.278213538586315,-0.211704681849289
58,-0.281375630501434,-0.210291702363787,0.498156396288303,-0.745202345638549,0.498156396277239,-0.745202345621651,-0.281347420902802,-0.210725729302458
58.5,-0.284486664372637,-0.209262385217037,0.491941856383568,-0.748204786670819,0.49194185637264,-0.748204786653446,-0.284460313611033,-0.209701897303567
59,-0.287576035033695,-0.20818867292629,0.485722612778643,-0.751152859627226,0.485722612767877,-0.751152859609412,-0.287551606136412,-0.208633675765396
59.5,-0.290643144027271,-0.20707106314516,0.479499141510549,-0.75404693299239,0.479499141499971,-0.754046932974171,-0.290620700252341,-0.207521561375419
60,-0.293687405286907,-0.205910059971109,0.473271907066706,-0.756887377962669,0.473271907056339,-0.756887377944083,-0.293667010106538,-0.206366057264998
60.5,-0.296708245154427,-0.20470617361626,0.467041362462992,-0.759674568181268,0.467041362452857,-0.759674568162352,-0.296689962238786,-0.205167672680498
61,-0.299705102388855,-0.203459920080362,0.46080794932621,-0.762408879479253,0.460807949316325,-0.762408879460049,-0.299688995590191,-0.203926922656546
61.5,-0.302677428166971,-0.202171820826104,0.454572097980735,-0.765090689622436,0.45457209797112,-0.765090689602981,-0.302663561504105,-0.202644327691611
62,-0.305624686075641,-0.200842402456967,0.448334227539088,-0.767720378064066,0.448334227529757,-0.767720378044405,-0.305613123718822,-0.201320413426106
62.5,-0.308546352096044,-0.199472196397799,0.442094745996198,-0.770298325703306,0.442094745987165,-0.770298325683478,-0.30853715835218,-0.199955710323178
63,-0.31144191457993,-0.198061738578281,0.435854050327139,-0.772824914649407,0.435854050318415,-0.772824914629455,-0.311435153878205,-0.198550753352389
63.5,-0.314310874218054,-0.19661156911947,0.429612526588113,-0.775300527991551,0.429612526579709,-0.77530052797152,-0.314306611095936,-0.197106081676431
