"Freq [GHz]","re(St(P1,P1)) []","im(St(P1,P1)) []","re(St(P1,P2)) []","im(St(P1,P2)) []","re(St(P2,P1)) []","im(St(P2,P1)) []","re(St(P2,P2)) []","im(St(P2,P2)) []"
0,0.00821905812097157,0,0.991800888543366,0,0.991800891031744,0,0.00821906360260982,0
0.5,0.00902714959932993,-0.00123185073579357,0.990911170970147,-0.00980376612900713,0.990911171206164,-0.00980376622413637,0.0090271766612986,-0.00123167471508445
1,0.0096202324444743,-0.0034143114138292,0.990099471768739,-0.0186571176567369,0.990099471772703,-0.0186571176395152,0.00962027289295619,-0.00341396988430631
1.5,0.00995206850086561,-0.00574427303638103,0.989414831291743,-0.0273513443624918,0.98941483132098,-0.0273513443059556,0.00995212861917238,-0.00574375595847165
2,0.0100926823327763,-0.00810442989550708,0.988790461613309,-0.0359946538217546,0.98879046166869,-0.0359946537572267,0.0100928014588888,-0.00810373512673124
2.5,0.0101275928663513,-0.010452427377988,0.988143543725503,-0.0446319866973024,0.988143543796488,-0.0446319866386951,0.0101278072262918,-0.0104515797905123
3,0.0100960152609284,-0.0127880204055657,0.98743548262703,-0.0532626496764141,0.987435482703412,-0.0532626496292021,0.0100963504051199,-0.0127870598008411
3.5,0.0100147621080873,-0.0151163968552712,0.986650623342034,-0.0618793499135961,0.986650623415227,-0.0618793498793107,0.0100152318439002,-0.0151153720942148
4,0.00989106296657161,-0.0174416339376471,0.985783452737516,-0.0704758623908104,0.985783452800525,-0.0704758623687534,0.00989166896138949,-0.0174405992102891
4.5,0.00972804390375748,-0.0197661084296108,0.984832841477894,-0.0790479858685185,0.984832841525325,-0.079047985856521,0.00972877574592301,-0.0197651200873921
5,0.0095270748020404,-0.0220909163275786,0.983799463964653,-0.0875931981486024,0.983799463992811,-0.0875931981435798,0.009527910686149,-0.0220900300978037
5.5,0.00928879914376823,-0.0244163343024439,0.982684611226107,-0.0961101559840607,0.982684611233068,-0.0961101559825224,0.00928970711599564,-0.0244156030219083
6,0.00901358663507934,-0.0267421625789366,0.981489645635977,-0.104598270832503,0.981489645621576,-0.10459827083101,0.00901452619105858,-0.0267416345474949
6.5,0.0087017243703561,-0.0290679520342954,0.980215767187198,-0.113057390852148,0.980215767152918,-0.113057390847753,0.00870264817613231,-0.0290676699849213
7,0.00835348863254959,-0.0313931451044134,0.978863935129206,-0.121487576355018,0.978863935077994,-0.121487576345613,0.00835434418451753,-0.0313931457066277
7.5,0.00796916375029277,-0.0337171580764455,0.977434866018627,-0.129888948871508,0.977434865954657,-0.129888948856115,0.00796989485624522,-0.0337174718526443
8,0.00754903944828611,-0.036039425503982,0.975929066527651,-0.138261595313821,0.975929066456056,-0.138261595292771,0.00754958747237056,-0.0360400770342135
8.5,0.00709340130513703,-0.0383594211538698,0.974346878786812,-0.146605511864728,0.97434687871341,-0.146605511839783,0.00709370616428862,-0.0383604294603419
9,0.00660252071932244,-0.0406766650542743,0.972688526713935,-0.154920575492508,0.972688526644979,-0.154920575466919,0.0066025216467237,-0.0406780440801588
9.5,0.00607664681450915,-0.0429907227795692,0.970954157785958,-0.163206533927044,0.970954157727899,-0.163206533905545,0.00607628292004625,-0.0429924819004435
10,0.00551600087306003,-0.0453012007761076,0.969143878069671,-0.171463007383942,0.969143878028949,-0.171463007372733,0.00551521153579385,-0.0453033453029361
10.5,0.00493644948177419,-0.0475915584511371,0.967238835202332,-0.17969509325024,0.967238835163082,-0.179695093234541,0.00493520012389553,-0.0475939878369744
11,0.00432106540012259,-0.0498809865966359,0.965261583213704,-0.187892441095176,0.965261583176414,-0.187892441075345,0.00431930723204321,-0.0498837076427874
11.5,0.00366932211000295,-0.0521686379309263,0.963213022442203,-0.196055202001863,0.963213022407286,-0.196055201978299,0.0036670051414775,-0.0521716548882276
12,0.00298075070156585,-0.0544536244649834,0.961093943791131,-0.204183493261939,0.961093943758919,-0.204183493235065,0.00297782399265337,-0.0544569389944538
12.5,0.00225494131462216,-0.0567350241140949,0.958905044971905,-0.212277390853699,0.958905044942659,-0.21227739082395,0.00225135321601611,-0.0567386352764911
13,0.00149154382232469,-0.0590118870635172,0.956646945693106,-0.220336924736817,0.956646945667018,-0.220336924704636,0.00148724220229057,-0.059015791334351
13.5,0.000690267841635561,-0.0612832418177947,0.954320201570301,-0.228362076443208,0.954320201547498,-0.228362076409026,0.000685200297514427,-0.0612874331242983
14,-0.000149117842982716,-0.0635481008805678,0.951925316640694,-0.236352778491636,0.951925316621248,-0.236352778455874,-0.000155003790099972,-0.0635525706571207
14.5,-0.00102678635688969,-0.0658054660273901,0.949462754449576,-0.244308915210106,0.949462754433507,-0.244308915173165,-0.00103354308515699,-0.0658102032860435
15,-0.0019428542307699,-0.0680543331480923,0.946932947735695,-0.252230324609311,0.946932947722981,-0.25223032457157,-0.00195053385855035,-0.0680593245610299
15.5,-0.00289738323591066,-0.0702936966475329,0.944336306784258,-0.260116801008026,0.944336306774835,-0.260116800969837,-0.0029060374806214,-0.0702989266385408
16,-0.00389038248665086,-0.072522553403934,0.94167322654268,-0.267968098165012,0.941673226536456,-0.267968098126701,-0.00390006254102609,-0.0725280042462328
16.5,-0.00492181074381182,-0.0747399062925829,0.938944092609163,-0.275783932720059,0.938944092606018,-0.275783932681921,-0.0049325671688622,-0.0747455582106835
17,-0.00599157885993784,-0.076944767289588,0.936149286210374,-0.283563987788832,0.936149286210166,-0.283563987751131,-0.00600346149366515,-0.0769505985631049
17.5,-0.00709955231418519,-0.0791361601755782,0.933289188284572,-0.291307916591914,0.933289188287143,-0.291307916554886,-0.00711261019497594,-0.0791421472432607
18,-0.00824555379176367,-0.0813131228631647,0.930364182782248,-0.2990153460284,0.930364182787427,-0.299015345992255,-0.00825983509527317,-0.0813192404256817
18.5,-0.00942936576952685,-0.0834747093745616,0.927374659289364,-0.306685880128946,0.927374659296972,-0.306685880093864,-0.0094449177578253,-0.0834809304948076
19,-0.0106507330756548,-0.0856199914972924,0.924321015069706,-0.31431910334297,0.924321015079558,-0.314319103309107,-0.0106676020573933,-0.0856262876973035
19.5,-0.011909365397223,-0.0877480601466107,0.92120365661347,-0.321914583630486,0.921203656625377,-0.32191458359797,-0.011927596697587,-0.0877544015003009
20,-0.0132049397147566,-0.089858026463133,0.918023000769766,-0.329471875341294,0.91802300078354,-0.329471875310231,-0.013224577654016,-0.0898643816843472
20.5,-0.0145371026475977,-0.0919490226736008,0.914779475531425,-0.3369905218737,0.91477947554688,-0.336990521844176,-0.0145581905271205,-0.091955359199086
21,-0.0159054726980968,-0.0940202027415513,0.911473520531794,-0.344470058111984,0.911473520548746,-0.344470058084061,-0.0159280527927654,-0.0940264868086285
21.5,-0.0173096423862442,-0.0960707428332899,0.908105587305145,-0.351910012647003,0.908105587323417,-0.35191001262073,-0.0173337559422828,-0.0960769395521235
22,-0.0187491802694572,-0.0980998416229573,0.904676139354993,-0.359309909788002,0.904676139374412,-0.359309909763408,-0.0187748675067682,-0.0981059150434076
22.5,-0.0202236328448309,-0.100106720458652,0.901185652068112,-0.366669271376115,0.901185652088512,-0.366669271353216,-0.0202509329630224,-0.100112633631811
23,-0.0217325263333351,-0.102090623409809,0.897634612506212,-0.373987618411661,0.897634612527437,-0.373987618390458,-0.0217614775206961,-0.102096338444348
23.5,-0.0232753683471659,-0.104050817214144,0.894023519102218,-0.38126447250811,0.894023519124116,-0.381264472488593,-0.0233060077919422,-0.104056295327679
24,-0.0248516494428995,-0.105986591140656,0.890352881283615,-0.388499357185967,0.890352881306047,-0.388499357168117,-0.0248840133462811,-0.105991792706373
24.5,-0.0264608445641374,-0.107897256783462,0.886623219041608,-0.395691799019718,0.886623219064441,-0.395691799003504,-0.0264949681544649,-0.107902141372247
25,-0.0281024143781998,-0.109782147799521,0.882835062461484,-0.402841328650625,0.882835062484595,-0.402841328636011,-0.0281383319259379,-0.109786674217899
25.5,-0.0297758065119619,-0.11164061960178,0.878988951226855,-0.409947481677644,0.878988951250129,-0.409947481664585,-0.0298135513450764,-0.11164474592593
26,-0.0314804566923623,-0.113472049017794,0.875085434108054,-0.417009799438046,0.875085434131387,-0.417009799426493,-0.031520061211779,-0.113475732623954
26.5,-0.0332157897973278,-0.115275833922551,0.871125068442961,-0.424027829688578,0.871125068466254,-0.424027829678477,-0.0332572854922011,-0.115279031514084
27,-0.0349812208229527,-0.117051392853004,0.867108419616871,-0.43100112719724,0.867108419640035,-0.431001127188532,-0.035024638285531,-0.117054060484427
27.5,-0.0367761557727821,-0.118798164610708,0.86303606054661,-0.437929254254945,0.863036060569566,-0.437929254247569,-0.0368215247126824,-0.118800257708958
28,-0.038599992474936,-0.120515607858001,0.858908571172901,-0.444811781115563,0.858908571195575,-0.444811781109457,-0.0386473417326894,-0.120517081241192
28.5,-0.0404521213326748,-0.122203200712232,0.854726537964062,-0.451648286372101,0.854726537986389,-0.451648286367199,-0.0405014788924236,-0.122204008606163
29,-0.0423319260137747,-0.123860440341807,0.85049055343327,-0.458438357276039,0.850490553455193,-0.458438357272275,-0.0423833190150434,-0.123860536394466
29.5,-0.0442387840838646,-0.125486842567102,0.846201215671015,-0.465181590006187,0.846201215692483,-0.465181590003495,-0.0442922388323327,-0.125486179861378
30,-0.0461720675885878,-0.127081941468737,0.841859127893767,-0.471877589892797,0.841859127914735,-0.471877589891111,-0.0462276095658348,-0.127080472533546
30.5,-0.0481311435891704,-0.128645289005095,0.837464898009542,-0.478525971602069,0.837464898029973,-0.478525971601323,-0.0481887974613556,-0.128642965825133
31,-0.0501153746557018,-0.13017645464062,0.833019138200611,-0.48512635928565,0.83301913822047,-0.485126359285778,-0.0501751642811821,-0.130173228664897
31.5,-0.0521241193221237,-0.131675024985977,0.828522464523378,-0.491678386699261,0.82852246454264,-0.4916783867002,-0.0521860677579946,-0.131670847135311
32,-0.0541567325066327,-0.133140603450808,0.823975496525242,-0.498181697294117,0.823975496543885,-0.498181697295804,-0.0542208620142232,-0.13313542412443
32.5,-0.0562125659009357,-0.134572809909624,0.819378856878061,-0.504635944284386,0.819378856896066,-0.504635944286759,-0.0562788979502646,-0.134566578991022
33,-0.0582909683315078,-0.135971280381024,0.81473317102772,-0.511040790693594,0.814733171045075,-0.511040790696595,-0.0583595236047306,-0.135963947243163
33.5,-0.0603912860957438,-0.137335666720326,0.810039066859261,-0.517395909382544,0.810039066875957,-0.517395909386116,-0.0604620844896238,-0.137327180230352
34,-0.062512863275646,-0.138665636325487,0.805297174376899,-0.523700983060988,0.805297174392931,-0.523700983065074,-0.0625859239030822,-0.138655944849013
34.5,-0.0646550420314591,-0.139960871856068,0.800508125398263,-0.52995570428506,0.800508125413628,-0.529955704289608,-0.0647303832221154,-0.139949923261147
35,-0.0668171628774387,-0.14122107096489,0.795672553262159,-0.536159775442231,0.795672553276858,-0.536159775447189,-0.0668948021775088,-0.141208812625753
35.5,-0.0689985649417317,-0.142445946041957,0.790791092549142,-0.542312908725297,0.790791092563179,-0.542312908730618,-0.069078519112885,-0.142432324842582
36,-0.0711985862121564,-0.143635223970132,0.785864378814211,-0.548414826096781,0.785864378827594,-0.548414826102418,-0.0712808712297073,-0.143620186307733
36.5,-0.073416563769496,-0.14478864589204,0.780893048330916,-0.554465259244894,0.780893048343652,-0.554465259250804,-0.0735011948198421,-0.144772137680509
37,-0.0756518340097487,-0.145905966987592,0.775877737846219,-0.560463949532114,0.775877737858319,-0.560463949538254,-0.0757388254871182,-0.145887933660974
37.5,-0.0779037328566293,-0.146986956261551,0.77081908434548,-0.566410647937238,0.770819084356955,-0.56641064794357,-0.077993098359181,-0.146967342777583
38,-0.0801715959654783,-0.148031396340515,0.765717724826923,-0.572305114991722,0.765717724837788,-0.57230511499821,-0.080263348290798,-0.148010147184273
38.5,-0.0824547589196037,-0.149039083278691,0.760574296085037,-0.578147120710944,0.760574296095308,-0.578147120717553,-0.0825489100596383,-0.149016142466389
39,-0.0847525574199753,-0.150009826371857,0.755389434502337,-0.583936444520997,0.755389434512029,-0.583936444527695,-0.084849118555442,-0.149985137454827
39.5,-0.0870643274690658,-0.150943447978903,0.750163775848979,-0.589672875181495,0.750163775858109,-0.58967287518825,-0.0871633089633813,-0.15091695404778
40,-0.0893894055495603,-0.151839783350335,0.744897955089758,-0.595356210704822,0.744897955098346,-0.59535621071161,-0.0894908169423195,-0.151811427039485
40.5,-0.0917271287985464,-0.152698680463204,0.739592606198036,-0.600986258272209,0.7395926062061,-0.600986258279003,-0.0918309787985953,-0.152668403955398
41,-0.0940768351777381,-0.153519999861851,0.734248361976183,-0.606562834146925,0.734248361983743,-0.606562834153702,-0.0941831316558738,-0.153487744893226
41.5,-0.0964378636401944,-0.154303614503976,0.728865853882168,-0.612085763584881,0.728865853889242,-0.612085763591619,-0.0965466136215231,-0.154269322369276
42,-0.0988095542939496,-0.155049409611484,0.723445711861931,-0.617554880742849,0.723445711868541,-0.617554880749529,-0.098920763949938,-0.155013021169615
42.5,-0.101191248562897,-0.155757282525624,0.717988564187242,-0.62297002858452,0.717988564193408,-0.622970028591124,-0.10130492320315,-0.155718738205525
43,-0.103582289345228,-0.156427142565968,0.712495037298732,-0.628331058784537,0.712495037304473,-0.628331058791049,-0.103698433409019,-0.156386382372805
43.5,-0.105982021169673,-0.157058910892769,0.706965755653846,-0.633637831630664,0.706965755659184,-0.63363783163707,-0.106100638217257,-0.157015874414466
44,-0.108389790349756,-0.157652520372287,0.701401341579482,-0.638890215924206,0.701401341584435,-0.638890215930494,-0.108510883053497,-0.157607146786398
44.5,-0.110804945136225,-0.158207915444696,0.695802415129093,-0.644088088878779,0.695802415133683,-0.644088088884937,-0.110928515271556,-0.158160143525624
45,-0.113226835867808,-0.158725051994199,0.690169593944064,-0.649231336017518,0.690169593948309,-0.649231336023537,-0.113352884304059,-0.158674820120762
45.5,-0.115654815120389,-0.159203897221004,0.684503493119186,-0.654319851068805,0.684503493123106,-0.654319851074677,-0.115783341811496,-0.159151143384358
46,-0.118088237854696,-0.159644429514846,0.678804725072078,-0.659353535860573,0.678804725075692,-0.65935353586629,-0.118219241829826,-0.15958909132676
46.5,-0.120526461562551,-0.160046638329758,0.673073899416418,-0.664332300213246,0.673073899419745,-0.664332300218803,-0.120659940916655,-0.159988653031239
47,-0.12296884641172,-0.160410524059805,0.66731162283886,-0.669256061831375,0.667311622841918,-0.669256061836768,-0.123104798296042,-0.160349828530086
47.5,-0.125414755389384,-0.160736097915539,0.661518498979528,-0.674124746194,0.661518498982334,-0.674124746199224,-0.125553176001944,-0.160672628681413
48,-0.127863554444238,-0.161023381800928,0.655695128315998,-0.678938286443794,0.65569512831857,-0.678938286448847,-0.128004439020306,-0.160957075046439
48.5,-0.130314612627196,-0.161272408190564,0.64984210805068,-0.683696623275021,0.649842108053033,-0.683696623279903,-0.130457955429784,-0.161203199767042
49,-0.132767302230691,-0.161483220006919,0.643960032001531,-0.688399704820357,0.643960032003682,-0.688399704825067,-0.132913096541066,-0.161411045443371
49.5,-0.135220998926529,-0.161655870497517,0.638049490496035,-0.693047486536587,0.638049490498,-0.693047486541125,-0.135369237034782,-0.161580665011352
50,-0.137675081902254,-0.161790423111818,0.632111070268394,-0.697639931089248,0.632111070270187,-0.697639931093615,-0.137825755097932,-0.161712121619915
50.5,-0.140128933995995,-0.161886951377696,0.626145354359882,-0.702177008236225,0.626145354361517,-0.702177008240423,-0.140282032558807,-0.161805488507809
51,-0.142581941829699,-0.161945538777374,0.620152922022334,-0.706658694710353,0.620152922023824,-0.706658694714383,-0.142737455020323,-0.161860848879865
51.5,-0.145033495940734,-0.161966278622693,0.614134348624711,-0.71108497410106,0.61413434862607,-0.711084974104926,-0.14519141199173,-0.161878295782597
52,-0.147482990911763,-0.16194927392963,0.608090205562737,-0.715455836735088,0.608090205563977,-0.715455836738793,-0.147643297018614,-0.16185793197903
52.5,-0.149929825498842,-0.161894637291965,0.602021060171565,-0.719771279556334,0.602021060172697,-0.719771279559882,-0.150092507811125,-0.161799869822689
53,-0.152373402757656,-0.161802490754024,0.595927475641453,-0.724031306004846,0.595927475642488,-0.724031306008242,-0.152538446370373,-0.16170423113065
53.5,-0.154813130167833,-0.161672965682435,0.589810010936438,-0.728235925895033,0.589810010937387,-0.728235925898281,-0.154980519112896,-0.161571147055598
54,-0.157248419755255,-0.161506202636855,0.583669220715989,-0.732385155293108,0.583669220716861,-0.732385155296214,-0.157418136993151,-0.161400757956847
54.5,-0.159678688212292,-0.161302351239601,0.577505655259607,-0.736479016393839,0.577505655260412,-0.736479016396807,-0.15985071562393,-0.161193213270265
55,-0.16210335701588,-0.161061570044183,0.571319860394397,-0.740517537396624,0.571319860395143,-0.74051753739946,-0.162277675394643,-0.160948671377084
55.5,-0.164521852543391,-0.160784026402691,0.565112377425554,-0.744500752380967,0.565112377426249,-0.744500752383677,-0.164698441587386,-0.160667299471568
56,-0.166933606186181,-0.160469896332038,0.55888374306979,-0.748428701181385,0.558883743070442,-0.748428701183976,-0.167112444490712,-0.160349273427518
56.5,-0.169338054460789,-0.160119364379049,0.552634489391666,-0.752301429261805,0.552634489392281,-0.752301429264282,-0.169519119511061,-0.159994777663622
57,-0.171734639117679,-0.15973262348439,0.546365143742832,-0.756118987589498,0.546365143743416,-0.756118987591867,-0.171917907281735,-0.159604005007641
57.5,-0.174122807247482,-0.159309874845359,0.540076228704162,-0.759881432508609,0.540076228704722,-0.759881432510876,-0.174308253769384,-0.159177156559434
58,-0.176502011384648,-0.158851327777545,0.533768262030765,-0.76358882561333,0.533768262031306,-0.763588825615502,-0.176689610377923,-0.158714441552864
58.5,-0.178871709608473,-0.15835719957538,0.527441756599873,-0.767241233620777,0.527441756600399,-0.767241233622861,-0.179061434049809,-0.158216077216569
59,-0.181231365641397,-0.157827715371615,0.521097220361582,-0.770838728243616,0.521097220362098,-0.770838728245618,-0.18142318736462,-0.157682288633661
59.5,-0.183580448944558,-0.157263107995747,0.514735156292442,-0.774381386062502,0.514735156292951,-0.77438138606443,-0.183774338634883,-0.157113308600365
60,-0.185918434810508,-0.156663617831445,0.508356062351875,-0.777869288398388,0.508356062352382,-0.777869288400247,-0.18611436199908,-0.156509377483638
60.5,-0.188244804453061,-0.156029492673004,0.501960431441418,-0.781302521184742,0.501960431441924,-0.781302521186538,-0.188442737511781,-0.155870743077827
61,-0.190559045094205,-0.155360987580893,0.495548751366753,-0.784681174839755,0.495548751367262,-0.784681174841495,-0.190758951230859,-0.155197660460393
61.5,-0.192860650048042,-0.154658364736431,0.489121504802534,-0.788005344138575,0.489121504803048,-0.788005344140265,-0.193062495301738,-0.154490391846761
62,-0.1951491188017,-0.153921893295662,0.482679169259974,-0.791275128085628,0.482679169260494,-0.791275128087273,-0.195352868038613,-0.153749206444362
62.5,-0.197423957093184,-0.153151849242468,0.476222217057174,-0.794490629787083,0.476222217057702,-0.794490629788691,-0.197629574002612,-0.152974380305907
63,-0.199684676986126,-0.152348515241014,0.469751115292188,-0.79765195632352,0.469751115292725,-0.797651956325094,-0.199892124076876,-0.152166196181964
63.5,-0.201930796941382,-0.151512180487548,0.463266325818781,-0.800759218622839,0.463266325819327,-0.800759218624388,-0.202140035538478,-0.151324943372912
