"Freq [GHz]","re(St(P1,P1)) []","im(St(P1,P1)) []","re(St(P1,P2)) []","im(St(P1,P2)) []","re(St(P2,P1)) []","im(St(P2,P1)) []","re(St(P2,P2)) []","im(St(P2,P2)) []"
0,0.00589065535848476,0,0.99412190784642,0,0.994121914191055,0,0.00589066302865149,0
0.5,0.00645021059138884,0.000319589804810505,0.993447699731306,-0.00942123764941272,0.993447699291785,-0.00942123658106908,0.00645030642667521,0.000319338086473664
1,0.00689393675997252,-2.11318341101219E-005,0.99269915147292,-0.0181518983821469,0.9926991512763,-0.0181518983870141,0.00689410402516444,-2.1816711512912E-005
1.5,0.00713374538657252,-0.000491576330393428,0.991969456495249,-0.0266967205330921,0.991969456375036,-0.0266967204575774,0.00713384032847664,-0.000492771435466111
2,0.0072187988140664,-0.000978033590062211,0.991227633841082,-0.0351564823555925,0.991227633789425,-0.0351564822853696,0.00721869825169819,-0.000979716856425839
2.5,0.00721722238515587,-0.00143760183130226,0.990420239774936,-0.0435634478946128,0.990420239757578,-0.0435634478536482,0.0072168374227739,-0.00143972975240381
3,0.00716528468310207,-0.00186493438978808,0.989526968258831,-0.0519142165247395,0.989526968252879,-0.0519142165106832,0.00716454719828041,-0.00186745757496887
3.5,0.00708210240721252,-0.00226182507179207,0.988545450588566,-0.060201735456344,0.988545450583436,-0.0602017354595414,0.00708095837490763,-0.00226469214102654
4,0.00697891248121785,-0.00263088413618906,0.987480712186423,-0.0684217444673569,0.98748071217965,-0.0684217444782504,0.00697731881750752,-0.00263404340262152
4.5,0.00686320017211139,-0.00297448485985097,0.986340101665754,-0.0765732653186522,0.986340101659267,-0.076573265330274,0.0068611228832538,-0.00297788559561774
5,0.00674049904997354,-0.00329474532631036,0.985130964164785,-0.0846578422955062,0.985130964162213,-0.0846578423039341,0.00673791180886318,-0.00329833886838404
5.5,0.00661520568486207,-0.0035936488338848,0.983859636910214,-0.0926786477082819,0.983859636915117,-0.092678647712237,0.00661208853034445,-0.00359738951777899
6,0.00649097065456311,-0.00387313179688498,0.98253110614668,-0.100639723329332,0.98253110616147,-0.100639723329413,0.00648730873131453,-0.00387697768807538
6.5,0.00637090300283821,-0.00413512394629567,0.981148998466347,-0.108545410438833,0.981148998491735,-0.10854541043669,0.0063666853406642,-0.00413903736392296
7,0.00625769160825329,-0.00438155449681421,0.979715731801495,-0.116399956716077,0.979715731836302,-0.116399956713662,0.00625290996353223,-0.00438550234821555
7.5,0.00615368976488459,-0.00461433883701945,0.978232728913849,-0.124207268551673,0.978232728955069,-0.124207268550587,0.00614833754763472,-0.00461829279705661
8,0.00606098383749012,-0.00483535613145447,0.97670063996246,-0.131970773845318,0.976700640005456,-0.131970773846346,0.006055055139944,-0.00483929270826877
8.5,0.00598145522891818,-0.00504642415166279,0.975119546758697,-0.139693363514529,0.97511954679748,-0.139693363517289,0.00597494396229663,-0.0050503246821596
9,0.00591683957592311,-0.00524927458801905,0.973489136855044,-0.147377385635052,0.973489136882573,-0.147377385637778,0.00590973871418452,-0.00525312520473875
9.5,0.00586878474020063,-0.00544552996827363,0.971808844555028,-0.155024672265972,0.971808844563506,-0.155024672265403,0.00586108566408505,-0.00544932157597877
10,0.00583890822611219,-0.00563668187603161,0.970077960693291,-0.162636584546699,0.970077960674429,-0.162636584538022,0.00583060015797481,-0.00564041017275896
10.5,0.00582677270106921,-0.00584908848052956,0.968318079763682,-0.170199837092271,0.968318079743181,-0.170199837081374,0.005816669745956,-0.00585260050268666
11,0.00581856561701866,-0.00606821820744763,0.966516239162716,-0.177732323596361,0.96651623914116,-0.177732323582941,0.0058068598633661,-0.00607135052371977
11.5,0.00581335932511298,-0.00629411196492757,0.964671907529018,-0.185235677983653,0.96467190750699,-0.185235677967543,0.00580022912845798,-0.00629674652323331
12,0.00581032006465892,-0.00652676147743492,0.962784524154934,-0.192711240800377,0.962784524132994,-0.192711240781537,0.00579592768284029,-0.00652881641856773
12.5,0.0058086941877136,-0.00676612109261354,0.960853528234115,-0.200160102423787,0.960853528212781,-0.200160102402279,0.0057931847619474,-0.00676754314380723
13,0.00580779662496492,-0.00701211623662212,0.95887837846587,-0.207583141632187,0.958878378445607,-0.207583141608158,0.0057912980535289,-0.00701287444865484
13.5,0.00580700131003312,-0.00726464948984207,0.956858565457702,-0.21498105932091,0.956858565438911,-0.214981059294572,0.00578962470092226,-0.00726473009984296
14,0.00580573327319345,-0.00752360497722648,0.954793618864851,-0.222354407505166,0.954793618847873,-0.222354407476786,0.00578757376000655,-0.00752300720626931
14.5,0.0058034621350207,-0.00778885156843501,0.95268311077494,-0.229703613954464,0.952683110760047,-0.229703613924334,0.00578459990859964,-0.00778758419141257
15,0.00579969676083508,-0.00806024524026361,0.950526656489565,-0.237029002904444,0.950526656476968,-0.237029002872887,0.00578019821654369,-0.0080583237923384
15.5,0.00579398086994032,-0.00833763085215433,0.948323913567762,-0.244330812326779,0.94832391355761,-0.244330812294125,0.00577389980324117,-0.00833507535959788
16,0.0057858894255654,-0.00862084351265335,0.94607457976986,-0.251609208231144,0.946074579762245,-0.251609208197725,0.00576526823113455,-0.00861767665600777
16.5,0.00577502566021537,-0.00890970966271398,0.943778390364584,-0.258864296443071,0.94377839035955,-0.25886429640921,0.0057538965053599,-0.00890595529697036
17,0.00576101861625244,-0.00920404796447016,0.941435115127995,-0.266096132258928,0.941435115125539,-0.266096132224937,0.00573940457002348,-0.00919972993469687
17.5,0.00574352110290283,-0.00950367005753461,0.93904455526155,-0.273304728332117,0.939044555261628,-0.273304728298292,0.00572143720953872,-0.00949881125959084
18,0.00572220798881812,-0.00980838122580741,0.936606540381168,-0.280490061097231,0.936606540383704,-0.280490061063843,0.00569966227907026,-0.00980300287085534
18.5,0.00569677476426633,-0.0101179810041874,0.934120925673893,-0.287652075994161,0.93412092567878,-0.28765207596146,0.00567376920147794,-0.0101121020530428
19,0.00566693631932857,-0.0104322637449434,0.931587589278666,-0.29479069171341,0.931587589285774,-0.294790691681621,0.00564346767933532,-0.0104259004841905
19.5,0.00563242589464102,-0.01075101915659,0.929006429919398,-0.30190580364767,0.929006429928578,-0.301905803616991,0.00560848658003793,-0.0107441848931784
20,0.00559299416951808,-0.0110740328233168,0.926377364798774,-0.308997286703183,0.926377364809863,-0.308997286673787,0.00556857295977731,-0.0110667376782123
20.5,0.00554840845912741,-0.0114010867096528,0.923700327748056,-0.316064997597386,0.923700327760879,-0.316064997569419,0.00552349119866263,-0.0113933374942159
21,0.00549845199792209,-0.0117319596527272,0.920975267619538,-0.323108776746339,0.920975267633914,-0.323108776719923,0.00547302222456791,-0.0117237598140858
21.5,0.00544292329111384,-0.0120664278429714,0.918202146903335,-0.330128449826154,0.91820214691908,-0.330128449801387,0.00541696280769655,-0.0120577774667134
22,0.00538163551965015,-0.0124042652930654,0.915380940547418,-0.337123829076504,0.915380940564345,-0.337123829053459,0.00535512491145373,-0.0123951611533117
22.5,0.00531441598720434,-0.0127452442943692,0.912511634958951,-0.344094714400962,0.912511634976875,-0.344094714379693,0.0052873350881652,-0.0127356799427165
23,0.00524110560010449,-0.0130891358597232,0.909594227165114,-0.351040894307955,0.909594227183853,-0.351040894288496,0.0052134339105836,-0.0130791017457428
23.5,0.00516155837316873,-0.0134357101513671,0.906628724112601,-0.357962146727085,0.906628724131979,-0.35796214670945,0.00513327543211289,-0.0134251937683518
24,0.00507564095598589,-0.0137847368927222,0.903615142086374,-0.364858239728256,0.903615142106221,-0.364858239712444,0.00504672667024381,-0.0137737229432306
24.5,0.00498323217550289,-0.0141359857628813,0.900553506229934,-0.371728932165166,0.900553506250088,-0.371728932151162,0.00495366710900519,-0.0141244563393634
25,0.00488422259182492,-0.0144892267727572,0.897443850151152,-0.37857397425987,0.897443850171458,-0.378573974247643,0.00485398821726613,-0.0144771615491708
25.5,0.00477851406495983,-0.0148442306220415,0.894286215599492,-0.385393108141347,0.894286215619805,-0.385393108130855,0.00474759298054794,-0.014831607052928
26,0.0046660193309172,-0.0152007690363078,0.891080652202182,-0.39218606834796,0.891080652222367,-0.392186068339152,0.00463439544467475,-0.0151875625602664
26.5,0.00454666158607586,-0.0155586150837703,0.887827217248526,-0.398952582301251,0.887827217268459,-0.398952582294066,0.00451432027009901,-0.0155447993286997
27,0.00442037407915374,-0.015917543471424,0.884525975513039,-0.405692370756672,0.884525975532604,-0.405692370751041,0.0043873022961462,-0.0159030904592636
27.5,0.00428709971042063,-0.0162773308204354,0.881176999109459,-0.412405148235319,0.881176999128551,-0.412405148231169,0.00425328611473819,-0.016262211169489
28,0.00414679063802531,-0.0166377559208597,0.877780367368898,-0.419090623439668,0.877780367387423,-0.419090623436919,0.00411222565336922,-0.0166219390440467
28.5,0.00399940789148662,-0.0169985999658695,0.874336166736505,-0.425748499655356,0.874336166754379,-0.425748499653923,0.00396408376730323,-0.0169820542635493
29,0.00384492099251776,-0.0173596467658437,0.870844490681924,-0.432378475140484,0.87084449069907,-0.432378475140282,0.00380883184105785,-0.017342339812056
29.5,0.00368330758342289,-0.017720682942765,0.867305439619684,-0.438980243503359,0.867305439636038,-0.438980243504299,0.00364644939933617,-0.0177025816639729
30,0.00351455306337778,-0.0180814981054687,0.863719120836385,-0.44555349406927,0.863719120851891,-0.445553494071262,0.00347692372760994,-0.0180625689510502
30.5,0.0033386502329073,-0.0184418850063953,0.860085648422119,-0.452097912236644,0.860085648436728,-0.452097912239598,0.00330024950257962,-0.018422094110309
31,0.003155598946886,-0.0188016396805295,0.85640514320411,-0.458613179822734,0.856405143217785,-0.458613179826559,0.00311642843274629,-0.0187809530137282
31.5,0.00296540577637444,-0.0191605615672932,0.852677732681023,-0.46509897539891,0.852677732693731,-0.465098975403517,0.00292546890931189,-0.0191389450805878
32,0.0027680836795887,-0.0195184536161866,0.848903550956699,-0.471554974615517,0.848903550968418,-0.471554974620818,0.0027273856676136,-0.0194958733733768
32.5,0.00256365168225814,-0.019875122377002,0.845082738672456,-0.477980850516292,0.845082738683168,-0.4779808505222,0.00252219945925591,-0.0198515446781974
33,0.00235213456760142,-0.0202303780754524,0.84121544293729,-0.484376273842241,0.841215442946985,-0.484376273848672,0.002309936735086,-0.0202057695705921
33.5,0.00213356257610331,-0.0205840346750757,0.837301817255562,-0.490740913324978,0.837301817264237,-0.49074091333185,0.00209062933910431,-0.0205583624677367
34,0.00190797111524554,-0.0209359099262615,0.833342021451902,-0.49707443596948,0.833342021459559,-0.497074435976714,0.00186431421337646,-0.0209091416679094
34.5,0.00167540047928094,-0.0212858254032525,0.829336221593208,-0.50337650732627,0.829336221599854,-0.50337650733379,0.001631033113969,-0.02125792937815
35,0.00143589557913554,-0.0216336065299588,0.825284589907725,-0.509646791753061,0.825284589913371,-0.509646791760795,0.00139083233788939,-0.0216045517309882
35.5,0.00118950568244025,-0.0219790825954036,0.821187304701266,-0.515884952665952,0.821187304705929,-0.515884952673829,0.00114376246098419,-0.0219488387911109
36,0.000936284163693513,-0.0223220867595976,0.817044550270716,-0.522090652780252,0.817044550274415,-0.522090652788207,0.000889878086701434,-0.022290624552788
36.5,0.000676288264497116,-0.0226624560506172,0.812856516814985,-0.528263554341091,0.812856516817745,-0.528263554349064,0.000629237605606958,-0.0226297469288702
37,0.000409578863788562,-0.023000031353632,0.808623400343639,-0.53440331934398,0.808623400345488,-0.53440331935191,0.000361902965498262,-0.0229660477321099
37.5,0.000136220257953346,-0.0233346573925998,0.804345402583428,-0.54050960974549,0.804345402584393,-0.540509609753322,8.79394519477383E-005,-0.0232993726495574
38,-0.000143720049324725,-0.0236661827053097,0.800022730882959,-0.546582087664301,0.800022730883074,-0.546582087671985,-0.000192584520929739,-0.0236295712107075
38.5,-0.000430171547625313,-0.0239944596124274,0.795655598115798,-0.552620415572823,0.795655598115098,-0.552620415580312,-0.00047959760969335,-0.0239564967500685
39,-0.000723060910971018,-0.0243193441811697,0.791244222582207,-0.558624256479656,0.791244222580727,-0.558624256486906,-0.000773025731030774,-0.0242800063647733
39.5,-0.00102231217981053,-0.0246406961841806,0.786788827909811,-0.564593274103153,0.78678882790759,-0.564593274110125,-0.00107279224168622,-0.0245999608678186
40,-0.00132784693403754,-0.0249583790541769,0.782289642953413,-0.570527133036354,0.78228964295049,-0.57052713304301,-0.00137881810914048,-0.0249162247374823
40.5,-0.00163958445726825,-0.0252722598348673,0.777746901694199,-0.576425498903575,0.777746901690614,-0.576425498909885,-0.00169102207330768,-0.0252286660634294
41,-0.00195744189263192,-0.0255822091286535,0.773160843138552,-0.582288038508955,0.773160843134347,-0.582288038514889,-0.00200932079954641,-0.0255371564899947
41.5,-0.00228133439032219,-0.0258881010415493,0.768531711216687,-0.588114419977218,0.768531711211903,-0.58811441998275,-0.00233362902326062,-0.0258415711570849
42,-0.00261117524716986,-0.0261898131257522,0.763859754681293,-0.593904312886978,0.763859754675971,-0.593904312892086,-0.00266385968639049,-0.0261417886391127
42.5,-0.00294687603850413,-0.0264872263202667,0.75914522700637,-0.599657388396854,0.759145227000553,-0.599657388401518,-0.00299992406609428,-0.0264376908823482
43,-0.00328834674256789,-0.0267802248899438,0.754388386286423,-0.605373319364691,0.754388386280153,-0.605373319368896,-0.00334173189590864,-0.0267291631410466
43.5,-0.00363549585776518,-0.0270686963632686,0.749589495136163,-0.611051780460171,0.749589495129482,-0.611051780463904,-0.00368919147968905,-0.0270160939126699
44,-0.00398823051299874,-0.0273525314692237,0.744748820590857,-0.616692448271088,0.744748820583805,-0.616692448274339,-0.00404220979862308,-0.0272983748725046
44.5,-0.00434645657137928,-0.0276316240735077,0.739866634007441,-0.622295001403573,0.739866634000061,-0.622295001406334,-0.00440069261160903,-0.0275759008079579
45,-0.00471007872756968,-0.0279058711143747,0.734943210966525,-0.627859120576513,0.734943210958856,-0.62785912057878,-0.00476454454928232,-0.0278485695527652
45.5,-0.00507900059902749,-0.0281751725383451,0.729978831175366,-0.633384488710454,0.729978831167448,-0.633384488712225,-0.00513366920198155,-0.0281162819213536
46,-0.00545312481141108,-0.0284394312359959,0.724973778371919,-0.638870791011207,0.724973778363791,-0.638870791012481,-0.00550796920191476,-0.0283789416435577
46.5,-0.00583235307840452,-0.0286985529780475,0.719928340230025,-0.644317715048426,0.719928340221724,-0.644317715049207,-0.00588734629981824,-0.0286364552998768
47,-0.0062165862762118,-0.0289524463519218,0.714842808265821,-0.649724950829382,0.714842808257383,-0.649724950829673,-0.00627170143635108,-0.0288887322574445
47.5,-0.00660572451297148,-0.0292010226989364,0.709717477745404,-0.655092190868155,0.709717477736865,-0.655092190867964,-0.00666093480849489,-0.0291356846068551
48,-0.00699966719332368,-0.0294441960522925,0.704552647593833,-0.660419130250475,0.704552647585228,-0.66041913024981,-0.00705494593120426,-0.0293772270999907
48.5,-0.00739831307837602,-0.0296818830759817,0.699348620305479,-0.66570546669441,0.699348620296841,-0.665705466693282,-0.00745363369455315,-0.0296132770889616
49,-0.00780156034128598,-0.0299140030047392,0.694105701855772,-0.670950900607106,0.694105701847132,-0.670950900605526,-0.00785689641660764,-0.0298437544662712
49.5,-0.00820930661868585,-0.0301404775851494,0.688824201614375,-0.676155135137773,0.688824201605764,-0.676155135135755,-0.00826463189225485,-0.0300685816062941
50,-0.00862144905816387,-0.0303612310179959,0.683504432259798,-0.681317876227099,0.683504432251244,-0.681317876224658,-0.00867673743820691,-0.0302876833081595
50.5,-0.00903788436200825,-0.030576189901943,0.678146709695479,-0.686438832653268,0.67814670968701,-0.68643883265042,-0.00909310993439189,-0.0305009867400972
51,-0.00945850882741844,-0.0307852831786237,0.67275135296733,-0.691517716074748,0.672751352958972,-0.691517716071511,-0.00951364586193232,-0.0307084213853178
51.5,-0.00988321838337258,-0.0309884420791938,0.667318684182777,-0.696554241070017,0.667318684174554,-0.696554241066411,-0.00993824133791404,-0.0309099189894805
52,-0.0103119086243412,-0.0311856000724121,0.661849028431266,-0.701548125174373,0.661849028423202,-0.701548125170415,-0.0103667921471257,-0.0311054135097814
52.5,-0.0107444748410278,-0.0313766928142909,0.656342713706273,-0.706499088913968,0.656342713698388,-0.706499088909679,-0.0107991937709572,-0.0312948410657117
53,-0.0111808120483109,-0.0315616580993614,0.650800070828781,-0.711406855837224,0.650800070821096,-0.711406855832626,-0.0112353414136301,-0.0314781398915069
53.5,-0.0116208150105504,-0.031740435813576,0.645221433372239,-0.716271152543744,0.645221433364773,-0.716271152538858,-0.011675130025922,-0.0316552502903138
54,-0.0120643782644271,-0.0319129678888936,0.639607137588994,-0.721091708710849,0.639607137581762,-0.721091708705699,-0.0121184543265535,-0.0318261145900899
54.5,-0.0125113961394612,-0.032079198259547,0.633957522338169,-0.725868257117871,0.633957522331188,-0.72586825711248,-0.0125652088213856,-0.0319906771012524
55,-0.012961762776369,-0.0322390728200261,0.628272929015,-0.7306005336683,0.628272929008283,-0.73060053366269,-0.0130152878205789,-0.0321488840760775
55.5,-0.0134153721433913,-0.0323925393847786,0.6225537014816,-0.735288277409901,0.62255370147516,-0.735288277404096,-0.0134685854538537,-0.0323006836698595
56,-0.0138721180507403,-0.0325395476496397,0.616800185999142,-0.739931230552907,0.616800185992989,-0.739931230546931,-0.013924995683989,-0.0324460259038254
56.5,-0.0143318941632872,-0.032680049154991,0.611012731161449,-0.74452913848638,0.611012731155594,-0.744529138480259,-0.0143844123186873,-0.0325848626297995
57,-0.0147945940116298,-0.0328139972506509,0.605191687829965,-0.749081749792838,0.605191687824414,-0.749081749786594,-0.0148467290209357,-0.0327171474966162
57.5,-0.0152601110016505,-0.032941347062493,0.599337409070099,-0.753588816261225,0.59933740906486,-0.753588816254884,-0.0153118393179764,-0.032842835918265
58,-0.01572833842269,-0.0330620554607791,0.59345025008892,-0.758050092898331,0.593450250083998,-0.758050092891916,-0.0157796366090055,-0.0329618850437567
58.5,-0.0161991694544488,-0.0331760810302098,0.587530568174186,-0.762465337938714,0.587530568169584,-0.762465337932249,-0.0162500141717071,-0.0330742537286981
59,-0.0166724971727196,-0.0332833840416719,0.58157872263468,-0.766834312853223,0.581578722630403,-0.766834312846732,-0.0167228651677333,-0.0331799025085538
59.5,-0.0171482145540623,-0.0333839264256686,0.575595074741853,-0.77115678235618,0.5755950747379,-0.771156782349687,-0.0171980826472248,-0.0332787935735795
60,-0.0176262144795185,-0.0334776717474239,0.56957998767273,-0.7754325144113,0.569579987669102,-0.775432514404829,-0.0176755595524727,-0.0333708907454034
60.5,-0.0181063897374576,-0.0335645851836338,0.563533826454082,-0.779661280236408,0.563533826450779,-0.77966128022998,-0.0181551887208161,-0.0334561594552354
61,-0.0185886330256614,-0.0336446335008554,0.557456957907832,-0.783842854307013,0.55745695790485,-0.783842854300652,-0.018636862886861,-0.0335345667236779
61.5,-0.0190728369527176,-0.0337177850355019,0.551349750597673,-0.787977014358812,0.551349750595009,-0.787977014352539,-0.0191204746841108,-0.0336060811421171
62,-0.0195588940388273,-0.0337840096754323,0.545212574776894,-0.792063541389165,0.545212574774545,-0.792063541383003,-0.0196059166460901,-0.0336706728556636
