"Freq [GHz]","re(St(P1,P1)) []","im(St(P1,P1)) []","re(St(P1,P2)) []","im(St(P1,P2)) []","re(St(P2,P1)) []","im(St(P2,P1)) []","re(St(P2,P2)) []","im(St(P2,P2)) []"
0,0.00547479548345109,0,0.994535629433813,0,0.994535630583414,0,0.00547477506421501,0
0.5,0.00596366391845038,0.00086047012652557,0.993899211291378,-0.0096406753071534,0.993899211222043,-0.00964067538826896,0.00596397215250377,0.000859217675920121
1,0.00633489078056471,0.00113706412758674,0.993131035998852,-0.0186502637221153,0.993131035916297,-0.0186502636891674,0.00633558801043499,0.00113403713347182
1.5,0.00649970723058146,0.00130252346624893,0.992322548485333,-0.027464808220099,0.992322548440264,-0.0274648081704676,0.00650049945882891,0.00129754088137624
2,0.00651278191504234,0.00147468449450194,0.991461190854428,-0.0361680961262021,0.991461190835416,-0.0361680960886517,0.00651351373609232,0.00146777148561661
2.5,0.00644050202076407,0.00169196906697522,0.990506703049986,-0.0447890748419653,0.990506703040263,-0.0447890748223809,0.0064410882847592,0.00168315298777877
3,0.00631916635211027,0.00196035623872426,0.989447293833753,-0.0533235240612342,0.989447293822721,-0.0533235240560987,0.00631954647118627,0.0019496527178795
3.5,0.0061699921811087,0.0022794129135848,0.988287459831787,-0.0617645825582906,0.988287459814583,-0.0617645825617652,0.00617011409213442,0.00226682848150528
4,0.00600739543210382,0.00264727913351237,0.987038078908367,-0.0701091555394289,0.987038078883936,-0.0701091555461035,0.0060072093578083,0.00263281404464522
4.5,0.00584240169776684,0.00306141791339076,0.985711375554859,-0.0783582520350254,0.985711375524347,-0.0783582520408777,0.00584185716780705,0.0030450681455898
5,0.00568399474415127,0.00351864922964218,0.984318575173399,-0.0865159668136046,0.984318575138997,-0.086515966816167,0.00568303889539712,0.00350040803573304
5.5,0.00553964411563068,0.0040151528512089,0.982868938902955,-0.0945883166880828,0.982868938867128,-0.0945883166863029,0.00553822064489973,0.00399501213314135
6,0.00541551469348134,0.00454654182823244,0.981369518340127,-0.102582254749136,0.98136951830512,-0.102582254743073,0.00541356325384129,0.00452449344473127
6.5,0.00531656413210682,0.00510799313030308,0.979825278634626,-0.110504933292169,0.979825278602189,-0.110504933282681,0.00531402009269741,0.00508403015508385
7,0.00524661264745935,0.00569440638897722,0.978239391259384,-0.118363202535912,0.978239391230646,-0.118363202524347,0.00524340716983945,0.00566852429252807
7.5,0.00520841758032527,0.00630056670906143,0.976613582444828,-0.126163303791461,0.976613582420272,-0.126163303779407,0.00520447796627412,0.00627276442272073
8,0.00520376212028404,0.00692129535574582,0.974948474390969,-0.133910709700754,0.974948474370471,-0.133910709689837,0.00519901238026194,0.00689157617914882
8.5,0.00523355752109367,0.00755157893082314,0.973243888066128,-0.141610068082725,0.973243888049028,-0.141610068074456,0.00522791910795703,0.0075199512544466
9,0.00529795422608435,0.00818667278012519,0.97149909561944,-0.149265213767013,0.971499095604635,-0.149265213762691,0.00529134687790772,0.00815315060823885
9.5,0.00539645638802047,0.00882217794478901,0.969713021410757,-0.156879221367192,0.969713021396786,-0.156879221367836,0.0053887990270737,0.00878678121738741
10,0.00552803473442307,0.00945409326344082,0.967884396306043,-0.164454479675421,0.967884396291178,-0.164454479681734,0.00551924637559248,0.009416847986909
10.5,0.00574300628402857,0.0100793986069978,0.966024420879216,-0.171981040079927,0.966024420877009,-0.171981040085794,0.00573295334138427,0.01004037499608
11,0.00597355526314849,0.0106904308391846,0.964130584615677,-0.179472904470738,0.96413058462483,-0.179472904478825,0.00596219610782736,0.0106496581918401
11.5,0.00621868920421301,0.0112878060955262,0.962202024035434,-0.186932737172899,0.962202024054331,-0.186932737185353,0.0062059807381451,0.0112453126914249
12,0.00647755922394042,0.0118720301268742,0.960237768960344,-0.194362769438542,0.960237768987178,-0.194362769457001,0.00646345718077179,0.0118278436777595
12.5,0.0067494275099734,0.0124435169990593,0.958236798245396,-0.201764850149694,0.95823679827827,-0.201764850175329,0.00673388670856881,0.012397664983899
13,0.00703364287572064,0.0130026047303424,0.956198081009302,-0.209140494336586,0.956198081046317,-0.209140494370133,0.00701661743381882,0.0129551146468123
13.5,0.00732962222189482,0.0135495683357236,0.954120606289323,-0.21649092817642,0.954120606328637,-0.216490928218234,0.00731106573669457,0.0135004678902177
14,0.00763683636690596,0.0140846307020528,0.952003403616751,-0.223817129790568,0.952003403656634,-0.223817129840673,0.0076167020683717,0.0140339479540639
14.5,0.00795479914004932,0.014607971660445,0.949845556588423,-0.231119865603656,0.949845556627293,-0.231119865661799,0.00793304002177114,0.0145557351327117
15,0.00828305893370873,0.0151197355651289,0.947646211124206,-0.238399722318665,0.947646211160648,-0.238399722384367,0.00825962786529955,0.0150659743278367
15.5,0.00862119212463702,0.0156200376357303,0.945404579763336,-0.245657134740817,0.945404579796121,-0.245657134813417,0.00859604194893132,0.0155647813708453
16,0.0089687979272367,0.0161089692749923,0.943119943067054,-0.252892409782817,0.943119943095145,-0.252892409861521,0.0089418815449307,0.016052248325233
16.5,0.0093254943520516,0.0165866025360215,0.940791648958735,-0.260105747030205,0.940791648981282,-0.260105747114114,0.00929676479594443,0.0165284479418419
17,0.00969091502306207,0.0170529938818744,0.938419110640779,-0.267297256256266,0.938419110657123,-0.267297256344424,0.00966032552364132,0.0169934374089804
17.5,0.0100647066664492,0.0175081873545035,0.936001803573936,-0.274466972264714,0.936001803583591,-0.274466972356125,0.0100322107102351,0.0174472615138506
18,0.0104465271272711,0.0179522172491928,0.933539261883097,-0.281614867413808,0.933539261885744,-0.281614867507475,0.0104120785090784,0.0178899553109164
18.5,0.0108360438032724,0.0183851103735473,0.931031074458549,-0.288740862144432,0.931031074454024,-0.288740862239366,0.0107995966733224,0.0183215463759925
19,0.0112329324096823,0.0188068879562233,0.928476880947892,-0.295844833800811,0.928476880936168,-0.295844833896056,0.0111944413163262,0.0187420567109398
19.5,0.0116368760075937,0.0192175672593573,0.9258763677772,-0.302926623998654,0.925876367758375,-0.302926624093299,0.0115962959362824,0.019151504352767
20,0.0120475642428567,0.0196171629394821,0.923229264296907,-0.309986044763166,0.923229264271189,-0.309986044856357,0.0120048506518555,0.0195499047317684
20.5,0.0124646927534099,0.0200056881942166,0.920535339115399,-0.317022883629567,0.920535339083089,-0.317022883720517,0.0124198016066868,0.0199372718158748
21,0.012887962711561,0.0203831557259508,0.917794396659082,-0.324036907871704,0.917794396620561,-0.324036907959694,0.0128408505091864,0.0203136190723618
21.5,0.0133170804743708,0.0207495785487226,0.915006273979855,-0.331027868000338,0.915006273935573,-0.331027868084729,0.0132677042807205,0.0206789602730275
22,0.0137517573205517,0.0211049706603488,0.912170837818021,-0.33799550065162,0.912170837768479,-0.337995500731848,0.0137000747905442,0.0210333101648743
22.5,0.0141917092564293,0.0214493475985162,0.909287981919454,-0.344939530967838,0.909287981865193,-0.344939531043418,0.0141376786599861,0.0213766850249455
23,0.0146366568767867,0.0217827268967234,0.90635762459954,-0.351859674556689,0.906357624541135,-0.351859674627215,0.014580237121698,0.0217091031151713
23.5,0.0150863252690769,0.0221051284535976,0.903379706542197,-0.358755639101662,0.903379706480241,-0.358755639166802,0.0150274759223862,0.0220305850507454
24,0.0155404439515627,0.0224165748272194,0.90035418881963,-0.365627125684488,0.900354188754731,-0.365627125743987,0.0154791252596008,0.0223411540936254
24.5,0.0159987468376795,0.022717091464445,0.89728105111708,-0.372473829870663,0.897281051049843,-0.372473829924335,0.0159349197448349,0.022640836381125
25,0.0164609722202917,0.0230067068738238,0.894160290146154,-0.379295442600627,0.894160290077183,-0.379295442648353,0.0163945983866139,0.022929661098225
25.5,0.0169268627706508,0.0232854527496171,0.890991918230416,-0.386091650922095,0.890991918160304,-0.38609165096382,0.0168579045883421,0.0232076606010387
26,0.017396165547783,0.0235533640534018,0.887775962047253,-0.392862138592987,0.887775961976578,-0.392862138628711,0.0173245861566523,0.0234748704979524
26.5,0.0178686320148145,0.0238104790589337,0.884512461510794,-0.399606586579353,0.884512461440111,-0.399606586609133,0.0177943953167444,0.0237313296940911
27,0.0183440180593612,0.0240568393652569,0.881201468781519,-0.406324673468469,0.88120146871136,-0.406324673492409,0.018267088731838,0.0239770804040893
27.5,0.0188220840156438,0.0242924898824064,0.877843047389195,-0.413016075813684,0.877843047320063,-0.413016075831934,0.018742427524393,0.0242121681375181
28,0.0193025946864261,0.0245174787935729,0.874437271456791,-0.419680468424646,0.87443727138916,-0.419680468437393,0.0192201772971974,0.0244366416608194
28.5,0.0197853193632389,0.024731857497114,0.870984225014072,-0.426317524614037,0.870984224948383,-0.426317524621506,0.0197001081527761,0.0246505529391374
29,0.0202700318436679,0.0249356805314316,0.867484001390609,-0.432926916409892,0.867484001327266,-0.432926916412336,0.0201819947098958,0.0248539570610675
29.5,0.0207565104447207,0.0251290054853767,0.863936702678857,-0.439508314740858,0.863936702618234,-0.439508314738556,0.0206656161161928,0.0250469121489646
30,0.0212445380115436,0.0253118928965674,0.860342439258976,-0.446061389600301,0.860342439201407,-0.446061389593555,0.0211507560561711,0.0252294792572103
30.5,0.0217339019209042,0.0254844061397284,0.856701329377827,-0.452585810194039,0.856701329323611,-0.452585810183168,0.0216372027540053,0.0254017222605371
31,0.0222243940790324,0.0256466113069298,0.853013498775455,-0.459081245075474,0.853013498724856,-0.459081245060811,0.0221247489707307,0.025563707734282
31.5,0.0227158109135442,0.025798577081414,0.849279080353068,-0.465547362271101,0.849279080306315,-0.46554736225299,0.0226131919955464,0.0257155048282627
32,0.0232079533592751,0.0259403746065102,0.845498213877208,-0.471983829398752,0.845498213834494,-0.471983829377545,0.0231023336310581,0.0258571851357694
32.5,0.0237006268379462,0.0260720773509602,0.841671045715398,-0.478390313780364,0.841671045676883,-0.478390313756415,0.0235919801723831,0.0259888225589956
33,0.0241936412316705,0.0261937609718733,0.837797728599148,-0.484766482550656,0.837797728564959,-0.484766482524322,0.0240819423801246,0.0261104931721147
33.5,0.0246868108503633,0.0263055031763472,0.833878421410632,-0.491112002762746,0.833878421380864,-0.491112002734383,0.0245720354472803,0.0262222750830581
34,0.0251799543931876,0.0264073835827243,0.829913288989865,-0.497426541491453,0.829913288964582,-0.497426541461414,0.0250620789602138,0.0263242482949333
34.5,0.0256728949041934,0.0264994835823149,0.82590250195954,-0.503709765934826,0.825902501938779,-0.503709765903456,0.0255518968538538,0.0264164945679374
35,0.026165459722372,0.026581886202332,0.821846236565098,-0.509961343514237,0.821846236548868,-0.509961343481876,0.026041317361329,0.0264990972824932
35.5,0.0266574804263568,0.0266546759707131,0.817744674527883,-0.516180941973284,0.817744674516165,-0.516180941940262,0.0265301729582829,0.0265721413042832
36,0.0271487927740263,0.0267179387833921,0.813598002909506,-0.522368229475596,0.813598002902261,-0.522368229442232,0.027018300302123,0.0266357128517526
36.5,0.0276392366373068,0.0267717617745526,0.809406413985847,-0.52852287470159,0.809406413983011,-0.52852287466819,0.0275055401664903,0.0266898993665936
37,0.0281286559324595,0.0268162331902991,0.805170105129257,-0.534644546944156,0.805170105130743,-0.534644546911015,0.0279917373712437,0.0267347893876602
37.5,0.0286168985461605,0.0268514422661316,0.800889278697779,-0.540732916203203,0.800889278703486,-0.540732916170601,0.0284767407082686,0.0267704724286943
38,0.0291038162576956,0.0268774791085726,0.796564141930369,-0.546787653278978,0.796564141940174,-0.546787653247178,0.0289604028634213,0.0267970388602017
38.5,0.0295892646575817,0.0268944345812234,0.792194906847185,-0.552808429864043,0.792194906860951,-0.552808429833294,0.0294425803349301,0.0268145797957609
39,0.0300731030629378,0.0269024001954842,0.787781790154243,-0.558794918633794,0.787781790171818,-0.55879491860433,0.0299231333485698,0.0268231869830016
39.5,0.0305551944299259,0.0269014680061603,0.783325013151743,-0.564746793335405,0.783325013172964,-0.56474679330744,0.0304019257699326,0.0268229526994587
40,0.0310354052635842,0.0268917305120961,0.778824801645557,-0.570663728875049,0.778824801670247,-0.570663728848783,0.0308788250141123,0.0268139696534582
40.5,0.0315136055253603,0.0268732805619837,0.774281385861392,-0.576545401403321,0.774281385889365,-0.576545401378936,0.0313537019531164,0.0267963308901693
41,0.0319896685386558,0.0268462112654371,0.769695000361247,-0.582391488398709,0.769695000392309,-0.582391488376369,0.0318264308213086,0.0267701297029181
41.5,0.0324634708926888,0.0268106159094079,0.765065883961843,-0.588201668749049,0.765065883995793,-0.588201668728902,0.032296889119193,0.026735459549834
42,0.0329348923449664,0.0267665878799891,0.760394279654744,-0.593975622830854,0.760394279691376,-0.593975622813029,0.0327649575158263,0.0266924139758753
42.5,0.0334038157226554,0.026714220589632,0.75568043452797,-0.599713032586443,0.755680434567072,-0.599713032571054,0.0332305197501503,0.0266410865402607
43,0.033870126823129,0.0266536074097757,0.750924599688873,-0.605413581598811,0.750924599730231,-0.605413581585954,0.0336934625315181,0.0265815707492978
43.5,0.0343337143139651,0.0265848416088794,0.746127030188185,-0.611076955164177,0.746127030231582,-0.611076955153932,0.0341536754396876,0.0265139599946075
44,0.0347944696326476,0.0265080162958221,0.741287984945074,-0.616702840362165,0.741287984990291,-0.616702840354595,0.0346110508245384,0.0264383474966967
44.5,0.0352522868862329,0.0264232243686237,0.736407726673128,-0.622290926123597,0.736407726719949,-0.622290926118752,0.0350654837057634,0.0263548262538443
45,0.0357070627512114,0.0263305584684228,0.731486521807211,-0.627840903295863,0.731486521855419,-0.627840903293775,0.0355168716727747,0.0262634889962275
45.5,0.0361586963738053,0.0262301109386484,0.726524640431099,-0.633352464705856,0.726524640480477,-0.633352464706543,0.0359651147850529,0.0261644281452201
46,0.036607089270916,0.026121973789287,0.721522356205889,-0.638825305220478,0.721522356256227,-0.638825305223943,0.0364101154731639,0.0260577357777825
46.5,0.03705214523194,0.0260062386661674,0.716479946299136,-0.644259121804708,0.716479946350223,-0.64425912181094,0.0368517784406485,0.0259435035958385
47,0.0374937702216508,0.0258829968251468,0.711397691314699,-0.649653613577251,0.71139769136633,-0.649653613586229,0.0372900105669883,0.0258218229005466
47.5,0.0379318722843396,0.0257523391110988,0.70627587522329,-0.655008481863793,0.706275875275265,-0.65500848187548,0.0377247208118417,0.025692784571353
48,0.0383663614494018,0.0256143559415856,0.701114785293726,-0.660323430247861,0.701114785345849,-0.660323430262209,0.038155820120726,0.0255564790497034
48.5,0.0387971496385372,0.0254691372950838,0.695914712024869,-0.665598164619352,0.695914712076952,-0.665598164636301,0.0385832213323246,0.0254129963273034
49,0.0392241505747389,0.0253167727036531,0.690675949078286,-0.670832393220737,0.690675949130148,-0.670832393240218,0.0390068390875789,0.0252624259387887
49.5,0.0396472796932145,0.0251573512498974,0.685398793211611,-0.676025826690998,0.685398793263075,-0.67602582671293,0.0394265897407232,0.0251048569586796
50,0.0400664540544022,0.0249909615680992,0.680083544212638,-0.681178178107322,0.680083544263535,-0.681178178131615,0.0398423912724085,0.024940378002485
50.5,0.0404815922592107,0.0248176918493787,0.674730504834151,-0.686289163024616,0.674730504884322,-0.686289163051173,0.040254163205056,0.0247690772318135
51,0.0408926143666234,0.0246376298507411,0.669339980729512,-0.69135849951288,0.669339980778803,-0.691358499541592,0.0406618265205672,0.0245910423633529
51.5,0.0412994418137895,0.0244508629078676,0.663912280389006,-0.696385908192482,0.663912280437274,-0.696385908223237,0.0410653035805238,0.0244063606815741
52,0.0417019973387182,0.0242574779514995,0.658447715076982,-0.701371112267409,0.65844771512409,-0.701371112300084,0.0414645180489835,0.0242151190550137
52.5,0.0421002049056904,0.0240575615272767,0.652946598769778,-0.706313837556517,0.6529465988156,-0.706313837590985,0.0418593948179895,0.0240174039559866
53,0.0424939896334946,0.023851199818874,0.647409248094473,-0.711213812522859,0.647409248138892,-0.711213812558987,0.0422498599358962,0.0238133014835826
53.5,0.0428832777265771,0.0236384786742874,0.641835982268458,-0.716070768301133,0.641835982311364,-0.716070768338783,0.0426358405386053,0.0236028973897937
54,0.0432679964092116,0.0234194836351195,0.636227123039844,-0.720884438723313,0.636227123081137,-0.720884438762341,0.0430172647838064,0.0233862771086245
54.5,0.0436480738627602,0.02319429996871,0.630582994628734,-0.725654560342502,0.630582994668324,-0.725654560382763,0.0433940617883076,0.0231635257880304
55,0.0440234391661222,0.022963012702962,0.624903923669355,-0.730380872455091,0.62490392370716,-0.730380872496435,0.0437661615685344,0.0229347283245325
55.5,0.0443940222394328,0.0227257066637039,0.619190239153064,-0.735063117121248,0.619190239189012,-0.735063117163523,0.0441334949842728,0.0226999694003579
56,0.0447597537910924,0.0224824665144377,0.613442272372248,-0.739701039183817,0.613442272406277,-0.739701039226868,0.0444959936857273,0.0224593335229466
56.5,0.0451205652681858,0.0222333767983151,0.607660356865116,-0.744294386285667,0.607660356897171,-0.744294386329338,0.0448535900639541,0.0222129050666758
57,0.0454763888103528,0.0219785219821877,0.601844828361395,-0.748842908885551,0.601844828391433,-0.748842908929685,0.0452062172047321,0.0219607683166416
57.5,0.0458271572071696,0.021717986502575,0.59599602472894,-0.753346360272523,0.595996024756924,-0.753346360316964,0.0455538088459312,0.0217030075143469
58,0.046172803859088,0.0214518548133895,0.590114285921259,-0.757804496578982,0.590114285947162,-0.757804496623571,0.0458962993384147,0.021439706905135
58.5,0.0465132627419809,0.0211802114352659,0.584199953925963,-0.762217076792363,0.584199953949768,-0.762217076836944,0.0462336236105366,0.021170950787216
59,0.0468484683753345,0.0209031410063324,0.578253372714144,-0.766583862765563,0.578253372735841,-0.766583862809981,0.0465657171362658,0.0208968235621249
59.5,0.0471783557941278,0.0206207283342698,0.572274888190681,-0.770904619226126,0.572274888210269,-0.770904619270226,0.0468925159069766,0.0206174097864567
60,0.0475028605244305,0.020333058449489,0.566264848145484,-0.775179113784245,0.566264848162969,-0.775179113827875,0.0472139564069373,0.0203327942247172
60.5,0.0478219185627451,0.0200402166592794,0.560223602205666,-0.77940711693963,0.560223602221064,-0.77940711698264,0.0475299755925286,0.0200430619031322
61,0.0481354663591234,0.0197422886027566,0.55415150178866,-0.783588402087286,0.554151501801994,-0.783588402129528,0.0478405108752048,0.0197482981642504
61.5,0.0484434408040729,0.0194393603064515,0.548048900056266,-0.787722745522249,0.548048900067566,-0.78772274556358,0.0481455001082309,0.0194485887221855
62,0.048745779219267,0.0191315182403769,0.541916151869634,-0.791809926443325,0.541916151878936,-0.791809926483604,0.0484448815772009,0.0191440197183313
62.5,0.0490424193520718,0.0188188493744063,0.535753613745186,-0.795849726955873,0.535753613752534,-0.795849726994963,0.0487385939943454,0.0188346777773862
63,0.0493332993738952,0.018501441234806,0.529561643811467,-0.799841932073679,0.529561643816914,-0.799841932111448,0.0490265764966421,0.0185206500635273
63.5,0.0496183578823548,0.0181793819607428,0.523340601766931,-0.803786329719963,0.523340601770532,-0.803786329756283,0.049308768647719,0.0182020243365659
64,0.0498975339072632,0.0178527603606168,0.517090848838646,-0.807682710727549,0.517090848840465,-0.807682710762298,0.0495851104435555,0.0178788890079215
