"Freq [GHz]","re(St(P1,P1)) []","im(St(P1,P1)) []","re(St(P1,P2)) []","im(St(P1,P2)) []","re(St(P2,P1)) []","im(St(P2,P1)) []","re(St(P2,P2)) []","im(St(P2,P2)) []"
0,0.00582598269159007,0,0.994188261058298,0,0.99418826008332,0,0.00582598014727864,0
0.5,0.00629185424406487,0.0014916428326579,0.993583148824627,-0.00963786128257027,0.993583148748165,-0.00963786129558031,0.00629206365612234,0.00149124136095224
1,0.00665245452740848,0.00243675609876348,0.99284529202124,-0.0186860593428868,0.992845291983985,-0.0186860592657325,0.00665301843204347,0.00243568437905495
1.5,0.00684141866541665,0.00327838236625588,0.992052079337025,-0.0275487366769926,0.992052079344738,-0.0275487366105356,0.0068423175743364,0.00327648784025314
2,0.00689924571566225,0.00412139839425052,0.99119775995948,-0.0363001245280774,0.991197759986002,-0.0363001244903973,0.00690042073088293,0.0041186142450389
2.5,0.00688717430696073,0.00500421426038145,0.990246702925266,-0.0449683790740618,0.990246702949591,-0.0449683790631159,0.00688859572110356,0.00500052762608938
3,0.00683958905402648,0.00593324899632641,0.98918877117616,-0.053549975751201,0.989188771186624,-0.053549975758278,0.00684125107459477,0.00592866141481707
3.5,0.0067767097865743,0.00690820036295747,0.988028934231298,-0.0620386617154365,0.98802893422323,-0.0620386617310826,0.00677861997506857,0.00690271644736384
4,0.0067122232222131,0.00792719463908131,0.986778086775392,-0.0704317264372492,0.986778086748667,-0.0704317264534691,0.0067143966354628,0.0079208195986471
4.5,0.00665652725717303,0.00898766424527775,0.985448286916826,-0.0787303786930194,0.985448286874044,-0.078730378704015,0.00665898382857522,0.00898040357139429
5,0.00661804534893778,0.0100864413751305,0.984050526945408,-0.0869387732825002,0.984050526890609,-0.0869387732847535,0.00662080890140149,0.0100783008055219
5.5,0.00660375794453577,0.0112197806115093,0.982593825281989,-0.0950628829428712,0.982593825219766,-0.0950628829349576,0.00660685591421234,0.0112107659010032
6,0.00661942496675805,0.012383430087004,0.981085011286083,-0.10310954141383,0.981085011220992,-0.1031095413961,0.00662288835211144,0.0123735465315047
6.5,0.00666969507338733,0.0135727473986567,0.97952886360406,-0.111085730280037,0.979528863540259,-0.111085730254249,0.00667355836285258,0.0135619991825595
7,0.00675818222584448,0.0147828371423593,0.97792840907564,-0.118998097314637,0.97792840901669,-0.118998097283625,0.00676248319150356,0.0147712266077979
7.5,0.00688754070325094,0.0160086900796084,0.976285271573591,-0.126852665202815,0.97628527152238,-0.12685266517019,0.00689232002621828,0.0159962170092065
8,0.00705954804069418,0.0172453106696842,0.974600010200457,-0.134654683537495,0.974600010159187,-0.134654683507406,0.00706484877923454,0.017231971654716
8.5,0.00727519610084625,0.0184878256521643,0.972872417281545,-0.142408581064084,0.972872417251774,-0.14240858104103,0.00728106303637754,0.0184736135944634
9,0.00753478699166721,0.0197315707613153,0.971101765296221,-0.150117983111283,0.97110176527893,-0.150117983099973,0.00754126589780843,0.019716474534893
9.5,0.00783802975966574,0.0209721555909832,0.969287002463494,-0.157785767751248,0.969287002459154,-0.157785767756499,0.00784516664026667,0.0209561598704604
10,0.00818413421549749,0.0222055084009751,0.967426902040751,-0.165414141926249,0.967426902049395,-0.165414141952922,0.00819197455280377,0.0221885936496475
10.5,0.00864799638485861,0.0234084402268353,0.96552456766175,-0.172997659246261,0.965524567679063,-0.172997659280424,0.00865645669850768,0.0233906189454256
11,0.00913039393100296,0.0245943100751189,0.96358574226701,-0.180543534050265,0.963585742291194,-0.180543534093808,0.00913952867340412,0.0245755572225033
11.5,0.00963131851823917,0.0257636224673945,0.961609919861838,-0.188054491020861,0.961609919890868,-0.188054491075194,0.00964117857329785,0.0257439134267927
12,0.0101507000486249,0.0269167433109629,0.95959642858675,-0.195532848964719,0.959596428618482,-0.195532849030786,0.0101613333529919,0.0268960535956464
12.5,0.0106884193075653,0.0280539289889159,0.957544492456253,-0.202980558898335,0.957544492488513,-0.202980558976638,0.0106998713257074,0.0280322340259955
13,0.011244317416955,0.0291753489580417,0.955453279360164,-0.210399243092185,0.955453279390819,-0.210399243182821,0.0112566315073642,0.0291526239278719
13.5,0.0118182030145624,0.0302811034813473,0.953321937627027,-0.217790233224661,0.953321937654048,-0.217790233327368,0.011831420713965,0.0302573231971421
14,0.0124098577915167,0.031371237672507,0.951149623239216,-0.22515460646726,0.951149623260723,-0.225154606581457,0.0124240190366282,0.0313463764894728
14.5,0.0130190408288303,0.0324457527147064,0.948935519530618,-0.232493218815937,0.948935519544912,-0.232493218940782,0.0130341841300889,0.0324197844611109
15,0.013645492044903,0.0335046148928762,0.94667885092846,-0.239806735335458,0.946678850934051,-0.239806735469889,0.0136616546229167,0.0334775128176645
15.5,0.0142889349773683,0.0345477629177295,0.944378892043584,-0.247095657226051,0.944378892039202,-0.247095657368831,0.014306152870175,0.0345194996507643
16,0.0149490790611328,0.0355751139034413,0.942034973180368,-0.254360345781658,0.942034973164971,-0.254360345931425,0.0149673872084204,0.0355456614254948
16.5,0.0156256215210688,0.036586568275089,0.939646483133719,-0.261601043408843,0.939646483106493,-0.261601043564146,0.0156450538300751,0.0365558978954847
17,0.0163182489669393,0.0375820138185519,0.937212869966956,-0.26881789193199,0.937212869927312,-0.268817892091324,0.0163388383636838,0.0375500961588564
17.5,0.0170266387558784,0.0385613290379558,0.934733640319421,-0.276010948437185,0.934733640266986,-0.276010948599024,0.0170484172245826,0.0385281340205257
18,0.0177504601715612,0.0395243859499208,0.932208357673387,-0.283180198913678,0.932208357607994,-0.283180199076504,0.0177734587844905,0.0394898827904038
18.5,0.018489375457287,0.0404710524164935,0.92963663991301,-0.290325569945436,0.929636639834681,-0.290325570107762,0.0185136243967945,0.0404352096195737
19,0.0192430407313892,0.0414011940976959,0.927018156430201,-0.297446938690892,0.927018156339133,-0.297446938851284,0.0192685693055766,0.0413639794555551
19.5,0.0200111068067954,0.0423146760884485,0.924352624970364,-0.304544141370268,0.924352624866915,-0.304544141527363,0.020037943459934,0.0422760566815075
20,0.0207932199315997,0.0432113642919318,0.921639808361962,-0.311616980459173,0.92163980824663,-0.31161698061169,0.0208213922502291,0.0431713064915547
20.5,0.0215890224637459,0.0440911265716428,0.918879511235519,-0.318665230766106,0.918879511108926,-0.31866523091286,0.0216185571792001,0.0440495960445302
21,0.022398153490056,0.0449538337165794,0.916071576807843,-0.32568864455106,0.916071576670721,-0.32568864469097,0.022429076478035,0.0449107954306469
21.5,0.0232202493976325,0.0457993602477658,0.91321588378421,-0.332686955823338,0.913215883637379,-0.332686955955432,0.0232525856753189,0.0457547784793357
22,0.0240549444039553,0.0466275850894688,0.910312343413608,-0.339659883938995,0.910312343257965,-0.339659884062413,0.0240887181251078,0.0465814234316404
22.5,0.0249018710507073,0.047438392124447,0.907360896718818,-0.346607136602505,0.907360896555317,-0.346607136716506,0.0249371054990642,0.0473906134965272
23,0.025760660665292,0.0482316706493762,0.904361511913021,-0.35352841236304,0.904361511742662,-0.353528412466996,0.0257973782465954,0.0481822373072853
23.5,0.0266309437932578,0.0490073157440614,0.90131418200725,-0.360423402683164,0.901314181831064,-0.360423402776564,0.0266691660261303,0.0489561892916297
24,0.0275123506041701,0.0497652285658643,0.898218922607594,-0.36729179364681,0.898218922426628,-0.367291793729254,0.0275520981100651,0.0497123699669557
24.5,0.0284045112730239,0.0505053165791149,0.895075769897204,-0.374133267363723,0.895075769712514,-0.37413326743492,0.0284458037654203,0.0504506861705227
25,0.0293070563388723,0.0512274937278059,0.891884778795555,-0.380947503119258,0.891884778608192,-0.380947503179023,0.0293499126118708,0.0511710512328694
25.5,0.0302196170420608,0.0519316805587225,0.888646021285648,-0.387734178311179,0.888646021096649,-0.387734178359428,0.0302640549585067,0.0518733851016236
26,0.0311418256412196,0.0526178043011754,0.885359584898807,-0.394492969208871,0.885359584709188,-0.394492969245612,0.0311878621204695,0.0525576144218793
26.5,0.032073315710969,0.0532857989086887,0.882025571346222,-0.401223551565024,0.882025571156966,-0.401223551590353,0.0321209667163982,0.0532236725784919
27,0.0330137224211646,0.0539356050673266,0.878644095286189,-0.40792560110525,0.878644095098246,-0.407925601119348,0.0330630029474973,0.0538714997049832
27.5,0.0339626827983809,0.0545671701747322,0.875215283216186,-0.414598793917154,0.875215283030463,-0.414598793920276,0.034013606858918,0.054501042663134
28,0.0349198359702574,0.0551804482935256,0.871739272479181,-0.421242806756975,0.871739272296535,-0.421242806749444,0.0349724165840698,0.0551122549969033
28.5,0.0358848233932599,0.0557754000822244,0.868216210374053,-0.427857317289075,0.868216210195294,-0.42785731727128,0.0359390725723938,0.0557050968638569
29,0.0368572890643484,0.0563519927065458,0.864646253360561,-0.434442004271097,0.864646253186441,-0.434442004243478,0.0369132178011061,0.0562795349469456
29.5,0.03783687971704,0.0569101997336393,0.861029566349823,-0.440996547695451,0.86102956618104,-0.4409965476585,0.037894497971365,0.056835542349199
30,0.0388232450022795,0.0574500010115017,0.857366322071958,-0.447520628896118,0.857366321909147,-0.447520628850368,0.0388825616892927,0.0573730984735832
30.5,0.039816037654552,0.0579713825356458,0.85365670051309,-0.454013930628158,0.853656700356831,-0.454013930574179,0.0398770606322717,0.0578921888900895
31,0.040814913643643,0.0584743363048617,0.84990088841459,-0.46047613712607,0.8499008882654,-0.460476137064462,0.0408776497009139,0.0583928051918999
31.5,0.0418195323124423,0.0589588601677451,0.846099078827963,-0.466906934146066,0.846099078686296,-0.466906934077453,0.0418839871571024,0.0588749448423097
32,0.0428295565011785,0.059424957661519,0.842251470719388,-0.473306008996389,0.842251470585638,-0.473306008921413,0.0428957347484896,0.0593386110139166
32.5,0.0438446526584972,0.0598726378445259,0.838358268618461,-0.479673050559049,0.838358268492962,-0.479673050478366,0.0439125578198504,0.0597838124214725
33,0.0448644909397524,0.0603019151236569,0.834419682306166,-0.486007749305692,0.834419682189193,-0.486007749219966,0.0449341254116756,0.060210563149661
33.5,0.045888745292927,0.0607128090778698,0.830435926537595,-0.492309797309771,0.830435926429365,-0.49230979721967,0.0459601103464022,0.0606188824769421
34,0.0469170935325662,0.0611053442788475,0.826407220795365,-0.498578888256732,0.82640722069604,-0.498578888162923,0.0469901893026762,0.0610087946965334
34.5,0.0479492174021348,0.0614795501097675,0.822333789070085,-0.50481471745356,0.82233378897977,-0.504814717356704,0.0480240428780471,0.0613803289354827
35,0.0489848026251994,0.0618354605830559,0.818215859664592,-0.511016981838688,0.818215859583342,-0.511016981739438,0.0490613556405004,0.0617335189727237
35.5,0.0500235389458492,0.062173114157952,0.814053665019036,-0.51718537999304,0.814053664946855,-0.517185379892035,0.0501018161692339,0.0620684030569205
36,0.0510651201587617,0.0624925535586081,0.809847441554173,-0.523319612152731,0.809847441491018,-0.523319612050597,0.0511451170850924,0.0623850237248482
36.5,0.0521092441293354,0.062793825593417,0.805597429530537,-0.529419380223818,0.805597429476319,-0.529419380121161,0.0521909550710728,0.0626834276209861
37,0.0531556128043043,0.0630769809761824,0.801303872921404,-0.535484387799288,0.801303872875993,-0.535484387696694,0.0532390308833173,0.062963665318949
37.5,0.0542039322132547,0.0633420741497053,0.796967019297702,-0.541514340178425,0.796967019260927,-0.541514340076456,0.0542890493530148,0.0632257911453209
38,0.0552539124614676,0.0635891631122978,0.792587119723222,-0.547508944388551,0.792587119694875,-0.547508944287743,0.0553407193796365,0.0634698630064199
38.5,0.0563052677145082,0.0638183092477064,0.788164428658696,-0.553467909209086,0.788164428638538,-0.553467909109949,0.0563937539159175,0.0636959422184561
39,0.0573577161749845,0.0640295771588679,0.783699203873451,-0.559390945197835,0.783699203861208,-0.559390945100849,0.0574478699450137,0.063904093341522
39.5,0.058410980051898,0.0642230345058858,0.779191706363527,-0.565277764719326,0.779191706358899,-0.565277764624943,0.0585027884502587,0.0640943840177979
40,0.0594647855230044,0.0643987518485813,0.774642200275279,-0.571128081975028,0.774642200277938,-0.571128081883667,0.0595582343779298,0.064266884814327
40.5,0.0605188626906084,0.0645568024939392,0.770050952833588,-0.576941613035249,0.770050952843185,-0.576941612947299,0.0606139365934524,0.064421669070679
41,0.0615729455311997,0.0646972623487148,0.765418234273959,-0.582718075872488,0.765418234290125,-0.582718075788303,0.0616696278314548,0.06455881275178
41.5,0.0626267718393531,0.0648202097774711,0.760744317777833,-0.58845719039602,0.760744317800179,-0.588457190315925,0.062725044640081,0.0646783943061576
42,0.0636800831662914,0.0649257254662584,0.756029479410562,-0.594158678487496,0.756029479438687,-0.594158678411779,0.0637799273199852,0.064780494529837
42.5,0.0647326247535249,0.0650138922921245,0.75127399806157,-0.599822264037319,0.751273998095059,-0.599822263966237,0.06483401985839,0.0648651964360606
43,0.0657841454619596,0.0650847951986372,0.746478155386277,-0.60544767298159,0.746478155424706,-0.605447672915364,0.0658870698586349,0.0649325851310195
43.5,0.0668343976968734,0.0651385210775469,0.74164223574944,-0.611034633339404,0.741642235792376,-0.611034633278227,0.0669388284655845,0.0649827476957228
44,0.0678831373291461,0.065175158656717,0.736766526169612,-0.616582875250306,0.736766526216616,-0.616582875194333,0.0679890502873058,0.0650157730741386
44.5,0.0689301236131274,0.0651947983944158,0.731851316264473,-0.622092131011694,0.731851316315104,-0.622092130961051,0.0690374933133831,0.0650317519676897
45,0.0699751191015184,0.0651975323800509,0.726896898196819,-0.627562135116013,0.726896898250636,-0.627562135070794,0.0700839188302582,0.0650307767361954
45.5,0.0710178895576362,0.065183454241396,0.721903566621053,-0.632992624287561,0.721903566677614,-0.632992624247829,0.0711280913339561,0.0650129413053034
46,0.0720582038654216,0.065152659058353,0.716871618630022,-0.638383337518745,0.716871618688887,-0.638383337484532,0.0721697784405658,0.06497834108046
46.5,0.0730958339375501,0.0651052432832717,0.711801353702102,-0.643734016105665,0.711801353762837,-0.643734016076974,0.0732087507948297,0.0649270728674345
47,0.0741305546219884,0.0650413046678289,0.706693073648447,-0.649044403682866,0.706693073710624,-0.649044403659673,0.0742447819771914,0.0648592347994047
47.5,0.07516214360734,0.0649609421964588,0.701547082560335,-0.654314246257179,0.701547082623533,-0.654314246239431,0.0752776484096379,0.0647749262705906
48,0.0761903813273104,0.0648642560263046,0.696363686756565,-0.659543292240505,0.696363686820372,-0.659543292228124,0.0763071292606758,0.0646742478764129
48.5,0.0772150508646179,0.0647513474336559,0.691143194730875,-0.66473129248148,0.69114319479489,-0.664731292474361,0.0773330063497614,0.0645573013601365
49,0.0782359378546647,0.0646223187668237,0.685885917099374,-0.669878000295912,0.685885917163209,-0.66987800029393,0.0783550640515054,0.0644241895659438
49.5,0.0792528303892789,0.0644772734053759,0.68059216654797,-0.674983171495947,0.680592166611247,-0.674983171498949,0.0793730891999603,0.0642750163983787
50,0.0802655189208248,0.0643163157256709,0.675262257779807,-0.680046564417863,0.675262257842164,-0.680046564425678,0.0803868709932901,0.0641098867880723
50.5,0.0812737961669792,0.0641395510725896,0.669896507462727,-0.685067939948477,0.669896507523818,-0.685067939960914,0.0813962008991191,0.0639289066636812
51,0.0822774570164519,0.0639470857373795,0.66449523417677,-0.690047061550095,0.664495234236263,-0.690047061566943,0.0824008725608403,0.0637321829299198
51.5,0.0832762984359324,0.0637390269414908,0.659058758361742,-0.694983695283975,0.659058758419321,-0.694983695305005,0.0834006817051653,0.0635198234515923
52,0.0842701193785264,0.0635154828263015,0.653587402264876,-0.69987760983228,0.653587402320247,-0.699877609857248,0.0843954260511819,0.0632919370435012
52.5,0.0852587206939434,0.063276562448587,0.648081489888633,-0.704728576518493,0.648081489941514,-0.704728576547138,0.0853849052211781,0.0630486334661018
53,0.0862419050406922,0.063022375781618,0.642541346938655,-0.709536369326277,0.642541346988787,-0.709536369358327,0.0863689206534911,0.0627900234267746
53.5,0.0872194768005225,0.0627530337217298,0.636967300771936,-0.714300764916784,0.636967300819076,-0.714300764951953,0.0873472755176212,0.0625162185865648
54,0.0881912419953465,0.06246864810022,0.631359680345225,-0.719021542644385,0.631359680389152,-0.719021542682377,0.088319774631848,0.0622273315722401
54.5,0.0891570082068832,0.0621693317004104,0.625718816163727,-0.723698484570855,0.625718816204239,-0.723698484611364,0.0892862243835792,0.0619234759935071
55,0.0901165844992257,0.0618551982797136,0.620045040230113,-0.728331375477987,0.620045040267027,-0.728331375520698,0.090246432652652,0.0616047664652179
55.5,0.0910697813445568,0.061526362596525,0.614338685993909,-0.732920002878664,0.614338686027063,-0.732920002923256,0.0912002087377987,0.0612713186343969
56,0.092016410552216,0.0611829404417691,0.608600088301287,-0.737464157026403,0.608600088330539,-0.737464157072549,0.0921473632864825,0.0609232492119037
56.5,0.0929562852013085,0.0608250486749063,0.602829583345298,-0.74196363092338,0.602829583370526,-0.741963630970748,0.0930877082282993,0.0605606760085457
57,0.0938892195770501,0.0604528052642139,0.597027508616602,-0.746418220326958,0.597027508637703,-0.746418220375214,0.0940210567121332,0.0601837179754503
57.5,0.094815029111026,0.0600663293311426,0.591194202854707,-0.750827723754754,0.5911942028716,-0.750827723803561,0.0949472230472505,0.0597924952484959
58,0.0957335303255347,0.0596657411985452,0.585330005999785,-0.755191942488249,0.585330006012409,-0.755191942537269,0.0958660226484969,0.0593871291965944
58.5,0.0966445407821859,0.0592511624425655,0.579435259145076,-0.759510680574987,0.579435259153389,-0.759510680623883,0.0967772719857705,0.0589677424736204
59,0.0975478790349003,0.0588227159479784,0.573510304489923,-0.763783744829391,0.573510304493902,-0.763783744877828,0.0976807885379195,0.0585344590737636
59.5,0.0984433645874667,0.058380525966754,0.56755548529348,-0.768010944832217,0.567555485293121,-0.76801094487986,0.0985763907512172,0.0580874043900915
60,0.099330817855794,0.0579247181796334,0.561571145829108,-0.772192092928682,0.561571145824427,-0.772192092975203,0.099463898002552,0.0576267052760897
60.5,0.100210060134985,0.057455419760468,0.555557631339505,-0.776327004225318,0.555557631330536,-0.776327004270391,0.10034313056746,0.0571524901099488
61,0.101080913571362,0.0569727594431068,0.549515287992592,-0.780415496585558,0.549515287979386,-0.780415496628865,0.101213909593126,0.0566648888613661
61.5,0.101943201139547,0.0564768675905779,0.543444462838177,-0.784457390624117,0.543444462820802,-0.784457390665345,0.102076057076471,0.0561640331606186
62,0.102796746624713,0.0559678762663285,0.537345503765428,-0.788452509700187,0.537345503743972,-0.788452509739032,0.102929395847411,0.0556500563696577
62.5,0.103641374610097,0.0554459193072726,0.531218759461193,-0.792400679909494,0.531218759435755,-0.792400679945659,0.103773749557407,0.0551230936549812
63,0.104476910469857,0.0549111323983968,0.525064579369154,-0.796301730075247,0.525064579339853,-0.796301730108446,0.104608942673378,0.0545832820620333
63.5,0.10530318036736,0.054363653148659,0.518883313649877,-0.800155491738033,0.518883313616846,-0.800155491767988,0.105434800477052,0.054030760590857
64,0.106120011258958,0.0538036211679359,0.51267531314175,-0.80396179914467,0.512675313105136,-0.803961799171116,0.106251149069827,0.0534656702727588
