"Freq [GHz]","re(St(P1,P1)) []","im(St(P1,P1)) []","re(St(P1,P2)) []","im(St(P1,P2)) []","re(St(P2,P1)) []","im(St(P2,P1)) []","re(St(P2,P2)) []","im(St(P2,P2)) []"
0,0.00507275259474227,0,0.994956518828985,0,0.994956519789412,0,0.00507277567936626,0
0.5,0.0055250926503021,0.000663637443963694,0.994284696347123,-0.00999583867523057,0.994284696085657,-0.00999583874559562,0.00552540065439899,0.000662755013365768
1,0.00583556225784854,0.000734048461598746,0.993437473135067,-0.0193352773780262,0.993437473109895,-0.0193352774456947,0.00583645420957346,0.000731836691009846
1.5,0.00588901712210888,0.000721177283367069,0.992511045863585,-0.0284605625993404,0.992511045842269,-0.0284605626197241,0.00589041945530244,0.000717343132073722
2,0.00576230286820723,0.00074716520648721,0.991496962737609,-0.0374472383447451,0.99149696273185,-0.0374472383516071,0.00576408218711011,0.000741601074791376
2.5,0.0055294677449016,0.000849454312168874,0.99036198254938,-0.0463190838922625,0.990361982552227,-0.0463190838977265,0.00553154596887495,0.000842137562571565
3,0.00523290139001298,0.00103461313236863,0.989102465264471,-0.0550691084697412,0.989102465270362,-0.0550691084749726,0.00523523717010699,0.00102554230664076
3.5,0.00490006618310179,0.00130223146619368,0.987730879506389,-0.0636900627580044,0.987730879513487,-0.0636900627608821,0.00490263611357311,0.00129141156741497
4,0.0045513262806034,0.00164922282779578,0.986265165443944,-0.0721803450505352,0.986265165453025,-0.0721803450489222,0.00455411638215486,0.00163666335458412
4.5,0.00420285506345097,0.00207067138749206,0.984723345575043,-0.080543751079686,0.98472334558812,-0.0805437510725397,0.00420585799010098,0.00205638654011064
5,0.00386770449481222,0.00256022058293315,0.983121083585311,-0.0887879082968404,0.983121083604566,-0.0887879082843996,0.00387091918245686,0.00254422910986385
5.5,0.00355625849576907,0.00311047189437108,0.981470795100255,-0.0969226643239098,0.981470795127341,-0.096922664307443,0.00355969055929811,0.00309279621677749
6,0.00327651403403517,0.00371340447715607,0.979781574992365,-0.104958773520344,0.979781575028019,-0.104958773501764,0.00328017611957343,0.0036940692930143
6.5,0.00303433781970688,0.00436076664812379,0.978059531843145,-0.112906946358788,0.978059531887026,-0.112906946340237,0.00303824959893256,0.0043397973178303
7,0.00283373509892457,0.0050444039617572,0.976308291871004,-0.120777228592814,0.976308291921697,-0.120777228576305,0.00283792284573157,0.00502182493256065
7.5,0.00267712762845057,0.00575650952045548,0.974529536141736,-0.128578644450947,0.974529536196858,-0.128578644438074,0.00268162344233527,0.00573234296424241
8,0.00256562733486664,0.00648979740222666,0.972723498563605,-0.136319033690801,0.972723498619955,-0.136319033682542,0.00257046812368726,0.00646406215975937
8.5,0.00249929271058444,0.00723760870161128,0.970889391957792,-0.144005020615253,0.970889392011529,-0.144005020611832,0.0025045190506911,0.00721031956182694
9,0.00247735908343173,0.0079939632626691,0.969025753169035,-0.151642065920505,0.969025753215848,-0.151642065921331,0.00248301405868935,0.00796513056141768
9.5,0.00249843831113335,0.00875357056040649,0.967130711088301,-0.159234565210427,0.967130711123569,-0.159234565214057,0.00250456640749822,0.00872320005718796
10,0.00256068700417353,0.00951181181910687,0.965202187498241,-0.166785969185589,0.965202187517169,-0.166785969189747,0.0025673331110122,0.00947990479865224
10.5,0.00270922443220531,0.010270590858056,0.96325155671641,-0.174286708961505,0.963251556769501,-0.174286708950127,0.00271681266259857,0.01023734311535
11,0.00288291447270664,0.0110150157218021,0.961275077275824,-0.181752408111667,0.961275077361272,-0.181752408092183,0.00289145721192027,0.0109803734840064
11.5,0.00307966988287656,0.0117452432267484,0.9592710715145,-0.189186354178871,0.959271071629591,-0.189186354157528,0.00308918097056854,0.0117091609865909
12,0.00329770450211209,0.0124614663188001,0.957237803169001,-0.196591256584739,0.957237803310409,-0.196591256566637,0.00330819969293036,0.0124239050513393
12.5,0.00353547892500594,0.0131638918435719,0.955173539582065,-0.203969323807028,0.955173539746102,-0.203969323796174,0.00354697612447974,0.0131248175606138
13,0.00379165641143128,0.0138527264528068,0.953076595427242,-0.211322334343077,0.95307659561006,-0.211322334342487,0.00380417576589706,0.0138121090292809
13.5,0.00406506712401011,0.0145281679972018,0.95094536216296,-0.218651700473989,0.950945362360707,-0.218651700485788,0.00407863101693551,0.0144859802155013
14,0.00435467910033743,0.0151904005988295,0.948778326662482,-0.225958524583054,0.948778326871423,-0.225958524608582,0.00436931208975727,0.0151466173674943
14.5,0.00465957465637107,0.015839592170424,0.946574081779983,-0.233243648245684,0.946574081996592,-0.233243648285614,0.00467530337632383,0.015794189882296
15,0.0049789311657929,0.0164758935403688,0.944331331025063,-0.240507694578018,0.944331331246083,-0.240507694632454,0.00499578420677022,0.016428849542554
15.5,0.00531200536679688,0.0170994386099355,0.94204888902981,-0.247751104469136,0.942048889252296,-0.247751104537726,0.00533001314494186,0.0170507307636432
16,0.00565812051624304,0.0177103451526941,0.939725679096462,-0.254974167372851,0.939725679317805,-0.254974167454862,0.00567731513752434,0.0176599514656595
16.5,0.00601665584688493,0.0183087159918884,0.937360728798023,-0.262177047331319,0.937360729015959,-0.262177047425738,0.00603707097013595,0.0182566143096756
17,0.00638703789200079,0.0188946403780517,0.934953164356251,-0.269359804866752,0.934953164568859,-0.269359804972343,0.00640870859318837,0.0188408081234395
17.5,0.00676873332831229,0.019468195448648,0.932502204328996,-0.276522415324068,0.932502204534691,-0.276522415439447,0.00679169596737544,0.0194126094005092
18,0.00716124305690297,0.0200294476923804,0.930007152991104,-0.283664784186596,0.930007153188615,-0.283664784310286,0.00718553514787051,0.0199720837972639
18.5,0.00756409729658869,0.0205784543688932,0.92746739368074,-0.290786759824747,0.927467393869097,-0.290786759955219,0.0075897573812726,0.0205192875798861
19,0.00797685150776495,0.0211152648537807,0.924882382298389,-0.297888144077882,0.924882382476898,-0.297888144213601,0.00800391903305164,0.0210542689923434
19.5,0.00839908299940678,0.0216399218918397,0.922251641082627,-0.304968701014448,0.922251641250843,-0.304968701153902,0.0084275981980762,0.0215770695291411
20,0.0088303880996754,0.0221524627503158,0.919574752740197,-0.312028164165587,0.919574752897899,-0.312028164307317,0.00886039187455423,0.0220877251052956
20.5,0.0092703797927321,0.022652920269709,0.916851354973971,-0.319066242483413,0.916851355121137,-0.319066242626032,0.00930191360397542,0.0225862671216224
21,0.00971868574216084,0.0231413238135181,0.914081135427967,-0.326082625236636,0.91408113556475,-0.326082625378846,0.00975179149746891,0.0230727234271422
21.5,0.0101749466357833,0.0236177001206908,0.911263827051449,-0.333076986022916,0.911263827178149,-0.33307698616352,0.0102096665833458,0.0235471191827152
22,0.0106388147981797,0.0240820740659791,0.90839920387228,-0.340048986048809,0.908399203989327,-0.34004898618672,0.0106751914221848,0.0240094776313566
22.5,0.0111099530266426,0.0245344693341549,0.905487077161966,-0.346998276803784,0.905487077269889,-0.346998276938028,0.01114802894521,0.0244598207814219
23,0.0115880336139074,0.0249749090144009,0.902527291969883,-0.353924502234137,0.902527292069297,-0.353924502363857,0.011627851479332,0.024898170009114
23.5,0.0120727375272333,0.0254034161212013,0.899519724001508,-0.360827300505133,0.899519724093094,-0.36082730062959,0.0121143399284552,0.0253245465868088
24,0.012563753718484,0.0258200140479337,0.896464276814222,-0.367706305424998,0.896464276898706,-0.367706305543571,0.0126071830857278,0.0257389721434673
24.5,0.0130607785440593,0.0262247269590736,0.893360879304135,-0.374561147591975,0.893360879382274,-0.374561147704152,0.0131060770556078,0.0261414690631667
25,0.013563515276948,0.026617580126622,0.890209483457991,-0.381391455315251,0.890209483530563,-0.381391455420631,0.0136107247680432,0.0265320608274007
25.5,0.0140716736960514,0.0269986002159746,0.887010062345322,-0.388196855351891,0.887010062413111,-0.388196855450174,0.0141208355699184,0.026910772306435
26,0.0145849697402526,0.0273678155260928,0.88376260832739,-0.394976973494587,0.883762608391174,-0.394976973585574,0.0146361248812726,0.0272776300046176
26.5,0.0151031252166988,0.0277252561884613,0.88046713146107,-0.401731435038974,0.880467131521612,-0.401731435122553,0.0151563139057608,0.0276326622641598
27,0.01562586755439,0.0280709543289597,0.877123658077456,-0.408459865154183,0.877123658135498,-0.408459865230327,0.0156811293864613,0.0279758994315494
27.5,0.0161529295955399,0.0284049441964285,0.873732229516681,-0.415161889176067,0.873732229572933,-0.415161889244825,0.0162103033995026,0.0283073739903841
28,0.0166840494183308,0.0287272622614024,0.870292901001997,-0.421837132839039,0.870292901057136,-0.42183713290053,0.0167435731791398,0.0286271206641281
28.5,0.0172189701856584,0.029037947288183,0.866805740637834,-0.428485222459513,0.866805740692495,-0.428485222513918,0.0172806809688686,0.0289351764919715
29,0.0177574400152697,0.0293370403831406,0.863270828517928,-0.435105785081536,0.863270828572705,-0.43510578512909,0.0178213738939945,0.0292315808806962
29.5,0.0182992118674006,0.0296245850218974,0.859688255931077,-0.441698448593193,0.859688255986516,-0.441698448634183,0.0183654038517528,0.0295163756351993
30,0.0188440434466067,0.029900627057809,0.856058124653304,-0.448262841820686,0.856058124709904,-0.448262841855435,0.0189125274156837,0.0297896049701106
30.5,0.0193916971149909,0.0301652147139395,0.852380546316428,-0.454798594605636,0.852380546374636,-0.454798594634506,0.0194625057514389,0.0300513155047029
31,0.0199419398144327,0.0304183985605504,0.848655641844079,-0.461305337870044,0.848655641904293,-0.461305337893424,0.0200151045416533,0.0303015562431088
31.5,0.0204945429958248,0.0306602314799284,0.844883540947201,-0.467782703672378,0.844883541009768,-0.46778270369068,0.0205700939178568,0.0305403785416942
32,0.0210492825536095,0.0308907686202414,0.841064381671957,-0.474230325257538,0.841064381737174,-0.474230325271193,0.0211272483977267,0.0307678360652573
32.5,0.0216059387641887,0.0311100673399253,0.837198309993753,-0.480647837102824,0.837198310061867,-0.480647837112273,0.0216863468262433,0.0309839847335823
33,0.0221642962270073,0.0313181871440217,0.833285479451807,-0.487034874961489,0.833285479523017,-0.487034874967182,0.0222471723195484,0.0311888826597557
33.5,0.0227241438073125,0.0315151896137102,0.829326050819347,-0.493391075905131,0.829326050893804,-0.493391075907521,0.0228095122104942,0.0313825900815013
34,0.0232852745797582,0.0317011383302112,0.825320191805081,-0.499716078365762,0.825320191882891,-0.499716078365303,0.0233731579950557,0.0315651692867098
34.5,0.0238474857721794,0.0318760987941041,0.821268076782113,-0.506009522178209,0.821268076863339,-0.506009522175346,0.0239379052789145,0.0317366845342116
35,0.0244105787089752,0.0320401383410206,0.817169886540919,-0.512271048623228,0.817169886625583,-0.512271048618402,0.0245035537236554,0.0318972019707554
35.5,0.0249743587536655,0.032193326054586,0.813025808063416,-0.518500300471612,0.813025808151503,-0.518500300465252,0.025069906992129,0.0320467895450766
36,0.0255386352502709,0.0323357326774066,0.808836034315521,-0.524696922029382,0.808836034406974,-0.524696922021903,0.0256367726926244,0.0321855169198471
36.5,0.0261032214632475,0.032467430520815,0.80460076405589,-0.530860559184114,0.804600764150621,-0.530860559175917,0.0262039623215775,0.0323134553822305
37,0.0266679345157847,0.0325884933740314,0.800320201658859,-0.536990859452337,0.800320201756748,-0.536990859443803,0.0267712912046211,0.0324306777537023
37.5,0.0272325953263333,0.032698996413325,0.795994556949812,-0.543087472027911,0.79599455705071,-0.543087472019402,0.0273385784358283,0.0325372582997238
38,0.0277970285432759,0.0327990161117192,0.791624045051444,-0.549150047831232,0.791624045155174,-0.549150047823089,0.0279056468150667,0.032633272639819
38.5,0.02836106247771,0.0328886301497034,0.787208886239586,-0.55517823955912,0.787208886345948,-0.55517823955166,0.0284723227834194,0.0327187976585231
39,0.0289245290343363,0.0329679173274016,0.782749305807423,-0.561171701735188,0.782749305916194,-0.561171701728707,0.0290384363566719,0.0327939114176545
39.5,0.029487263640497,0.0330369574785623,0.778245533937073,-0.567130090760531,0.778245534048012,-0.567130090755297,0.0296038210568879,0.0328586930702871
40,0.0300491051734181,0.0330958313867415,0.773697805577673,-0.573053064964509,0.773697805690521,-0.573053064960769,0.0301683138421395,0.0329132227767858
40.5,0.0306098958857415,0.0331446207039521,0.769106360329169,-0.578940284655488,0.769106360443653,-0.578940284653461,0.0307317550344649,0.0329575816232046
41,0.0311694813294569,0.0331834078720786,0.76447144233117,-0.584791412171311,0.764471442447004,-0.584791412171191,0.0312939882461623,0.0329918515423322
41.5,0.0317277102783461,0.0332122760472724,0.759793300156274,-0.590606111929367,0.759793300273164,-0.59060611193132,0.0318548603045279,0.0330161152376157
42,0.0322844346490859,0.0332313090275508,0.75507218670738,-0.596384050476075,0.75507218682502,-0.596384050480244,0.032414221175182,0.033030456110193
42.5,0.0328395094211401,0.033240591183767,0.750308359118535,-0.602124896535656,0.750308359236616,-0.602124896542159,0.0329719238841094,0.0330349581891951
43,0.0333927925556053,0.0332402073941075,0.74550207865897,-0.607828321058043,0.745502078777178,-0.607828321066968,0.0335278244385815,0.0330297060654967
43.5,0.0339441449131714,0.0332302429822492,0.740653610639986,-0.613493997265809,0.740653610758005,-0.613493997277225,0.0340817817471058,0.0330147848290342
44,0.0344934301713481,0.033210783659272,0.735763224324419,-0.619121600700028,0.735763224441933,-0.619121600713975,0.0346336575385697,0.0329902800098122
44.5,0.0350405147411485,0.0331819154694237,0.730831192838462,-0.624710809264937,0.730831192955154,-0.624710809281433,0.0351833162807489,0.0329562775226829
45,0.0355852676833748,0.0331437247397988,0.725857793085616,-0.630261303271342,0.725857793201174,-0.630261303290382,0.0357306250983454,0.0329128636159755
45.5,0.0361275606247013,0.0330962980339776,0.72084330566263,-0.635772765478695,0.720843305776746,-0.63577276550025,0.0362754536907243,0.0328601248240235
46,0.0366672676737121,0.0330397221096658,0.715788014777254,-0.641244881135765,0.715788014889625,-0.641244881159788,0.0368176742495265,0.0327981479236376
46.5,0.0372042653370676,0.0329740838803412,0.710692208167698,-0.646677338019874,0.710692208278028,-0.646677338046293,0.0373571613763207,0.0327270198945369
47,0.0377384324359745,0.0328994703809289,0.705556177023685,-0.652069826474637,0.705556177131686,-0.652069826503363,0.0378937920004669,0.0326468278837534
47.5,0.0382696500231167,0.0328159687374769,0.70038021590901,-0.657422039446193,0.700380216014403,-0.657422039477117,0.03842744529736,0.0325576591740057
48,0.038797801300229,0.0327236661408284,0.695164622685523,-0.662733672517893,0.695164622788041,-0.66273367255089,0.0389580026072141,0.0324596011560265
48.5,0.0393227715364539,0.0326226498242483,0.689909698438486,-0.668004423943431,0.68990969853787,-0.668004423978356,0.0394853473545532,0.0323527413048145
49,0.0398444479876585,0.0325130070449701,0.684615747403229,-0.673233994678411,0.684615747499233,-0.673233994715105,0.0400093649685659,0.0322371671597821
49.5,0.0403627198168611,0.0323948250696139,0.679283076893083,-0.678422088410345,0.679283076985475,-0.678422088448636,0.0405299428044792,0.0321129663087419
50,0.0408774780159121,0.0322681911634078,0.673911997228538,-0.683568411587094,0.673911997317099,-0.683568411626795,0.0410469700661021,0.0319802263756895
50.5,0.0413886153285875,0.0321331925831581,0.668502821667594,-0.688672673443745,0.668502821752116,-0.688672673484654,0.0415603377296906,0.0318390350123144
51,0.041896026175229,0.0319899165738866,0.663055866337286,-0.693734586027943,0.663055866417581,-0.693734586069851,0.0420699384692722,0.0316894798931677
51.5,0.0423996065790787,0.0318384503690603,0.657571450166364,-0.69875386422371,0.657571450242254,-0.698753864266395,0.0425756665835749,0.0315316487144197
52,0.0428992540944322,0.0316788811943228,0.652049894819087,-0.703730225773739,0.652049894890412,-0.70373022581697,0.0430774179246946,0.0313656291961146
52.5,0.0433948677367487,0.0315112962746387,0.646491524630153,-0.70866339130022,0.646491524696768,-0.708663391343757,0.0435750898286252,0.0311915090878392
53,0.0438863479148399,0.031335782844751,0.640896666540717,-0.713553084324195,0.640896666602492,-0.713553084367794,0.0440685810477913,0.0310093761777143
53.5,0.0443735963652633,0.031152428162853,0.635265650035507,-0.718399031283494,0.635265650092329,-0.718399031326904,0.0445577916856955,0.0308193183046078
54,0.0448565160890247,0.0309613195273639,0.629598807081026,-0.72320096154927,0.629598807132799,-0.723200961592232,0.045042623133797,0.0306214233734617
54.5,0.0453350112907209,0.0307625442966988,0.623896472064826,-0.727958607441153,0.623896472111469,-0.727958607483408,0.0455229780107454,0.0304157793736379
55,0.0458089873202123,0.0305561899119198,0.618158981735853,-0.732671704241091,0.618158981777302,-0.732671704282374,0.0459987601040683,0.0302024744001572
55.5,0.0462783506169371,0.0303423439221424,0.612386675145859,-0.737339990205869,0.612386675182066,-0.737339990245916,0.0464698743144213,0.0299815966777245
56,0.0467430086569682,0.0301210940125865,0.606579893591868,-0.74196320657838,0.606579893622802,-0.741963206616923,0.0469362266025015,0.0297532345874209
56.5,0.0472028699028984,0.0298925280351306,0.600738980559704,-0.746541097597652,0.600738980585348,-0.746541097634426,0.0473977239387188,0.0295174766959337
57,0.0476578437566517,0.0296567340412542,0.594864281668561,-0.751073410507694,0.594864281688916,-0.751073410542432,0.0478542742557161,0.0292744117872067
57.5,0.0481078405153004,0.0294138003172282,0.588956144616626,-0.755559895565176,0.588956144631708,-0.755559895597617,0.0483057864038264,0.029024128896374
58,0.0485527713299713,0.029163815421416,0.583014919127741,-0.760000306046,0.583014919137581,-0.760000306075882,0.0487521701095483,0.0287667173458524
58.5,0.0489925481679167,0.0289068682235545,0.577040956899105,-0.764394398250775,0.577040956903751,-0.764394398277842,0.0491933359371169,0.0285022667834474
59,0.0494270837778182,0.028643047945868,0.571034611550013,-0.768741931509262,0.571034611549525,-0.768741931533261,0.0496291952532493,0.0282308672223491
59.5,0.0498562916583994,0.0283724442058723,0.564996238571618,-0.773042668183801,0.564996238566075,-0.773042668204486,0.0500596601951233,0.0279526090828612
60,0.0502800860303918,0.0280951470607209,0.558926195277733,-0.777296373671772,0.558926195267222,-0.777296373688901,0.0504846436416616,0.0276675832357317
60.5,0.0506983818119333,0.027811247052952,0.552824840756636,-0.781502816407117,0.552824840741263,-0.781502816420457,0.0509040591881832,0.0273758810469338
61,0.0511110945974354,0.0275208352574731,0.546692535823917,-0.785661767860973,0.546692535803798,-0.785661767870296,0.0513178211244657,0.0270775944237509
61.5,0.0515181406399705,0.0272240033296381,0.540529642976312,-0.789773002541427,0.540529642951578,-0.789773002546517,0.0517258444162834,0.0267728158620123
62,0.0519194368372264,0.0269208435542557,0.534336526346568,-0.793836297992469,0.53433652631736,-0.793836297993114,0.0521280446904492,0.0264616384943264
62.5,0.0523149007210602,0.0266114488953765,0.528113551659295,-0.797851434792126,0.528113551625767,-0.797851434788129,0.0525243382234226,0.0261441561391614
63,0.052704450450683,0.0262959130466877,0.521861086187823,-0.801818196549865,0.52186108615014,-0.801818196541035,0.0529146419334955,0.0258204633506059
63.5,0.0530880048095096,0.0259743304823659,0.515579498712052,-0.805736369903252,0.515579498670391,-0.805736369889412,0.0532988733766018,0.0254906554686569
64,0.0534654832056815,0.0256467965082092,0.509269159477281,-0.809605744513941,0.509269159431826,-0.809605744494922,0.0536769507457698,0.0251548286698709
