"Freq [GHz]","re(St(P1,P1)) []","im(St(P1,P1)) []","re(St(P1,P2)) []","im(St(P1,P2)) []","re(St(P2,P1)) []","im(St(P2,P1)) []","re(St(P2,P2)) []","im(St(P2,P2)) []"
0,0.0031475082539032,0,0.996866367509938,0,0.99686636410479,0,0.00314750422128895,0
0.5,0.00356935449376294,-0.000281312309414972,0.996401176783067,-0.00455152372987655,0.996401176465298,-0.00455152324451902,0.00356920691999818,-0.000280632035639883
1,0.00397794448756628,-0.00110822204949201,0.995896478414174,-0.00855323617552273,0.995896478406401,-0.00855323600214319,0.00397760163799887,-0.0011066681313352
1.5,0.00418764313109321,-0.00210808029309817,0.995532783255509,-0.0126235464055142,0.995532783318751,-0.0126235462297757,0.00418699508712805,-0.00210570923630016
2,0.00427568673197953,-0.00309514799284827,0.995152260331974,-0.0165520244153541,0.995152260436345,-0.0165520242721193,0.00427481356496529,-0.00309179441240914
2.5,0.00430805792086097,-0.00405666579689878,0.994790725459984,-0.0203752471940888,0.994790725575818,-0.0203752470935967,0.00430702868859534,-0.00405228627210263
3,0.00431132547774205,-0.00499809516539074,0.994456325132296,-0.0241289436311334,0.994456325240272,-0.0241289435701653,0.00431017800681843,-0.00499267918678115
3.5,0.00429689402965217,-0.00592490371061416,0.994143486042111,-0.0278392364345272,0.994143486132901,-0.027839236405331,0.00429564730767229,-0.00591844748483794
4,0.00427016146166626,-0.00684084381133587,0.993842338263979,-0.0315229959982268,0.993842338334886,-0.0315229959927414,0.00426882428491115,-0.00683334320837048
4.5,0.00423392287347202,-0.00774833864934976,0.993543145032046,-0.0351905307283857,0.993543145083976,-0.0351905307397153,0.00423249851463314,-0.0077397874234908
5,0.0041897431493485,-0.00864894170280905,0.993237827201476,-0.0388479935591572,0.993237827236958,-0.0388479935817756,0.00418823184989758,-0.00863933118946392
5.5,0.00413856093717468,-0.0095436506079416,0.992920187278497,-0.042499012292156,0.992920187300546,-0.0424990123217235,0.00413696128758945,-0.00953296982225638
6,0.00408097593180923,-0.0104331038052461,0.992585666103322,-0.0461456899593475,0.992585666114893,-0.046145689992473,0.00407928567338001,-0.010421339628909
6.5,0.00401739493586684,-0.0113177028202269,0.992230992341964,-0.0497891984671082,0.992230992345682,-0.0497891985011272,0.00401561145018148,-0.0113048401866624
7,0.00394811044463461,-0.0121976894507423,0.991853857924347,-0.0534301304827416,0.991853857922449,-0.0534301305155704,0.00394623106740566,-0.0121837115071326
7.5,0.00387334501367587,-0.0130731955735026,0.991452656466186,-0.0570687113913628,0.991452656460512,-0.0570687114213424,0.00387136724552573,-0.0130580838183754
8,0.00379327735978929,-0.0139442760495214,0.991026285361395,-0.0607049300989768,0.991026285353441,-0.0607049301248122,0.00379119901425939,-0.013928010450087
8.5,0.00370805826604359,-0.0148109309724944,0.990574000910284,-0.0643386219085063,0.990574000901239,-0.0643386219291671,0.00370587757777163,-0.0147934900664009
9,0.00361782056953475,-0.0156731210451362,0.990095314192207,-0.0679695223277985,0.990095314183026,-0.0679695223424783,0.00361553627623223,-0.0156544820307278
9.5,0.0035226855952899,-0.0165307784259312,0.989589916984635,-0.071597302718283,0.989589916976073,-0.0715973027263548,0.00352029700176115,-0.0165109172441138
10,0.00342276738978309,-0.0173838145276157,0.989057629347295,-0.0752215942705181,0.98905762933995,-0.0752215942714951,0.00342027441917447,-0.0173627059377246
10.5,0.00333576337457142,-0.0182579091783417,0.988563055242506,-0.0788221164483014,0.988563055234999,-0.0788221164486158,0.00333316680919027,-0.0182355750021923
11,0.00324409307984408,-0.0191326309898665,0.988058277338594,-0.0824098656386321,0.988058277330997,-0.0824098656382928,0.00324140272426932,-0.0191090531935281
11.5,0.00314770032165446,-0.0200079885894429,0.987543819083742,-0.0859855995963548,0.987543819076122,-0.0859855995953742,0.00314492739657457,-0.0199831496573246
12,0.00304652729797117,-0.0208839877671014,0.987020100738097,-0.0895500604479338,0.987020100730515,-0.0895500604463324,0.00304368437075664,-0.0208578708186575
12.5,0.00294051473127055,-0.0217606313846606,0.986487450002969,-0.0931039657852617,0.986487449995481,-0.0931039657830581,0.00293761563637029,-0.0217332202825062
13,0.00282960201745974,-0.0226379192921389,0.98594611255519,-0.0966480019198528,0.985946112547846,-0.0966480019170808,0.00282666176764501,-0.0226091987407218
13.5,0.00271372738075348,-0.0235158482520941,0.985396262218556,-0.100182819019058,0.9853962622114,-0.10018281901575,0.00271076207029697,-0.0234858038860288
14,0.00259282803404681,-0.024394411872473,0.984838010581884,-0.103709027846949,0.984838010574955,-0.103709027843136,0.00258985473504209,-0.0243630303339248
14.5,0.00246684034427841,-0.0252736005485295,0.984271415938222,-0.107227197845329,0.984271415931553,-0.107227197841045,0.0024638769973232,-0.0252408695530901
15,0.00233570000220018,-0.026153401414315,0.983696491472654,-0.110737856310786,0.983696491466274,-0.110737856306073,0.00233276530272364,-0.0261193098049697
15.5,0.00219934219591389,-0.0270337983041795,0.983113212667706,-0.114241488448706,0.983113212661636,-0.114241488443599,0.00219645547746539,-0.0269983360931025
16,0.00205770178747255,-0.027914771724765,0.982521523926849,-0.117738538111935,0.982521523921109,-0.117738538106472,0.00205488290327516,-0.0278779301228687
16.5,0.00191071349181493,-0.0287962988377384,0.981921344439629,-0.121229409058572,0.981921344434233,-0.121229409052788,0.00190798269589446,-0.0287580702719836
17,0.00175831205721405,-0.0296783534536589,0.981312573327789,-0.124714466589207,0.981312573322749,-0.124714466583141,0.00175568988638683,-0.029638731572339
17.5,0.0016004324464394,-0.0305609060371177,0.980695094122002,-0.128194039447367,0.980695094117322,-0.128194039441052,0.00159793960438673,-0.0305198857034172
18,0.00143701001774801,-0.0314439237233168,0.98006877862454,-0.131668421888395,0.980068778620227,-0.131668421881867,0.00143466726236896,-0.0314015009976059
18.5,0.00126798070484491,-0.0323273703461409,0.979433490215629,-0.135137875840567,0.979433490211684,-0.135137875833855,0.00126580873998444,-0.0322835424575727
19,0.00109328119489469,-0.0332112064777004,0.978789086661062,-0.138602633098413,0.978789086657482,-0.13860263309155,0.00109130056748269,-0.0331659717858175
19.5,0.000912849103713559,-0.0340953894792229,0.978135422476837,-0.142062897501871,0.97813542247362,-0.142062897494887,0.000911080107230011,-0.0340487474263327
20,0.000726623147229211,-0.0349798735631204,0.977472350903528,-0.145518847066331,0.977472350900669,-0.145518847059251,0.000725085732324687,-0.0349318246183161
20.5,0.000534543308352231,-0.0358646098658904,0.976799725539322,-0.148970636038013,0.976799725536814,-0.148970636030861,0.000533257001325671,-0.0358151554616875
21,0.000336550998403642,-0.0367495465315839,0.976117401676543,-0.152418396856883,0.976117401674378,-0.152418396849687,0.000335534828119627,-0.0366986889941279
21.5,0.000132589212267456,-0.0376346288053062,0.975425237382166,-0.155862242015365,0.975425237380334,-0.155862242008146,0.000131861645986581,-0.03758237127923
22,-7.73973234578229E-005,-0.0385197991362607,0.974723094358642,-0.159302265805946,0.974723094357134,-0.159302265798726,-7.7818435019486E-005,-0.0384661455052413
22.5,-0.000293462010084039,-0.0394049972897692,0.974010838617237,-0.162738545954703,0.974010838616041,-0.1627385459475,-0.000293559478243444,-0.0393499520938683
23,-0.000515656244851365,-0.0402901604675638,0.973288340992312,-0.166171145140476,0.973288340991417,-0.166171145133307,-0.000515413578917573,-0.0402337288184187
23.5,-0.000744029297963078,-0.0411752234356872,0.972555477521403,-0.169600112401749,0.972555477520796,-0.169600112394629,-0.000743430731705852,-0.0411174109306116
24,-0.000978628199139131,-0.0420601186591854,0.97181212971279,-0.173025484434721,0.971812129712459,-0.173025484427668,-0.00097765870791694,-0.042000931295199
24.5,-0.00121949763416174,-0.042944776442841,0.971058184719285,-0.176447286787298,0.971058184719216,-0.176447286780324,-0.0012181429429734,-0.0428842205315982
25,-0.00146667985176524,-0.0438291250770515,0.970293535434444,-0.179865534954309,0.970293535434624,-0.179865534947428,-0.0014649264345783,-0.0437672071615864
25.5,-0.00172021458116181,-0.044713090988024,0.969518080525053,-0.183280235379815,0.96951808052547,-0.183280235373035,-0.00171804965198,-0.0446498177621657
26,-0.00198013896042182,-0.0455965988914038,0.968731724411771,-0.18669138637251,0.968731724412411,-0.186691386365843,-0.00197755045660858,-0.0455319771226459
26.5,-0.00224648747581147,-0.0464795719484292,0.967934377207988,-0.190098978940276,0.967934377208838,-0.19009897893373,-0.00224346403427766,-0.04641360840492
27,-0.00251929191213873,-0.0473619319237355,0.967125954625481,-0.193502997549859,0.967125954626527,-0.193502997543443,-0.00251582283904084,-0.0472946333060129
27.5,-0.00279858131407162,-0.0482435993439534,0.966306377854047,-0.196903420817478,0.966306377855275,-0.196903420811197,-0.00279465654872119,-0.0481749722219416
28,-0.00308438195829588,-0.0491244936562119,0.965475573421192,-0.200300222135894,0.965475573422591,-0.200300222129755,-0.00307999203201198,-0.0490545444118879
28.5,-0.00337671733632605,-0.0500045333857448,0.96463347303694,-0.203693370243215,0.964633473038496,-0.203693370237223,-0.00337185332697892,-0.049933268161809
29,-0.00367560814771184,-0.0508836362917866,0.96378001342797,-0.207082829738396,0.963780013429671,-0.207082829732555,-0.00367026163071488,-0.0508110609465677
29.5,-0.00398107230329497,-0.0517617195210121,0.96291513616458,-0.210468561548049,0.962915136166414,-0.210468561542362,-0.00397523529980592,-0.0516878395897677
30,-0.00429312493814166,-0.0526386997578041,0.962038787483351,-0.213850523348894,0.962038787485304,-0.213850523343365,-0.00428678986121805,-0.0525635204204482
30.5,-0.00461177843371002,-0.0535144933706913,0.961150918107837,-0.217228669949822,0.961150918109899,-0.217228669944453,-0.00460493803313544,-0.0534380194259603
31,-0.00493704244874543,-0.0543890165543481,0.960251483069216,-0.220602953637242,0.960251483071376,-0.220602953632035,-0.00492968975522973,-0.0543112524002711
31.5,-0.00526892395839451,-0.0552621854666033,0.959340441528402,-0.223973324487109,0.959340441530648,-0.223973324482064,-0.00526105222779849,-0.0551831350871477
32,-0.00560742730097158,-0.0561339163599932,0.958417756600823,-0.227339730646718,0.958417756603144,-0.227339730641837,-0.00559902995917033,-0.0560535833176221
32.5,-0.00595255423177304,-0.0570041257073828,0.957483395184844,-0.230702118589089,0.95748339518723,-0.230702118584371,-0.00594362482072475,-0.0569225131412678
33,-0.00630430398334619,-0.0578727303213307,0.956537327794527,-0.234060433342529,0.956537327796967,-0.234060433337973,-0.00629483610887721,-0.0577898409508673
33.5,-0.0066626733315861,-0.0587396474668909,0.955579528397274,-0.237414618697736,0.955579528399759,-0.237414618693343,-0.00665266061335362,-0.0586554836001567
34,-0.00702765666702632,-0.0596047949675773,0.954609974256765,-0.240764617394572,0.954609974259285,-0.240764617390339,-0.00701709269105272,-0.0595193585143288
34.5,-0.00739924607069009,-0.0604680913043301,0.953628645781419,-0.244110371290433,0.953628645783966,-0.244110371286359,-0.00738812434482122,-0.0603813837931138
35,-0.00777743139388898,-0.0613294557073667,0.952635526378566,-0.247451821512018,0.95263552638113,-0.247451821508102,-0.00776574530645074,-0.0612414783062967
35.5,-0.00816220034133502,-0.06218880824082,0.95163060231439,-0.250788908592058,0.951630602316963,-0.250788908588298,-0.00814994312322587,-0.0620995617815683
36,-0.00855353855697311,-0.0630460698801558,0.950613862579659,-0.25412157259246,0.950613862582233,-0.254121572588855,-0.00854070324736089,-0.0629555548847081
36.5,-0.00895142971194951,-0.0639011625824124,0.949585298761194,-0.257449753215194,0.949585298763761,-0.257449753211737,-0.00893800912769066,-0.0638093792921248
37,-0.00935585559415331,-0.0647540093493184,0.948544904918988,-0.260773389902071,0.948544904921542,-0.260773389898763,-0.00934184230300872,-0.0646609577558404
37.5,-0.00976679619878973,-0.0656045342834117,0.947492677468859,-0.264092421924528,0.947492677471391,-0.264092421921365,-0.00975218249645871,-0.0655102141610291
38,-0.0101842298194922,-0.0664526626373281,0.946428615070472,-0.267406788464345,0.946428615072974,-0.267406788461325,-0.0101690077104427,-0.066357073576329
38.5,-0.0106081331394765,-0.0672983208564175,0.945352718520591,-0.270716428686192,0.945352718523058,-0.270716428683309,-0.0105922943215108,-0.0672014622970671
39,-0.0110384813223064,-0.068141436614948,0.944264990651358,-0.274021281802789,0.944264990653785,-0.27402128180004,-0.0110220171747747,-0.068043307881724
39.5,-0.0114752481018493,-0.0689819388460959,0.943165436233428,-0.277321287133389,0.943165436235807,-0.277321287130772,-0.0114581496773778,-0.0688825391818115
40,-0.0119184058710579,-0.0698197577660253,0.942054061883738,-0.280616384156235,0.942054061886065,-0.280616384153745,-0.0119006638906378,-0.0697190863655499
40.5,-0.0123679257692102,-0.0706548248923133,0.940930875977755,-0.283906512555559,0.940930875980024,-0.283906512553192,-0.0123495306204807,-0.0705528809355926
41,-0.0128237777673216,-0.0714870730570443,0.939795888565968,-0.287191612263658,0.939795888568174,-0.28719161226141,-0.0128047195058466,-0.0713838557411455
41.5,-0.0132859307514498,-0.072316436414849,0.938649111294448,-0.290471623498519,0.938649111296586,-0.290471623496388,-0.0132661991047758,-0.0722119449848453
42,-0.0137543526036349,-0.0731428504462408,0.937490557329275,-0.293746486797416,0.937490557331341,-0.293746486795396,-0.0137339369779187,-0.0730370842246817
42.5,-0.0142290102802861,-0.0739662519565396,0.936320241284662,-0.297016143046863,0.936320241286652,-0.297016143044949,-0.0142078997692598,-0.0738592103713893
43,-0.0147098698878274,-0.0747865790707256,0.935138179154558,-0.30028053350928,0.935138179156467,-0.300280533507468,-0.0146880532838662,-0.0746782616815942
43.5,-0.0151968967554497,-0.0756037712245228,0.933944388247601,-0.303539599846673,0.933944388249426,-0.303539599844958,-0.015174362562516,-0.0754941777470997
44,-0.0156900555048671,-0.076417769152062,0.932738887125204,-0.30679328414163,0.93273888712694,-0.30679328414001,-0.0156667919530886,-0.0763068994806519
44.5,-0.0161893101169642,-0.0772285148703993,0.931521695542644,-0.310041528915867,0.931521695544291,-0.310041528914335,-0.0161653051786247,-0.0771163690985013
45,-0.0166946239952803,-0.0780359516612208,0.930292834392989,-0.313284277146573,0.930292834394542,-0.313284277145127,-0.0166698654020008,-0.077922530100123
45.5,-0.0172059600262877,-0.0788400240500184,0.929052325653694,-0.316521472280749,0.929052325655151,-0.316521472279383,-0.0171804352871714,-0.0787253272453747
46,-0.0177232806364365,-0.0796406777830316,0.927800192335753,-0.31975305824775,0.927800192337112,-0.319753058246461,-0.017696977056981,-0.0795247065294327
46.5,-0.0182465478459617,-0.0804378598022173,0.926536458435256,-0.322978979470171,0.926536458436514,-0.322978979468954,-0.0182194525475389,-0.0803206151557705
47,-0.018775723319482,-0.081231518218525,0.925261148887215,-0.326199180873262,0.92526114888837,-0.326199180872112,-0.0187478232591948,-0.0811130015074848
47.5,-0.0193107684134043,-0.0820216022837199,0.923974289521552,-0.329413607892979,0.923974289522602,-0.329413607891893,-0.0192820504041521,-0.0819018151172071
48,-0.0198516442201964,-0.0828080623609897,0.922675907021123,-0.332622206482837,0.922675907022068,-0.332622206481809,-0.0198220949507856,-0.0826870066358725
48.5,-0.0203983116095786,-0.0835908498945666,0.921366028881672,-0.335824923119636,0.921366028882508,-0.335824923118662,-0.0203679176647273,-0.0834685278005687
49,-0.0209507312667055,-0.0843699173785648,0.920044683373601,-0.339021704808187,0.920044683374329,-0.339021704807263,-0.0209194791468111,-0.0842463314016779
49.5,-0.0215088637274224,-0.0851452183252301,0.918711899505481,-0.342212499085138,0.918711899506099,-0.34221249908426,-0.0214767398679655,-0.0850203712495248
50,-0.0220726694106838,-0.0859167072327909,0.917367706989185,-0.34539725402195,0.917367706989693,-0.345397254021114,-0.0220396602011567,-0.0857906021407129
50.5,-0.0226421086482271,-0.0866843395530776,0.916012136206565,-0.348575918227153,0.916012136206962,-0.348575918226354,-0.0226082004504989,-0.0865569798243326
51,-0.0232171417115988,-0.087448071659042,0.914645218177604,-0.351748440847883,0.914645218177889,-0.351748440847118,-0.0231823208776218,-0.0873194609681622
51.5,-0.0237977288366568,-0.0882078608123587,0.913266984529938,-0.354914771570832,0.913266984530111,-0.354914771570097,-0.023761981725445,-0.0880780031250581
52,-0.0243838302456321,-0.0889636651312022,0.9118774674697,-0.358074860622609,0.911877467469763,-0.358074860621899,-0.0243471432394514,-0.0888325646996195
52.5,-0.0249754061668767,-0.0897154435583301,0.910476699753606,-0.361228658769605,0.910476699753556,-0.361228658768917,-0.0249377656865941,-0.0895831049152656
53,-0.0255724168524114,-0.0904631558295759,0.909064714662205,-0.364376117317383,0.909064714662045,-0.364376117316712,-0.0255338093719618,-0.0903295837818197
53.5,-0.0261748225933737,-0.0912067624428416,0.907641545974268,-0.367517188109639,0.907641545973997,-0.367517188108984,-0.0261352346533159,-0.0910719620636966
54,-0.0267825837334946,-0.0919462246276801,0.90620722794221,-0.370651823526793,0.906207227941829,-0.370651823526148,-0.0267420019536276,-0.0918102012487723
54.5,-0.0273956606807048,-0.0926815043155316,0.904761795268531,-0.373779976484208,0.904761795268041,-0.373779976483571,-0.0273540717717388,-0.0925442635180078
55,-0.0280140139169787,-0.0934125641106738,0.903305283083208,-0.376901600430103,0.90330528308261,-0.376901600429469,-0.0279714046912462,-0.093274111715872
55.5,-0.0286376040065394,-0.0941393672619515,0.901837726921988,-0.380016649343154,0.901837726921282,-0.38001664934252,-0.0285939613877498,-0.0939997093216345
56,-0.029266391602519,-0.0948618776353278,0.900359162705533,-0.383125077729856,0.900359162704722,-0.383125077729219,-0.0292217026345636,-0.0947210204215634
56.5,-0.0299003374521749,-0.095580059687284,0.898869626719401,-0.386226840621615,0.898869626718485,-0.386226840620972,-0.0298545893069923,-0.0954380096820464
57,-0.0305394024007788,-0.0962938784391161,0.89736915559478,-0.389321893571629,0.897369155593762,-0.389321893570976,-0.030492582385296,-0.0961506423236891
57.5,-0.0311835473942524,-0.0970032994521333,0.895857786289981,-0.392410192651559,0.895857786288861,-0.392410192650895,-0.0311356429564297,-0.0968588840963764
58,-0.0318327334806706,-0.0977082888037939,0.894335556072617,-0.395491694448028,0.894335556071396,-0.395491694447349,-0.0317837322146624,-0.0975627012553486
58.5,-0.0324869218106973,-0.09840881306478,0.892802502502461,-0.398566356058928,0.892802502501143,-0.398566356058231,-0.0324368114611704,-0.0982620605382618
59,-0.0331460736370578,-0.0991048392770222,0.891258663414945,-0.401634135089587,0.89125866341353,-0.40163413508887,-0.033094842102689,-0.0989569291432697
59.5,-0.0338101503131231,-0.0997963349326807,0.889704076905254,-0.40469498964879,0.889704076903745,-0.40469498964805,-0.0337577856493115,-0.0996472747080961
60,-0.0344791132906829,-0.100483267954064,0.888138781313018,-0.407748878344659,0.888138781311418,-0.407748878343894,-0.0344256037115147,-0.100333065290109
60.5,-0.0351529241169916,-0.101165606674516,0.886562815207543,-0.410795760280433,0.886562815205854,-0.410795760279641,-0.0350982579964875,-0.101014269347392
61,-0.0358315444311456,-0.101843319820216,0.884976217373588,-0.41383559505011,0.884976217371812,-0.413835595049287,-0.0357757103038356,-0.101690855720774
61.5,-0.0365149359598755,-0.102516376492928,0.883379026797628,-0.416868342734017,0.883379026795768,-0.416868342733163,-0.0364579225207324,-0.102362793616839
62,-0.0372030605127983,-0.10318474615365,0.881771282654622,-0.419893963894266,0.881771282652679,-0.419893963893379,-0.0371448566165749,-0.103030052591869
