"Freq [GHz]","re(St(P1,P1)) []","im(St(P1,P1)) []","re(St(P1,P2)) []","im(St(P1,P2)) []","re(St(P2,P1)) []","im(St(P2,P1)) []","re(St(P2,P2)) []","im(St(P2,P2)) []"
0,0.00417927206780178,0,0.995835292691481,0,0.995835289897514,0,0.00417926566547067,0
0.5,0.00466033508507024,-0.000324791730548668,0.995305365634756,-0.00575360390118362,0.995305367090239,-0.00575360411552239,0.00465984122028118,-0.00032282475498846
1,0.00510797517428685,-0.0012577364055808,0.994744411141994,-0.0108951094006216,0.994744410996169,-0.0108951096048742,0.0051066644192268,-0.00125316274272791
1.5,0.00537224767160538,-0.00234701194123943,0.994269455608848,-0.0160553652293203,0.99426945538054,-0.0160553653882936,0.00537008242166692,-0.00233954317777574
2,0.0054992167634822,-0.0034547062101602,0.993801746730773,-0.0210616861506487,0.993801746490126,-0.021061686242291,0.00549634188456416,-0.00344411940684353
2.5,0.00555486342410383,-0.00454568987638737,0.993369824487855,-0.0259773607435108,0.993369824280293,-0.0259773607839335,0.00555136779867027,-0.00453193605604696
3,0.00557138907598809,-0.00561848572845136,0.992968756801922,-0.0308454993803604,0.992968756646472,-0.0308454993925444,0.00556729446680926,-0.00560156517391519
3.5,0.00556396167005691,-0.00667687726966726,0.992584149936429,-0.0356893211342335,0.99258414983654,-0.0356893211359228,0.00555924913239281,-0.00665679873172742
4,0.00554012637314383,-0.00772447973299606,0.992201895045003,-0.0405196273106352,0.992201894996858,-0.0405196273126887,0.00553475422127647,-0.00770124931021776
4.5,0.00550389214270153,-0.00876400711477565,0.991810676907292,-0.0453406308133424,0.991810676904194,-0.0453406308211459,0.00549780585903692,-0.00873762581066018
5,0.00545752245360775,-0.00979739684703951,0.991401973574144,-0.0501533279629189,0.991401973608516,-0.0501533279782684,0.00545066006714023,-0.00976786051677436
5.5,0.00540236434139851,-0.010826025585768,0.990969459196762,-0.0549572529950186,0.990969459260921,-0.0549572530175002,0.00539465942886608,-0.0107933254454871
6,0.00533925624871534,-0.0118508809869713,0.990508410238035,-0.0597513491751478,0.990508410324453,-0.0597513492031592,0.00533063967574998,-0.011815004167806
6.5,0.00526874036731995,-0.0128726815711318,0.990015249139044,-0.0645343880016469,0.990015249240437,-0.0645343880330351,0.00525914134071193,-0.0128336115887784
7,0.00519117892155663,-0.0138919577034233,0.989487221960148,-0.0693051626422054,0.989487222069465,-0.0693051626747039,0.00518052565116478,-0.0138496748274957
7.5,0.0051068207400462,-0.014909106211932,0.988922177381763,-0.0740625696210326,0.988922177492192,-0.0740625696525248,0.00509504087162749,-0.0148635877494545
8,0.0050158408819001,-0.0159244275876071,0.988318416064372,-0.078805635697492,0.988318416169333,-0.0788056357261482,0.00500286179098564,-0.0158756480993416
8.5,0.00491836504614385,-0.0169381516823499,0.987674587176296,-0.0835335184427004,0.987674587269458,-0.0835335184670774,0.00490411404509339,-0.0168860831485409
9,0.00481448506981119,-0.017950455740662,0.986989616128733,-0.0882454948705833,0.986989616204027,-0.0882454948896685,0.00479888955910379,-0.0178950676889835
9.5,0.00470426903610432,-0.0189614772520041,0.986262652916033,-0.0929409453800849,0.986262652967684,-0.0929409453933046,0.0046872566189412,-0.0189027368573473
10,0.00458776802725258,-0.019971323251462,0.985493034128314,-0.0976193366582967,0.985493034150851,-0.0976193366654829,0.00456926659946677,-0.0199091954146589
10.5,0.00444549320340881,-0.020966059928285,0.984766769098092,-0.102334820815202,0.984766769120396,-0.102334820822781,0.00443097963853545,-0.0209033739304685
11,0.00429629730319508,-0.0219602532475109,0.984017600974813,-0.107033719032611,0.984017600996864,-0.107033719040571,0.00428583860248566,-0.0218973681166386
11.5,0.00414018231795177,-0.0229538814795216,0.98324634820295,-0.111716432067592,0.983246348224728,-0.111716432075924,0.00413382680393315,-0.022891169769875
12,0.00397715014207112,-0.0239469234988849,0.982453747259184,-0.116383394063284,0.98245374728067,-0.116383394071974,0.00397492649689124,-0.0238847707054592
12.5,0.00380720254183592,-0.0249393588170284,0.981640455015479,-0.121035062564563,0.981640455036657,-0.121035062573595,0.00380911883784968,-0.0248781627429597
13,0.00363034112160054,-0.0259311676154219,0.980807052010611,-0.125671909594961,0.980807052031464,-0.125671909604316,0.00363638384512405,-0.02587133768961
13.5,0.00344656728715917,-0.0269223307791489,0.979954046411854,-0.130294413807754,0.979954046432369,-0.13029441381742,0.0034567003565048,-0.0268642873211329
14,0.00325588220608236,-0.027912829930882,0.979081878470486,-0.134903053692709,0.979081878490649,-0.134903053702666,0.00327004598524802,-0.0278570033598387
14.5,0.0030582867648303,-0.0289026474651282,0.978190925298879,-0.139498301795213,0.97819092531868,-0.139498301805443,0.00307639707445831,-0.0288494774497963
15,0.00285378152240826,-0.0298917665827156,0.977281505821654,-0.144080619886936,0.977281505841084,-0.144080619897423,0.00287572864991868,-0.0298417011288894
15.5,0.00264236666034467,-0.0308801713253981,0.976353885777566,-0.148650455014889,0.976353885796616,-0.14865045502561,0.00266801437144484,-0.0308336657975055
16,0.00242404192871699,-0.0318678466104534,0.975408282671605,-0.153208236348655,0.975408282690269,-0.153208236359595,0.00245322648284263,-0.0318253626836809
16.5,0.00219880658800178,-0.0328547782651603,0.974444870597798,-0.157754372742426,0.97444487061607,-0.157754372753566,0.00223133576057376,-0.0328167828044492
17,0.00196665934644345,-0.0338409530609405,0.973463784871825,-0.162289250928385,0.973463784889703,-0.162289250939704,0.00200231146124971,-0.0338079169230889
17.5,0.00172759829267097,-0.0348263587470683,0.972465126429026,-0.166813234260507,0.972465126446507,-0.166813234271988,0.00176612126807921,-0.0347987555021807
18,0.00148162082325662,-0.0358109840836156,0.971448965957255,-0.171326661931862,0.971448965974335,-0.171326661943486,0.00152273123643565,-0.0357892886520115
18.5,0.00122872356491191,-0.0367948188734792,0.970415347745853,-0.175829848593933,0.970415347762534,-0.175829848605684,0.0012721057387166,-0.036779506074224
19,0.000968902290989476,-0.0377778539931559,0.969364293241583,-0.180323084312469,0.969364293257865,-0.180323084324328,0.00101420740869795,-0.0377693970003481
19.5,0.000702151831958875,-0.0387600814219553,0.968295804310059,-0.184806634800742,0.968295804325944,-0.184806634812695,0.000748997085607078,-0.0387589501249876
20,0.000428465979524756,-0.0397414942692778,0.967209866207305,-0.18928074187756,0.967209866222795,-0.189280741889589,0.000476433758184402,-0.0397481535333144
20.5,0.000147837384016331,-0.040722086799569,0.966106450270563,-0.193745624103705,0.966106450285662,-0.193745624115796,0.000196474508995848,-0.0407369946226859
21,-0.000139742555282318,-0.0417018544544403,0.964985516340921,-0.198201477556373,0.964985516355631,-0.198201477568511,-9.09255406591758E-005,-0.0417254600179815
21.5,-0.000434283807242253,-0.0426807938715035,0.963847014932508,-0.202648476706902,0.963847014946835,-0.202648476719074,-0.000385813284910774,-0.0427135354804875
22,-0.00073579783377653,-0.0436589028992569,0.962690889164616,-0.207086775372109,0.962690889178564,-0.207086775384302,-0.000688237686152338,-0.0437012058099562
22.5,-0.00104429772287146,-0.0446361806074496,0.961517076473766,-0.21151650771426,0.961517076487342,-0.211516507726459,-0.000998249826114184,-0.0446884547396254
23,-0.00135979833009398,-0.045612627292158,0.960325510123066,-0.215937789268839,0.960325510136274,-0.215937789281034,-0.00131590295471085,-0.0456752648239087
23.5,-0.0016823164289122,-0.0465882444747971,0.959116120526002,-0.220350717982954,0.959116120538849,-0.220350717995133,-0.00164125253614433,-0.0466616173185064
24,-0.00201187087013122,-0.0475630348941869,0.957888836401366,-0.224755375250398,0.957888836413858,-0.22475537526255,-0.00197435629169995,-0.0476474920527092
24.5,-0.00234848275071398,-0.0485370024906788,0.956643585775281,-0.229151826932226,0.956643585787426,-0.229151826944343,-0.00231527423862998,-0.0486328672936667
25,-0.00269217559224816,-0.0495101523813308,0.955380296845474,-0.233540124354077,0.955380296857277,-0.233540124366148,-0.00266406872446878,-0.0496177196024661
25.5,-0.00304297552921595,-0.0504824908248778,0.954098898721984,-0.237920305273443,0.954098898733453,-0.237920305285458,-0.0030208044560589,-0.0506020236817952
26,-0.0034009115072427,-0.0514540251753259,0.952799322057476,-0.242292394811973,0.952799322068618,-0.242292394823924,-0.00338554852255213,-0.051585752215193
26.5,-0.00376601549133759,-0.0524247638226911,0.951481499579334,-0.246656406349146,0.951481499590157,-0.246656406361027,-0.00375837041154847,-0.0525688756976606
27,-0.00413832268412123,-0.0533947161194308,0.9501453665347,-0.251012342374998,0.95014536654521,-0.251012342386801,-0.00413934201752852,-0.0535513622577488
27.5,-0.00451787175390006,-0.0543638922909193,0.948790861058592,-0.255360195300473,0.948790861068797,-0.25536019531219,-0.00452853764164934,-0.0545331774710545
28,-0.00490470507232427,-0.0553323033282287,0.947417924474361,-0.259699948224848,0.947417924484268,-0.259699948236475,-0.00492603398195479,-0.055514284165306
28.5,-0.0052988689612094,-0.0562999608613275,0.946026501534801,-0.264031575660239,0.946026501544417,-0.264031575671771,-0.00533191011296941,-0.0564946422171388
29,-0.00570041394796478,-0.0572668770106914,0.9446165406114,-0.268355044213768,0.944616540620732,-0.268355044225198,-0.00574624745363111,-0.0574742083408815
29.5,-0.00610939502882774,-0.0582330642152131,0.943187993838474,-0.272670313228343,0.94318799384753,-0.272670313239666,-0.00616912972245354,-0.0584529358696622
30,-0.00652587193892218,-0.0591985350341626,0.941740817218149,-0.276977335383289,0.941740817226936,-0.276977335394501,-0.0066006428787842,-0.0594307745293099
30.5,-0.00694990942786849,-0.0601633019208396,0.940274970691563,-0.281276057256315,0.940274970700088,-0.281276057267411,-0.00704087504899598,-0.0604076702055987
31,-0.0073815775393985,-0.0611273769654832,0.938790418181003,-0.28556641984843,0.938790418189273,-0.285566419859406,-0.00748991643641372,-0.0613835647055287
31.5,-0.00782095189310345,-0.0620907716048917,0.937287127607202,-0.289848359073536,0.937287127615223,-0.289848359084389,-0.00794785921378582,-0.0623583955134537
32,-0.00826811396606653,-0.0630534962961986,0.935765070885472,-0.294121806214503,0.935765070893252,-0.294121806225229,-0.00841479739708595,-0.063332095543005
32.5,-0.00872315137173624,-0.0640155601521688,0.934224223903959,-0.298386688347498,0.934224223911504,-0.298386688358096,-0.0088908266994599,-0.0643045928859209
33,-0.00918615813295631,-0.0649769705354355,0.932664566486867,-0.30264292873641,0.932664566494182,-0.302642928746877,-0.00937604436413836,-0.0652758105590345
33.5,-0.00965723494557413,-0.0659377326091202,0.931086082345171,-0.306890447199112,0.931086082352264,-0.306890447209446,-0.00987054897519252,-0.0662456662508377
34,-0.0101364894285274,-0.0668978488414225,0.929488759017003,-0.311129160447337,0.929488759023879,-0.311129160457535,-0.0103744402450584,-0.0672140720692305
34.5,-0.010624036355755,-0.067857318461888,0.927872587799629,-0.315358982401796,0.927872587806295,-0.315358982411857,-0.0108878187778327,-0.0681809342921966
35,-0.0111199978646732,-0.0688161368673668,0.926237563674662,-0.319579824484199,0.926237563681125,-0.319579824494121,-0.0114107858074486,-0.0691461531233752
35.5,-0.0116245036353351,-0.0697742949759788,0.924583685227962,-0.323791595887701,0.924583685234226,-0.323791595897483,-0.0119434429099515,-0.070109622454632
36,-0.0121376910337586,-0.0707317785278256,0.922910954565446,-0.327994203827239,0.922910954571517,-0.327994203836879,-0.0124858916892528,-0.0710712296379346
36.5,-0.0126597052122255,-0.07168856733177,0.921219377225894,-0.332187553771167,0.921219377231778,-0.332187553780665,-0.013038233435905,-0.0720308552690099
37,-0.0131906991587384,-0.0726446344582428,0.919508962091651,-0.336371549655498,0.919508962097354,-0.336371549664853,-0.0136005687586365,-0.0729883729854104
37.5,-0.0137308336871425,-0.0735999453788561,0.917779721298017,-0.340546094081989,0.917779721303543,-0.3405460940912,-0.0141729971886267,-0.0739436492817711
38,-0.0142802773588763,-0.0745544570545538,0.916031670141973,-0.344711088501236,0.916031670147327,-0.344711088510302,-0.0147556167567424,-0.0748965433452
38.5,-0.0148392063267191,-0.0755081169751557,0.914264826990817,-0.348866433381877,0.914264826996005,-0.348866433390799,-0.0153485235442507,-0.0758469069138321
39,-0.0154078040905201,-0.0764608621543925,0.912479213191189,-0.353012028366898,0.912479213196215,-0.353012028375675,-0.015951811207823,-0.0767945841616746
39.5,-0.0159862611545248,-0.0774126180860351,0.910674852978845,-0.357147772418035,0.910674852983714,-0.357147772426667,-0.0165655704800038,-0.077739411612981
40,-0.0165747745757738,-0.0783632976682422,0.908851773389547,-0.361273563949105,0.908851773394264,-0.361273563957591,-0.0171898886466455,-0.0786812180893346
40.5,-0.0171735473930772,-0.0793128001051344,0.9070100041713,-0.365389300949143,0.907010004175868,-0.365389300957484,-0.0178248490032391,-0.0796198246927295
41,-0.0177827879263211,-0.080261009796406,0.905149577698173,-0.369494881096073,0.905149577702597,-0.369494881104269,-0.0184705302924164,-0.0805550448277728
41.5,-0.0184027089364465,-0.0812077952279147,0.903270528885866,-0.373590201861651,0.90327052889015,-0.373590201869703,-0.0191270061253735,-0.0814866842661304
42,-0.0190335266372886,-0.0821530078782666,0.901372895109156,-0.37767516060832,0.901372895113306,-0.377675160616227,-0.019794344390335,-0.0824145412561386
42.5,-0.0196754595517322,-0.0830964811586106,0.899456716121325,-0.3817496546786,0.899456716125343,-0.381749654686364,-0.0204726066516402,-0.0833384066802965
43,-0.0203287272063022,-0.0840380294050311,0.897522033975637,-0.385813581477581,0.897522033979527,-0.385813581485202,-0.0211618475434294,-0.0842580642631336
43.5,-0.0209935486604075,-0.0849774469450193,0.895568892948921,-0.389866838549031,0.895568892952687,-0.389866838556509,-0.0218621141623336,-0.0851732908315967
44,-0.0216701408690357,-0.0859145072614449,0.893597339467283,-0.393909323645617,0.893597339470929,-0.393909323652953,-0.0225734454639394,-0.0860838566297006
44.5,-0.0223587168807697,-0.0868489622791546,0.891607422033955,-0.397940934793678,0.891607422037485,-0.397940934800873,-0.0232958716681679,-0.086989525688796
45,-0.0230594838765107,-0.0877805418006641,0.889599191159287,-0.401961570352971,0.889599191162703,-0.401961570360026,-0.0240294136790223,-0.0878900562542502
45.5,-0.0237726410583287,-0.0887089531183203,0.887572699292858,-0.405971129071758,0.887572699296164,-0.405971129078673,-0.0247740825244116,-0.0887852012688055
46,-0.0244983774022286,-0.0896338808306087,0.88552800075769,-0.409969510137609,0.885528000760889,-0.409969510144386,-0.0255298788219894,-0.0896747089122649
46.5,-0.0252368692934186,-0.0905549868899449,0.883465151686521,-0.413956613224222,0.883465151689616,-0.413956613230862,-0.0262967922770597,-0.090558323196489
47,-0.0259882780675914,-0.0914719109080926,0.88138420996011,-0.417932338534582,0.881384209963104,-0.417932338541085,-0.0270748012186807,-0.0914357846139822
47.5,-0.026752747486895,-0.0923842707433356,0.87928523514752,-0.421896586840716,0.879285235150416,-0.421896586847083,-0.0278638721800636,-0.0923068308376518
48,-0.0275304011842579,-0.0932916633904786,0.877168288448331,-0.425849259520321,0.877168288451132,-0.425849259526554,-0.0286639595292639,-0.0931711974685401
48.5,-0.0283213401145725,-0.0941936661907177,0.875033432636739,-0.429790258590481,0.875033432639448,-0.42979025859658,-0.0294750051559193,-0.0940286188276021
49,-0.0291256400556016,-0.0950898383733565,0.872880732007478,-0.433719486738699,0.872880732010097,-0.433719486744665,-0.0302969382195094,-0.0948788287868583
49.5,-0.0299433492051722,-0.095979722935245,0.870710252323508,-0.437636847351446,0.870710252326039,-0.437636847357281,-0.031129674964175,-0.0957215616345235
50,-0.0307744859240173,-0.0968628488568306,0.868522060765427,-0.441542244540415,0.868522060767874,-0.441542244546119,-0.031973118604614,-0.0965565529680379
50.5,-0.0316190366753368,-0.0977387336459001,0.866316225882526,-0.445435583166629,0.86631622588489,-0.445435583172205,-0.0328271592869746,-0.0973835406082972
51,-0.0324769542124701,-0.0986068861916931,0.864092817545458,-0.449316768862594,0.864092817547742,-0.449316768868042,-0.033691674127928,-0.0982022655278063
51.5,-0.0333481560649839,-0.0994668099033083,0.861851906900438,-0.453185708052611,0.861851906902643,-0.453185708057932,-0.0345665273343385,-0.0990124727850308
52,-0.0342325233706728,-0.100318006097455,0.85959356632493,-0.457042307971395,0.859593566327061,-0.457042307976589,-0.035451570405054,-0.0998139124568083
52.5,-0.0351299000965396,-0.101159977592037,0.857317869384777,-0.460886476681124,0.857317869386834,-0.460886476686196,-0.0363466424154282,-0.100606340560434
53,-0.0360400926856725,-0.101992232454035,0.85502489079269,-0.464718123087036,0.855024890794675,-0.464718123091984,-0.0372515703841971,-0.101389519956867
53.5,-0.0369628701591808,-0.102814287843165,0.852714706368073,-0.468537156951653,0.852714706369989,-0.46853715695648,-0.0381661697213441,-0.1021632212265
54,-0.0378979646931722,-0.103625673887015,0.850387392998122,-0.472343488907765,0.85038739299997,-0.472343488912471,-0.0390902447545501,-0.102927223509013
54.5,-0.0388450726803741,-0.104425937519357,0.848043028600132,-0.476137030470239,0.848043028601915,-0.476137030474825,-0.0400235893308468,-0.103681315299106
55,-0.0398038562747554,-0.105214646211054,0.845681692084996,-0.479917694046738,0.845681692086714,-0.479917694051207,-0.0409659874890896,-0.104425295190253
55.5,-0.0407739454058043,-0.105991391522942,0.843303463321813,-0.483685392947436,0.843303463323469,-0.483685392951788,-0.0419172141979548,-0.10515897255915
56,-0.0417549402373288,-0.10675579241212,0.840908423103594,-0.487440041393785,0.840908423105189,-0.487440041398022,-0.0428770361532964,-0.105882168184147
56.5,-0.0427464140343239,-0.10750749822735,0.838496653113992,-0.49118155452641,0.838496653115527,-0.491181554530533,-0.0438452126279274,-0.106594714791688
57,-0.0437479163909267,-0.108246191335686,0.836068235895034,-0.494909848412184,0.836068235896512,-0.494909848416194,-0.0448214963662162,-0.107296457525644
57.5,-0.0447589767633093,-0.108971589330675,0.833623254815807,-0.498624840050545,0.833623254817229,-0.498624840054443,-0.0458056345153272,-0.107987254335322
58,-0.0457791082437878,-0.109683446782371,0.831161794042061,-0.502326447379093,0.831161794043428,-0.502326447382881,-0.0467973695845033,-0.108666976278953
58.5,-0.0468078115068699,-0.110381556500504,0.828683938506688,-0.506014589278536,0.828683938508001,-0.506014589282215,-0.0477964404235057,-0.109335507740461
59,-0.047844578854525,-0.111065750294049,0.826189773881046,-0.509689185576998,0.826189773882307,-0.509689185580569,-0.0488025832111357,-0.109992746558411
59.5,-0.0488888982868262,-0.111735899222651,0.823679386547092,-0.513350157053763,0.823679386548303,-0.513350157057228,-0.0498155324447911,-0.110638604067096
60,-0.0499402575252237,-0.112391913347505,0.821152863570292,-0.516997425442461,0.821152863571454,-0.516997425445821,-0.0508350219220948,-0.11127300505074
60.5,-0.0509981479189986,-0.113033741000763,0.818610292673274,-0.520630913433751,0.818610292674388,-0.520630913437007,-0.0518607857059166,-0.111895887612878
61,-0.0520620681706621,-0.113661367603078,0.816051762210196,-0.524250544677525,0.816051762211262,-0.524250544680677,-0.0528925590644785,-0.112507202963867
61.5,-0.0531315278229941,-0.114274814068059,0.813477361141801,-0.527856243784658,0.813477361142822,-0.527856243787709,-0.05393007937875,-0.11310691513044
62,-0.0542060504586426,-0.11487413483999,0.810887179011135,-0.531447936328346,0.81088717901211,-0.531447936331297,-0.0549730870099256,-0.113695000591977
62.5,-0.0552851765724089,-0.115459415616931,0.808281305919889,-0.535025548845037,0.80828130592082,-0.535025548847888,-0.0560213261204937,-0.114271447848898
