"Freq [GHz]","re(St(P1,P1)) []","im(St(P1,P1)) []","re(St(P1,P2)) []","im(St(P1,P2)) []","re(St(P2,P1)) []","im(St(P2,P1)) []","re(St(P2,P2)) []","im(St(P2,P2)) []"
0,0.00731056045663081,0,0.992704190211953,0,0.99270419307868,0,0.00731055813969306,0
0.5,0.00783529261882521,0.00165989737002192,0.992113596294935,-0.00800126169932902,0.992113596536569,-0.00800126160867087,0.00783524234635635,0.00166000490808571
1,0.00828027998679204,0.00271002372431894,0.991504163998581,-0.0153797321789195,0.991504164376583,-0.0153797320928284,0.00828009945092489,0.00271026689035736
1.5,0.00856109769607727,0.00361588340463115,0.99091859014275,-0.0228191773133322,0.990918590559057,-0.0228191772639157,0.00856066442346304,0.00361628090811728
2,0.00873761035580767,0.00452482449569303,0.990264367411846,-0.0300884172747633,0.990264367820181,-0.0300884172800551,0.00873694822958537,0.00452548279972831
2.5,0.00887624392653263,0.0054561089611127,0.989589849373558,-0.0372326686676914,0.989589849736337,-0.0372326687170776,0.00887537522213488,0.00545705718076661
3,0.00900531044464259,0.00640596764602641,0.988908814398462,-0.0442945406524018,0.988908814696098,-0.0442945407247546,0.00900423804338812,0.00640721197060934
3.5,0.00913731834683507,0.00736914515615261,0.988217514126364,-0.0513035412742475,0.98821751435366,-0.0513035413497382,0.00913603249701467,0.00737068643853434
4,0.00927829809352199,0.00834169070458479,0.987506186191131,-0.0582769800604552,0.987506186351289,-0.0582769801247958,0.00927678183333502,0.00834352949340289
4.5,0.00943142135811992,0.00932087435777706,0.986764497107888,-0.065223704521479,0.986764497208089,-0.0652237045662218,0.00942965355536174,0.00932301227054033
5,0.00959849501861976,0.010304813474769,0.985983488920603,-0.0721473770032572,0.985983488969487,-0.0721473770247245,0.00959645201082593,0.0103072535041617
5.5,0.00978062811652458,0.0112921824432144,0.985155973858178,-0.0790486846889005,0.985155973864624,-0.0790486846869118,0.00977828461297436,0.0112949289601962
6,0.00997855216220322,0.0122820211212673,0.984276367964659,-0.0859266844820024,0.984276367937282,-0.0859266844588422,0.00997588175567632,0.0122850798064897
6.5,0.0101927851010642,0.0132736122372172,0.983340383647609,-0.0927795838218488,0.983340383594624,-0.0927795837814545,0.0101897605673361,0.0132769900104286
7,0.010423719987273,0.0142664025187971,0.982344733842214,-0.0996051835719483,0.982344733771464,-0.0996051835193663,0.0104203134651964,0.0142701074847702
7.5,0.0106716752539471,0.0152599510717613,0.981286890724489,-0.106401125756034,0.981286890643518,-0.106401125697005,0.0106678583561539,0.0152639924854756
8,0.0109369243909112,0.0162538948609523,0.980164901763562,-0.113165030311792,0.980164901679715,-0.113165030252473,0.0109326682731117,0.0162582831099853
8.5,0.0112197140873225,0.017247925098288,0.978977253792888,-0.11989456907077,0.978977253713396,-0.119894569017534,0.0112149894923697,0.0172526716996151
9,0.0115202756593564,0.0182417707190745,0.977722773989304,-0.126587504279156,0.977722773921349,-0.126587504238439,0.0115150529457741,0.018246888327687
9.5,0.0118388324330038,0.0192351865547189,0.976400558127918,-0.133241707104767,0.976400558078681,-0.133241707082962,0.0118330815939725,0.0192406889819372
10,0.0121756046142841,0.0202279446754106,0.975009918616195,-0.139855164882078,0.975009918592888,-0.139855164885449,0.0121692952909227,0.0202338469153025
10.5,0.0125516841550823,0.0211767809774135,0.973653901686604,-0.14655008836615,0.973653901662832,-0.146550088368617,0.0125448244536114,0.021183063399052
11,0.0129440675908128,0.0221168517510133,0.972253146350363,-0.153214143734016,0.972253146326228,-0.15321414373554,0.0129366308759691,0.0221235274120142
11.5,0.0133524848599504,0.0230478279123174,0.97080910577453,-0.159847869736998,0.970809105750131,-0.159847869737553,0.0133444445943953,0.0230549106153677
12,0.0137766580222184,0.0239693913176957,0.969323098422762,-0.166451866895535,0.969323098398201,-0.166451866895108,0.0137679877846741,0.0239768956213147
12.5,0.0142163017972988,0.0248812349744414,0.967796311274475,-0.173026780717347,0.967796311249847,-0.173026780715934,0.0142069753019178,0.0248891762029819
13,0.0146711241078503,0.0257830632211609,0.966229804628585,-0.179573286590601,0.966229804603983,-0.179573286588207,0.0146611152247694,0.0257914574739599
13.5,0.0151408266249754,0.0266745918780793,0.964624518136836,-0.186092076393813,0.96462451811235,-0.186092076390454,0.0151301094019835,0.0266834560376319
14,0.0156251053143175,0.0275555483675407,0.962981277743823,-0.192583846810652,0.962981277719538,-0.192583846806348,0.0156136539995599,0.0275649001066403
14.5,0.0161236509810049,0.0284256718051119,0.961300803247285,-0.199049289295646,0.961300803223278,-0.199049289290428,0.0161114400466496,0.028435529592834
15,0.0166361498117352,0.0292847130617961,0.95958371623035,-0.205489081605117,0.959583716206695,-0.205489081599018,0.0166231539785135,0.0292950961682836
15.5,0.0171622839123485,0.0301324347979886,0.957830548155501,-0.211903880785353,0.957830548132264,-0.211903880778413,0.0171484781748735,0.0301433632979364
16,0.017701731839312,0.0309686114698771,0.956041748446426,-0.218294317495794,0.956041748423668,-0.218294317488055,0.0176870914920808,0.0309801062446737
16.5,0.0182541691236151,0.0317930293091135,0.954217692417821,-0.224660991537459,0.954217692395598,-0.224660991528968,0.0182386697875909,0.0318051120475835
17,0.0188192687856514,0.0326054862766239,0.95235868894387,-0.23100446845474,0.952358688922231,-0.231004468445547,0.0188028864353247,0.0326181794743188
17.5,0.0193967018397627,0.0334057919915316,0.950464987783245,-0.237325277080731,0.950464987762232,-0.237325277070886,0.0193794128305801,0.0334191189485478
18,0.0199861377871959,0.0341937676362463,0.948536786501995,-0.243623907901477,0.948536786481647,-0.243623907891032,0.0199679188832537,0.0342077524535269
18.5,0.0205872450963254,0.0349692458387656,0.946574236955613,-0.249900812122,0.94657423693596,-0.249900812111007,0.0205680734982107,0.034983913412882
19,0.0211996916690779,0.0357320705333706,0.944577451308166,-0.256156401325739,0.944577451289237,-0.256156401314252,0.0211795450417589,0.0357474465497687
19.5,0.0218231452926084,0.0364820968008686,0.94254650757991,-0.262391047628773,0.942546507561726,-0.262391047616841,0.0218020017932563,0.0364982077255813
20,0.0224572740753536,0.0372191906896273,0.94048145472554,-0.268605084240139,0.940481454708119,-0.268605084227817,0.0224351123809909,0.0372360637594573
20.5,0.0231017468666967,0.037943229018621,0.938382317253602,-0.274798806349537,0.938382317236958,-0.274798806336874,0.0230785462015722,0.0379608922298209
21,0.0237562336595711,0.0386540991637727,0.936249099403848,-0.280972472273236,0.936249099387989,-0.280972472260282,0.0237319738221532,0.0386725812592317
21.5,0.0244204059754207,0.0393516988288545,0.934081788903826,-0.287126304798131,0.934081788888759,-0.287126304784935,0.0243950673649124,0.0393710292838361
22,0.0250939372310346,0.0400359358022413,0.931880360329064,-0.293260492672253,0.931880360314792,-0.293260492658861,0.0250675008733132,0.0400561448086991
22.5,0.0257765030868527,0.0407067277007898,0.929644778093043,-0.299375192197763,0.929644778079565,-0.29937519218422,0.0257489506597464,0.0407278461503193
23,0.0264677817764383,0.0413640017021204,0.927374999094085,-0.305470528889371,0.927374999081399,-0.30547052887572,0.0264390956342507,0.0413860611675843
23.5,0.0271674544168976,0.0420076942665706,0.925070975046419,-0.311546599167326,0.925070975034518,-0.311546599153609,0.0271376176140962,0.0420307269824629
24,0.0278752053000877,0.0426377508500468,0.922732654522261,-0.317603472059568,0.922732654511137,-0.317603472045823,0.0278442016140888,0.0426617896916532
24.5,0.0285907221645696,0.043254125609016,0.920359984730917,-0.323641190892418,0.920359984720562,-0.323641190878683,0.0285585361175379,0.0432792040704373
25,0.0293136964483009,0.0438567810988046,0.917952913059736,-0.329659774953331,0.917952913050137,-0.32965977493964,0.0292803133279042,0.0438829332699167
25.5,0.0300438235221438,0.0444456879663968,0.915511388400367,-0.335659221112757,0.915511388391513,-0.335659221099145,0.0300092294012081,0.0444729485088091
26,0.0307808029043496,0.045020824638824,0.913035362282317,-0.341639505395233,0.913035362274193,-0.341639505381731,0.0307449846593552,0.045049228760931
26.5,0.0315243384562119,0.0455821770082627,0.910524789834189,-0.347600584492351,0.910524789826779,-0.347600584478988,0.0314872837845836,0.045611760439449
27,0.0322741385591506,0.0461297381148618,0.907979630591435,-0.353542397212432,0.907979630584723,-0.353542397199235,0.032235835995308,0.0461605370789526
27.5,0.033029916273551,0.0466635078283228,0.905399849167895,-0.359464865863463,0.905399849161864,-0.359464865850459,0.0329903552036769,0.0466955590163565
28,0.0337913894797143,0.0471834925291763,0.902785415806852,-0.365367897567394,0.902785415801484,-0.365367897554606,0.0337505601552186,0.0472168330715834
28.5,0.0345582810013254,0.0476897047906668,0.90013630682592,-0.371251385505016,0.900136306821197,-0.371251385492465,0.0345161745509783,0.0477243722289422
29,0.0353303187118898,0.0481821630621151,0.897452504968671,-0.377115210091641,0.897452504964575,-0.377115210079349,0.0352869271526094,0.0482181953200573
29.5,0.036107235624611,0.0486608913545599,0.894733999674664,-0.38295924008456,0.894733999671175,-0.382959240072545,0.0360625518708961,0.0486983267091721
30,0.0368887699662342,0.0491259189294542,0.891980787278309,-0.388783333623822,0.891980787275406,-0.388783333612101,0.0368427878382279,0.0491647959815791
30.5,0.0376746652353693,0.0495772799911186,0.889192871145916,-0.394587339208361,0.889192871143582,-0.39458733919695,0.037627379465573,0.0496176376358943
31,0.0384646702458858,0.0500150133836217,0.886370261759283,-0.400371096609797,0.886370261757497,-0.400371096598709,0.0384160764845052,0.0500568907808352
31.5,0.0392585391559304,0.050439162292703,0.883512976753206,-0.40613443772649,0.883512976751949,-0.406134437715739,0.0392086339748799,0.0504825988371208
32,0.0400560314831821,0.0508497739533037,0.880621040913518,-0.411877187380576,0.88062104091277,-0.411877187370172,0.0400048123787558,0.0508948092450545
32.5,0.0408569121069342,0.0512468993632195,0.877694486141452,-0.417599164060788,0.877694486141194,-0.417599164050742,0.0408043775011648,0.0512935731782995
33,0.041660951257637,0.0516305930033528,0.874733351389481,-0.423300180613922,0.874733351389694,-0.423300180604243,0.0416071004983639,0.0516789452643304
33.5,0.042467924494506,0.052000912564986,0.871737682573132,-0.428980044887776,0.871737682573797,-0.428980044878472,0.0424127578541806,0.0520509833119701
34,0.0432776126718286,0.0523579186844647,0.868707532462762,-0.434638560328368,0.86870753246386,-0.434638560319446,0.0432211313450874,0.0524097480463995
34.5,0.0440898018945913,0.0527016746856138,0.865642960558755,-0.440275526534165,0.865642960560268,-0.44027552652563,0.0440320079946301,0.0527553028519699
35,0.0449042834640462,0.053032246330207,0.862544032953188,-0.445890739769973,0.862544032955098,-0.44589073976183,0.0448451800178342,0.0530877135231204
35.5,0.0457208538138409,0.0533497015767226,0.859410822180601,-0.451483993443039,0.859410822182889,-0.451483993435292,0.0456604447562087,0.0534070480236407
36,0.0465393144373125,0.0536541103476277,0.856243407060177,-0.457055078543796,0.856243407062827,-0.457055078536448,0.0464776046039639,0.0537133762545171
36.5,0.0473594718065606,0.0539455443053584,0.853041872531323,-0.462603784053598,0.853041872534317,-0.46260378404665,0.0472964669260461,0.0540067698305163
37,0.0481811372838816,0.0542240766371542,0.849806309484365,-0.468129897321628,0.849806309487686,-0.468129897315083,0.0481168439685813,0.0542873018656808
37.5,0.0490041270261499,0.054489781848864,0.846536814587845,-0.473633204413092,0.846536814591478,-0.473633204406949,0.048938552762317,0.0545550467678234
38,0.0498282618827202,0.0547427355678008,0.843233490113692,-0.479113490430648,0.843233490117621,-0.47911349042491,0.0497614150196261,0.0548100800421257
38.5,0.0506533672873908,0.0549830143547161,0.839896443761343,-0.484570539810945,0.839896443765552,-0.484570539805608,0.0505852570256332,0.0550524781038798
39,0.0514792731449884,0.0552106955249172,0.836525788481741,-0.490004136597984,0.836525788486215,-0.490004136593048,0.0514099095240019,0.0552823181004063
39.5,0.0523058137130771,0.0554258569785304,0.833121642301991,-0.495414064694956,0.833121642306716,-0.495414064690419,0.0522352075979111,0.0554996777421559
40,0.0531328274793252,0.0556285770399017,0.829684128151329,-0.500800108096067,0.82968412815629,-0.500800108091927,0.0530609905467271,0.0557046351429646
40.5,0.0539601570349937,0.0558189343060888,0.826213373688948,-0.506162051099768,0.826213373694133,-0.506162051096023,0.0538871017588665,0.0558972686694257
41,0.0547876489450476,0.0559970075043845,0.822709511134138,-0.51149967850473,0.822709511139532,-0.511499678501375,0.0547133885813196,0.0560776567993158
41.5,0.0556151536153289,0.0561628753588042,0.819172677099104,-0.516812775789777,0.819172677104695,-0.51681277578681,0.0555397021863017,0.0562458779889947
42,0.0564425251572409,0.0563166164654269,0.815603012424771,-0.522101129278953,0.815603012430546,-0.522101129276369,0.0563658974354589,0.0564020105496789
42.5,0.0572696212503629,0.0564583091765002,0.812000662019801,-0.52736452629276,0.812000662025748,-0.527364526290555,0.057191832742065,0.0565461325324855
43,0.0580963030034006,0.0565880314931713,0.808365774703024,-0.532602755286582,0.808365774709133,-0.532602755284751,0.0580173699316011,0.0566783216221093
43.5,0.0589224348138625,0.056705860966714,0.804698503049409,-0.537815605977197,0.804698503055668,-0.537815605975735,0.0588423741011142,0.0567986550390041
44,0.0597478842268238,0.0568118746081092,0.800999003239675,-0.543002869458249,0.800999003246073,-0.54300286945715,0.0596667134777191,0.0569072094499157
44.5,0.0605725217931457,0.0569061488058192,0.797267434913621,-0.548164338305444,0.797267434920148,-0.548164338304704,0.0604902592765983,0.0570040608866137
45,0.0613962209274702,0.0569887592515904,0.793503961027207,-0.553299806672234,0.793503961033852,-0.553299806671845,0.0613128855588347,0.0570892846726438
45.5,0.0622188577663225,0.0570597808741178,0.7897087477134,-0.558409070376635,0.789708747720155,-0.558409070376593,0.0621344690893984,0.0571629553579405
46,0.0630403110266218,0.0571192877803879,0.785881964146784,-0.563491926979838,0.78588196415364,-0.563491926980136,0.0629548891955858,0.0572251466611093
46.5,0.0638604618648859,0.0571673532045162,0.782023782411911,-0.56854817585717,0.782023782418858,-0.568548175857801,0.0637740276262056,0.0572759314191984
47,0.0646791937374055,0.0572040494638966,0.778134377375355,-0.573577618261959,0.778134377382385,-0.573577618262917,0.0645917684117763,0.0573153815447625
47.5,0.0654963922616503,0.0572294479224635,0.77421392656143,-0.578580057382788,0.774213926568535,-0.578580057384066,0.065407997726003,0.0573435679900374
48,0.0663119450791452,0.0572436189608714,0.770262610031511,-0.583555298394622,0.770262610038684,-0.583555298396214,0.0662226037487631,0.0573605607180078
48.5,0.0671257417200556,0.057246631953401,0.766280610266889,-0.588503148504203,0.766280610274122,-0.5885031485061,0.0670354765308496,0.0573664286801918
49,0.0679376734696905,0.057238555251384,0.762268112055106,-0.593423416990134,0.762268112062392,-0.59342341699233,0.0678465078606686,0.0573612398009199
49.5,0.0687476332371422,0.0572194561729505,0.758225302379686,-0.598315915238008,0.758225302387017,-0.598315915240496,0.068655591133114,0.0573450609679215
50,0.0695555154262422,0.0571894009988895,0.754152370313179,-0.603180456770922,0.75415237032055,-0.603180456773694,0.069462621220799,0.057317958029001
50.5,0.0703612158090291,0.0571484549744343,0.750049506913465,-0.608016857275681,0.75004950692087,-0.608016857278731,0.0702674943478323,0.0572799957946175
51,0.0711646314018884,0.0570966823167546,0.745916905123205,-0.612824934625001,0.745916905130637,-0.612824934628321,0.071070107966307,0.0572312380461442
51.5,0.071965660344535,0.0570341462279632,0.741754759672385,-0.617604508895962,0.741754759679839,-0.617604508899544,0.0718703606356633,0.0571717475496181
52,0.0727642017819857,0.0569609089134302,0.737563266983856,-0.622355402384968,0.737563266991327,-0.622355402388804,0.0726681519050729,0.0571015860747756
52.5,0.0735601557496609,0.0568770316052106,0.733342625081802,-0.627077439619445,0.733342625089284,-0.627077439623528,0.0734633821989893,0.0570208144191643
53,0.0743534230617555,0.0567825745903778,0.729093033503043,-0.631770447366491,0.729093033510533,-0.631770447370813,0.0742559527059919,0.0569294924371393
53.5,0.0751439052029984,0.0566775972440685,0.724814693211113,-0.636434254638675,0.724814693218605,-0.636434254643229,0.0750457652710504,0.0568276790735399
54,0.0759315042239206,0.0565621580670449,0.720507806513016,-0.641068692697172,0.720507806520505,-0.64106869270195,0.0758327222913218,0.056715432401847
54.5,0.076716122639737,0.0564363147275672,0.716172576978601,-0.645673595052404,0.716172576986084,-0.645673595057398,0.0766167266155929,0.0565928096666289
55,0.0774976633329496,0.0563001241073988,0.71180920936248,-0.650248797462341,0.711809209369953,-0.650248797467544,0.0773976814474621,0.0564598673300758
55.5,0.0782760294597631,0.0561536423517349,0.707417909528415,-0.654794137928627,0.707417909535874,-0.654794137934032,0.0781754902523601,0.0563166611224324
56,0.0790511243604038,0.0559969249228711,0.702998884376102,-0.659309456690646,0.702998884383543,-0.659309456696244,0.0789500566684935,0.056163246096133
56.5,0.0798228514734242,0.055830026657423,0.698552341770297,-0.663794596217668,0.698552341777718,-0.663794596223452,0.079721284421794,0.0559996766834526
57,0.0805911142540687,0.0556530018269031,0.694078490472214,-0.668249401199204,0.69407849047961,-0.668249401205165,0.0804890772449483,0.0558260067574771
57.5,0.0813558160967728,0.0554659042014707,0.689577540073124,-0.672673718533655,0.689577540080494,-0.672673718539787,0.0812533388005771,0.0556422896962147
58,0.0821168602618638,0.0552687871166694,0.685049700930117,-0.677067397315388,0.685049700937457,-0.677067397321683,0.0820139726086303,0.0554485784496521
58.5,0.0828741498065197,0.0550617035429615,0.680495184103944,-0.68143028882032,0.680495184111251,-0.68143028882677,0.0827708819780542,0.0552449256095762
59,0.0836275875200451,0.0548447061578872,0.675914201298908,-0.685762246490094,0.67591420130618,-0.685762246496692,0.0835239699427899,0.0550313834819746
59.5,0.0843770758635143,0.054617847420651,0.671306964804734,-0.690063125914953,0.671306964811969,-0.690063125921691,0.0842731392021452,0.0548080041618297
60,0.0851225169138276,0.0543811796489639,0.666673687440375,-0.694332784815374,0.66667368744757,-0.694332784822245,0.085018292065592,0.0545748396101275
60.5,0.0858638123122261,0.0541347550979584,0.662014582499706,-0.698571083022544,0.662014582506859,-0.698571083029541,0.0857593304020257,0.0543319417328988
61,0.0866008632172961,0.0538786260409912,0.657329863699053,-0.702777882457744,0.657329863706161,-0.702777882464858,0.0864961555935234,0.0540793624621095
61.5,0.087333570262503,0.0536128448521603,0.652619745126521,-0.706953047110703,0.652619745133583,-0.706953047117928,0.087228668493633,0.0538171538382219
62,0.0880618335182801,0.0533374640903511,0.647884441193075,-0.711096443017008,0.647884441200088,-0.711096443024335,0.0879567693902178,0.0535453680942466
62.5,0.0887855524586981,0.0530525365846368,0.643124166585326,-0.715207938234583,0.64312416659229,-0.715207938242007,0.088680357972885,0.0532640577411071
63,0.0895046259327344,0.0527581155208535,0.638339136220002,-0.719287402819341,0.638339136226914,-0.719287402826852,0.0893993333050094,0.052973275654136
63.5,0.0902189521401589,0.0524542545291676,0.633529565200037,-0.72333470880002,0.633529565206896,-0.723334708807613,0.0901135938003715,0.0526730751605248
64,0.090928428612049,0.0521410077724653,0.628695668772277,-0.727349730152286,0.628695668779081,-0.727349730159952,0.0908230372044204,0.0523635101275525
