 ****** HSPICE -- C-2009.09 32-BIT (Aug 24 2009) winnt ******                   
  Copyright (C) 2009 Synopsys, Inc. All Rights Reserved.                        
  Unpublished-rights reserved under US copyright laws.
  This program is protected by law and is subject to the 
  terms and conditions of the license agreement from Synopsys.
  Use of this program is your acceptance to be bound by the 
  license agreement. HSPICE is the trademark of Synopsys, Inc.
  Input File: E:\microstrip_modeling\GCPW_modeling\Modeling_of_GCPW_v1\hspice_pr
  lic:  
  lic: FLEXlm: v8.5b 
  lic: USER:   MY                   HOSTNAME: MY-PC 
  lic: HOSTID: "22104182b4cb b0104182b4cb b083fe554343 b0104182b4cc 005056c00001
  
  lic: Using FLEXlm license file: 
  lic: 27000@localhost 
  lic: Checkout 1 hspice 
  lic: License/Maintenance for hspice will expire on 31-dec-2028/2008.120 
  lic: FLOATING license(s) on SERVER localhost 
  lic:   
 Init: read install configuration file: D:\synopsys\Hspice_C-2009.09\meta.cfg
1****** HSPICE -- C-2009.09 32-BIT (Aug 24 2009) winnt ******                   
 ******  
 .title test_cpw

  ******  circuit name directory
 circuit number to circuit name directory
   number circuitname                     definition         multiplier
        0 main circuit
        1 x1.                             cpw                1.00 



 **** List of Port Elements
Port Number     Mode        Zo       DC bias
     1         single    ( 50.0    ,0.0)    0.00    
     2         single    ( 50.0    ,0.0)    0.00    
 
      
 *****************************************************************
 ******  option summary
 ******
 runlvl  = 6         bypass  = 2         
  Opening plot unit= 79
 file=hspice_project\cpw\test_cpw.pa0                                          




 **** List of Port Elements
Port Number     Mode        Zo       DC bias
     1         single    ( 50.0    ,0.0)    0.00    
     2         single    ( 50.0    ,0.0)    0.00    
1****** HSPICE -- C-2009.09 32-BIT (Aug 24 2009) winnt ******                   
 ******  
 .title test_cpw

  ******  operating point information tnom=  25.000 temp=  27.000 *****
 ***** operating point status is all       simulation time is     0.     
    node    =voltage      node    =voltage      node    =voltage

 +0:a       =   0.      0:b       =   0.      1:np011   =   0.     
 +1:np012   =   0.      1:np013   =   0.      1:np021   =   0.     
 +1:np022   =   0.      1:np023   =   0.      1:np031   =   0.     
 +1:np032   =   0.      1:np033   =   0.      1:np041   =   0.     
 +1:np042   =   0.      1:np043   =   0.      1:np051   =   0.     
 +1:np052   =   0.      1:np053   =   0.      1:np061   =   0.     
 +1:np062   =   0.      1:np063   =   0.      1:np071   =   0.     
 +1:np072   =   0.      1:np073   =   0.      1:np081   =   0.     
 +1:np082   =   0.      1:np083   =   0.      1:np091   =   0.     
 +1:np092   =   0.      1:np093   =   0.      1:np101   =   0.     
 +1:np102   =   0.      1:np103   =   0.      1:np111   =   0.     
 +1:np112   =   0.      1:np113   =   0.      1:ns011   =   0.     
 +1:ns012   =   0.      1:ns013   =   0.      1:ns014   =   0.     
 +1:ns015   =   0.      1:ns021   =   0.      1:ns022   =   0.     
 +1:ns023   =   0.      1:ns024   =   0.      1:ns025   =   0.     
 +1:ns031   =   0.      1:ns032   =   0.      1:ns033   =   0.     
 +1:ns034   =   0.      1:ns035   =   0.      1:ns041   =   0.     
 +1:ns042   =   0.      1:ns043   =   0.      1:ns044   =   0.     
 +1:ns045   =   0.      1:ns051   =   0.      1:ns052   =   0.     
 +1:ns053   =   0.      1:ns054   =   0.      1:ns055   =   0.     
 +1:ns061   =   0.      1:ns062   =   0.      1:ns063   =   0.     
 +1:ns064   =   0.      1:ns065   =   0.      1:ns071   =   0.     
 +1:ns072   =   0.      1:ns073   =   0.      1:ns074   =   0.     
 +1:ns075   =   0.      1:ns081   =   0.      1:ns082   =   0.     
 +1:ns083   =   0.      1:ns084   =   0.      1:ns085   =   0.     
 +1:ns091   =   0.      1:ns092   =   0.      1:ns093   =   0.     
 +1:ns094   =   0.      1:ns095   =   0.      1:ns101   =   0.     
 +1:ns102   =   0.      1:ns103   =   0.      1:ns104   =   0.     


 ****  port elements

 subckt                        
 element  0:p1       0:p2      
  volts      0.         0.     
  current    0.         0.     
  power      0.         0.     


     total port element power dissipation=    0.            watts

 **** resistors

 subckt   x1         x1         x1         x1         x1         x1        
 element  1:rg010    1:rg011    1:rg012    1:rg013    1:r010     1:r011    
  r value    2.8767x    2.1811x   47.0725k  308.8642k   48.5265m    5.9232m
  v drop     0.         0.         0.         0.         0.         0.     
  current    0.         0.         0.         0.         0.         0.     
  power      0.         0.         0.         0.         0.         0.     

 subckt   x1         x1         x1         x1         x1         x1        
 element  1:r012     1:r013     1:rg020    1:rg021    1:rg022    1:rg023   
  r value  150.2469m  208.3404m    1.4383x    1.0906x   23.5363k  154.4321k
  v drop     0.         0.         0.         0.         0.         0.     
  current    0.         0.         0.         0.         0.         0.     
  power      0.         0.         0.         0.         0.         0.     

 subckt   x1         x1         x1         x1         x1         x1        
 element  1:r020     1:r021     1:r022     1:r023     1:rg030    1:rg031   
  r value   48.5265m    5.9232m  150.2469m  208.3404m    1.4383x    1.0906x
  v drop     0.         0.         0.         0.         0.         0.     
  current    0.         0.         0.         0.         0.         0.     
  power      0.         0.         0.         0.         0.         0.     

 subckt   x1         x1         x1         x1         x1         x1        
 element  1:rg032    1:rg033    1:r030     1:r031     1:r032     1:r033    
  r value   23.5363k  154.4321k   48.5265m    5.9232m  150.2469m  208.3404m
  v drop     0.         0.         0.         0.         0.         0.     
  current    0.         0.         0.         0.         0.         0.     
  power      0.         0.         0.         0.         0.         0.     

 subckt   x1         x1         x1         x1         x1         x1        
 element  1:rg040    1:rg041    1:rg042    1:rg043    1:r040     1:r041    
  r value    1.4383x    1.0906x   23.5363k  154.4321k   48.5265m    5.9232m
  v drop     0.         0.         0.         0.         0.         0.     
  current    0.         0.         0.         0.         0.         0.     
  power      0.         0.         0.         0.         0.         0.     

 subckt   x1         x1         x1         x1         x1         x1        
 element  1:r042     1:r043     1:rg050    1:rg051    1:rg052    1:rg053   
  r value  150.2469m  208.3404m    1.4383x    1.0906x   23.5363k  154.4321k
  v drop     0.         0.         0.         0.         0.         0.     
  current    0.         0.         0.         0.         0.         0.     
  power      0.         0.         0.         0.         0.         0.     

 subckt   x1         x1         x1         x1         x1         x1        
 element  1:r050     1:r051     1:r052     1:r053     1:rg060    1:rg061   
  r value   48.5265m    5.9232m  150.2469m  208.3404m    1.4383x    1.0906x
  v drop     0.         0.         0.         0.         0.         0.     
  current    0.         0.         0.         0.         0.         0.     
  power      0.         0.         0.         0.         0.         0.     

 subckt   x1         x1         x1         x1         x1         x1        
 element  1:rg062    1:rg063    1:r060     1:r061     1:r062     1:r063    
  r value   23.5363k  154.4321k   48.5265m    5.9232m  150.2469m  208.3404m
  v drop     0.         0.         0.         0.         0.         0.     
  current    0.         0.         0.         0.         0.         0.     
  power      0.         0.         0.         0.         0.         0.     

 subckt   x1         x1         x1         x1         x1         x1        
 element  1:rg070    1:rg071    1:rg072    1:rg073    1:r070     1:r071    
  r value    1.4383x    1.0906x   23.5363k  154.4321k   48.5265m    5.9232m
  v drop     0.         0.         0.         0.         0.         0.     
  current    0.         0.         0.         0.         0.         0.     
  power      0.         0.         0.         0.         0.         0.     

 subckt   x1         x1         x1         x1         x1         x1        
 element  1:r072     1:r073     1:rg080    1:rg081    1:rg082    1:rg083   
  r value  150.2469m  208.3404m    1.4383x    1.0906x   23.5363k  154.4321k
  v drop     0.         0.         0.         0.         0.         0.     
  current    0.         0.         0.         0.         0.         0.     
  power      0.         0.         0.         0.         0.         0.     

 subckt   x1         x1         x1         x1         x1         x1        
 element  1:r080     1:r081     1:r082     1:r083     1:rg090    1:rg091   
  r value   48.5265m    5.9232m  150.2469m  208.3404m    1.4383x    1.0906x
  v drop     0.         0.         0.         0.         0.         0.     
  current    0.         0.         0.         0.         0.         0.     
  power      0.         0.         0.         0.         0.         0.     

 subckt   x1         x1         x1         x1         x1         x1        
 element  1:rg092    1:rg093    1:r090     1:r091     1:r092     1:r093    
  r value   23.5363k  154.4321k   48.5265m    5.9232m  150.2469m  208.3404m
  v drop     0.         0.         0.         0.         0.         0.     
  current    0.         0.         0.         0.         0.         0.     
  power      0.         0.         0.         0.         0.         0.     

 subckt   x1         x1         x1         x1         x1         x1        
 element  1:rg100    1:rg101    1:rg102    1:rg103    1:r100     1:r101    
  r value    1.4383x    1.0906x   23.5363k  154.4321k   48.5265m    5.9232m
  v drop     0.         0.         0.         0.         0.         0.     
  current    0.         0.         0.         0.         0.         0.     
  power      0.         0.         0.         0.         0.         0.     

 subckt   x1         x1         x1         x1         x1         x1        
 element  1:r102     1:r103     1:rg110    1:rg111    1:rg112    1:rg113   
  r value  150.2469m  208.3404m    2.8767x    2.1811x   47.0725k  308.8642k
  v drop     0.         0.         0.         0.         0.         0.     
  current    0.         0.         0.         0.         0.         0.     
  power      0.         0.         0.         0.         0.         0.     

 ******  
 .title test_cpw

  ******  ac analysis tnom=  25.000 temp=  27.000 *****
x

        freq    s11          s11          s21          s21        
                   real         imag         real         imag    
  500.00000x      4.7168m    534.8739u    994.7475m     -9.0052m  
    1.00000g      4.7923m    967.7071u    994.2499m    -17.7459m  
    1.50000g      4.8092m      1.3643m    993.6808m    -26.3417m  
    2.00000g      4.7803m      1.7724m    993.0276m    -34.8753m  
    2.50000g      4.7254m      2.2070m    992.2667m    -43.3594m  
    3.00000g      4.6585m      2.6722m    991.3902m    -51.7883m  
    3.50000g      4.5901m      3.1687m    990.4003m    -60.1536m  
    4.00000g      4.5284m      3.6952m    989.3034m    -68.4489m  
    4.50000g      4.4800m      4.2494m    988.1082m    -76.6702m  
    5.00000g      4.4506m      4.8277m    986.8236m    -84.8153m  
    5.50000g      4.4441m      5.4265m    985.4584m    -92.8842m  
    6.00000g      4.4637m      6.0414m    984.0207m   -100.8780m  
    6.50000g      4.5114m      6.6680m    982.5178m   -108.7988m  
    7.00000g      4.5882m      7.3021m    980.9558m   -116.6495m  
    7.50000g      4.6942m      7.9397m    979.3402m   -124.4334m  
    8.00000g      4.8292m      8.5771m    977.6754m   -132.1541m  
    8.50000g      4.9921m      9.2110m    975.9651m   -139.8152m  
    9.00000g      5.1815m      9.8387m    974.2123m   -147.4205m  
    9.50000g      5.3960m     10.4578m    972.4192m   -154.9733m  
   10.00000g      5.6337m     11.0663m    970.5877m   -162.4771m  
   10.50000g      5.8928m     11.6629m    968.7191m   -169.9350m  
   11.00000g      6.1714m     12.2462m    966.8144m   -177.3500m  
   11.50000g      6.4678m     12.8155m    964.8742m   -184.7248m  
   12.00000g      6.7802m     13.3701m    962.8989m   -192.0618m  
   12.50000g      7.1070m     13.9098m    960.8886m   -199.3634m  
   13.00000g      7.4467m     14.4344m    958.8434m   -206.6316m  
   13.50000g      7.7978m     14.9439m    956.7631m   -213.8682m  
   14.00000g      8.1591m     15.4384m    954.6474m   -221.0748m  
   14.50000g      8.5294m     15.9182m    952.4961m   -228.2529m  
   15.00000g      8.9078m     16.3835m    950.3086m   -235.4038m  
   15.50000g      9.2932m     16.8348m    948.0847m   -242.5286m  
   16.00000g      9.6850m     17.2723m    945.8237m   -249.6283m  
   16.50000g     10.0823m     17.6966m    943.5253m   -256.7037m  
   17.00000g     10.4846m     18.1080m    941.1888m   -263.7557m  
   17.50000g     10.8913m     18.5069m    938.8138m   -270.7846m  
   18.00000g     11.3020m     18.8938m    936.3998m   -277.7912m  
   18.50000g     11.7163m     19.2690m    933.9462m   -284.7757m  
   19.00000g     12.1338m     19.6331m    931.4526m   -291.7386m  
   19.50000g     12.5542m     19.9862m    928.9185m   -298.6801m  
   20.00000g     12.9773m     20.3288m    926.3434m   -305.6003m  
   20.50000g     13.4028m     20.6613m    923.7270m   -312.4995m  
   21.00000g     13.8307m     20.9838m    921.0688m   -319.3775m  
   21.50000g     14.2607m     21.2968m    918.3684m   -326.2346m  
   22.00000g     14.6927m     21.6005m    915.6255m   -333.0706m  
   22.50000g     15.1266m     21.8951m    912.8397m   -339.8854m  
   23.00000g     15.5623m     22.1809m    910.0107m   -346.6790m  
   23.50000g     15.9997m     22.4580m    907.1383m   -353.4512m  
   24.00000g     16.4389m     22.7267m    904.2222m   -360.2018m  
   24.50000g     16.8796m     22.9871m    901.2621m   -366.9306m  
   25.00000g     17.3219m     23.2394m    898.2578m   -373.6375m  
   25.50000g     17.7657m     23.4837m    895.2091m   -380.3221m  
   26.00000g     18.2110m     23.7202m    892.1159m   -386.9842m  
   26.50000g     18.6578m     23.9489m    888.9781m   -393.6235m  
   27.00000g     19.1059m     24.1700m    885.7954m   -400.2397m  
   27.50000g     19.5555m     24.3835m    882.5677m   -406.8325m  
   28.00000g     20.0064m     24.5896m    879.2951m   -413.4016m  
   28.50000g     20.4586m     24.7882m    875.9774m   -419.9467m  
   29.00000g     20.9121m     24.9796m    872.6145m   -426.4674m  
   29.50000g     21.3669m     25.1636m    869.2065m   -432.9634m  
   30.00000g     21.8229m     25.3404m    865.7533m   -439.4343m  
   30.50000g     22.2801m     25.5101m    862.2549m   -445.8798m  
   31.00000g     22.7384m     25.6725m    858.7113m   -452.2994m  
   31.50000g     23.1978m     25.8279m    855.1225m   -458.6930m  
   32.00000g     23.6582m     25.9761m    851.4886m   -465.0600m  
   32.50000g     24.1197m     26.1173m    847.8097m   -471.4001m  
   33.00000g     24.5822m     26.2514m    844.0857m   -477.7130m  
   33.50000g     25.0455m     26.3784m    840.3169m   -483.9982m  
   34.00000g     25.5098m     26.4984m    836.5032m   -490.2555m  
   34.50000g     25.9748m     26.6114m    832.6447m   -496.4844m  
   35.00000g     26.4406m     26.7174m    828.7417m   -502.6845m  
   35.50000g     26.9071m     26.8164m    824.7941m   -508.8555m  
   36.00000g     27.3742m     26.9084m    820.8022m   -514.9971m  
   36.50000g     27.8419m     26.9934m    816.7660m   -521.1088m  
   37.00000g     28.3101m     27.0714m    812.6857m   -527.1902m  
   37.50000g     28.7787m     27.1424m    808.5615m   -533.2411m  
   38.00000g     29.2477m     27.2064m    804.3935m   -539.2611m  
   38.50000g     29.7170m     27.2635m    800.1819m   -545.2497m  
   39.00000g     30.1865m     27.3135m    795.9269m   -551.2067m  
   39.50000g     30.6561m     27.3566m    791.6287m   -557.1317m  
   40.00000g     31.1259m     27.3928m    787.2874m   -563.0242m  
   40.50000g     31.5956m     27.4219m    782.9033m   -568.8841m  
   41.00000g     32.0652m     27.4442m    778.4765m   -574.7108m  
   41.50000g     32.5347m     27.4594m    774.0073m   -580.5041m  
   42.00000g     33.0039m     27.4677m    769.4959m   -586.2637m  
   42.50000g     33.4727m     27.4691m    764.9425m   -591.9891m  
   43.00000g     33.9412m     27.4636m    760.3474m   -597.6801m  
   43.50000g     34.4091m     27.4511m    755.7107m   -603.3363m  
   44.00000g     34.8765m     27.4317m    751.0328m   -608.9573m  
   44.50000g     35.3432m     27.4054m    746.3137m   -614.5429m  
   45.00000g     35.8092m     27.3723m    741.5539m   -620.0927m  
   45.50000g     36.2742m     27.3322m    736.7536m   -625.6064m  
   46.00000g     36.7384m     27.2853m    731.9129m   -631.0837m  
   46.50000g     37.2015m     27.2316m    727.0322m   -636.5242m  
   47.00000g     37.6635m     27.1711m    722.1117m   -641.9277m  
   47.50000g     38.1243m     27.1037m    717.1517m   -647.2937m  
   48.00000g     38.5839m     27.0296m    712.1525m   -652.6221m  
   48.50000g     39.0420m     26.9486m    707.1143m   -657.9125m  
   49.00000g     39.4987m     26.8610m    702.0375m   -663.1647m  
   49.50000g     39.9538m     26.7667m    696.9222m   -668.3782m  
   50.00000g     40.4072m     26.6656m    691.7688m   -673.5528m  
   50.50000g     40.8589m     26.5579m    686.5776m   -678.6883m  
   51.00000g     41.3088m     26.4436m    681.3489m   -683.7842m  
   51.50000g     41.7567m     26.3226m    676.0828m   -688.8404m  
   52.00000g     42.2027m     26.1951m    670.7799m   -693.8566m  
   52.50000g     42.6465m     26.0611m    665.4402m   -698.8324m  
   53.00000g     43.0881m     25.9206m    660.0642m   -703.7677m  
   53.50000g     43.5275m     25.7736m    654.6522m   -708.6620m  
   54.00000g     43.9644m     25.6201m    649.2044m   -713.5152m  
   54.50000g     44.3990m     25.4603m    643.7212m   -718.3270m  
   55.00000g     44.8309m     25.2942m    638.2028m   -723.0971m  
   55.50000g     45.2603m     25.1217m    632.6496m   -727.8252m  
   56.00000g     45.6869m     24.9429m    627.0619m   -732.5112m  
   56.50000g     46.1107m     24.7580m    621.4400m   -737.1546m  
   57.00000g     46.5316m     24.5668m    615.7843m   -741.7554m  
   57.50000g     46.9496m     24.3695m    610.0950m   -746.3132m  
   58.00000g     47.3645m     24.1662m    604.3725m   -750.8277m  
   58.50000g     47.7762m     23.9568m    598.6170m   -755.2988m  
   59.00000g     48.1847m     23.7414m    592.8290m   -759.7262m  
   59.50000g     48.5899m     23.5201m    587.0088m   -764.1097m  
   60.00000g     48.9917m     23.2929m    581.1566m   -768.4489m  
   60.50000g     49.3900m     23.0599m    575.2729m   -772.7438m  
   61.00000g     49.7848m     22.8212m    569.3579m   -776.9940m  
   61.50000g     50.1759m     22.5767m    563.4120m   -781.1993m  
   62.00000g     50.5633m     22.3265m    557.4355m   -785.3595m  
   62.50000g     50.9470m     22.0708m    551.4287m   -789.4744m  
   63.00000g     51.3267m     21.8095m    545.3921m   -793.5438m  
   63.50000g     51.7025m     21.5427m    539.3259m   -797.5674m  
   64.00000g     52.0743m     21.2706m    533.2305m   -801.5451m  
   64.50000g     52.4420m     20.9930m    527.1062m   -805.4765m  
   65.00000g     52.8056m     20.7102m    520.9533m   -809.3616m  
   65.50000g     53.1649m     20.4222m    514.7723m   -813.2001m  
   66.00000g     53.5199m     20.1290m    508.5635m   -816.9918m  
   66.50000g     53.8705m     19.8307m    502.3272m   -820.7365m  
