"Freq [GHz]","re(St(P1,P1)) []","im(St(P1,P1)) []","re(St(P1,P2)) []","im(St(P1,P2)) []","re(St(P2,P1)) []","im(St(P2,P1)) []","re(St(P2,P2)) []","im(St(P2,P2)) []"
0,0.00393508833826672,0,0.996079670527251,0,0.99607966945041,0,0.00393508148368937,0
0.5,0.00444560900517388,-0.000504676583013008,0.99551012200768,-0.00590980383561401,0.995510121989177,-0.0059098038925498,0.00444537131873091,-0.000504031301424845
1,0.0049173544970742,-0.00166700324548685,0.994895330857837,-0.0111552053098904,0.994895330986473,-0.0111552052303594,0.00491665632120331,-0.00166542551909998
1.5,0.00513590016402787,-0.00303106347029569,0.994391183741335,-0.0164530872757815,0.99439118389645,-0.0164530872039954,0.00513407674397826,-0.00302863447895874
2,0.00521175184086609,-0.00436734414521922,0.993873618308143,-0.0215794567455205,0.993873618466578,-0.0215794566936367,0.00520922038513838,-0.00436340043154004
2.5,0.00522258228433614,-0.00566989315114341,0.993383859002167,-0.0265914932281071,0.993383859146036,-0.0265914931944486,0.00521967071186324,-0.0056642889704932
3,0.0051977523464144,-0.00694762461120035,0.992926131694161,-0.0315353786718262,0.992926131814248,-0.0315353786502754,0.00519465392916452,-0.00694034417468714
3.5,0.00514950381044788,-0.00820752809096881,0.992489733453331,-0.0364398296038999,0.992489733546772,-0.0364398295888702,0.00514633589131552,-0.00819858299703213
4,0.00508355631438207,-0.00945403826194813,0.992060833088829,-0.0413204127736009,0.992060833156379,-0.0413204127614097,0.00508039607546085,-0.00944344154210697
4.5,0.00500286634134328,-0.0106898777836157,0.991626907857145,-0.046184752145507,0.991626907901363,-0.0461847521342573,0.00499976916068468,-0.0106776377466762
5,0.00490910446892778,-0.0119167108761324,0.991177817342448,-0.0510361456267159,0.991177817366696,-0.0510361456157291,0.00490611342982827,-0.0119028302234465
5.5,0.00480329514043643,-0.0131355461319522,0.990705685966926,-0.0558756861338345,0.990705685974874,-0.055875686123164,0.00480044617256681,-0.013120022418958
6,0.00468611771425742,-0.0143469772494669,0.990204484325104,-0.0607034145730587,0.990204484320457,-0.0607034145631005,0.00468344250993979,-0.0143298035941086
6.5,0.00455805831720446,-0.0155513287541176,0.989669611918768,-0.0655189186858607,0.98966961190514,-0.0655189186770855,0.0045555860639328,-0.015532494495524
7,0.00441949102236183,-0.0167487464342919,0.989097558955015,-0.0703216309375438,0.98909755893585,-0.0703216309303638,0.00441724947683886,-0.0167282376802227
7.5,0.00427072340842671,-0.0179392550456363,0.988485650403532,-0.0751109674506605,0.988485650382057,-0.0751109674453367,0.00426873958868357,-0.0179170551136529
8,0.00411202319096859,-0.0191227961505085,0.987831856267877,-0.0798863849432125,0.98783185624708,-0.0798863849398135,0.00411032383815657,-0.0190988859231149
8.5,0.00394363432370737,-0.0202992535798163,0.987134650795114,-0.084647396784824,0.987134650777724,-0.0846473967832395,0.00394224621986816,-0.0202736117937707
9,0.00376578700335728,-0.0214684709818282,0.986392906797514,-0.0893935699326427,0.986392906785998,-0.0893935699325823,0.0037647371960029,-0.0214410744681901
9.5,0.00357870401882099,-0.0226302641875042,0.985605815071257,-0.0941245141083247,0.98560581506782,-0.0941245141093505,0.00357801998319274,-0.0226010880750867
10,0.00338260483912556,-0.0237844301026895,0.984772821939718,-0.0988398689840784,0.984772821946309,-0.09883986898563,0.0033823145973837,-0.0237534479942356
10.5,0.00318473480908577,-0.0249644432346372,0.984000391407986,-0.103578125481186,0.984000391414566,-0.103578125482945,0.00318490269691274,-0.0249319820715863
11,0.00297724099993368,-0.0261431059585515,0.983206626111789,-0.108297633389843,0.983206626118341,-0.108297633391811,0.00297788776894853,-0.0261091758659022
11.5,0.00276012755088217,-0.0273203533002686,0.982392398151152,-0.112999087625277,0.982392398157659,-0.112999087627447,0.00276127372549423,-0.027284964854827
12,0.00253339881177506,-0.028496120194661,0.981558462919446,-0.117683200355047,0.981558462925893,-0.117683200357418,0.00253506467881626,-0.0284592844207507
12.5,0.00229705934542646,-0.0296703414820625,0.980705466358486,-0.122350688300247,0.980705466364859,-0.122350688302811,0.00229926494381172,-0.0296320698469863
13,0.00205111393003907,-0.0308429519047415,0.979833952985078,-0.127002262016952,0.979833952991365,-0.127002262019705,0.00205387904046353,-0.0308032563140426
13.5,0.00179556756169016,-0.032013886103428,0.978944374353315,-0.131638617043971,0.978944374359503,-0.131638617046906,0.00179891169635391,-0.0319727788959332
14,0.00153042545688181,-0.0331830786139475,0.978037097674472,-0.136260426769462,0.97803709768055,-0.136260426772564,0.00153436784925873,-0.0331405725565723
14.5,0.00125569305515716,-0.0343504638639001,0.977112414371016,-0.140868336849026,0.977112414376976,-0.140868336852293,0.00126025264979879,-0.0343065721462548
15,0.000971376021767945,-0.0355159761694352,0.976170548391292,-0.145462960999024,0.976170548397125,-0.14546296100244,0.00097657146415292,-0.0354707123981752
15.5,0.000677480250397128,-0.0366795497320993,0.975211664155718,-0.150044877988373,0.975211664161416,-0.150044877991932,0.000683329876821959,-0.0366329279250577
16,0.000374011865928614,-0.0378411186357539,0.974235874043557,-0.154614629657982,0.974235874049115,-0.154614629661671,0.000380533693450424,-0.0377931532158424
16.5,6.09772272515685E-005,-0.0390006168435999,0.973243245361282,-0.159172719807182,0.973243245366696,-0.159172719810994,6.81889436768834E-005,-0.038951322632458
17,-0.000261617069894082,-0.0401579781952557,0.972233806759809,-0.163719613799593,0.972233806765073,-0.163719613803518,-0.000253698115962028,-0.0401073704066715
17.5,-0.000593764190052568,-0.0413131364039403,0.971207554088699,-0.168255738755432,0.97120755409381,-0.168255738759458,-0.000585120999110109,-0.0412612306370135
18,-0.00093545705515477,-0.0424660250537272,0.970164455691602,-0.172781484212374,0.970164455696559,-0.172781484216489,-0.000926072986633386,-0.042412837285787
18.5,-0.00128668834161758,-0.0436165775968953,0.969104457159306,-0.17729720315213,0.969104457164107,-0.177297203156329,-0.00127654712365258,-0.0435621241761677
19,-0.00164745047742781,-0.0447647273513474,0.968027485565398,-0.181803213304172,0.968027485570041,-0.181803213308443,-0.00163653621655996,-0.0447090249893507
19.5,-0.00201773563923477,-0.0459104074981416,0.966933453215441,-0.186299798651407,0.966933453219927,-0.186299798655739,-0.00200603283003353,-0.0458534732618325
20,-0.00239753574944007,-0.0470535510790651,0.965822260944133,-0.19078721107473,0.965822260948462,-0.190787211079117,-0.00238502928405271,-0.0469954023827106
20.5,-0.00278684247332098,-0.0481940909943499,0.964693800996709,-0.195265672084354,0.964693801000883,-0.195265672088789,-0.00277351765093517,-0.0481347455911227
21,-0.00318564721616224,-0.0493319600004023,0.963547959531323,-0.199735374595269,0.963547959535343,-0.19973537459974,-0.00317148975237974,-0.0492714359737003
21.5,-0.00359394112043612,-0.0504670907076736,0.962384618778512,-0.204196484712709,0.962384618782379,-0.204196484717212,-0.00357893715655305,-0.0504054064621591
22,-0.00401171506302156,-0.051599415578568,0.961203658892559,-0.208649143500555,0.961203658896275,-0.208649143505081,-0.00399585117520457,-0.0515365898309104
22.5,-0.00443895965248003,-0.0527288669254529,0.960004959527725,-0.213093468711794,0.960004959531294,-0.213093468716335,-0.00442222286083938,-0.052664918694783
23,-0.00487566522639471,-0.0538553769087198,0.958788401170187,-0.217529556465223,0.95878840117361,-0.217529556469775,-0.00485804300393822,-0.0537903255067862
23.5,-0.00532182184879387,-0.054978877534948,0.957553866254161,-0.221957482856954,0.957553866257443,-0.22195748286151,-0.00530330213026436,-0.054912742555949
24,-0.00577741930764869,-0.056099300655077,0.956301240088365,-0.226377305498643,0.956301240091507,-0.226377305503197,-0.00575799049822756,-0.0560321019652021
24.5,-0.00624244711248911,-0.0572165779627056,0.955030411616485,-0.230789064977452,0.955030411619492,-0.230789064981999,-0.00622209809636332,-0.0571483356893427
25,-0.00671689449211388,-0.0583306409923878,0.953741274033122,-0.235192786234812,0.953741274035997,-0.235192786239347,-0.00669561464089818,-0.0582613755130068
25.5,-0.00720075039244727,-0.0594414211180161,0.952433725274363,-0.239588479863087,0.952433725277109,-0.239588479867605,-0.00717852957344356,-0.0593711530487231
26,-0.00769400347450977,-0.0605488495512119,0.951107668400163,-0.243976143320547,0.951107668402784,-0.243976143325045,-0.00767083205881169,-0.0604775997349631
26.5,-0.00819664211257171,-0.0616528573397774,0.949763011883716,-0.248355762066216,0.949763011886216,-0.248355762070688,-0.00817251098297722,-0.0615806468342361
27,-0.008708654392454,-0.0627533753661531,0.948399669821277,-0.252727310616954,0.948399669823659,-0.252727310621398,-0.00868355495120021,-0.0626802254312051
27.5,-0.00923002811001639,-0.0638503343458758,0.947017562074282,-0.257090753529712,0.947017562076551,-0.257090753534125,-0.00920395228630272,-0.0637762664307613
28,-0.00976075076985772,-0.0649436648260409,0.945616614354134,-0.261446046312396,0.945616614356294,-0.261446046316775,-0.00973369102717375,-0.0648687005561777
28.5,-0.0103008095842163,-0.0660332971837985,0.944196758258752,-0.265793136266889,0.944196758260806,-0.265793136271229,-0.010272758927407,-0.0659574583471145
29,-0.0108501914721184,-0.0671191616247309,0.942757931268764,-0.270131963268097,0.942757931270715,-0.270131963272398,-0.0108211434542361,-0.0670424701577192
29.5,-0.0114088830587643,-0.0682011881812485,0.94130007671024,-0.274462460482792,0.941300076712093,-0.274462460487051,-0.0113788317876451,-0.068123666154579
30,-0.0119768706751996,-0.0692793067109134,0.939823143689878,-0.278784555032123,0.939823143691636,-0.278784555036337,-0.011945810819763,-0.0692009763146464
30.5,-0.0125541403582594,-0.0703534468946603,0.93832708700778,-0.283098168601502,0.938327087009446,-0.28309816860567,-0.012522067154513,-0.0702743304230546
31,-0.0131406778508329,-0.0714235382349275,0.93681186705222,-0.287403218001531,0.936811867053799,-0.287403218005651,-0.0131075871075576,-0.0713436580708313
31.5,-0.0137364686024507,-0.0724895100536571,0.935277449680181,-0.291699615683463,0.935277449681676,-0.291699615687533,-0.0137023567065499,-0.0724088886524705
32,-0.0143414977702197,-0.07355129149013,0.933723806086884,-0.295987270212512,0.933723806088299,-0.295987270216531,-0.0143063616917036,-0.073469951363331
32.5,-0.0149557502201295,-0.0746088114986239,0.932150912667048,-0.300266086702204,0.932150912668385,-0.30026608670617,-0.0149195875167198,-0.0745267751968584
33,-0.015579210528756,-0.0756619988458551,0.930558750870196,-0.304535967212747,0.93055875087146,-0.30453596721666,-0.0155420193500694,-0.0755792889415741
33.5,-0.0162118629853664,-0.0767107821081643,0.928947307051988,-0.308796811116206,0.928947307053182,-0.308796811120066,-0.0161736420766644,-0.0766274211778057
34,-0.0168536915944682,-0.077755089668414,0.927316572323196,-0.313048515431123,0.927316572324322,-0.313048515434927,-0.0168144402999347,-0.0776711002741202
34.5,-0.0175046800788146,-0.0787948497125497,0.925666542397704,-0.317290975129017,0.925666542398766,-0.317290975132766,-0.017464398344329,-0.0787102543834148
35,-0.0181648118828904,-0.0798299902257995,0.92399721744067,-0.321524083415051,0.923997217441671,-0.321524083418744,-0.018123500258265,-0.0797448114386459
35.5,-0.0188340701768993,-0.0808604389884275,0.922308601917778,-0.32574773198495,0.922308601918721,-0.325747731988587,-0.0187917298175423,-0.0807746991480962
36,-0.0195124378612768,-0.0818861235710164,0.920600704446344,-0.329961811260145,0.920600704447232,-0.329961811263725,-0.0194690705292418,-0.0817998449901793
36.5,-0.0201998975717534,-0.0829069713292097,0.918873537648874,-0.334166210602931,0.91887353764971,-0.334166210606454,-0.0201555056361334,-0.0828201762076934
37,-0.0208964316849884,-0.0839229093978529,0.917127118009582,-0.338360818513316,0.917127118010368,-0.338360818516782,-0.0208510181216059,-0.0838356198014725
37.5,-0.0216020223247827,-0.0849338646844509,0.915361465734218,-0.34254552280907,0.915361465734958,-0.34254552281248,-0.0215555907151372,-0.0848461025233584
38,-0.0223166513689201,-0.0859397638618826,0.91357660461352,-0.346720210790408,0.913576604614215,-0.346720210793761,-0.0222692058983268,-0.0858515508684303
38.5,-0.0230403004566184,-0.0869405333602837,0.911772561890466,-0.350884769390585,0.91177256189112,-0.350884769393881,-0.0229918459114991,-0.0868518910664013
39,-0.0237729509966366,-0.0879360993580027,0.909949368131505,-0.355039085313595,0.90994936813212,-0.355039085316835,-0.0237234927608942,-0.0878470490721026
39.5,-0.0245145841760392,-0.0889263877715376,0.90810705710183,-0.359183045160071,0.908107057102409,-0.359183045163255,-0.0244641282264547,-0.088836950554956
40,-0.0252651809696323,-0.0899113242443506,0.906245665644746,-0.363316535542374,0.906245665645291,-0.363316535545502,-0.0252137338702201,-0.0898215208873279
40.5,-0.0260247221500741,-0.0908908341344397,0.904365233565147,-0.367439443189797,0.904365233565658,-0.367439443192869,-0.0259722910453273,-0.0908006851316676
41,-0.0267931882986787,-0.0918648425005431,0.902465803517065,-0.371551655044715,0.902465803517547,-0.371551655047733,-0.0267397809056251,-0.0917743680262966
41.5,-0.0275705598168978,-0.0928332740868529,0.900547420895261,-0.37565305835045,0.900547420895715,-0.375653058353413,-0.0275161844158864,-0.0927424939697223
42,-0.028356816938481,-0.0937960533060751,0.898610133730764,-0.379743540731554,0.898610133731192,-0.379743540734462,-0.0283014823626222,-0.0937049870033453
42.5,-0.0291519397423077,-0.0947531042206977,0.8966539925903,-0.383822990267152,0.896653992590705,-0.383822990270008,-0.02909565536547,-0.0946617707923911
43,-0.029955908165859,-0.0957043505222839,0.894679050479494,-0.387891295557934,0.894679050479877,-0.387891295560736,-0.0298986838891337,-0.09561276860493
43.5,-0.0307687020193121,-0.0966497155086132,0.89268536274975,-0.391948345787313,0.892685362750113,-0.391948345790064,-0.0307105482558426,-0.0965579032887804
44,-0.0315903010002088,-0.0975891220584708,0.890672987008688,-0.395994030777284,0.890672987009033,-0.395994030779982,-0.0315312286582876,-0.097497097246132
44.5,-0.0324206847086525,-0.0985224926038819,0.888641983034033,-0.400028241039367,0.888641983034361,-0.400028241042016,-0.032360705172967,-0.098430272405678
45,-0.0332598326629639,-0.0994497490995516,0.88659241269081,-0.40405086782111,0.886592412691123,-0.404050867823709,-0.0331989577738885,-0.0993573501920264
45.5,-0.034107724315719,-0.100370812989277,0.884524339851752,-0.408061803148481,0.884524339852052,-0.40806180315103,-0.0340459663465236,-0.100278251492195
46,-0.0349643390700615,-0.101285605169062,0.882437830320777,-0.412060939864499,0.882437830321065,-0.412060939866999,-0.0349017107019218,-0.101192896618897
46.5,-0.0358296562961722,-0.102194045946661,0.880332951759416,-0.416048171664432,0.880332951759695,-0.416048171666886,-0.0357661705908491,-0.10210120527039
47,-0.0367036553477529,-0.103096054997257,0.878209773616079,-0.420023393127835,0.878209773616349,-0.420023393130242,-0.036639325717816,-0.103003096486592
47.5,-0.0375863155783392,-0.103991551314945,0.876068367058026,-0.423986499747678,0.876068367058289,-0.423986499750039,-0.0375211557547951,-0.103898488601161
48,-0.0384776163572514,-0.104880453159697,0.87390880490594,-0.427937387956829,0.873908804906197,-0.427937387959143,-0.0384116403544432,-0.104787299189238
48.5,-0.0393775370849271,-0.105762677999449,0.871731161570982,-0.431875955152079,0.871731161571234,-0.43187595515435,-0.0393107591625739,-0.105669445010516
49,-0.0402860572073666,-0.106638142446933,0.869535512994214,-0.43580209971594,0.869535512994463,-0.435802099718167,-0.0402184918296016,-0.106544841947264
49.5,-0.0412031562293496,-0.107506762190848,0.867321936588296,-0.439715721036355,0.867321936588543,-0.43971572103854,-0.0411348180206268,-0.107413404936976
50,-0.0421288137260532,-0.108368451920996,0.865090511181341,-0.443616719524536,0.865090511181587,-0.443616719526679,-0.0420597174237975,-0.108275047899234
50.5,-0.0430630093526254,-0.109223125246897,0.862841316962833,-0.447504996631038,0.862841316963079,-0.44750499663314,-0.0429931697565014,-0.109129683656396
51,-0.0440057228512108,-0.11007069460949,0.860574435431519,-0.451380454860234,0.860574435431766,-0.451380454862297,-0.0439351547689051,-0.109977223847708
51.5,-0.0449569340548466,-0.11091107118543,0.858289949345176,-0.455242997783306,0.858289949345426,-0.45524299778533,-0.044885652244267,-0.11081757883641
52,-0.0459166228875745,-0.111744164783532,0.855987942672171,-0.459092530049872,0.855987942672423,-0.459092530051858,-0.0458446419953896,-0.111650657609425
52.5,-0.0468847693600123,-0.112569883732893,0.853668500544719,-0.462928957398356,0.853668500544975,-0.462928957400305,-0.0468121038564768,-0.112476367669198
53,-0.0478613535595172,-0.113388134762214,0.851331709213783,-0.466752186665189,0.851331709214044,-0.466752186667102,-0.0477880176695676,-0.113294614917263
53.5,-0.0488463556339989,-0.114198822869884,0.848977656005509,-0.470562125792948,0.848977656005776,-0.470562125794826,-0.0487723632646284,-0.114105303529151
54,-0.0498397557682649,-0.11500185118437,0.846606429279151,-0.474358683837489,0.846606429279425,-0.474358683839333,-0.0497651204322371,-0.114908335820225
54.5,-0.0508415341516824,-0.115797120814519,0.844218118386397,-0.478141770974175,0.844218118386678,-0.478141770975986,-0.0507662688877034,-0.115703612102116
55,-0.0518516709357736,-0.116584530689417,0.841812813632042,-0.48191129850324,0.841812813632331,-0.481911298505019,-0.0517757882252954,-0.116491030529438
55.5,-0.0528701461802079,-0.117363977387483,0.839390606235941,-0.485667178854382,0.839390606236239,-0.48566717885613,-0.0527936578611217,-0.117270486936541
56,-0.0538969397854608,-0.118135354954606,0.836951588296179,-0.48940932559061,0.836951588296487,-0.489409325592328,-0.0538198569630279,-0.118041874664143
56.5,-0.0549320314102586,-0.118898554711199,0.834495852753414,-0.493137653411419,0.834495852753732,-0.493137653413107,-0.0548543643657238,-0.118805084375782
57,-0.0559754003716694,-0.11965346504819,0.83202349335632,-0.496852078155332,0.832023493356649,-0.496852078156992,-0.0558971584691349,-0.119560003864136
57.5,-0.0570270255255561,-0.120399971212159,0.829534604628098,-0.500552516801863,0.829534604628438,-0.500552516803494,-0.0569482171178254,-0.120306517847486
58,-0.0580868851248209,-0.121137955079986,0.827029281833998,-0.504238887472918,0.827029281834349,-0.504238887474523,-0.0580075174590801,-0.121044507756697
58.5,-0.0591549566526958,-0.121867294923682,0.824507620949798,-0.507911109433702,0.824507620950162,-0.507911109435281,-0.0590750357770908,-0.121773851513407
59,-0.0602312166280614,-0.122587865166321,0.821969718631226,-0.511569103093142,0.821969718631602,-0.511569103094696,-0.0601507473004186,-0.122494423300372
59.5,-0.0613156403795848,-0.123299536130391,0.819415672184234,-0.515212790003864,0.819415672184623,-0.515212790005395,-0.0612346259797559,-0.123206093325225
60,-0.0624082017852048,-0.124002173780272,0.816845579536146,-0.51884209286176,0.816845579536548,-0.518842092863267,-0.0623266442327693,-0.123908727579341
60.5,-0.0635088729733378,-0.124695639461061,0.814259539207587,-0.52245693550516,0.814259539208004,-0.522456935506645,-0.0634267726526584,-0.124602187593932
61,-0.0646176239819601,-0.125379789636516,0.811657650285201,-0.52605724291364,0.811657650285632,-0.526057242915104,-0.0645349796768919,-0.125286330196038
61.5,-0.0657344223716166,-0.126054475629578,0.809040012395094,-0.529642941206484,0.809040012395539,-0.529642941207927,-0.065651231212481,-0.125961007267676
62,-0.0668592327883203,-0.12671954336965,0.806406725676993,-0.533213957640828,0.806406725677453,-0.533213957642253,-0.0667754902140802,-0.126626065512137
62.5,-0.0679920164722926,-0.127374833151664,0.803757890759077,-0.536770220609499,0.803757890759552,-0.536770220610905,-0.0679077162112224,-0.127281346232139
